<Qucs Dataset 0.0.19>
<indep VDS 1>
  +1.00000000000000000000e+00
</indep>
<indep VGS 21>
  +0.00000000000000000000e+00
  +1.00000000000000005551e-01
  +2.00000000000000011102e-01
  +3.00000000000000044409e-01
  +4.00000000000000022204e-01
  +5.00000000000000000000e-01
  +6.00000000000000088818e-01
  +7.00000000000000066613e-01
  +8.00000000000000044409e-01
  +9.00000000000000022204e-01
  +1.00000000000000000000e+00
  +1.10000000000000008882e+00
  +1.20000000000000017764e+00
  +1.30000000000000004441e+00
  +1.40000000000000013323e+00
  +1.50000000000000000000e+00
  +1.60000000000000008882e+00
  +1.70000000000000017764e+00
  +1.80000000000000004441e+00
  +1.90000000000000013323e+00
  +2.00000000000000000000e+00
</indep>
<dep V1.I VGS>
  +0.00000000000000000000e+00
  +0.00000000000000000000e+00
  +0.00000000000000000000e+00
  +0.00000000000000000000e+00
  +0.00000000000000000000e+00
  +0.00000000000000000000e+00
  +0.00000000000000000000e+00
  +0.00000000000000000000e+00
  +0.00000000000000000000e+00
  +0.00000000000000000000e+00
  +0.00000000000000000000e+00
  +0.00000000000000000000e+00
  +0.00000000000000000000e+00
  +0.00000000000000000000e+00
  +0.00000000000000000000e+00
  +0.00000000000000000000e+00
  +0.00000000000000000000e+00
  +0.00000000000000000000e+00
  +0.00000000000000000000e+00
  +0.00000000000000000000e+00
  +0.00000000000000000000e+00
</dep>
<dep V2.I VGS>
  -3.96816818967867984209e-13
  -3.96816818967867984209e-13
  -3.96816818967867984209e-13
  -3.96816818967867984209e-13
  -3.96816818967867984209e-13
  -3.96816818967867984209e-13
  -3.96816818967867984209e-13
  -3.96816818967867984209e-13
  -3.96816818967867984209e-13
  -5.00000003968168252322e-05
  -2.00000000396816784987e-04
  -4.50000000396817007031e-04
  -8.00000000396817491366e-04
  -1.25000000039681650327e-03
  -1.80000000039681751218e-03
  -2.45000000039681531394e-03
  -3.20000000039681598007e-03
  -4.05000000039681777586e-03
  -5.00000000039681549713e-03
  -6.00000000039681638531e-03
  -7.00000000039681727348e-03
</dep>
<dep Pr1.I VGS>
  +3.96816818967867984209e-13
  +3.96816818967867984209e-13
  +3.96816818967867984209e-13
  +3.96816818967867984209e-13
  +3.96816818967867984209e-13
  +3.96816818967867984209e-13
  +3.96816818967867984209e-13
  +3.96816818967867984209e-13
  +3.96816818967867984209e-13
  +5.00000003968168252322e-05
  +2.00000000396816784987e-04
  +4.50000000396817007031e-04
  +8.00000000396817491366e-04
  +1.25000000039681650327e-03
  +1.80000000039681751218e-03
  +2.45000000039681531394e-03
  +3.20000000039681598007e-03
  +4.05000000039681777586e-03
  +5.00000000039681549713e-03
  +6.00000000039681638531e-03
  +7.00000000039681727348e-03
</dep>
<dep _net0.V VGS>
  +0.00000000000000000000e+00
  +1.00000000000000005551e-01
  +2.00000000000000011102e-01
  +3.00000000000000044409e-01
  +4.00000000000000022204e-01
  +5.00000000000000000000e-01
  +6.00000000000000088818e-01
  +7.00000000000000066613e-01
  +8.00000000000000044409e-01
  +9.00000000000000022204e-01
  +1.00000000000000000000e+00
  +1.10000000000000008882e+00
  +1.20000000000000017764e+00
  +1.30000000000000004441e+00
  +1.40000000000000013323e+00
  +1.50000000000000000000e+00
  +1.60000000000000008882e+00
  +1.70000000000000017764e+00
  +1.80000000000000004441e+00
  +1.90000000000000013323e+00
  +2.00000000000000000000e+00
</dep>
<dep _net2.V VGS>
  +1.00000000000000000000e+00
  +1.00000000000000000000e+00
  +1.00000000000000000000e+00
  +1.00000000000000000000e+00
  +1.00000000000000000000e+00
  +1.00000000000000000000e+00
  +1.00000000000000000000e+00
  +1.00000000000000000000e+00
  +1.00000000000000000000e+00
  +1.00000000000000000000e+00
  +1.00000000000000000000e+00
  +1.00000000000000000000e+00
  +1.00000000000000000000e+00
  +1.00000000000000000000e+00
  +1.00000000000000000000e+00
  +1.00000000000000000000e+00
  +1.00000000000000000000e+00
  +1.00000000000000000000e+00
  +1.00000000000000000000e+00
  +1.00000000000000000000e+00
  +1.00000000000000000000e+00
</dep>
<dep _net1.V VGS>
  +1.00000000000000000000e+00
  +1.00000000000000000000e+00
  +1.00000000000000000000e+00
  +1.00000000000000000000e+00
  +1.00000000000000000000e+00
  +1.00000000000000000000e+00
  +1.00000000000000000000e+00
  +1.00000000000000000000e+00
  +1.00000000000000000000e+00
  +1.00000000000000000000e+00
  +1.00000000000000000000e+00
  +1.00000000000000000000e+00
  +1.00000000000000000000e+00
  +1.00000000000000000000e+00
  +1.00000000000000000000e+00
  +1.00000000000000000000e+00
  +1.00000000000000000000e+00
  +1.00000000000000000000e+00
  +1.00000000000000000000e+00
  +1.00000000000000000000e+00
  +1.00000000000000000000e+00
</dep>
