<Qucs Dataset 0.0.24>
<indep v(v-sweep) 501>
0.000000000000e+00
9.980040000000e-03
1.996008000000e-02
2.994012000000e-02
3.992016000000e-02
4.990020000000e-02
5.988024000000e-02
6.986028000000e-02
7.984032000000e-02
8.982036000000e-02
9.980040000000e-02
1.097804400000e-01
1.197604800000e-01
1.297405200000e-01
1.397205600000e-01
1.497006000000e-01
1.596806400000e-01
1.696606800000e-01
1.796407200000e-01
1.896207600000e-01
1.996008000000e-01
2.095808400000e-01
2.195608800000e-01
2.295409200000e-01
2.395209600000e-01
2.495010000000e-01
2.594810400000e-01
2.694610800000e-01
2.794411200000e-01
2.894211600000e-01
2.994012000000e-01
3.093812400000e-01
3.193612800000e-01
3.293413200000e-01
3.393213600000e-01
3.493014000000e-01
3.592814400000e-01
3.692614800000e-01
3.792415200000e-01
3.892215600000e-01
3.992016000000e-01
4.091816400000e-01
4.191616800000e-01
4.291417200000e-01
4.391217600000e-01
4.491018000000e-01
4.590818400000e-01
4.690618800000e-01
4.790419200000e-01
4.890219600000e-01
4.990020000000e-01
5.089820400000e-01
5.189620800000e-01
5.289421200000e-01
5.389221600000e-01
5.489022000000e-01
5.588822400000e-01
5.688622800000e-01
5.788423200000e-01
5.888223600000e-01
5.988024000000e-01
6.087824400000e-01
6.187624800000e-01
6.287425200000e-01
6.387225600000e-01
6.487026000000e-01
6.586826400000e-01
6.686626800000e-01
6.786427200000e-01
6.886227600000e-01
6.986028000000e-01
7.085828400000e-01
7.185628800000e-01
7.285429200000e-01
7.385229600000e-01
7.485030000000e-01
7.584830400000e-01
7.684630800000e-01
7.784431200000e-01
7.884231600000e-01
7.984032000000e-01
8.083832400000e-01
8.183632800000e-01
8.283433200000e-01
8.383233600000e-01
8.483034000000e-01
8.582834400000e-01
8.682634800000e-01
8.782435200000e-01
8.882235600000e-01
8.982036000000e-01
9.081836400000e-01
9.181636800000e-01
9.281437200000e-01
9.381237600000e-01
9.481038000000e-01
9.580838400000e-01
9.680638800000e-01
9.780439200000e-01
9.880239600000e-01
9.980040000000e-01
1.007984040000e+00
1.017964080000e+00
1.027944120000e+00
1.037924160000e+00
1.047904200000e+00
1.057884240000e+00
1.067864280000e+00
1.077844320000e+00
1.087824360000e+00
1.097804400000e+00
1.107784440000e+00
1.117764480000e+00
1.127744520000e+00
1.137724560000e+00
1.147704600000e+00
1.157684640000e+00
1.167664680000e+00
1.177644720000e+00
1.187624760000e+00
1.197604800000e+00
1.207584840000e+00
1.217564880000e+00
1.227544920000e+00
1.237524960000e+00
1.247505000000e+00
1.257485040000e+00
1.267465080000e+00
1.277445120000e+00
1.287425160000e+00
1.297405200000e+00
1.307385240000e+00
1.317365280000e+00
1.327345320000e+00
1.337325360000e+00
1.347305400000e+00
1.357285440000e+00
1.367265480000e+00
1.377245520000e+00
1.387225560000e+00
1.397205600000e+00
1.407185640000e+00
1.417165680000e+00
1.427145720000e+00
1.437125760000e+00
1.447105800000e+00
1.457085840000e+00
1.467065880000e+00
1.477045920000e+00
1.487025960000e+00
1.497006000000e+00
1.506986040000e+00
1.516966080000e+00
1.526946120000e+00
1.536926160000e+00
1.546906200000e+00
1.556886240000e+00
1.566866280000e+00
1.576846320000e+00
1.586826360000e+00
1.596806400000e+00
1.606786440000e+00
1.616766480000e+00
1.626746520000e+00
1.636726560000e+00
1.646706600000e+00
1.656686640000e+00
1.666666680000e+00
1.676646720000e+00
1.686626760000e+00
1.696606800000e+00
1.706586840000e+00
1.716566880000e+00
1.726546920000e+00
1.736526960000e+00
1.746507000000e+00
1.756487040000e+00
1.766467080000e+00
1.776447120000e+00
1.786427160000e+00
1.796407200000e+00
1.806387240000e+00
1.816367280000e+00
1.826347320000e+00
1.836327360000e+00
1.846307400000e+00
1.856287440000e+00
1.866267480000e+00
1.876247520000e+00
1.886227560000e+00
1.896207600000e+00
1.906187640000e+00
1.916167680000e+00
1.926147720000e+00
1.936127760000e+00
1.946107800000e+00
1.956087840000e+00
1.966067880000e+00
1.976047920000e+00
1.986027960000e+00
1.996008000000e+00
2.005988040000e+00
2.015968080000e+00
2.025948120000e+00
2.035928160000e+00
2.045908200000e+00
2.055888240000e+00
2.065868280000e+00
2.075848320000e+00
2.085828360000e+00
2.095808400000e+00
2.105788440000e+00
2.115768480000e+00
2.125748520000e+00
2.135728560000e+00
2.145708600000e+00
2.155688640000e+00
2.165668680000e+00
2.175648720000e+00
2.185628760000e+00
2.195608800000e+00
2.205588840000e+00
2.215568880000e+00
2.225548920000e+00
2.235528960000e+00
2.245509000000e+00
2.255489040000e+00
2.265469080000e+00
2.275449120000e+00
2.285429160000e+00
2.295409200000e+00
2.305389240000e+00
2.315369280000e+00
2.325349320000e+00
2.335329360000e+00
2.345309400000e+00
2.355289440000e+00
2.365269480000e+00
2.375249520000e+00
2.385229560000e+00
2.395209600000e+00
2.405189640000e+00
2.415169680000e+00
2.425149720000e+00
2.435129760000e+00
2.445109800000e+00
2.455089840000e+00
2.465069880000e+00
2.475049920000e+00
2.485029960000e+00
2.495010000000e+00
2.504990040000e+00
2.514970080000e+00
2.524950120000e+00
2.534930160000e+00
2.544910200000e+00
2.554890240000e+00
2.564870280000e+00
2.574850320000e+00
2.584830360000e+00
2.594810400000e+00
2.604790440000e+00
2.614770480000e+00
2.624750520000e+00
2.634730560000e+00
2.644710600000e+00
2.654690640000e+00
2.664670680000e+00
2.674650720000e+00
2.684630760000e+00
2.694610800000e+00
2.704590840000e+00
2.714570880000e+00
2.724550920000e+00
2.734530960000e+00
2.744511000000e+00
2.754491040000e+00
2.764471080000e+00
2.774451120000e+00
2.784431160000e+00
2.794411200000e+00
2.804391240000e+00
2.814371280000e+00
2.824351320000e+00
2.834331360000e+00
2.844311400000e+00
2.854291440000e+00
2.864271480000e+00
2.874251520000e+00
2.884231560000e+00
2.894211600000e+00
2.904191640000e+00
2.914171680000e+00
2.924151720000e+00
2.934131760000e+00
2.944111800000e+00
2.954091840000e+00
2.964071880000e+00
2.974051920000e+00
2.984031960000e+00
2.994012000000e+00
3.003992040000e+00
3.013972080000e+00
3.023952120000e+00
3.033932160000e+00
3.043912200000e+00
3.053892240000e+00
3.063872280000e+00
3.073852320000e+00
3.083832360000e+00
3.093812400000e+00
3.103792440000e+00
3.113772480000e+00
3.123752520000e+00
3.133732560000e+00
3.143712600000e+00
3.153692640000e+00
3.163672680000e+00
3.173652720000e+00
3.183632760000e+00
3.193612800000e+00
3.203592840000e+00
3.213572880000e+00
3.223552920000e+00
3.233532960000e+00
3.243513000000e+00
3.253493040000e+00
3.263473080000e+00
3.273453120000e+00
3.283433160000e+00
3.293413200000e+00
3.303393240000e+00
3.313373280000e+00
3.323353320000e+00
3.333333360000e+00
3.343313400000e+00
3.353293440000e+00
3.363273480000e+00
3.373253520000e+00
3.383233560000e+00
3.393213600000e+00
3.403193640000e+00
3.413173680000e+00
3.423153720000e+00
3.433133760000e+00
3.443113800000e+00
3.453093840000e+00
3.463073880000e+00
3.473053920000e+00
3.483033960000e+00
3.493014000000e+00
3.502994040000e+00
3.512974080000e+00
3.522954120000e+00
3.532934160000e+00
3.542914200000e+00
3.552894240000e+00
3.562874280000e+00
3.572854320000e+00
3.582834360000e+00
3.592814400000e+00
3.602794440000e+00
3.612774480000e+00
3.622754520000e+00
3.632734560000e+00
3.642714600000e+00
3.652694640000e+00
3.662674680000e+00
3.672654720000e+00
3.682634760000e+00
3.692614800000e+00
3.702594840000e+00
3.712574880000e+00
3.722554920000e+00
3.732534960000e+00
3.742515000000e+00
3.752495040000e+00
3.762475080000e+00
3.772455120000e+00
3.782435160000e+00
3.792415200000e+00
3.802395240000e+00
3.812375280000e+00
3.822355320000e+00
3.832335360000e+00
3.842315400000e+00
3.852295440000e+00
3.862275480000e+00
3.872255520000e+00
3.882235560000e+00
3.892215600000e+00
3.902195640000e+00
3.912175680000e+00
3.922155720000e+00
3.932135760000e+00
3.942115800000e+00
3.952095840000e+00
3.962075880000e+00
3.972055920000e+00
3.982035960000e+00
3.992016000000e+00
4.001996040000e+00
4.011976080000e+00
4.021956120000e+00
4.031936160000e+00
4.041916200000e+00
4.051896240000e+00
4.061876280000e+00
4.071856320000e+00
4.081836360000e+00
4.091816400000e+00
4.101796440000e+00
4.111776480000e+00
4.121756520000e+00
4.131736560000e+00
4.141716600000e+00
4.151696640000e+00
4.161676680000e+00
4.171656720000e+00
4.181636760000e+00
4.191616800000e+00
4.201596840000e+00
4.211576880000e+00
4.221556920000e+00
4.231536960000e+00
4.241517000000e+00
4.251497040000e+00
4.261477080000e+00
4.271457120000e+00
4.281437160000e+00
4.291417200000e+00
4.301397240000e+00
4.311377280000e+00
4.321357320000e+00
4.331337360000e+00
4.341317400000e+00
4.351297440000e+00
4.361277480000e+00
4.371257520000e+00
4.381237560000e+00
4.391217600000e+00
4.401197640000e+00
4.411177680000e+00
4.421157720000e+00
4.431137760000e+00
4.441117800000e+00
4.451097840000e+00
4.461077880000e+00
4.471057920000e+00
4.481037960000e+00
4.491018000000e+00
4.500998040000e+00
4.510978080000e+00
4.520958120000e+00
4.530938160000e+00
4.540918200000e+00
4.550898240000e+00
4.560878280000e+00
4.570858320000e+00
4.580838360000e+00
4.590818400000e+00
4.600798440000e+00
4.610778480000e+00
4.620758520000e+00
4.630738560000e+00
4.640718600000e+00
4.650698640000e+00
4.660678680000e+00
4.670658720000e+00
4.680638760000e+00
4.690618800000e+00
4.700598840000e+00
4.710578880000e+00
4.720558920000e+00
4.730538960000e+00
4.740519000000e+00
4.750499040000e+00
4.760479080000e+00
4.770459120000e+00
4.780439160000e+00
4.790419200000e+00
4.800399240000e+00
4.810379280000e+00
4.820359320000e+00
4.830339360000e+00
4.840319400000e+00
4.850299440000e+00
4.860279480000e+00
4.870259520000e+00
4.880239560000e+00
4.890219600000e+00
4.900199640000e+00
4.910179680000e+00
4.920159720000e+00
4.930139760000e+00
4.940119800000e+00
4.950099840000e+00
4.960079880000e+00
4.970059920000e+00
4.980039960000e+00
4.990020000000e+00
</indep>
<dep i(pr1) v(v-sweep)>
5.010001094541e-12
5.010001094541e-12
5.010001094541e-12
5.010001094541e-12
5.010001094541e-12
5.010001094541e-12
5.010001094541e-12
5.010001094541e-12
5.010001094541e-12
5.010001094541e-12
5.010001094541e-12
5.010001094541e-12
5.010001094541e-12
5.010001094541e-12
5.010001094541e-12
5.010001094541e-12
5.010001094541e-12
5.010001094541e-12
5.010001094541e-12
5.010001094541e-12
5.010001094541e-12
5.010001094541e-12
5.010001094541e-12
5.010001094541e-12
5.010001094541e-12
5.010001094541e-12
5.010001094541e-12
5.010001094541e-12
5.010001094541e-12
5.010001094541e-12
5.010001094541e-12
5.010001094541e-12
5.010001094541e-12
5.010001094541e-12
5.010001094541e-12
5.010001094541e-12
5.010001094541e-12
5.010001094541e-12
5.010001094541e-12
5.010001094541e-12
5.010001094541e-12
5.010001094541e-12
5.010001094541e-12
5.010001094541e-12
5.010001094541e-12
5.010001094541e-12
5.010001094541e-12
5.010001094541e-12
5.010001094541e-12
5.010001094541e-12
5.010001094541e-12
5.010001094541e-12
5.010001094541e-12
5.010001094541e-12
5.010001094541e-12
5.010001094541e-12
5.010001094541e-12
5.010001094541e-12
5.010001094541e-12
5.010001094541e-12
5.010001094541e-12
5.010001094541e-12
5.010001094541e-12
5.010001094541e-12
5.010001094541e-12
5.010001094541e-12
5.010001094541e-12
5.010001094541e-12
5.010001094541e-12
5.010001094541e-12
5.010001094541e-12
5.010001094541e-12
5.010001094541e-12
5.010001094541e-12
5.010001094541e-12
5.010001094541e-12
5.010001094541e-12
5.010001094541e-12
5.010001094541e-12
5.010001094541e-12
5.010001094541e-12
3.513985743133e-07
1.686055270950e-06
4.016723951103e-06
7.343404614776e-06
1.166609726197e-05
1.698480189267e-05
2.329951850690e-05
3.061024710465e-05
3.891698768591e-05
4.821974025069e-05
5.851850479899e-05
6.981328133081e-05
8.210406984614e-05
9.539087034499e-05
1.096736828274e-04
1.249525072933e-04
1.412273437427e-04
1.584981921756e-04
1.767650525920e-04
1.960279249920e-04
2.162868093755e-04
2.375417057425e-04
2.597926140930e-04
2.830395344270e-04
3.072824667446e-04
3.325214110456e-04
3.587563673302e-04
3.859873355983e-04
4.142143158499e-04
4.434373080851e-04
4.736563123037e-04
5.048713285059e-04
5.370823566916e-04
5.702893968608e-04
6.044924490136e-04
6.396915131498e-04
6.758865892696e-04
7.130776773729e-04
7.512647774597e-04
7.904478895300e-04
8.306270135838e-04
8.718021496212e-04
9.139732976420e-04
9.571404576464e-04
1.001303629634e-03
1.046462813606e-03
1.092618009561e-03
1.139769217499e-03
1.187916437421e-03
1.237059669327e-03
1.287198913216e-03
1.338334169088e-03
1.390465436944e-03
1.443592716784e-03
1.497716008607e-03
1.552835312414e-03
1.608950628204e-03
1.666061955977e-03
1.724169295734e-03
1.783272647475e-03
1.843372011199e-03
1.904467386907e-03
1.966558774598e-03
2.029646174273e-03
2.093729585931e-03
2.158809009573e-03
2.224884445198e-03
2.291955892807e-03
2.360023352400e-03
2.429086823975e-03
2.499146307535e-03
2.570201803078e-03
2.642253310604e-03
2.715300830114e-03
2.789344361608e-03
2.864383905085e-03
2.940419460545e-03
3.017451027989e-03
3.095478607417e-03
3.174502198828e-03
3.254521802222e-03
3.335537417600e-03
3.417549044962e-03
3.500556684307e-03
3.584560335636e-03
3.669559998948e-03
3.755555674243e-03
3.842547361523e-03
3.930535060785e-03
4.019518772031e-03
4.109498495261e-03
4.200474230474e-03
4.292445977671e-03
4.385413736852e-03
4.479377508015e-03
4.574337291163e-03
4.670293086294e-03
4.767244893408e-03
4.865192712506e-03
4.964136543587e-03
5.064076386652e-03
5.165012241701e-03
5.266944108732e-03
5.369871987748e-03
5.473795878747e-03
5.578715781729e-03
5.684631696695e-03
5.791543623645e-03
5.899451562578e-03
6.008355513495e-03
6.118255476395e-03
6.229151451278e-03
6.341043438146e-03
6.453931436996e-03
6.567815447830e-03
6.682695470648e-03
6.798571505449e-03
6.915443552234e-03
7.033311611002e-03
7.152175681754e-03
7.272035764489e-03
7.392891859208e-03
7.514743965910e-03
7.625813242173e-03
7.710908052080e-03
7.780101489037e-03
7.839736461150e-03
7.892436729530e-03
7.939810249561e-03
7.982954370655e-03
8.022641306400e-03
8.059437237010e-03
8.093771594531e-03
8.125979043016e-03
8.156326269479e-03
8.185029786093e-03
8.212268165994e-03
8.238190698675e-03
8.262923665878e-03
8.286574990722e-03
8.309237746942e-03
8.330992851890e-03
8.351911163762e-03
8.372055136444e-03
8.391480140828e-03
8.410235531167e-03
8.428365514047e-03
8.445909862840e-03
8.462904509896e-03
8.479382041077e-03
8.495372111600e-03
8.510901797952e-03
8.525995897462e-03
8.540677184745e-03
8.554966632349e-03
8.568883601514e-03
8.582446007852e-03
8.595670465845e-03
8.608572415377e-03
8.621166232949e-03
8.633465329787e-03
8.645482238664e-03
8.657228691000e-03
8.668715685514e-03
8.679953549545e-03
8.690951993969e-03
8.701720162505e-03
8.712266676102e-03
8.722599672985e-03
8.732726844866e-03
8.742655469766e-03
8.752392441819e-03
8.761944298391e-03
8.771317244803e-03
8.780517176915e-03
8.789549701787e-03
8.798420156612e-03
8.807133626101e-03
8.815694958462e-03
8.824108780118e-03
8.832379509276e-03
8.840511368456e-03
8.848508396080e-03
8.856374457200e-03
8.864113253442e-03
8.871728332238e-03
8.879223095407e-03
8.886600807132e-03
8.893864601396e-03
8.901017488914e-03
8.908062363600e-03
8.915002008610e-03
8.921839101999e-03
8.928576222008e-03
8.935215852024e-03
8.941760385228e-03
8.948212128962e-03
8.954573308828e-03
8.960846072541e-03
8.967032493558e-03
8.973134574495e-03
8.979154250345e-03
8.985093391514e-03
8.990953806687e-03
8.996737245535e-03
9.002445401274e-03
9.008079913080e-03
9.013642368386e-03
9.019134305043e-03
9.024557213379e-03
9.029912538147e-03
9.035201680371e-03
9.040425999104e-03
9.045586813089e-03
9.050685402350e-03
9.055723009694e-03
9.060700842142e-03
9.065620072299e-03
9.070481839645e-03
9.075287251780e-03
9.080037385600e-03
9.084733288422e-03
9.089375979062e-03
9.093966448853e-03
9.098505662630e-03
9.102994559666e-03
9.107434054562e-03
9.111825038102e-03
9.116168378079e-03
9.120464920068e-03
9.124715488182e-03
9.128920885790e-03
9.133081896203e-03
9.137199283335e-03
9.141273792336e-03
9.145306150199e-03
9.149297066341e-03
9.153247233164e-03
9.157157326593e-03
9.161028006586e-03
9.164859917640e-03
9.168653689256e-03
9.172409936407e-03
9.176129259972e-03
9.179812247165e-03
9.183459471939e-03
9.187071495383e-03
9.190648866099e-03
9.194192120564e-03
9.197701783488e-03
9.201178368144e-03
9.204622376703e-03
9.208034300544e-03
9.211414620558e-03
9.214763807445e-03
9.218082321992e-03
9.221370615350e-03
9.224629129297e-03
9.227858296492e-03
9.231058540721e-03
9.234230277138e-03
9.237373912491e-03
9.240489845347e-03
9.243578466308e-03
9.246640158215e-03
9.249675296354e-03
9.252684248649e-03
9.255667375849e-03
9.258625031714e-03
9.261557563189e-03
9.264465310577e-03
9.267348607704e-03
9.270207782080e-03
9.273043155054e-03
9.275855041969e-03
9.278643752302e-03
9.281409589813e-03
9.284152852676e-03
9.286873833619e-03
9.289572820049e-03
9.292250094180e-03
9.294905933156e-03
9.297540609167e-03
9.300154389565e-03
9.302747536979e-03
9.305320309420e-03
9.307872960386e-03
9.310405738969e-03
9.312918889950e-03
9.315412653899e-03
9.317887267266e-03
9.320342962479e-03
9.322779968024e-03
9.325198508538e-03
9.327598804893e-03
9.329981074274e-03
9.332345530264e-03
9.334692382917e-03
9.337021838836e-03
9.339334101247e-03
9.341629370068e-03
9.343907841983e-03
9.346169710506e-03
9.348415166047e-03
9.350644395982e-03
9.352857584707e-03
9.355054913709e-03
9.357236561617e-03
9.359402704266e-03
9.361553514749e-03
9.363689163479e-03
9.365809818234e-03
9.367915644217e-03
9.370006804105e-03
9.372083458095e-03
9.374145763960e-03
9.376193877091e-03
9.378227950544e-03
9.380248135090e-03
9.382254579252e-03
9.384247429355e-03
9.386226829562e-03
9.388192921922e-03
9.390145846402e-03
9.392085740934e-03
9.394012741450e-03
9.395926981917e-03
9.397828594377e-03
9.399717708983e-03
9.401594454032e-03
9.403458955999e-03
9.405311339572e-03
9.407151727684e-03
9.408980241543e-03
9.410797000666e-03
9.412602122909e-03
9.414395724494e-03
9.416177920041e-03
9.417948822597e-03
9.419708543661e-03
9.421457193212e-03
9.423194879739e-03
9.424921710262e-03
9.426637790361e-03
9.428343224200e-03
9.430038114551e-03
9.431722562820e-03
9.433396669067e-03
9.435060532031e-03
9.436714249153e-03
9.438357916596e-03
9.439991629269e-03
9.441615480847e-03
9.443229563789e-03
9.444833969363e-03
9.446428787662e-03
9.448014107626e-03
9.449590017058e-03
9.451156602648e-03
9.452713949983e-03
9.454262143574e-03
9.455801266865e-03
9.457331402257e-03
9.458852631121e-03
9.460365033817e-03
9.461868689707e-03
9.463363677174e-03
9.464850073633e-03
9.466327955555e-03
9.467797398471e-03
9.469258476995e-03
9.470711264835e-03
9.472155834806e-03
9.473592258848e-03
9.475020608033e-03
9.476440952587e-03
9.477853361893e-03
9.479257904514e-03
9.480654648198e-03
9.482043659893e-03
9.483425005760e-03
9.484798751182e-03
9.486164960781e-03
9.487523698423e-03
9.488875027234e-03
9.490219009609e-03
9.491555707223e-03
9.492885181041e-03
9.494207491331e-03
9.495522697672e-03
9.496830858963e-03
9.498132033437e-03
9.499426278666e-03
9.500713651575e-03
9.501994208445e-03
9.503268004932e-03
9.504535096065e-03
9.505795536264e-03
9.507049379343e-03
9.508296678522e-03
9.509537486431e-03
9.510771855125e-03
9.511999836086e-03
9.513221480235e-03
9.514436837935e-03
9.515645959006e-03
9.516848892727e-03
9.518045687843e-03
9.519236392578e-03
9.520421054635e-03
9.521599721210e-03
9.522772438993e-03
9.523939254179e-03
9.525100212472e-03
9.526255359094e-03
9.527404738791e-03
9.528548395836e-03
9.529686374041e-03
9.530818716759e-03
9.531945466892e-03
</dep>
<dep v(vin) v(v-sweep)>
0.000000000000e+00
9.980040000000e-03
1.996008000000e-02
2.994012000000e-02
3.992016000000e-02
4.990020000000e-02
5.988024000000e-02
6.986028000000e-02
7.984032000000e-02
8.982036000000e-02
9.980040000000e-02
1.097804400000e-01
1.197604800000e-01
1.297405200000e-01
1.397205600000e-01
1.497006000000e-01
1.596806400000e-01
1.696606800000e-01
1.796407200000e-01
1.896207600000e-01
1.996008000000e-01
2.095808400000e-01
2.195608800000e-01
2.295409200000e-01
2.395209600000e-01
2.495010000000e-01
2.594810400000e-01
2.694610800000e-01
2.794411200000e-01
2.894211600000e-01
2.994012000000e-01
3.093812400000e-01
3.193612800000e-01
3.293413200000e-01
3.393213600000e-01
3.493014000000e-01
3.592814400000e-01
3.692614800000e-01
3.792415200000e-01
3.892215600000e-01
3.992016000000e-01
4.091816400000e-01
4.191616800000e-01
4.291417200000e-01
