<Qucs Dataset 0.0.22>
<indep time 209>
0.000000000000e+00
9.950250000000e-08
1.990050000000e-07
3.980100000000e-07
7.960200000000e-07
1.592040000000e-06
3.184080000000e-06
6.368160000000e-06
1.273632000000e-05
2.268657000000e-05
3.263682000000e-05
4.258707000000e-05
5.253732000000e-05
6.248757000000e-05
7.243782000000e-05
8.238807000000e-05
9.233832000000e-05
1.022885700000e-04
1.122388200000e-04
1.221890700000e-04
1.321393200000e-04
1.420895700000e-04
1.520398200000e-04
1.619900700000e-04
1.719403200000e-04
1.818905700000e-04
1.918408200000e-04
2.017910700000e-04
2.117413200000e-04
2.216915700000e-04
2.316418200000e-04
2.415920700000e-04
2.515423200000e-04
2.614925700000e-04
2.714428200000e-04
2.813930700000e-04
2.913433200000e-04
3.012935700000e-04
3.112438200000e-04
3.211940700000e-04
3.311443200000e-04
3.410945700000e-04
3.510448200000e-04
3.609950700000e-04
3.709453200000e-04
3.808955700000e-04
3.908458200000e-04
4.007960700000e-04
4.107463200000e-04
4.206965700000e-04
4.306468200000e-04
4.405970700000e-04
4.505473200000e-04
4.604975700000e-04
4.704478200000e-04
4.803980700000e-04
4.903483200000e-04
5.002985700000e-04
5.102488200000e-04
5.201990700000e-04
5.301493200000e-04
5.400995700000e-04
5.500498200000e-04
5.600000700000e-04
5.699503200000e-04
5.799005700000e-04
5.898508200000e-04
5.998010700000e-04
6.097513200000e-04
6.197015700000e-04
6.296518200000e-04
6.396020700000e-04
6.495523200000e-04
6.595025700000e-04
6.694528200000e-04
6.794030700000e-04
6.893533200000e-04
6.993035700000e-04
7.092538200000e-04
7.192040700000e-04
7.291543200000e-04
7.391045700000e-04
7.490548200000e-04
7.590050700000e-04
7.689553200000e-04
7.789055700000e-04
7.888558200000e-04
7.988060700000e-04
8.087563200000e-04
8.187065700000e-04
8.286568200000e-04
8.386070700000e-04
8.485573200000e-04
8.585075700000e-04
8.684578200000e-04
8.784080700000e-04
8.883583200000e-04
8.983085700000e-04
9.082588200000e-04
9.182090700000e-04
9.281593200000e-04
9.381095700000e-04
9.480598200000e-04
9.580100700000e-04
9.679603200000e-04
9.779105700000e-04
9.878608200000e-04
9.978110700000e-04
1.007761320000e-03
1.017711570000e-03
1.027661820000e-03
1.037612070000e-03
1.047562320000e-03
1.057512570000e-03
1.067462820000e-03
1.077413070000e-03
1.087363320000e-03
1.097313570000e-03
1.107263820000e-03
1.117214070000e-03
1.127164320000e-03
1.137114570000e-03
1.147064820000e-03
1.157015070000e-03
1.166965320000e-03
1.176915570000e-03
1.186865820000e-03
1.196816070000e-03
1.206766320000e-03
1.216716570000e-03
1.226666820000e-03
1.236617070000e-03
1.246567320000e-03
1.256517570000e-03
1.266467820000e-03
1.276418070000e-03
1.286368320000e-03
1.296318570000e-03
1.306268820000e-03
1.316219070000e-03
1.326169320000e-03
1.336119570000e-03
1.346069820000e-03
1.356020070000e-03
1.365970320000e-03
1.375920570000e-03
1.385870820000e-03
1.395821070000e-03
1.405771320000e-03
1.415721570000e-03
1.425671820000e-03
1.435622070000e-03
1.445572320000e-03
1.455522570000e-03
1.465472820000e-03
1.475423070000e-03
1.485373320000e-03
1.495323570000e-03
1.505273820000e-03
1.515224070000e-03
1.525174320000e-03
1.535124570000e-03
1.545074820000e-03
1.555025070000e-03
1.564975320000e-03
1.574925570000e-03
1.584875820000e-03
1.594826070000e-03
1.604776320000e-03
1.614726570000e-03
1.624676820000e-03
1.634627070000e-03
1.644577320000e-03
1.654527570000e-03
1.664477820000e-03
1.674428070000e-03
1.684378320000e-03
1.694328570000e-03
1.704278820000e-03
1.714229070000e-03
1.724179320000e-03
1.734129570000e-03
1.744079820000e-03
1.754030070000e-03
1.763980320000e-03
1.773930570000e-03
1.783880820000e-03
1.793831070000e-03
1.803781320000e-03
1.813731570000e-03
1.823681820000e-03
1.833632070000e-03
1.843582320000e-03
1.853532570000e-03
1.863482820000e-03
1.873433070000e-03
1.883383320000e-03
1.893333570000e-03
1.903283820000e-03
1.913234070000e-03
1.923184320000e-03
1.933134570000e-03
1.943084820000e-03
1.953035070000e-03
1.962985320000e-03
1.972935570000e-03
1.982885820000e-03
1.992836070000e-03
2.000000000000e-03
</indep>
<dep tran.i(pr1) time>
2.474536654694e-03
2.478934848255e-03
2.483340842772e-03
2.492160607697e-03
2.509846767508e-03
2.545405202963e-03
2.617263223220e-03
2.763916041137e-03
3.068725384897e-03
3.574389215993e-03
4.111651158691e-03
4.306531607966e-03
4.393233041075e-03
4.451395674054e-03
4.495134732817e-03
4.529404722480e-03
4.557346383558e-03
4.580587454586e-03
4.600180279760e-03
4.616852213056e-03
4.631124103140e-03
4.643380679298e-03
4.653913138463e-03
4.662945887201e-03
4.670654180061e-03
4.677175972710e-03
4.682620247224e-03
4.687072817114e-03
4.690600575613e-03
4.693254465892e-03
4.695071684193e-03
4.696077123994e-03
4.696284386162e-03
4.695696243726e-03
4.694304793257e-03
4.692091110887e-03
4.689024579633e-03
4.685061637931e-03
4.680144038891e-03
4.674196262788e-03
4.667122029585e-03
4.658799326618e-03
4.649073558672e-03
4.637747658664e-03
4.624567811421e-03
4.609201895883e-03
4.591206094392e-03
4.569970348569e-03
4.544624409797e-03
4.513862874022e-03
4.475585342517e-03
4.426041255232e-03
4.357291114542e-03
4.242506290983e-03
3.851779355790e-03
3.328351523712e-03
2.839671815681e-03
2.388275281305e-03
1.976102531507e-03
1.604482552162e-03
1.274134952785e-03
9.851753926343e-04
7.371366784043e-04
5.289923156902e-04
3.591948818620e-04
2.257157349683e-04
1.260981768000e-04
5.751035714233e-05
1.683650248054e-05
6.372077624665e-07
1.054914810020e-10
-9.547148141498e-11
1.054914810020e-10
-9.547148141498e-11
1.054914810020e-10
-9.547148141498e-11
1.054914810020e-10
-9.547148141498e-11
1.054914810020e-10
-9.547148141498e-11
1.054914810020e-10
-9.547148141498e-11
1.054914810020e-10
-9.547148141498e-11
1.054914810020e-10
-9.547148141498e-11
1.054914810020e-10
-9.547148141498e-11
1.054914810020e-10
-9.547148141498e-11
1.054914810020e-10
-9.547148141498e-11
1.054914810020e-10
-9.547148141498e-11
1.054914810020e-10
5.400375661753e-07
1.629165868563e-05
5.644077460044e-05
1.244501169143e-04
2.234318976554e-04
3.562251532892e-04
5.252949543145e-04
7.326793823064e-04
9.799362296805e-04
1.268103137250e-03
1.597659053803e-03
1.968500505670e-03
2.379920311413e-03
2.830601962380e-03
3.318617023054e-03
3.841438481195e-03
4.239983089660e-03
4.355231254589e-03
4.424816000274e-03
4.475023649965e-03
4.513307439032e-03
4.544135710776e-03
4.569557980120e-03
4.590858115636e-03
4.608907419854e-03
4.624318362787e-03
4.637536541009e-03
4.648895655376e-03
4.658650547856e-03
4.666999250229e-03
4.674096939859e-03
4.680066259161e-03
4.685003836029e-03
4.688985642142e-03
4.692070149822e-03
4.694301280191e-03
4.695709815838e-03
4.696314999357e-03
4.696124880512e-03
4.695137001833e-03
4.693337922920e-03
4.690703098709e-03
4.687195544673e-03
4.682764744484e-03
4.677344121396e-03
4.670848438566e-03
4.663169226947e-03
4.654169385757e-03
4.643674544867e-03
4.631461681343e-03
4.617241201027e-03
4.600630763166e-03
4.581112421816e-03
4.557962269357e-03
4.530123234019e-03
4.495958951214e-03
4.452711526378e-03
4.395084319937e-03
4.309201875064e-03
4.122354056153e-03
3.587337995991e-03
3.080826696044e-03
2.610401672396e-03
2.178306635168e-03
1.786176006432e-03
1.435035511541e-03
1.125300009912e-03
8.567928466389e-04
6.287621733522e-04
4.399180345535e-04
2.884654372427e-04
1.721569410237e-04
8.833974749773e-05
3.402061085329e-05
5.952323914697e-06
1.942457436219e-10
-1.842257440349e-10
1.942457436219e-10
-1.842257440349e-10
1.942457436219e-10
-1.842257440349e-10
1.942457436219e-10
-1.842257440349e-10
1.942457436219e-10
-1.842257440349e-10
1.942457436219e-10
-1.842257440349e-10
1.942457436219e-10
-1.842257440349e-10
1.942457436219e-10
-1.842257440349e-10
1.942457436219e-10
-1.842257440349e-10
1.942457436219e-10
-1.842257440349e-10
1.942457436219e-10
-1.842257440349e-10
1.942457436219e-10
-1.842257440349e-10
1.942457436219e-10
-1.842257440349e-10
5.638740772291e-06
3.324830516077e-05
8.698657580194e-05
1.701946585138e-04
2.858416177808e-04
4.365850056793e-04
6.246842006060e-04
8.519410787867e-04
1.119659389813e-03
1.428599415271e-03
1.778952820117e-03
2.170314037291e-03
2.476932468351e-03
</dep>
<dep tran.v(vin) time>
0.000000000000e+00
6.251926052999e-04
1.250384966233e-03
2.500767977536e-03
5.001520315643e-03
1.000291551645e-02
2.000483013294e-02
4.000165366720e-02
7.993927377067e-02
1.420616939368e-01
2.036290243031e-01
2.644006975768e-01
3.241392554045e-01
3.826112762127e-01
4.395882872765e-01
4.948476574502e-01
5.481734670734e-01
5.993573516518e-01
6.481993160182e-01
6.945085157902e-01
7.381040030733e-01
7.788154334934e-01
8.164837317986e-01
8.509617134270e-01
8.821146596140e-01
9.098208437900e-01
9.339720072133e-01
9.544737819787e-01
9.712460597491e-01
9.842233047700e-01
9.933548099427e-01
9.986048949563e-01
9.999530457051e-01
9.973939944443e-01
9.909377403737e-01
9.806095105667e-01
9.664496613983e-01
9.485135208577e-01
9.268711723600e-01
9.016071809033e-01
8.728202626410e-01
8.406228991594e-01
8.051408979691e-01
7.665129009263e-01
7.248898425056e-01
6.804343600411e-01
6.333201582394e-01
5.837313304484e-01
5.318616393337e-01
4.779137597731e-01
4.220984869277e-01
3.646339125843e-01
3.057445729859e-01
2.456605714831e-01
1.846166794307e-01
1.228514188462e-01
6.060613041159e-02
-1.875969536821e-03
-6.435073934911e-02
-1.265740660170e-01
-1.883028190173e-01
-2.492958003172e-01
-3.093146868272e-01
-3.681249616217e-01
-4.254968302870e-01
-4.812061188167e-01
-5.350351495458e-01
-5.867735917012e-01
-6.362192832455e-01
-6.831790208016e-01
-7.274693145729e-01
-7.689171053086e-01
-8.073604405132e-01
-8.426491072569e-01
-8.746452191158e-01
-9.032237549471e-01
-9.282730473948e-01
-9.496952192174e-01
-9.674065657318e-01
-9.813378818798e-01
-9.914347326391e-01
-9.976576657216e-01
-9.999823657290e-01
-9.983997491621e-01
-9.929159999141e-01
-9.835525451070e-01
-9.703459713682e-01
-9.533478818721e-01
-9.326246947069e-01
-9.082573833530e-01
-8.803411602891e-01
-8.489851049596e-01
-8.143117375600e-01
-7.764565403023e-01
-7.355674280347e-01
-6.918041702806e-01
-6.453377669579e-01
-5.963497802161e-01
-5.450316250033e-01
-4.915838211338e-01
-4.362152097803e-01
-3.791421374508e-01
-3.205876106393e-01
-2.607804244535e-01
-1.999542686243e-01
-1.383468143895e-01
-7.619878582126e-02
-1.375301922385e-02
4.874648572116e-02
1.110555193558e-01
1.729306162668e-01
2.341300065990e-01
2.944145607435e-01
3.535487237089e-01
4.113014355254e-01
4.674470340856e-01
5.217661368930e-01
5.740464982742e-01
6.240838387043e-01
6.716826430059e-01
7.166569243023e-01
7.588309507400e-01
7.980399321404e-01
8.341306638990e-01
8.669621256146e-01
8.964060321106e-01
9.223473346942e-01
9.446846706965e-01
9.633307595351e-01
9.782127437533e-01
9.892724737021e-01
9.964667347532e-01
9.997674161556e-01
9.991616208746e-01
9.946517159860e-01
9.862553234265e-01
9.740052511386e-01
9.579493648768e-01
9.381504011779e-01
9.146857222252e-01
8.876470135644e-01
8.571399258532e-01
8.232836620429e-01
7.862105116073e-01
7.460653336359e-01
7.030049908141e-01
6.571977365002e-01
6.088225572945e-01
5.580684736696e-01
5.051338013950e-01
4.502253766402e-01
3.935577477869e-01
3.353523371052e-01
2.758365755714e-01
2.152430142078e-01
1.538084154163e-01
9.177282785598e-02
2.937864848081e-02
-3.313032459880e-02
-9.550984472919e-02
-1.575161710793e-01
-2.189070210299e-01
-2.794425168655e-01
-3.388861230688e-01
-3.970055705560e-01
-4.535737642421e-01
-5.083696703886e-01
-5.611791802675e-01
-6.117959467668e-01
-6.600221906682e-01
-7.056694734465e-01
-7.485594335720e-01
-7.885244834372e-01
-8.254084641867e-01
-8.590672558897e-01
-8.893693406724e-01
-9.161963166087e-01
-9.394433603623e-01
-9.590196367722e-01
-9.748486537802e-01
-9.868685613150e-01
-9.950323929646e-01
-9.993082494916e-01
-9.996794234765e-01
-9.961444645993e-01
-9.887171853070e-01
-9.774266068430e-01
-9.623168458494e-01
-9.434469419871e-01
-9.208906272443e-01
-8.947360378376e-01
-8.650853698300e-01
-8.320544798110e-01
-7.957724322006e-01
-7.563809949448e-01
-7.140340855734e-01
-6.688971697852e-01
-6.211466149094e-01
-5.709690007707e-01
-5.185603906500e-01
-4.641255651894e-01
-4.078772222353e-01
-3.500351457462e-01
-2.908253470118e-01
-2.304791815398e-01
-1.692324450609e-01
-1.073244521837e-01
-4.499710130058e-02
-4.898587196589e-16
</dep>
<dep tran.v(vout) time>
2.525463345306e+00
2.521065151745e+00
2.516659157228e+00
2.507839392303e+00
2.490153232492e+00
2.454594797037e+00
2.382736776780e+00
2.236083958863e+00
1.931274615103e+00
1.425610784007e+00
8.883488413095e-01
6.934683920344e-01
6.067669589253e-01
5.486043259459e-01
5.048652671833e-01
4.705952775196e-01
4.426536164421e-01
4.194125454143e-01
3.998197202399e-01
3.831477869443e-01
3.688758968603e-01
3.566193207019e-01
3.460868615374e-01
3.370541127990e-01
3.293458199391e-01
3.228240272904e-01
3.173797527760e-01
3.129271828856e-01
3.093994243867e-01
3.067455341078e-01
3.049283158068e-01
3.039228760063e-01
3.037156138380e-01
3.043037562745e-01
3.056952067430e-01
3.079088891133e-01
3.109754203668e-01
3.149383620688e-01
3.198559611086e-01
3.258037372119e-01
3.328779704147e-01
3.412006733820e-01
3.509264413281e-01
3.622523413363e-01
3.754321885788e-01
3.907981041174e-01
4.087939056076e-01
4.300296514309e-01
4.553755902034e-01
4.861371259777e-01
5.244146574835e-01
5.739587447679e-01
6.427088854585e-01
7.574937090173e-01
1.148220644210e+00
1.671648476288e+00
2.160328184319e+00
2.611724718695e+00
3.023897468493e+00
3.395517447838e+00
3.725865047215e+00
4.014824607366e+00
4.262863321596e+00
4.471007684310e+00
4.640805118138e+00
4.774284265032e+00
4.873901823200e+00
4.942489642858e+00
4.983163497519e+00
4.999362792238e+00
4.999999894509e+00
5.000000095471e+00
4.999999894509e+00
5.000000095471e+00
4.999999894509e+00
5.000000095471e+00
4.999999894509e+00
5.000000095471e+00
4.999999894509e+00
5.000000095471e+00
4.999999894509e+00
5.000000095471e+00
4.999999894509e+00
5.000000095471e+00
4.999999894509e+00
5.000000095471e+00
4.999999894509e+00
5.000000095471e+00
4.999999894509e+00
5.000000095471e+00
4.999999894509e+00
5.000000095471e+00
4.999999894509e+00
5.000000095471e+00
4.999999894509e+00
4.999459962434e+00
4.983708341314e+00
4.943559225400e+00
4.875549883086e+00
4.776568102345e+00
4.643774846711e+00
4.474705045685e+00
4.267320617694e+00
4.020063770319e+00
3.731896862750e+00
3.402340946197e+00
3.031499494330e+00
2.620079688587e+00
2.169398037620e+00
1.681382976946e+00
1.158561518805e+00
7.600169103400e-01
6.447687454114e-01
5.751839997262e-01
5.249763500346e-01
4.866925609676e-01
4.558642892239e-01
4.304420198802e-01
4.091418843636e-01
3.910925801464e-01
3.756816372128e-01
3.624634589911e-01
3.511043446243e-01
3.413494521436e-01
3.330007497705e-01
3.259030601407e-01
3.199337408394e-01
3.149961639714e-01
3.110143578577e-01
3.079298501785e-01
3.056987198093e-01
3.042901841621e-01
3.036850006426e-01
3.038751194882e-01
3.048629981671e-01
3.066620770801e-01
3.092969012911e-01
3.128044553274e-01
3.172352555162e-01
3.226558786040e-01
3.291515614338e-01
3.368307730530e-01
3.458306142434e-01
3.563254551333e-01
3.685383186567e-01
3.827587989734e-01
3.993692368345e-01
4.188875781842e-01
4.420377306426e-01
4.698767659809e-01
5.040410487865e-01
5.472884736224e-01
6.049156800630e-01
6.907981249361e-01
8.776459438469e-01
1.412662004009e+00
1.919173303956e+00
2.389598327604e+00
2.821693364832e+00
3.213823993568e+00
3.564964488459e+00
3.874699990088e+00
4.143207153361e+00
4.371237826648e+00
4.560081965447e+00
4.711534562757e+00
4.827843058976e+00
4.911660252502e+00
4.965979389147e+00
4.994047676085e+00
4.999999805754e+00
5.000000184226e+00
4.999999805754e+00
5.000000184226e+00
4.999999805754e+00
5.000000184226e+00
4.999999805754e+00
5.000000184226e+00
4.999999805754e+00
5.000000184226e+00
4.999999805754e+00
5.000000184226e+00
4.999999805754e+00
5.000000184226e+00
4.999999805754e+00
5.000000184226e+00
4.999999805754e+00
5.000000184226e+00
4.999999805754e+00
5.000000184226e+00
4.999999805754e+00
5.000000184226e+00
4.999999805754e+00
5.000000184226e+00
4.999999805754e+00
5.000000184226e+00
4.994361259228e+00
4.966751694839e+00
4.913013424198e+00
4.829805341486e+00
4.714158382219e+00
4.563414994321e+00
4.375315799394e+00
4.148058921213e+00
3.880340610187e+00
3.571400584729e+00
3.221047179883e+00
2.829685962709e+00
2.523067531649e+00
</dep>
<indep frequency 411>
1.000000000000e+00
1.057767560283e+00
1.118872211587e+00
1.183506729519e+00
1.251875025863e+00
1.324192791886e+00
1.400688178818e+00
1.481602517626e+00
1.567191080378e+00
1.657723885589e+00
1.753486550083e+00
1.854781190071e+00
1.961927374280e+00
2.075263132145e+00
2.195146020235e+00
2.321954250289e+00
2.456087882417e+00
2.597970087226e+00
2.748048480853e+00
2.906796537132e+00
3.074715081322e+00
3.252333870136e+00
3.440213263040e+00
3.638945990099e+00
3.849159021950e+00
4.071515547790e+00
4.306717067641e+00
4.555505605468e+00
4.818666050152e+00
5.097028631689e+00
5.391471540435e+00
5.702923697662e+00
6.032367686157e+00
6.380842850118e+00
6.749448574119e+00
7.139347751503e+00
7.551770453120e+00
7.988017808016e+00
8.449466108283e+00
8.937571151054e+00
9.453872831308e+00
1.000000000000e+01
1.057767560283e+01
1.118872211587e+01
1.183506729519e+01
1.251875025863e+01
1.324192791886e+01
1.400688178818e+01
1.481602517626e+01
1.567191080378e+01
1.657723885589e+01
1.753486550083e+01
1.854781190071e+01
1.961927374280e+01
2.075263132145e+01
2.195146020235e+01
2.321954250289e+01
2.456087882417e+01
2.597970087226e+01
2.748048480853e+01
2.906796537132e+01
3.074715081322e+01
3.252333870136e+01
3.440213263040e+01
3.638945990099e+01
3.849159021950e+01
4.071515547790e+01
4.306717067640e+01
4.555505605468e+01
4.818666050152e+01
5.097028631689e+01
5.391471540435e+01
5.702923697662e+01
6.032367686157e+01
6.380842850118e+01
6.749448574119e+01
7.139347751503e+01
7.551770453120e+01
7.988017808016e+01
8.449466108283e+01
8.937571151054e+01
9.453872831308e+01
1.000000000000e+02
1.057767560283e+02
1.118872211587e+02
1.183506729519e+02
1.251875025863e+02
1.324192791886e+02
1.400688178818e+02
1.481602517626e+02
1.567191080378e+02
1.657723885589e+02
1.753486550083e+02
1.854781190071e+02
1.961927374280e+02
2.075263132145e+02
2.195146020235e+02
2.321954250289e+02
2.456087882417e+02
2.597970087226e+02
2.748048480853e+02
2.906796537132e+02
3.074715081322e+02
3.252333870136e+02
3.440213263040e+02
3.638945990099e+02
3.849159021950e+02
4.071515547790e+02
4.306717067640e+02
4.555505605468e+02
4.818666050152e+02
5.097028631689e+02
5.391471540435e+02
5.702923697662e+02
6.032367686157e+02
6.380842850118e+02
6.749448574119e+02
7.139347751503e+02
7.551770453120e+02
7.988017808016e+02
8.449466108283e+02
8.937571151054e+02
9.453872831308e+02
1.000000000000e+03
1.057767560283e+03
1.118872211587e+03
1.183506729519e+03
1.251875025863e+03
1.324192791886e+03
1.400688178818e+03
1.481602517626e+03
1.567191080378e+03
1.657723885589e+03
1.753486550083e+03
1.854781190071e+03
1.961927374280e+03
2.075263132145e+03
2.195146020235e+03
2.321954250289e+03
2.456087882417e+03
2.597970087226e+03
2.748048480853e+03
2.906796537132e+03
3.074715081322e+03
3.252333870136e+03
3.440213263040e+03
3.638945990099e+03
3.849159021950e+03
4.071515547790e+03
4.306717067640e+03
4.555505605468e+03
4.818666050152e+03
5.097028631689e+03
5.391471540435e+03
5.702923697662e+03
6.032367686157e+03
6.380842850118e+03
6.749448574119e+03
7.139347751503e+03
7.551770453120e+03
7.988017808016e+03
8.449466108283e+03
8.937571151054e+03
9.453872831308e+03
1.000000000000e+04
1.057767560283e+04
1.118872211587e+04
1.183506729519e+04
1.251875025863e+04
1.324192791886e+04
1.400688178818e+04
1.481602517626e+04
1.567191080378e+04
1.657723885589e+04
1.753486550083e+04
1.854781190071e+04
1.961927374280e+04
2.075263132145e+04
2.195146020235e+04
2.321954250289e+04
2.456087882417e+04
2.597970087226e+04
2.748048480853e+04
2.906796537132e+04
3.074715081322e+04
3.252333870136e+04
3.440213263040e+04
3.638945990099e+04
3.849159021950e+04
4.071515547790e+04
4.306717067640e+04
4.555505605468e+04
4.818666050152e+04
5.097028631689e+04
5.391471540435e+04
5.702923697662e+04
6.032367686157e+04
6.380842850117e+04
6.749448574119e+04
7.139347751503e+04
7.551770453120e+04
