<Qucs Dataset 0.0.19>
<indep Vin 1>
  +1.50000000000000000000e+00
</indep>
<indep time 201>
  +0.00000000000000000000e+00
  +1.00000000000000008180e-05
  +2.00000000000000016361e-05
  +3.00000000000000041482e-05
  +4.00000000000000032721e-05
  +5.00000000000000023961e-05
  +6.00000000000000082963e-05
  +7.00000000000000074203e-05
  +8.00000000000000065442e-05
  +9.00000000000000056682e-05
  +1.00000000000000004792e-04
  +1.10000000000000003916e-04
  +1.20000000000000016593e-04
  +1.30000000000000015717e-04
  +1.40000000000000014841e-04
  +1.50000000000000013965e-04
  +1.60000000000000013088e-04
  +1.70000000000000012212e-04
  +1.80000000000000011336e-04
  +1.90000000000000010460e-04
  +2.00000000000000009584e-04
  +2.10000000000000008708e-04
  +2.20000000000000007832e-04
  +2.30000000000000006956e-04
  +2.40000000000000033185e-04
  +2.50000000000000005204e-04
  +2.60000000000000031433e-04
  +2.70000000000000003452e-04
  +2.80000000000000029681e-04
  +2.90000000000000001700e-04
  +3.00000000000000027929e-04
  +3.09999999999999999948e-04
  +3.20000000000000026177e-04
  +3.30000000000000052406e-04
  +3.40000000000000024425e-04
  +3.50000000000000050654e-04
  +3.60000000000000022673e-04
  +3.70000000000000048902e-04
  +3.80000000000000020921e-04
  +3.90000000000000047150e-04
  +4.00000000000000019169e-04
  +4.10000000000000045398e-04
  +4.20000000000000017417e-04
  +4.30000000000000043646e-04
  +4.40000000000000015665e-04
  +4.50000000000000041894e-04
  +4.60000000000000013912e-04
  +4.70000000000000040142e-04
  +4.80000000000000066371e-04
  +4.90000000000000092600e-04
  +5.00000000000000010408e-04
  +5.10000000000000036637e-04
  +5.20000000000000062866e-04
  +5.30000000000000089095e-04
  +5.40000000000000006904e-04
  +5.50000000000000033133e-04
  +5.60000000000000059362e-04
  +5.70000000000000085591e-04
  +5.80000000000000003400e-04
  +5.90000000000000029629e-04
  +6.00000000000000055858e-04
  +6.10000000000000082087e-04
  +6.19999999999999999896e-04
  +6.30000000000000026125e-04
  +6.40000000000000052354e-04
  +6.50000000000000078583e-04
  +6.60000000000000104812e-04
  +6.70000000000000022621e-04
  +6.80000000000000048850e-04
  +6.90000000000000075079e-04
  +7.00000000000000101308e-04
  +7.10000000000000019117e-04
  +7.20000000000000045346e-04
  +7.30000000000000071575e-04
  +7.40000000000000097804e-04
  +7.50000000000000015613e-04
  +7.60000000000000041842e-04
  +7.70000000000000068071e-04
  +7.80000000000000094300e-04
  +7.90000000000000012108e-04
  +8.00000000000000038337e-04
  +8.10000000000000064566e-04
  +8.20000000000000090795e-04
  +8.30000000000000117024e-04
  +8.40000000000000034833e-04
  +8.50000000000000061062e-04
  +8.60000000000000087291e-04
  +8.70000000000000113520e-04
  +8.80000000000000031329e-04
  +8.90000000000000057558e-04
  +9.00000000000000083787e-04
  +9.10000000000000110016e-04
  +9.20000000000000027825e-04
  +9.30000000000000054054e-04
  +9.40000000000000080283e-04
  +9.50000000000000106512e-04
  +9.60000000000000132741e-04
  +9.70000000000000050550e-04
  +9.80000000000000185199e-04
  +9.89999999999999994588e-04
  +1.00000000000000002082e-03
  +1.01000000000000004705e-03
  +1.02000000000000007327e-03
  +1.03000000000000009950e-03
  +1.04000000000000012573e-03
  +1.05000000000000015196e-03
  +1.06000000000000017819e-03
  +1.06999999999999998758e-03
  +1.08000000000000001381e-03
  +1.09000000000000004004e-03
  +1.10000000000000006627e-03
  +1.11000000000000009250e-03
  +1.12000000000000011872e-03
  +1.13000000000000014495e-03
  +1.14000000000000017118e-03
  +1.15000000000000019741e-03
  +1.16000000000000000680e-03
  +1.17000000000000003303e-03
  +1.18000000000000005926e-03
  +1.19000000000000008549e-03
  +1.20000000000000011172e-03
  +1.21000000000000013795e-03
  +1.22000000000000016417e-03
  +1.23000000000000019040e-03
  +1.23999999999999999979e-03
  +1.25000000000000002602e-03
  +1.26000000000000005225e-03
  +1.27000000000000007848e-03
  +1.28000000000000010471e-03
  +1.29000000000000013094e-03
  +1.30000000000000015717e-03
  +1.31000000000000018339e-03
  +1.32000000000000020962e-03
  +1.33000000000000001901e-03
  +1.34000000000000004524e-03
  +1.35000000000000007147e-03
  +1.36000000000000009770e-03
  +1.37000000000000012393e-03
  +1.38000000000000015016e-03
  +1.39000000000000017639e-03
  +1.40000000000000020262e-03
  +1.41000000000000001200e-03
  +1.42000000000000003823e-03
  +1.43000000000000006446e-03
  +1.44000000000000009069e-03
  +1.45000000000000011692e-03
  +1.46000000000000014315e-03
  +1.47000000000000016938e-03
  +1.48000000000000019561e-03
  +1.49000000000000022184e-03
  +1.50000000000000003123e-03
  +1.51000000000000005745e-03
  +1.52000000000000008368e-03
  +1.53000000000000010991e-03
  +1.54000000000000013614e-03
  +1.55000000000000016237e-03
  +1.56000000000000018860e-03
  +1.57000000000000021483e-03
  +1.58000000000000002422e-03
  +1.59000000000000005045e-03
  +1.60000000000000007667e-03
  +1.61000000000000010290e-03
  +1.62000000000000012913e-03
  +1.63000000000000015536e-03
  +1.64000000000000018159e-03
  +1.65000000000000020782e-03
  +1.66000000000000023405e-03
  +1.67000000000000004344e-03
  +1.68000000000000006967e-03
  +1.69000000000000009590e-03
  +1.70000000000000012212e-03
  +1.71000000000000014835e-03
  +1.72000000000000017458e-03
  +1.73000000000000020081e-03
  +1.74000000000000022704e-03
  +1.75000000000000003643e-03
  +1.76000000000000006266e-03
  +1.77000000000000008889e-03
  +1.78000000000000011512e-03
  +1.79000000000000014135e-03
  +1.80000000000000016757e-03
  +1.81000000000000019380e-03
  +1.82000000000000022003e-03
  +1.83000000000000024626e-03
  +1.84000000000000005565e-03
  +1.85000000000000008188e-03
  +1.86000000000000010811e-03
  +1.87000000000000013434e-03
  +1.88000000000000016057e-03
  +1.89000000000000018680e-03
  +1.90000000000000021302e-03
  +1.91000000000000023925e-03
  +1.92000000000000026548e-03
  +1.93000000000000007487e-03
  +1.94000000000000010110e-03
  +1.95000000000000012733e-03
  +1.96000000000000037040e-03
  +1.96999999999999996295e-03
  +1.97999999999999998918e-03
  +1.99000000000000001540e-03
  +2.00000000000000004163e-03
</indep>
<dep Pr1.It time>
  +2.47453665316117602316e-03
  +2.51889928458933452793e-03
  +2.56346369132611070704e-03
  +2.60804666042285587454e-03
  +2.65246040418494651025e-03
  +2.69651348649104817545e-03
  +2.74001183343823215277e-03
  +2.78275981816161277829e-03
  +2.82456141079933569296e-03
  +2.86522138310466543965e-03
  +2.90454655615429192805e-03
  +2.94234707870271025229e-03
  +2.97843772300034493467e-03
  +3.01263918434206169616e-03
  +3.04477937025102477972e-03
  +3.07469466503872135288e-03
  +3.10223115551880312957e-03
  +3.12724580389026540414e-03
  +3.14960755424387823728e-03
  +3.16919835977708163124e-03
  +3.18591411862069896072e-03
  +3.19966550717274171231e-03
  +3.21037870098768961247e-03
  +3.21799597456684776525e-03
  +3.22247617281846369247e-03
  +3.22379504848468436892e-03
  +3.22194546144374165467e-03
  +3.21693743746682362522e-03
  +3.20879808571577964521e-03
  +3.19757137598417539789e-03
  +3.18331777838687900173e-03
  +3.16611376986578691925e-03
  +3.14605121347846707763e-03
  +3.12323661794850241866e-03
  +3.09779028635969334166e-03
  +3.06984536415049608093e-03
  +3.03954679769186889710e-03
  +3.00705021569576793142e-03
  +2.97252074648814059582e-03
  +2.93613178478049690820e-03
  +2.89806372197815367842e-03
  +2.85850265426805310795e-03
  +2.81763908273149508640e-03
  +2.77566661952944595745e-03
  +2.73278071381399118023e-03
  +2.68917741043720945338e-03
  +2.64505215376748242101e-03
  +2.60059864799691781503e-03
  +2.55600778424703873465e-03
  +2.51146664357116463501e-03
  +2.46715758363046924403e-03
  +2.42325741540808667698e-03
  +2.37993667484430850359e-03
  +2.33735899274947322296e-03
  +2.29568056480409154671e-03
  +2.25504972191197926995e-03
  +2.21560659965625711409e-03
  +2.17748290414363551010e-03
  +2.14080177013175167525e-03
  +2.10567770603978547325e-03
  +2.07221661926253056599e-03
  +2.04051591416191816300e-03
  +2.01066465421223701526e-03
  +1.98274377903964868150e-03
  +1.95682636653318666603e-03
  +1.93297792982156870119e-03
  +1.91125673871192047586e-03
  +1.89171415517500095607e-03
  +1.87439497263538210406e-03
  +1.85933774917997085042e-03
  +1.84657512532703503051e-03
  +1.83613411769023788037e-03
  +1.82803638071599204931e-03
  +1.82229842965183730201e-03
  +1.81893181900164859453e-03
  +1.81794327192123295923e-03
  +1.81933475728362440554e-03
  +1.82310351247620986911e-03
  +1.82924201135751434213e-03
  +1.83773787817732067035e-03
  +1.84857374962576819985e-03
  +1.86172708850160044912e-03
  +1.87716995375410665436e-03
  +1.89486873283555511648e-03
  +1.91478384338024474470e-03
  +1.93686941218432066326e-03
  +1.96107294027932522323e-03
  +1.98733496355840526248e-03
  +2.01558871891417993802e-03
  +2.04575982617190201690e-03
  +2.07776599624460598867e-03
  +2.11151677589391717146e-03
  +2.14691333925064870014e-03
  +2.18384833583556980940e-03
  +2.22220580422766329776e-03
  +2.26186115976368231142e-03
  +2.30268126372861056325e-03
  +2.34452458042699700413e-03
  +2.38724142732463185876e-03
  +2.43067432213741599009e-03
  +2.47465842934010754259e-03
  +2.51902210709258056465e-03
  +2.56358755405899614924e-03
  +2.60817155404938433652e-03
  +2.65258631486771714880e-03
  +2.69664039622991361100e-03
  +2.74013972014407365674e-03
  +2.78288865574629219052e-03
  +2.82469116928133314251e-03
  +2.86535202873000128046e-03
  +2.90467805153227622353e-03
  +2.94247938295588836941e-03
  +2.97857079192819559216e-03
  +3.01277297059761046266e-03
  +3.04491382352980099676e-03
  +3.07482973227926311213e-03
  +3.10236678111384988135e-03
  +3.12738192990793216486e-03
  +3.14974412065779614880e-03
  +3.16933530470466353138e-03
  +3.18605137856858757622e-03
  +3.19980301728841872236e-03
  +3.21051639531631230126e-03
  +3.21813378631223816900e-03
  +3.22261403460726665246e-03
  +3.22393289263261462532e-03
  +3.22208322022285876401e-03
  +3.21707504337285414911e-03
  +3.20893547173432130970e-03
  +3.19770847585484213615e-03
  +3.18345452686425280445e-03
  +3.16625010297622933378e-03
  +3.14618706877170181690e-03
  +3.12337193474304620697e-03
  +3.09792500598116051641e-03
  +3.06997943016178468853e-03
  +3.03968015611441773338e-03
  +3.00718281522090787744e-03
  +2.97265253867782424171e-03
  +2.93626272425651785314e-03
  +2.89819376659922493464e-03
  +2.85863176529396138120e-03
  +2.81776722497374980045e-03
  +2.77579376148775862354e-03
  +2.73290682779819436507e-03
  +2.68930247267400732505e-03
  +2.64517614449169590277e-03
  +2.60072155152685398349e-03
  +2.55612958904368305427e-03
  +2.51158734228101778591e-03
  +2.46727717311182601426e-03
  +2.42337589674068839760e-03
  +2.38005405332231655124e-03
  +2.33747527785783471357e-03
  +2.29579577017839219638e-03
  +2.25516386528192306835e-03
  +2.21571970277307682060e-03
  +2.17759499269161264923e-03
  +2.14091287362436167793e-03
  +2.10578785770073511133e-03
  +2.07232585589227401648e-03
  +2.04062427599012311333e-03
  +2.01077218473687995351e-03
  +1.98285052485323029861e-03
  +1.95693237713692128749e-03
  +1.93308325742821279780e-03
  +1.91136143803801740980e-03
  +1.89181828322339587976e-03
  +1.87449858846884900333e-03
  +1.85944091368688891631e-03
  +1.84667790097997933617e-03
  +1.83623656829850546469e-03
  +1.82813857117303723773e-03
  +1.82240042567855149713e-03
  +1.81903368688658803771e-03
  +1.81804507825874964513e-03
  +1.81943656871097979820e-03
  +1.82320539541070466422e-03
  +1.82934403173462458575e-03
  +1.83784010119094481928e-03
  +1.84867623947156112241e-03
  +1.86182990812441026378e-03
  +1.87727316460052141324e-03
  +1.89497239461251755152e-03
  +1.91488801382070500390e-03
  +1.93697414682082779194e-03
  +1.96117829222643104067e-03
  +1.98744098330476490905e-03
  +2.01569545412517764013e-03
  +2.04586732150351590862e-03
  +2.07787429316925575246e-03
  +2.11162591253903804411e-03
  +2.14702335025052787332e-03
  +2.18395925219707015899e-03
  +2.22231765321038478300e-03
  +2.26197396477492793793e-03
  +2.30279504423364219864e-03
  +2.34463935187492842488e-03
  +2.38735720109018540944e-03
  +2.43079110547882474777e-03
  +2.47477622537326446758e-03
</dep>
<dep V1.It time>
  -2.82418700281152589004e-03
  -2.86792183347132391413e-03
  -2.91186112586426081722e-03
  -2.95582413402736485231e-03
  -2.99962551689522249204e-03
  -3.04307625498580983786e-03
  -3.08598465150427712575e-03
  -3.12815740778122665378e-03
  -3.16940076404937645313e-03
  -3.20952169509662208965e-03
  -3.24832914927997238458e-03
  -3.28563531848452463485e-03
  -3.32125692587828666089e-03
  -3.35501651776130751376e-03
  -3.38674374544446418756e-03
  -3.41627662292755002876e-03
  -3.44346274618148378774e-03
  -3.46816046007553417316e-03
  -3.49023995942698058575e-03
  -3.50958431127996539969e-03
  -3.52609038633636085944e-03
  -3.53966968845128172189e-03
  -3.55024907225676969111e-03
  -3.55777134027214112996e-03
  -3.56219571228025928475e-03
  -3.56349816127503153662e-03
  -3.56167161189436263027e-03
  -3.55672599892144832706e-03
  -3.54868818514156823818e-03
  -3.53760173955547894964e-03
  -3.52352657865074268828e-03
  -3.50653847509237040839e-03
  -3.48672843979092126482e-03
  -3.46420198481588430955e-03
  -3.43907827602321592916e-03
  -3.41148918553789946839e-03
  -3.38157825535697698430e-03
  -3.34949958430046665706e-03
  -3.31541665132214320375e-03
  -3.27950108879042356858e-03
  -3.24193141975177845371e-03
  -3.20289177339210667794e-03
  -3.16257059291232380319e-03
  -3.12115934983518347745e-03
  -3.07885127836485077146e-03
  -3.03584014283716542570e-03
  -2.99231905053610634446e-03
  -2.94847932122461933030e-03
  -2.90450942366055802138e-03
  -2.86059398815902881166e-03
  -2.81691290294039300285e-03
  -2.77364050059012616847e-03
  -2.73094483947511996666e-03
  -2.68898708343442071830e-03
  -2.64792098151536443168e-03
  -2.60789244798245289231e-03
  -2.56903924131072309775e-03
  -2.53149073941139448121e-03
  -2.49536780694752796661e-03
  -2.46078274930366805787e-03
  -2.42783934659428646957e-03
  -2.39663296005070743794e-03
  -2.36725070222963251271e-03
  -2.33977166175203732043e-03
  -2.31426717271923784378e-03
  -2.29080111857164151618e-03
  -2.26943025995910352063e-03
  -2.25020457618210637310e-03
  -2.23316760993870705790e-03
  -2.21835680546910839900e-03
  -2.20580383072052372412e-03
  -2.19553487484950996325e-03
  -2.18757091322491388496e-03
  -2.18192793307626052568e-03
  -2.17861711403280478017e-03
  -2.17764495899858915445e-03
  -2.17901337208697152073e-03
  -2.18271968167332765937e-03
  -2.18875660799274689497e-03
  -2.19711217608781943580e-03
  -2.20776957627598531542e-03
  -2.22070697563287030793e-03
  -2.23589728525476830190e-03
  -2.25330788924803758488e-03
  -2.27290034247481804314e-03
  -2.29463004504472291994e-03
  -2.31844590236320730048e-03
  -2.34428998021535186375e-03
  -2.37209716486594607635e-03
  -2.40179483848332970750e-03
  -2.43330258033938075235e-03
  -2.46653190419676400860e-03
  -2.50138604206667346935e-03
  -2.53775978410808716185e-03
  -2.57553938384790393618e-03
  -2.61460253713911242729e-03
  -2.65481844235109518473e-03
  -2.69604794821756005296e-03
  -2.73814379456796151355e-03
  -2.78095094985641002119e-03
  -2.82430704799847354450e-03
  -2.86804292555167946940e-03
  -2.91198325875358619841e-03
  -2.95594729838551117940e-03
  -2.99974969888459723488e-03
  -3.04320143660607479730e-03
  -3.08611081066612275361e-03
  -3.12828451839632353665e-03
  -3.16952879613601346681e-03
  -3.20965061490062920219e-03
  -3.24845891941046797241e-03
  -3.28576589806386411274e-03
  -3.32138827070575749431e-03
  -3.35514858048974488544e-03
  -3.38687647576920661946e-03
  -3.41640996778694479297e-03
  -3.44359664996808081602e-03
  -3.46829486485725722866e-03
  -3.49037480517727085813e-03
  -3.50971953611604490716e-03
  -3.52622592676468237655e-03
  -3.53980547961913697558e-03
  -3.55038504820912557969e-03
  -3.55790743421262973742e-03
  -3.56233185683533550014e-03
  -3.56363428876022014791e-03
  -3.56180765458153367545e-03
  -3.55686188930613798181e-03
  -3.54882385620918557739e-03
  -3.53773712504544708690e-03
  -3.52366161331745452942e-03
  -3.50667309496199754854e-03
  -3.48686258241299833205e-03
  -3.46433558950873807594e-03
  -3.43921128411227164726e-03
  -3.41162154058586609973e-03
  -3.38170990338510380618e-03
  -3.34963047399989589936e-03
  -3.31554673425463793807e-03
  -3.27963031957758874291e-03
  -3.24205975625213756175e-03
  -3.20301917686525820794e-03
  -3.16269702816958809405e-03
  -3.12128478537608252188e-03
  -3.07897568649902891869e-03
  -3.03596349979113862630e-03
  -2.99244133654450643681e-03
  -2.94860052060556473985e-03
  -2.90462952487484599509e-03
  -2.86071298385297181216e-03
  -2.81703078997209716700e-03
  -2.77375728003914460984e-03
  -2.73106051663542584440e-03
  -2.68910166779077293084e-03
  -2.64803448670316091129e-03
  -2.60800489173120941117e-03
  -2.56915064537148463142e-03
  -2.53160112946825477040e-03
  -2.49547721251377422474e-03
  -2.46089120360281927297e-03
  -2.42794688642660903485e-03
  -2.39673962564568125699e-03
  -2.36735653708504715717e-03
  -2.33987671246020483007e-03
  -2.31437148878118606130e-03
  -2.29090475219993934541e-03
  -2.26953326587010697363e-03
  -2.25030701137847281845e-03
  -2.23326953348302378183e-03
  -2.21845827824956702556e-03
  -2.20590491520951219317e-03
  -2.19563563485613904777e-03
  -2.18767141364245056023e-03
  -2.18202823962540884417e-03
  -2.17871729300193450046e-03
  -2.17774507698186578844e-03
  -2.17911349572146983283e-03
  -2.18281987737616121198e-03
  -2.18885694169920546823e-03
  -2.19721271299161457005e-03
  -2.20787038057258539619e-03
  -2.22080811026693740462e-03
  -2.23599881167270376700e-03
  -2.25340986715659875178e-03
  -2.27300282960676749283e-03
  -2.29473309693242408236e-03
  -2.31854957212102637948e-03
  -2.34439431833175730008e-03
  -2.37220221900613604735e-03
  -2.40190065330309673181e-03
  -2.43340919731095889703e-03
  -2.46663936144740246134e-03
  -2.50149437423047380641e-03
  -2.53786902219172664369e-03
  -2.57564955511079647296e-03
  -2.61471366498837584288e-03
  -2.65493054625180573136e-03
  -2.69616104361864589167e-03
  -2.73825789284395980719e-03
  -2.78106605826536909878e-03
  -2.82442316965610031726e-03
</dep>
<dep V3.It time>
  +0.00000000000000000000e+00
  -2.08780977141952622922e-06
  -4.16667836943794911913e-06
  -6.22840882738333523398e-06
  -8.26486472110461924828e-06
  -1.02680093083933206798e-05
  -1.22299373203833640003e-05
  -1.41429061564224411995e-05
  -1.59993664308188954237e-05
  -1.77919917755681376002e-05
  -1.95137077466325684159e-05
  -2.11577197468670874514e-05
  -2.27175398461395280177e-05
  -2.41870123725007601934e-05
  -2.55603382222080455222e-05
  -2.68320977339087107794e-05
  -2.79972720860222068495e-05
  -2.90512630944927963128e-05
  -2.99899113692211864040e-05
  -3.08095127235172712129e-05
  -3.15068327968498726227e-05
  -3.20791198151229405141e-05
  -3.25241154472966087496e-05
  -3.28400637314985033299e-05
  -3.30257179970496492303e-05
  -3.30803457764969211104e-05
  -3.30037317068313171818e-05
  -3.27961783821041614031e-05
  -3.24585051463440046405e-05
  -3.19920448705665057916e-05
  -3.13986386906672619709e-05
  -3.06806287376138839165e-05
  -2.98408488957195458481e-05
  -2.88826136237007531139e-05
  -2.78097048666717449542e-05
  -2.66263571320174764789e-05
  -2.53372407827195326568e-05
  -2.39474435981055915632e-05
  -2.24624507031822773424e-05
  -2.08881229138276117141e-05
  -1.92306736099182555436e-05
  -1.74966442152429183497e-05
  -1.56928783809795360620e-05
  -1.38264949710697084408e-05
  -1.19048599791742405263e-05
  -9.93555744723396120797e-06
  -7.92635954122593049587e-06
  -5.88519587203438980749e-06
  -3.82012220914394695322e-06
  -1.73928868401409065412e-06
  +3.49092378957421147794e-07
  +2.43677886450399190421e-06
  +4.51553140387993413835e-06
  +6.57714588189300818522e-06
  +8.61348581899679578580e-06
  +1.06165144882247110167e-05
  +1.25783266224744914782e-05
  +1.44911796171602166232e-05
