<Qucs Dataset 0.0.21>
<indep time 209>
0.000000000000e+00
9.950250000000e-08
1.990050000000e-07
3.980100000000e-07
7.960200000000e-07
1.592040000000e-06
3.184080000000e-06
6.368160000000e-06
1.273632000000e-05
2.268657000000e-05
3.263682000000e-05
4.258707000000e-05
5.253732000000e-05
6.248757000000e-05
7.243782000000e-05
8.238807000000e-05
9.233832000000e-05
1.022885700000e-04
1.122388200000e-04
1.221890700000e-04
1.321393200000e-04
1.420895700000e-04
1.520398200000e-04
1.619900700000e-04
1.719403200000e-04
1.818905700000e-04
1.918408200000e-04
2.017910700000e-04
2.117413200000e-04
2.216915700000e-04
2.316418200000e-04
2.415920700000e-04
2.515423200000e-04
2.614925700000e-04
2.714428200000e-04
2.813930700000e-04
2.913433200000e-04
3.012935700000e-04
3.112438200000e-04
3.211940700000e-04
3.311443200000e-04
3.410945700000e-04
3.510448200000e-04
3.609950700000e-04
3.709453200000e-04
3.808955700000e-04
3.908458200000e-04
4.007960700000e-04
4.107463200000e-04
4.206965700000e-04
4.306468200000e-04
4.405970700000e-04
4.505473200000e-04
4.604975700000e-04
4.704478200000e-04
4.803980700000e-04
4.903483200000e-04
5.002985700000e-04
5.102488200000e-04
5.201990700000e-04
5.301493200000e-04
5.400995700000e-04
5.500498200000e-04
5.600000700000e-04
5.699503200000e-04
5.799005700000e-04
5.898508200000e-04
5.998010700000e-04
6.097513200000e-04
6.197015700000e-04
6.296518200000e-04
6.396020700000e-04
6.495523200000e-04
6.595025700000e-04
6.694528200000e-04
6.794030700000e-04
6.893533200000e-04
6.993035700000e-04
7.092538200000e-04
7.192040700000e-04
7.291543200000e-04
7.391045700000e-04
7.490548200000e-04
7.590050700000e-04
7.689553200000e-04
7.789055700000e-04
7.888558200000e-04
7.988060700000e-04
8.087563200000e-04
8.187065700000e-04
8.286568200000e-04
8.386070700000e-04
8.485573200000e-04
8.585075700000e-04
8.684578200000e-04
8.784080700000e-04
8.883583200000e-04
8.983085700000e-04
9.082588200000e-04
9.182090700000e-04
9.281593200000e-04
9.381095700000e-04
9.480598200000e-04
9.580100700000e-04
9.679603200000e-04
9.779105700000e-04
9.878608200000e-04
9.978110700000e-04
1.007761320000e-03
1.017711570000e-03
1.027661820000e-03
1.037612070000e-03
1.047562320000e-03
1.057512570000e-03
1.067462820000e-03
1.077413070000e-03
1.087363320000e-03
1.097313570000e-03
1.107263820000e-03
1.117214070000e-03
1.127164320000e-03
1.137114570000e-03
1.147064820000e-03
1.157015070000e-03
1.166965320000e-03
1.176915570000e-03
1.186865820000e-03
1.196816070000e-03
1.206766320000e-03
1.216716570000e-03
1.226666820000e-03
1.236617070000e-03
1.246567320000e-03
1.256517570000e-03
1.266467820000e-03
1.276418070000e-03
1.286368320000e-03
1.296318570000e-03
1.306268820000e-03
1.316219070000e-03
1.326169320000e-03
1.336119570000e-03
1.346069820000e-03
1.356020070000e-03
1.365970320000e-03
1.375920570000e-03
1.385870820000e-03
1.395821070000e-03
1.405771320000e-03
1.415721570000e-03
1.425671820000e-03
1.435622070000e-03
1.445572320000e-03
1.455522570000e-03
1.465472820000e-03
1.475423070000e-03
1.485373320000e-03
1.495323570000e-03
1.505273820000e-03
1.515224070000e-03
1.525174320000e-03
1.535124570000e-03
1.545074820000e-03
1.555025070000e-03
1.564975320000e-03
1.574925570000e-03
1.584875820000e-03
1.594826070000e-03
1.604776320000e-03
1.614726570000e-03
1.624676820000e-03
1.634627070000e-03
1.644577320000e-03
1.654527570000e-03
1.664477820000e-03
1.674428070000e-03
1.684378320000e-03
1.694328570000e-03
1.704278820000e-03
1.714229070000e-03
1.724179320000e-03
1.734129570000e-03
1.744079820000e-03
1.754030070000e-03
1.763980320000e-03
1.773930570000e-03
1.783880820000e-03
1.793831070000e-03
1.803781320000e-03
1.813731570000e-03
1.823681820000e-03
1.833632070000e-03
1.843582320000e-03
1.853532570000e-03
1.863482820000e-03
1.873433070000e-03
1.883383320000e-03
1.893333570000e-03
1.903283820000e-03
1.913234070000e-03
1.923184320000e-03
1.933134570000e-03
1.943084820000e-03
1.953035070000e-03
1.962985320000e-03
1.972935570000e-03
1.982885820000e-03
1.992836070000e-03
2.000000000000e-03
</indep>
<dep tran.i(pr1) time>
2.474536655932e-03
2.474976475288e-03
2.475416371189e-03
2.476296237047e-03
2.478056410680e-03
2.481578486921e-03
2.488629244946e-03
2.502754687657e-03
2.531081119717e-03
2.575447124419e-03
2.619781965141e-03
2.663899595613e-03
2.707610642692e-03
2.750723417092e-03
2.793044987557e-03
2.834382316918e-03
2.874543448486e-03
2.913338731400e-03
2.950582072722e-03
2.986092203412e-03
3.019693944805e-03
3.051219461950e-03
3.080509490014e-03
3.107414520052e-03
3.131795930725e-03
3.153527052969e-03
3.172494155319e-03
3.188597338356e-03
3.201751327767e-03
3.211886156634e-03
3.218947728818e-03
3.222898256735e-03
3.223716568257e-03
3.221398279056e-03
3.215955828330e-03
3.207418377467e-03
3.195831572876e-03
3.181257175828e-03
3.163772563755e-03
3.143470108976e-03
3.120456442244e-03
3.094851609870e-03
3.066788134370e-03
3.036409989639e-03
3.003871502585e-03
2.969336193873e-03
2.932975571000e-03
2.894967887278e-03
2.855496880496e-03
2.814750505005e-03
2.772919670767e-03
2.730197002519e-03
2.686775631624e-03
2.642848032449e-03
2.598604914195e-03
2.554234178072e-03
2.509919948543e-03
2.465841686083e-03
2.422173387540e-03
2.379082878761e-03
2.336731202671e-03
2.295272104519e-03
2.254851614512e-03
2.215607726597e-03
2.177670170763e-03
2.141160274889e-03
2.106190910901e-03
2.072866518921e-03
2.041283202010e-03
2.011528883322e-03
1.983683516703e-03
1.957819341290e-03
1.934001170237e-03
1.912286703541e-03
1.892726854898e-03
1.875366082690e-03
1.860242715537e-03
1.847389263346e-03
1.836832705437e-03
1.828594748159e-03
1.822692045295e-03
1.819136375652e-03
1.817934773332e-03
1.819089607444e-03
1.822598609249e-03
1.828454846086e-03
1.836646642710e-03
1.847157452000e-03
1.859965678292e-03
1.875044457771e-03
1.892361401545e-03
1.911878308046e-03
1.933550852348e-03
1.957328260807e-03
1.983152980069e-03
2.010960350007e-03
2.040678290489e-03
2.072227012032e-03
2.105518760382e-03
2.140457604891e-03
2.176939280163e-03
2.214851089910e-03
2.254071881269e-03
2.294472096951e-03
2.335913911594e-03
2.378251457557e-03
2.421331144174e-03
2.464992073117e-03
2.509066551138e-03
2.553380699995e-03
2.597755161892e-03
2.642005897259e-03
2.685945070250e-03
2.729382015901e-03
2.772124281522e-03
2.813978733629e-03
2.854752720546e-03
2.894255279774e-03
2.932298378297e-03
2.968698173272e-03
3.003276279963e-03
3.035861033382e-03
3.066288729890e-03
3.094404835001e-03
3.120065143781e-03
3.143136880642e-03
3.163499725838e-03
3.181046756734e-03
3.195685292817e-03
3.207337634465e-03
3.215941686723e-03
3.221451460635e-03
3.223837446136e-03
3.223086852043e-03
3.219203710243e-03
3.212208842833e-03
3.202139692614e-03
3.189050018960e-03
3.173009462736e-03
3.154102985465e-03
3.132430189438e-03
3.108104526883e-03
3.081252407517e-03
3.052012215015e-03
3.020533243863e-03
2.986974568914e-03
2.951503860606e-03
2.914296159268e-03
2.875532622203e-03
2.835399257338e-03
2.794085657108e-03
2.751783745935e-03
2.708686554193e-03
2.664987030881e-03
2.620876906407e-03
2.576545615911e-03
2.532179292447e-03
2.487959838118e-03
2.444064079955e-03
2.400663015896e-03
2.357921154822e-03
2.315995953085e-03
2.275037348492e-03
2.235187391246e-03
2.196579969888e-03
2.159340628933e-03
2.123586473590e-03
2.089426155752e-03
2.056959934416e-03
2.026279802688e-03
1.997469672805e-03
1.970605609934e-03
1.945756105068e-03
1.922982377057e-03
1.902338693688e-03
1.883872701817e-03
1.867625756805e-03
1.853633241897e-03
1.841924868816e-03
1.832524951519e-03
1.825452645977e-03
1.820722149798e-03
1.818342856643e-03
1.818319461545e-03
1.820652014500e-03
1.825335921007e-03
1.832361889535e-03
1.841715827222e-03
1.853378686420e-03
1.867326265925e-03
1.883528971948e-03
1.901951544967e-03
1.922552759589e-03
1.945285105444e-03
1.970094457848e-03
1.996919747571e-03
2.025692639441e-03
2.056337229812e-03
2.088769772941e-03
2.122898446273e-03
2.158623164304e-03
2.195835450269e-03
2.234418374271e-03
2.274246565661e-03
2.315186306576e-03
2.357095712452e-03
2.399825004145e-03
2.443216875009e-03
2.474776171354e-03
</dep>
<dep tran.v(vin) time>
0.000000000000e+00
6.251926052999e-05
1.250384966233e-04
2.500767977536e-04
5.001520315643e-04
1.000291551645e-03
2.000483013294e-03
4.000165366720e-03
7.993927377067e-03
1.420616939368e-02
2.036290243031e-02
2.644006975768e-02
3.241392554045e-02
3.826112762127e-02
4.395882872765e-02
4.948476574502e-02
5.481734670734e-02
5.993573516518e-02
6.481993160182e-02
6.945085157902e-02
7.381040030733e-02
7.788154334934e-02
8.164837317986e-02
8.509617134270e-02
8.821146596140e-02
9.098208437900e-02
9.339720072133e-02
9.544737819787e-02
9.712460597491e-02
9.842233047700e-02
9.933548099427e-02
9.986048949563e-02
9.999530457051e-02
9.973939944443e-02
9.909377403737e-02
9.806095105667e-02
9.664496613983e-02
9.485135208577e-02
9.268711723600e-02
9.016071809033e-02
8.728202626410e-02
8.406228991594e-02
8.051408979691e-02
7.665129009263e-02
7.248898425056e-02
6.804343600411e-02
6.333201582394e-02
5.837313304484e-02
5.318616393337e-02
4.779137597731e-02
4.220984869277e-02
3.646339125843e-02
3.057445729859e-02
2.456605714831e-02
1.846166794307e-02
1.228514188462e-02
6.060613041159e-03
-1.875969536821e-04
-6.435073934911e-03
-1.265740660170e-02
-1.883028190173e-02
-2.492958003172e-02
-3.093146868272e-02
-3.681249616217e-02
-4.254968302870e-02
-4.812061188167e-02
-5.350351495458e-02
-5.867735917012e-02
-6.362192832455e-02
-6.831790208016e-02
-7.274693145729e-02
-7.689171053086e-02
-8.073604405132e-02
-8.426491072569e-02
-8.746452191158e-02
-9.032237549471e-02
-9.282730473948e-02
-9.496952192174e-02
-9.674065657318e-02
-9.813378818798e-02
-9.914347326391e-02
-9.976576657216e-02
-9.999823657290e-02
-9.983997491621e-02
-9.929159999141e-02
-9.835525451070e-02
-9.703459713682e-02
-9.533478818721e-02
-9.326246947069e-02
-9.082573833530e-02
-8.803411602891e-02
-8.489851049596e-02
-8.143117375600e-02
-7.764565403023e-02
-7.355674280347e-02
-6.918041702806e-02
-6.453377669579e-02
-5.963497802161e-02
-5.450316250033e-02
-4.915838211338e-02
-4.362152097803e-02
-3.791421374508e-02
-3.205876106393e-02
-2.607804244535e-02
-1.999542686243e-02
-1.383468143895e-02
-7.619878582126e-03
-1.375301922385e-03
4.874648572116e-03
1.110555193558e-02
1.729306162668e-02
2.341300065990e-02
2.944145607435e-02
3.535487237089e-02
4.113014355254e-02
4.674470340856e-02
5.217661368930e-02
5.740464982742e-02
6.240838387043e-02
6.716826430059e-02
7.166569243023e-02
7.588309507400e-02
7.980399321404e-02
8.341306638990e-02
8.669621256146e-02
8.964060321106e-02
9.223473346942e-02
9.446846706965e-02
9.633307595351e-02
9.782127437533e-02
9.892724737021e-02
9.964667347532e-02
9.997674161556e-02
9.991616208746e-02
9.946517159860e-02
9.862553234265e-02
9.740052511386e-02
9.579493648768e-02
9.381504011779e-02
9.146857222252e-02
8.876470135644e-02
8.571399258532e-02
8.232836620429e-02
7.862105116073e-02
7.460653336359e-02
7.030049908141e-02
6.571977365002e-02
6.088225572945e-02
5.580684736696e-02
5.051338013950e-02
4.502253766402e-02
3.935577477869e-02
3.353523371052e-02
2.758365755714e-02
2.152430142078e-02
1.538084154163e-02
9.177282785598e-03
2.937864848081e-03
-3.313032459880e-03
-9.550984472919e-03
-1.575161710793e-02
-2.189070210299e-02
-2.794425168655e-02
-3.388861230688e-02
-3.970055705560e-02
-4.535737642421e-02
-5.083696703886e-02
-5.611791802675e-02
-6.117959467668e-02
-6.600221906682e-02
-7.056694734465e-02
-7.485594335720e-02
-7.885244834372e-02
-8.254084641867e-02
-8.590672558897e-02
-8.893693406724e-02
-9.161963166087e-02
-9.394433603623e-02
-9.590196367722e-02
-9.748486537802e-02
-9.868685613150e-02
-9.950323929646e-02
-9.993082494916e-02
-9.996794234765e-02
-9.961444645993e-02
-9.887171853070e-02
-9.774266068430e-02
-9.623168458494e-02
-9.434469419871e-02
-9.208906272443e-02
-8.947360378376e-02
-8.650853698300e-02
-8.320544798110e-02
-7.957724322006e-02
-7.563809949448e-02
-7.140340855734e-02
-6.688971697852e-02
-6.211466149094e-02
-5.709690007707e-02
-5.185603906500e-02
-4.641255651894e-02
-4.078772222353e-02
-3.500351457462e-02
-2.908253470118e-02
-2.304791815398e-02
-1.692324450609e-02
-1.073244521837e-02
-4.499710130058e-03
-4.898587196589e-17
</dep>
<dep tran.v(vout) time>
3.762731672034e+00
3.762511762356e+00
3.762291814406e+00
3.761851881477e+00
3.760971794660e+00
3.759210756539e+00
3.755685377527e+00
3.748622656172e+00
3.734459440141e+00
3.712276437790e+00
3.690109017430e+00
3.668050202194e+00
3.646194678654e+00
3.624638291454e+00
3.603477506221e+00
3.582808841541e+00
3.562728275757e+00
3.543330634300e+00
3.524708963639e+00
3.506953898294e+00
3.490153027597e+00
3.474390269025e+00
3.459745254993e+00
3.446292739974e+00
3.434102034638e+00
3.423236473516e+00
3.413752922341e+00
3.405701330822e+00
3.399124336116e+00
3.394056921683e+00
3.390526135591e+00
3.388550871632e+00
3.388141715872e+00
3.389300860472e+00
3.392022085835e+00
3.396290811266e+00
3.402084213562e+00
3.409371412086e+00
3.418113718122e+00
3.428264945512e+00
3.439771778878e+00
3.452574195065e+00
3.466605932815e+00
3.481795005181e+00
3.498064248708e+00
3.515331903064e+00
3.533512214500e+00
3.552516056361e+00
3.572251559752e+00
3.592624747497e+00
3.613540164616e+00
3.634901498741e+00
3.656612184188e+00
3.678575983776e+00
3.700697542903e+00
3.722882910964e+00
3.745040025729e+00
3.767079156959e+00
3.788913306230e+00
3.810458560620e+00
3.831634398665e+00
3.852363947740e+00
3.872574192744e+00
3.892196136702e+00
3.911164914618e+00
3.929419862556e+00
3.946904544549e+00
3.963566740540e+00
3.979358398995e+00
3.994235558339e+00
4.008158241648e+00
4.021090329355e+00
4.032999414881e+00
4.043856648230e+00
4.053636572551e+00
4.062316958655e+00
4.069878642231e+00
4.076305368327e+00
4.081583647282e+00
4.085702625921e+00
4.088653977352e+00
4.090431812174e+00
4.091032613334e+00
4.090455196278e+00
4.088700695376e+00
4.085772576957e+00
4.081676678645e+00
4.076421274000e+00
4.070017160854e+00
4.062477771115e+00
4.053819299227e+00
4.044060845977e+00
4.033224573826e+00
4.021335869597e+00
4.008423509966e+00
3.994519824997e+00
3.979660854755e+00
3.963886493984e+00
3.947240619809e+00
3.929771197554e+00
3.911530359918e+00
3.892574455045e+00
3.872964059366e+00
3.852763951524e+00
3.832043044203e+00
3.810874271222e+00
3.789334427913e+00
3.767503963442e+00
3.745466724431e+00
3.723309650002e+00
3.701122419054e+00
3.678997051371e+00
3.657027464875e+00
3.635308992049e+00
3.613937859239e+00
3.593010633186e+00
3.572623639727e+00
3.552872360113e+00
3.533850810851e+00
3.515650913364e+00
3.498361860018e+00
3.482069483309e+00
3.466855635055e+00
3.452797582500e+00
3.439967428110e+00
3.428431559679e+00
3.418250137081e+00
3.409476621633e+00
3.402157353592e+00
3.396331182768e+00
3.392029156638e+00
3.389274269683e+00
3.388081276932e+00
3.388456573978e+00
3.390398144879e+00
3.393895578583e+00
3.398930153693e+00
3.405474990520e+00
3.413495268632e+00
3.422948507268e+00
3.433784905281e+00
3.445947736559e+00
3.459373796242e+00
3.473993892493e+00
3.489733378069e+00
3.506512715543e+00
3.524248069697e+00
3.542851920366e+00
3.562233688899e+00
3.582300371331e+00
3.602957171446e+00
3.624108127032e+00
3.645656722903e+00
3.667506484559e+00
3.689561546796e+00
3.711727192044e+00
3.733910353777e+00
3.756020080941e+00
3.777967960023e+00
3.799668492052e+00
3.821039422589e+00
3.842002023457e+00
3.862481325754e+00
3.882406304377e+00
3.901710015056e+00
3.920329685533e+00
3.938206763205e+00
3.955286922124e+00
3.971520032792e+00
3.986860098656e+00
4.001265163597e+00
4.014697195033e+00
4.027121947466e+00
4.038508811472e+00
4.048830653156e+00
4.058063649091e+00
4.066187121597e+00
4.073183379051e+00
4.079037565592e+00
4.083737524240e+00
4.087273677011e+00
4.089638925101e+00
4.090828571678e+00
4.090840269227e+00
4.089673992750e+00
4.087332039496e+00
4.083819055232e+00
4.079142086389e+00
4.073310656790e+00
4.066336867038e+00
4.058235514026e+00
4.049024227516e+00
4.038723620205e+00
4.027357447278e+00
4.014952771076e+00
4.001540126215e+00
3.987153680280e+00
3.971831385094e+00
3.955615113529e+00
3.938550776863e+00
3.920688417848e+00
3.902082274865e+00
3.882790812864e+00
3.862876717169e+00
3.842406846712e+00
3.821452143774e+00
3.800087497927e+00
3.778391562496e+00
3.762611914323e+00
</dep>
