<Qucs Dataset 0.0.19>
<indep acfrequency 51>
  +1.00000000000000000000e+03
  +1.25892541179416730301e+03
  +1.58489319246111358552e+03
  +1.99526231496887999128e+03
  +2.51188643150958068873e+03
  +3.16227766016837949792e+03
  +3.98107170553497371657e+03
  +5.01187233627272507874e+03
  +6.30957344480193387426e+03
  +7.94328234724281719537e+03
  +1.00000000000000018190e+04
  +1.25892541179416803061e+04
  +1.58489319246111426764e+04
  +1.99526231496888030961e+04
  +2.51188643150958232582e+04
  +3.16227766016838177165e+04
  +3.98107170553497562651e+04
  +5.01187233627272580634e+04
  +6.30957344480193642084e+04
  +7.94328234724281937815e+04
  +1.00000000000000043656e+05
  +1.25892541179416875821e+05
  +1.58489319246111524990e+05
  +1.99526231496888183756e+05
  +2.51188643150958290789e+05
  +3.16227766016838257201e+05
  +3.98107170553497620858e+05
  +5.01187233627272711601e+05
  +6.30957344480194267817e+05
  +7.94328234724282752723e+05
  +1.00000000000000162981e+06
  +1.25892541179416910745e+06
  +1.58489319246111554094e+06
  +1.99526231496888236143e+06
  +2.51188643150958325714e+06
  +3.16227766016838606447e+06
  +3.98107170553497690707e+06
  +5.01187233627273235470e+06
  +6.30957344480193872005e+06
  +7.94328234724283032119e+06
  +1.00000000000000093132e+07
  +1.25892541179416924715e+07
  +1.58489319246111754328e+07
  +1.99526231496888287365e+07
  +2.51188643150958605111e+07
  +3.16227766016838401556e+07
  +3.98107170553498119116e+07
  +5.01187233627272918820e+07
  +6.30957344480194598436e+07
  +7.94328234724283814430e+07
  +1.00000000000000208616e+08
</indep>
<dep VOUT_dB acfrequency>
  -1.00612871756579274063e+01
  -8.06379126885165575800e+00
  -6.06775703453647174968e+00
  -4.07403494253417619575e+00
  -2.08396620807446764090e+00
  -9.96598401079758500209e-02
  +1.87558299081852242196e+00
  +3.83663228165746561515e+00
  +5.77560620651707790074e+00
  +7.68060900362914367179e+00
  +9.53417898306337541214e+00
  +1.13117634842736674017e+01
  +1.29810458150656220511e+01
  +1.45035774576372453737e+01
  +1.58402645270328239491e+01
  +1.69606766385590042034e+01
  +1.78527536827425414856e+01
  +1.85272111781404049680e+01
  +1.90135619720591790838e+01
  +1.93505333606027072335e+01
  +1.95765758705745618329e+01
  +1.97240840802836672196e+01
  +1.98175074372766175657e+01
  +1.98738213214062113821e+01
  +1.99038526551578058843e+01
  +1.99135651899010994725e+01
  +1.99049165393303582050e+01
  +1.98761628289140510617e+01
  +1.98215867465181148077e+01
  +1.97306701459454956193e+01
  +1.95868262967459756396e+01
  +1.93660584342890764731e+01
  +1.90364045802434844745e+01
  +1.85596454711084106748e+01
  +1.78968401646834855967e+01
  +1.70176677849798210218e+01
  +1.59101578780941306235e+01
  +1.45851150879153657058e+01
  +1.30721600659428371927e+01
  +1.14101698068869481517e+01
  +9.63781861459299094008e+00
  +7.78784690572725324387e+00
  +5.88524587717318059532e+00
  +3.94784350443026843536e+00
  +1.98780918471481249377e+00
  +1.32163433755765925837e-02
  -1.97067602124919050155e+00
  -3.96048197126571110971e+00
  -5.95403762940279257521e+00
  -7.94996659982121567367e+00
  -9.94739598928548218737e+00
</dep>
<dep V1.i acfrequency>
  -1.97197461927974324057e-07-j6.27699016620259112400e-06
  -3.12356779679629155386e-07-j7.89770784329947312524e-06
  -4.94600327823286289413e-07-j9.93355103074295259474e-06
  -7.82756480844523975034e-07-j1.24875373256939936357e-05
  -1.23775202437734731412e-06-j1.56849728977011400007e-05
  -1.95462946069014510784e-06-j1.96749921425506867838e-05
  -3.08027133325748282705e-06-j2.46285646184467829406e-05
  -4.83831679006138959826e-06-j3.07287170030134544597e-05
  -7.56122780539362434628e-06-j3.81454243016599232104e-05
  -1.17244802797282139954e-05-j4.69833227658060330594e-05
  -1.79660324707449348385e-05-j5.71876575093710728579e-05
  -2.70528570325687781647e-05-j6.84011281550907582205e-05
  -3.97324498382856718679e-05-j7.97986365641998137603e-05
  -5.64163266540660500036e-05-j9.00025745058158143730e-05
  -7.67509027426781589593e-05-j9.72598554220578258474e-05
  -9.93437433565437603153e-05-j9.99978466129042238347e-05
  -1.22003781590122704773e-04-j9.75491342644012164338e-05
  -1.42514406157675578048e-04-j9.05125696743838952657e-05
  -1.59425137643423499995e-04-j8.04279367885324825843e-05
  -1.72327146092317556435e-04-j6.90563823128648082011e-05
  -1.81600066329924974152e-04-j5.78050964444472292758e-05
  -1.87982407803155722719e-04-j4.75299475821213150348e-05
  -1.92245454738853790728e-04-j3.86105695376548962647e-05
  -1.95036186550738609505e-04-j3.11146789456874864332e-05
  -1.96839093776622430345e-04-j2.49437350154809150266e-05
  -1.97993902346033437412e-04-j1.99297542131373836560e-05
  -1.98729535099478697973e-04-j1.58895846088186534772e-05
  -1.99196507229120855619e-04-j1.26512036400881072717e-05
  -1.99492277577829408208e-04-j1.00641294892376415016e-05
  -1.99679348404353270265e-04-j8.00171867060793517989e-06
  -1.99797562744538669596e-04-j6.35975394570192920085e-06
  -1.99872222997059891024e-04-j5.05361985368366073423e-06
  -1.99919359148376167513e-04-j4.01517961961909974899e-06
  -1.99949111490214432750e-04-j3.18984518694713503617e-06
  -1.99967888505726869774e-04-j2.53402204145047882378e-06
  -1.99979737816259969417e-04-j2.01296452823074289995e-06
  -1.99987214948345873788e-04-j1.59901434429801647674e-06
  -1.99991932987449183047e-04-j1.27017220622610560454e-06
  -1.99994909983416361155e-04-j1.00894866492812207426e-06
  -1.99996788386488987075e-04-j8.01443939234258717619e-07
  -1.99997973596858911365e-04-j6.36613322127499436931e-07
  -1.99998721421274476421e-04-j5.05681827189796706534e-07
  -1.99999193269459322499e-04-j4.01678300787633446589e-07
  -1.99999490986682673969e-04-j3.19064890536013834321e-07
  -1.99999678834007310439e-04-j2.53442489328570275120e-07
  -1.99999797357838061474e-04-j2.01316644438120917471e-07
  -1.99999872141391814252e-04-j1.59911554553637813569e-07
  -1.99999919326653073474e-04-j1.27022292850664797470e-07
  -1.99999949098551670079e-04-j1.00897408650268971542e-07
  -1.99999967883354322264e-04-j8.01456681021051053904e-08
  -1.99999979735765356231e-04-j6.36619708060948141792e-08
</dep>
<dep _net0.v acfrequency>
  +9.85987309639871486663e-04+j3.13849508310129546307e-02
  +1.56178389839814555501e-03+j3.94885392164973578200e-02
  +2.47300163911643106421e-03+j4.96677551537147571326e-02
  +3.91378240422261998444e-03+j6.24376866284699627574e-02
  +6.18876012188673742948e-03+j7.84248644885056911402e-02
  +9.77314730345072747719e-03+j9.83749607127534231310e-02
  +1.54013566662874138574e-02+j1.23142823092233913429e-01
  +2.41915839503069503291e-02+j1.53643585015067252186e-01
  +3.78061390269681246723e-02+j1.90727121508299596320e-01
  +5.86224013986410691368e-02+j2.34916613829030146432e-01
  +8.98301623537246657358e-02+j2.85938287546855351984e-01
  +1.35264285162843889143e-01+j3.42005640775453756408e-01
  +1.98662249191428358364e-01+j3.98993182820999048310e-01
  +2.82081633270330256469e-01+j4.50012872529079066553e-01
  +3.83754513713390754681e-01+j4.86299277110289085435e-01
  +4.96718716782718727742e-01+j4.99989233064521088057e-01
  +6.10018907950613531455e-01+j4.87745671322006135728e-01
  +7.12572030788377830390e-01+j4.52562848371919457247e-01
  +7.97125688217117489565e-01+j4.02139683942662196081e-01
  +8.61635730461587812101e-01+j3.45281911564324250907e-01
  +9.08000331649624792263e-01+j2.89025482222236118623e-01
  +9.39912039015778577600e-01+j2.37649737910606922986e-01
  +9.61227273694268857795e-01+j1.93052847688274076265e-01
  +9.75180932753692997217e-01+j1.55573394728438008094e-01
  +9.84195468883112045688e-01+j1.24718675077404986262e-01
  +9.89969511730167228691e-01+j9.96487710656859954073e-02
  +9.93647675497393301214e-01+j7.94479230440941625035e-02
  +9.95982536145604169242e-01+j6.32560182004402171696e-02
  +9.97461387889146955388e-01+j5.03206474461898589645e-02
  +9.98396742021766425701e-01+j4.00085933530395579383e-02
  +9.98987813722693407392e-01+j3.17987697285063847241e-02
  +9.99361114985299336944e-01+j2.52680992684168916063e-02
  +9.99596795741880872477e-01+j2.00758980981039399094e-02
  +9.99745557451072075494e-01+j1.59492259347345094467e-02
  +9.99839442528634325669e-01+j1.26701102072552095751e-02
  +9.99898689081299862913e-01+j1.00648226411542331821e-02
  +9.99936074741729408188e-01+j7.99507172150606786054e-03
  +9.99959664937245862326e-01+j6.35086103113452048879e-03
  +9.99974549917081678707e-01+j5.04474332465410044840e-03
  +9.99983941932444997391e-01+j4.00721969618291016385e-03
  +9.99989867984294455994e-01+j3.18306661063024343844e-03
  +9.99993607106372195403e-01+j2.52840913592258234241e-03
  +9.99995966347296705301e-01+j2.00839150389666961163e-03
  +9.99997454933413298939e-01+j1.59532445270936388063e-03
  +9.99998394170036553064e-01+j1.26721244654735896822e-03
  +9.99998986789190191793e-01+j1.00658322220770419034e-03
  +9.99999360706959050660e-01+j7.99557772968373988570e-04
  +9.99999596633265319667e-01+j6.35111464201609170026e-04
  +9.99999745492758385090e-01+j5.04487043310122059564e-04
  +9.99999839416771507672e-01+j4.00728340191821099953e-04
  +9.99999898678826659726e-01+j3.18309853932258906596e-04
</dep>
<dep VOUT.v acfrequency>
  +9.95847084450102518205e-03+j3.13846379764244898247e-01
  +1.57740149064074519636e-02+j3.94879153493454482238e-01
  +2.49773103628696743761e-02+j4.96665115112494115479e-01
  +3.95291867509974109707e-02+j6.24352088198913190986e-01
  +6.25064383064255629785e-02+j7.84199319029631358724e-01
  +9.87086903432798923319e-02+j9.83651544107852604526e-01
  +1.55553459008600625246e-01+j1.23123368167921598548e+00
  +2.44334392160758473445e-01+j1.53605113926545588932e+00
  +3.81840503859835922462e-01+j1.90651432665198017347e+00
  +5.92082567050869701397e-01+j2.34768862244580489573e+00
  +9.07275685320522273791e-01+j2.85653258484076966184e+00
  +1.36614791049184902683e+00+j3.41465325065688274364e+00
  +2.00643897455195441282e+00+j3.97994159036352979086e+00
  +2.84891255768963302941e+00+j4.48227088262951234299e+00
  +3.87567923835591132686e+00+j4.83240853066843456531e+00
  +5.01636394422884546174e+00+j4.95005682026791227202e+00
  +6.16022737097543870988e+00+j4.80041133087182902983e+00
  +7.19519372707405402423e+00+j4.41233827829332891923e+00
  +8.04780733849724150275e+00+j3.86187232047232997800e+00
  +8.69710493004470741596e+00+j3.23578671086567304371e+00
  +9.16176105393924089526e+00+j2.60242961001235517671e+00
  +9.47828540522606566299e+00+j2.00162826963746987019e+00
  +9.68438658641568217433e+00+j1.44833426802585107929e+00
  +9.81077929645929636138e+00+j9.40764728282504902879e-01
  +9.87885564405278238098e+00+j4.67614248372719476521e-01
  +9.90097337804764165980e+00+j1.28667712417420698756e-02
  +9.88127594778894824401e+00-j4.41362626748886821559e-01
  +9.81607022419492381005e+00-j9.13005725400273582260e-01
  +9.69348736224422857788e+00-j1.41824721274858611686e+00
  +9.49267010730429561249e+00-j1.96876788359586774035e+00
  +9.18341061988856921516e+00-j2.56706583654898334856e+00
  +8.72825080628742711042e+00-j3.19936910613168823403e+00
  +8.09024794495406140982e+00-j3.82744732043328594884e+00
  +7.24913054728021588602e+00-j4.38448127873075499394e+00
  +6.22308008904286324992e+00-j4.78413299902054411916e+00
  +5.08262598281394417654e+00-j4.94873141841784747186e+00
  +3.93855724031430032284e+00-j4.84596565253030320264e+00
  +2.90290539544310677300e+00-j4.50719179132105729479e+00
  +2.04897840100973605004e+00-j4.01106000624250480513e+00
  +1.39745668152380719818e+00-j3.44721910977920220631e+00
  +9.29187235703733405145e-01-j2.88729712738995702992e+00
  +6.06884526167613458369e-01-j2.37496291691600225349e+00
  +3.91602956091188891818e-01-j1.92974198166037536062e+00
  +2.50671941209295923159e-01-j1.55533404318917733988e+00
  +1.59625507948733064145e-01-j1.24698447101876164211e+00
  +1.01307828879019332091e-01-j9.96385735792709503755e-01
  +6.41584364602595796923e-02-j7.94427932031572470173e-01
  +4.05763685622336639502e-02-j6.32534411477157276771e-01
  +2.56399757940551503710e-02-j5.03193539423027469404e-01
  +1.61929029798507755078e-02-j4.00079444574219011965e-01
  +1.02230803649814624284e-02-j3.17984443177516340473e-01
</dep>
<dep _net1.v acfrequency>
  +9.85987309639871530031e-03+j3.13849508310129532429e-01
  +1.56178389839814538154e-02+j3.94885392164973536566e-01
  +2.47300163911643132442e-02+j4.96677551537147654592e-01
  +3.91378240422262102527e-02+j6.24376866284699683085e-01
  +6.18876012188673621517e-02+j7.84248644885056744869e-01
  +9.77314730345072851803e-02+j9.83749607127534231310e-01
  +1.54013566662874162860e-01+j1.23142823092233921756e+00
  +2.41915839503069524108e-01+j1.53643585015067274391e+00
  +3.78061390269681163456e-01+j1.90727121508299579666e+00
  +5.86224013986410663613e-01+j2.34916613829030174188e+00
  +8.98301623537246629603e-01+j2.85938287546855329779e+00
  +1.35264285162843878041e+00+j3.42005640775453789715e+00
  +1.98662249191428363915e+00+j3.98993182820999114924e+00
  +2.82081633270330289776e+00+j4.50012872529079110961e+00
  +3.83754513713390732477e+00+j4.86299277110289107640e+00
  +4.96718716782718772151e+00+j4.99989233064521076955e+00
  +6.10018907950613531455e+00+j4.87745671322006124626e+00
  +7.12572030788377830390e+00+j4.52562848371919468349e+00
  +7.97125688217117378542e+00+j4.02139683942662085059e+00
  +8.61635730461587812101e+00+j3.45281911564324284214e+00
  +9.08000331649624747854e+00+j2.89025482222236140828e+00
  +9.39912039015778688622e+00+j2.37649737910606928537e+00
  +9.61227273694268902204e+00+j1.93052847688274065163e+00
  +9.75180932753692886195e+00+j1.55573394728438008094e+00
  +9.84195468883112134506e+00+j1.24718675077405016793e+00
  +9.89969511730167184282e+00+j9.96487710656859926317e-01
  +9.93647675497393301214e+00+j7.94479230440941819325e-01
  +9.95982536145604413491e+00+j6.32560182004402782319e-01
  +9.97461387889146777752e+00+j5.03206474461898256578e-01
  +9.98396742021766492314e+00+j4.00085933530395454483e-01
  +9.98987813722693296370e+00+j3.17987697285063486419e-01
  +9.99361114985299359148e+00+j2.52680992684168881368e-01
  +9.99596795741880761454e+00+j2.00758980981038614999e-01
  +9.99745557451072031085e+00+j1.59492259347344678133e-01
  +9.99839442528634236851e+00+j1.26701102072552806987e-01
  +9.99898689081299885117e+00+j1.00648226411542474068e-01
  +9.99936074741729363780e+00+j7.99507172150617506645e-02
  +9.99959664937245840122e+00+j6.35086103113451372337e-02
  +9.99974549917081567685e+00+j5.04474332465401076320e-02
  +9.99983941932444864165e+00+j4.00721969618289541870e-02
  +9.99989867984294455994e+00+j3.18306661063023632607e-02
  +9.99993607106372195403e+00+j2.52840913592260463361e-02
  +9.99995966347296771914e+00+j2.00839150389666709629e-02
  +9.99997454933413187916e+00+j1.59532445270937905946e-02
  +9.99998394170036419837e+00+j1.26721244654737219548e-02
  +9.99998986789190169588e+00+j1.00658322220770202193e-02
  +9.99999360706959095069e+00+j7.99557772968374075306e-03
  +9.99999596633265319667e+00+j6.35111464201609191710e-03
  +9.99999745492758407295e+00+j5.04487043310122059564e-03
  +9.99999839416771507672e+00+j4.00728340191821089111e-03
  +9.99999898678826681930e+00+j3.18309853932258884912e-03
</dep>
<dep _net2.v acfrequency>
  +1.00000000000000000000e+00
  +1.00000000000000000000e+00
  +1.00000000000000000000e+00
  +1.00000000000000000000e+00
  +1.00000000000000000000e+00
  +1.00000000000000000000e+00
  +1.00000000000000000000e+00
  +1.00000000000000000000e+00
  +1.00000000000000000000e+00
  +1.00000000000000000000e+00
  +1.00000000000000000000e+00
  +1.00000000000000000000e+00
  +1.00000000000000000000e+00
  +1.00000000000000000000e+00
  +1.00000000000000000000e+00
  +1.00000000000000000000e+00
  +1.00000000000000000000e+00
  +1.00000000000000000000e+00
  +1.00000000000000000000e+00
  +1.00000000000000000000e+00
  +1.00000000000000000000e+00
  +1.00000000000000000000e+00
  +1.00000000000000000000e+00
  +1.00000000000000000000e+00
  +1.00000000000000000000e+00
  +1.00000000000000000000e+00
  +1.00000000000000000000e+00
  +1.00000000000000000000e+00
  +1.00000000000000000000e+00
  +1.00000000000000000000e+00
  +1.00000000000000000000e+00
  +1.00000000000000000000e+00
  +1.00000000000000000000e+00
  +1.00000000000000000000e+00
  +1.00000000000000000000e+00
  +1.00000000000000000000e+00
  +1.00000000000000000000e+00
  +1.00000000000000000000e+00
  +1.00000000000000000000e+00
  +1.00000000000000000000e+00
  +1.00000000000000000000e+00
  +1.00000000000000000000e+00
  +1.00000000000000000000e+00
  +1.00000000000000000000e+00
  +1.00000000000000000000e+00
  +1.00000000000000000000e+00
  +1.00000000000000000000e+00
  +1.00000000000000000000e+00
  +1.00000000000000000000e+00
  +1.00000000000000000000e+00
  +1.00000000000000000000e+00
</dep>
