<Qucs Dataset 0.0.23>
<indep frequency 56>
1.000000000000e+3
1.232846739442e+3
1.519911082953e+3
1.873817422860e+3
2.310129700083e+3
2.848035868436e+3
3.511191734215e+3
4.328761281083e+3
5.336699231206e+3
6.579332246576e+3
8.111308307897e+3
1.000000000000e+4
1.232846739442e+4
1.519911082953e+4
1.873817422860e+4
2.310129700083e+4
2.848035868436e+4
3.511191734215e+4
4.328761281083e+4
5.336699231206e+4
6.579332246576e+4
8.111308307897e+4
1.000000000000e+5
1.232846739442e+5
1.519911082953e+5
1.873817422860e+5
2.310129700083e+5
2.848035868436e+5
3.511191734215e+5
4.328761281083e+5
5.336699231206e+5
6.579332246576e+5
8.111308307897e+5
1.000000000000e+6
1.232846739442e+6
1.519911082953e+6
1.873817422860e+6
2.310129700083e+6
2.848035868436e+6
3.511191734215e+6
4.328761281083e+6
5.336699231206e+6
6.579332246576e+6
8.111308307897e+6
1.000000000000e+7
1.232846739442e+7
1.519911082953e+7
1.873817422860e+7
2.310129700083e+7
2.848035868436e+7
3.511191734215e+7
4.328761281083e+7
5.336699231206e+7
6.579332246576e+7
8.111308307897e+7
1.000000000000e+8
</indep>
<dep ac.v(vout) frequency>
9.958470844501e-3+j3.138463797642e-1
1.512823430699e-2+j3.867242358785e-1
2.297567697144e-2+j4.763969652297e-1
3.487972952718e-2+j5.866236111621e-1
5.291906272339e-2+j7.219076733722e-1
8.021373915560e-2+j8.875591209800e-1
1.214163584902e-1+j1.089678957841e+0
1.833957146663e-1+j1.334977590431e+0
2.761380141904e-1+j1.630272229285e+0
4.138222900511e-1+j1.981414017514e+0
6.158527013689e-1+j2.391291899564e+0
9.072756853205e-1+j2.856532584841e+0
1.317441886857e+0+j3.362785445511e+0
1.875205982404e+0+j3.879432740613e+0
2.599208503186e+0+j4.356472519398e+0
3.484288507796e+0+j4.728386576013e+0
4.490255993620e+0+j4.929054802557e+0
5.543148915813e+0+j4.914891924541e+0
6.554161685686e+0+j4.683551489540e+0
7.447613089243e+0+j4.274552927592e+0
8.180838274425e+0+j3.751304291095e+0
8.746492950605e+0+j3.177703757435e+0
9.161761053939e+0+j2.602429610012e+0
9.454603562497e+0+j2.054363097986e+0
9.653621113370e+0+j1.545317592784e+0
9.782820950045e+0+j1.075187251664e+0
9.859883721414e+0+j6.366349843569e-1
9.896169686432e+0+j2.184115858431e-1
9.897243261451e+0-j1.925704099312e-1
9.863271198787e+0-j6.099440484299e-1
9.789035921167e+0-j1.046863634114e+0
9.663556930137e+0-j1.514743854421e+0
9.469560253484e+0-j2.021249840411e+0
9.183410619889e+0-j2.567065836549e+0
8.776687584527e+0-j3.141281891222e+0
8.221145507680e+0-j3.716214043299e+0
7.498537597913e+0-j4.244393997578e+0
6.614272202342e+0-j4.662536522202e+0
5.608683936832e+0-j4.906545487792e+0
4.555802192524e+0-j4.934735938611e+0
3.544434543449e+0-j4.746619332586e+0
2.650199179153e+0-j4.383610400573e+0
1.915621774821e+0-j3.911130967096e+0
1.347806722529e+0-j3.395296460376e+0
9.291872357037e-1-j2.887297127390e+0
6.312094534783e-1-j2.418919836441e+0
4.243667052794e-1-j2.005383615863e+0
2.832767729940e-1-j1.650598314120e+0
1.881828190830e-1-j1.351955419068e+0
1.246059715160e-1-j1.103719095658e+0
8.232988898635e-2-j8.990935463487e-1
5.431904512578e-2-j7.313424432608e-1
3.580417930125e-2-j5.943188416241e-1
2.358536200472e-2-j4.826615443449e-1
1.552999971649e-2-j3.918178052864e-1
1.022308036498e-2-j3.179844431775e-1
</dep>
<dep ac.vout_db frequency>
-1.006128717566e+1+j0.000000000000e+0
-8.245331315149e+0+j0.000000000000e+0
-6.430530571791e+0+j0.000000000000e+0
-4.617482652202e+0+j0.000000000000e+0
-2.807092302110e+0+j0.000000000000e+0
-1.000726123759e+0+j0.000000000000e+0
7.995582962407e-1+j0.000000000000e+0
2.590678096859e+0+j0.000000000000e+0
4.368048235727e+0+j0.000000000000e+0
6.124925059388e+0+j0.000000000000e+0
7.851554769657e+0+j0.000000000000e+0
9.534178983063e+0+j0.000000000000e+0
1.115410093537e+1+j0.000000000000e+0
1.268727606072e+1+j0.000000000000e+0
1.410519745330e+1+j0.000000000000e+0
1.537792734710e+1+j0.000000000000e+0
1.647949727454e+1+j0.000000000000e+0
1.739435172219e+1+j0.000000000000e+0
1.812195777077e+1+j0.000000000000e+0
1.867695732755e+1+j0.000000000000e+0
1.908476433471e+1+j0.000000000000e+0
1.937512576667e+1+j0.000000000000e+0
1.957657587057e+1+j0.000000000000e+0
1.971321949538e+1+j0.000000000000e+0
1.980368875786e+1+j0.000000000000e+0
1.986142731147e+1+j0.000000000000e+0
1.989550419511e+1+j0.000000000000e+0
1.991145759610e+1+j0.000000000000e+0
1.991192871011e+1+j0.000000000000e+0
1.989699600791e+1+j0.000000000000e+0
1.986418548385e+1+j0.000000000000e+0
1.980815635739e+1+j0.000000000000e+0
1.972008437964e+1+j0.000000000000e+0
1.958682629675e+1+j0.000000000000e+0
1.939009265678e+1+j0.000000000000e+0
1.910610961154e+1+j0.000000000000e+0
1.870655199598e+1+j0.000000000000e+0
1.816160690025e+1+j0.000000000000e+0
1.744539593352e+1+j0.000000000000e+0
1.654243485487e+1+j0.000000000000e+0
1.545225586682e+1+j0.000000000000e+0
1.418957141345e+1+j0.000000000000e+0
1.277988391230e+1+j0.000000000000e+0
1.125306244413e+1+j0.000000000000e+0
9.637818614593e+0+j0.000000000000e+0
7.958521207956e+0+j0.000000000000e+0
6.234199291548e+0+j0.000000000000e+0
4.478895926400e+0+j0.000000000000e+0
2.702585964348e+0+j0.000000000000e+0
9.121748181758e-1+j0.000000000000e+0
-8.876384397353e-1+j0.000000000000e+0
-2.693692469036e+0+j0.000000000000e+0
-4.503876504478e+0+j0.000000000000e+0
-6.316788272927e+0+j0.000000000000e+0
-8.131499259824e+0+j0.000000000000e+0
-9.947395989285e+0+j0.000000000000e+0
</dep>
