<Qucs Dataset 0.0.21>
<indep frequency 56>
1.000000000000e+03
1.232846739442e+03
1.519911082953e+03
1.873817422860e+03
2.310129700083e+03
2.848035868436e+03
3.511191734215e+03
4.328761281083e+03
5.336699231206e+03
6.579332246576e+03
8.111308307897e+03
1.000000000000e+04
1.232846739442e+04
1.519911082953e+04
1.873817422860e+04
2.310129700083e+04
2.848035868436e+04
3.511191734215e+04
4.328761281083e+04
5.336699231206e+04
6.579332246576e+04
8.111308307897e+04
1.000000000000e+05
1.232846739442e+05
1.519911082953e+05
1.873817422860e+05
2.310129700083e+05
2.848035868436e+05
3.511191734215e+05
4.328761281083e+05
5.336699231206e+05
6.579332246576e+05
8.111308307897e+05
1.000000000000e+06
1.232846739442e+06
1.519911082953e+06
1.873817422860e+06
2.310129700083e+06
2.848035868436e+06
3.511191734215e+06
4.328761281083e+06
5.336699231206e+06
6.579332246576e+06
8.111308307897e+06
1.000000000000e+07
1.232846739442e+07
1.519911082953e+07
1.873817422860e+07
2.310129700083e+07
2.848035868436e+07
3.511191734215e+07
4.328761281083e+07
5.336699231206e+07
6.579332246576e+07
8.111308307897e+07
1.000000000000e+08
</indep>
<dep ac.v(vout) frequency>
9.958470844501e-03+j3.138463797642e-01
1.512823430699e-02+j3.867242358785e-01
2.297567697144e-02+j4.763969652297e-01
3.487972952718e-02+j5.866236111621e-01
5.291906272339e-02+j7.219076733722e-01
8.021373915560e-02+j8.875591209800e-01
1.214163584902e-01+j1.089678957841e+00
1.833957146663e-01+j1.334977590431e+00
2.761380141904e-01+j1.630272229285e+00
4.138222900511e-01+j1.981414017514e+00
6.158527013689e-01+j2.391291899564e+00
9.072756853205e-01+j2.856532584841e+00
1.317441886857e+00+j3.362785445511e+00
1.875205982404e+00+j3.879432740613e+00
2.599208503186e+00+j4.356472519398e+00
3.484288507796e+00+j4.728386576013e+00
4.490255993620e+00+j4.929054802557e+00
5.543148915813e+00+j4.914891924541e+00
6.554161685686e+00+j4.683551489540e+00
7.447613089243e+00+j4.274552927592e+00
8.180838274425e+00+j3.751304291095e+00
8.746492950605e+00+j3.177703757435e+00
9.161761053939e+00+j2.602429610012e+00
9.454603562497e+00+j2.054363097986e+00
9.653621113370e+00+j1.545317592784e+00
9.782820950045e+00+j1.075187251664e+00
9.859883721414e+00+j6.366349843569e-01
9.896169686432e+00+j2.184115858431e-01
9.897243261451e+00-j1.925704099312e-01
9.863271198787e+00-j6.099440484299e-01
9.789035921167e+00-j1.046863634114e+00
9.663556930137e+00-j1.514743854421e+00
9.469560253484e+00-j2.021249840411e+00
9.183410619889e+00-j2.567065836549e+00
8.776687584527e+00-j3.141281891222e+00
8.221145507680e+00-j3.716214043299e+00
7.498537597913e+00-j4.244393997578e+00
6.614272202342e+00-j4.662536522202e+00
5.608683936832e+00-j4.906545487792e+00
4.555802192524e+00-j4.934735938611e+00
3.544434543449e+00-j4.746619332586e+00
2.650199179153e+00-j4.383610400573e+00
1.915621774821e+00-j3.911130967096e+00
1.347806722529e+00-j3.395296460376e+00
9.291872357037e-01-j2.887297127390e+00
6.312094534783e-01-j2.418919836441e+00
4.243667052794e-01-j2.005383615863e+00
2.832767729940e-01-j1.650598314120e+00
1.881828190830e-01-j1.351955419068e+00
1.246059715160e-01-j1.103719095658e+00
8.232988898635e-02-j8.990935463487e-01
5.431904512578e-02-j7.313424432608e-01
3.580417930125e-02-j5.943188416241e-01
2.358536200472e-02-j4.826615443449e-01
1.552999971649e-02-j3.918178052864e-01
1.022308036498e-02-j3.179844431775e-01
</dep>
<dep ac.vout_db frequency>
-1.006128717566e+01+j0.000000000000e+00
-8.245331315149e+00+j0.000000000000e+00
-6.430530571791e+00+j0.000000000000e+00
-4.617482652202e+00+j0.000000000000e+00
-2.807092302110e+00+j0.000000000000e+00
-1.000726123759e+00+j0.000000000000e+00
7.995582962407e-01+j0.000000000000e+00
2.590678096859e+00+j0.000000000000e+00
4.368048235727e+00+j0.000000000000e+00
6.124925059388e+00+j0.000000000000e+00
7.851554769657e+00+j0.000000000000e+00
9.534178983063e+00+j0.000000000000e+00
1.115410093537e+01+j0.000000000000e+00
1.268727606072e+01+j0.000000000000e+00
1.410519745330e+01+j0.000000000000e+00
1.537792734710e+01+j0.000000000000e+00
1.647949727454e+01+j0.000000000000e+00
1.739435172219e+01+j0.000000000000e+00
1.812195777077e+01+j0.000000000000e+00
1.867695732755e+01+j0.000000000000e+00
1.908476433471e+01+j0.000000000000e+00
1.937512576667e+01+j0.000000000000e+00
1.957657587057e+01+j0.000000000000e+00
1.971321949538e+01+j0.000000000000e+00
1.980368875786e+01+j0.000000000000e+00
1.986142731147e+01+j0.000000000000e+00
1.989550419511e+01+j0.000000000000e+00
1.991145759610e+01+j0.000000000000e+00
1.991192871011e+01+j0.000000000000e+00
1.989699600791e+01+j0.000000000000e+00
1.986418548385e+01+j0.000000000000e+00
1.980815635739e+01+j0.000000000000e+00
1.972008437964e+01+j0.000000000000e+00
1.958682629675e+01+j0.000000000000e+00
1.939009265678e+01+j0.000000000000e+00
1.910610961154e+01+j0.000000000000e+00
1.870655199598e+01+j0.000000000000e+00
1.816160690025e+01+j0.000000000000e+00
1.744539593352e+01+j0.000000000000e+00
1.654243485487e+01+j0.000000000000e+00
1.545225586682e+01+j0.000000000000e+00
1.418957141345e+01+j0.000000000000e+00
1.277988391230e+01+j0.000000000000e+00
1.125306244413e+01+j0.000000000000e+00
9.637818614593e+00+j0.000000000000e+00
7.958521207956e+00+j0.000000000000e+00
6.234199291548e+00+j0.000000000000e+00
4.478895926400e+00+j0.000000000000e+00
2.702585964348e+00+j0.000000000000e+00
9.121748181758e-01+j0.000000000000e+00
-8.876384397353e-01+j0.000000000000e+00
-2.693692469036e+00+j0.000000000000e+00
-4.503876504478e+00+j0.000000000000e+00
-6.316788272927e+00+j0.000000000000e+00
-8.131499259824e+00+j0.000000000000e+00
-9.947395989285e+00+j0.000000000000e+00
</dep>
