<Qucs Dataset 0.0.19>
<indep acfrequency 71>
  +1.00000000000000000000e+00
  +1.25892541179416728170e+00
  +1.58489319246111359796e+00
  +1.99526231496887973549e+00
  +2.51188643150958013095e+00
  +3.16227766016837952279e+00
  +3.98107170553497269339e+00
  +5.01187233627272377134e+00
  +6.30957344480193338399e+00
  +7.94328234724281756485e+00
  +1.00000000000000017764e+01
  +1.25892541179416745933e+01
  +1.58489319246111364237e+01
  +1.99526231496887973549e+01
  +2.51188643150958093031e+01
  +3.16227766016838032215e+01
  +3.98107170553497340393e+01
  +5.01187233627272377134e+01
  +6.30957344480193640379e+01
  +7.94328234724281969648e+01
  +1.00000000000000042633e+02
  +1.25892541179416767250e+02
  +1.58489319246111392658e+02
  +1.99526231496888016181e+02
  +2.51188643150958057504e+02
  +3.16227766016837961160e+02
  +3.98107170553497269339e+02
  +5.01187233627272689773e+02
  +6.30957344480193796699e+02
  +7.94328234724282083334e+02
  +1.00000000000000068212e+03
  +1.25892541179416798514e+03
  +1.58489319246111426764e+03
  +1.99526231496888044603e+03
  +2.51188643150958114347e+03
  +3.16227766016838040741e+03
  +3.98107170553497689980e+03
  +5.01187233627272416925e+03
  +6.30957344480193842173e+03
  +7.94328234724281537638e+03
  +1.00000000000000090949e+04
  +1.25892541179416712112e+04
  +1.58489319246111463144e+04
  +1.99526231496888285619e+04
  +2.51188643150958159822e+04
  +3.16227766016838395444e+04
  +3.98107170553497417131e+04
  +5.01187233627272944432e+04
  +6.30957344480193423806e+04
  +7.94328234724282374373e+04
  +1.00000000000000014552e+05
  +1.25892541179416846717e+05
  +1.58489319246111350367e+05
  +1.99526231496888125548e+05
  +2.51188643150958436308e+05
  +3.16227766016838198993e+05
  +3.98107170553497853689e+05
  +5.01187233627272595186e+05
  +6.30957344480194151402e+05
  +7.94328234724281937815e+05
  +1.00000000000000128057e+06
  +1.25892541179416771047e+06
  +1.58489319246111530811e+06
  +1.99526231496888003312e+06
  +2.51188643150958279148e+06
  +3.16227766016838513315e+06
  +3.98107170553497597575e+06
  +5.01187233627273142338e+06
  +6.30957344480193778872e+06
  +7.94328234724282752723e+06
  +1.00000000000000055879e+07
</indep>
<dep Pr1.i acfrequency>
  +1.48205800057208140954e-04+j1.06706335186348391826e-03
  +2.26141348657853146799e-04+j1.31773967150233838920e-03
  +3.38502797172923232394e-04+j1.61263546884930471584e-03
  +4.93323528984007035440e-04+j1.95041644790785160569e-03
  +6.94174937057591445212e-04+j2.32665094400470381930e-03
  +9.36233892700449334655e-04+j2.73766266569863301814e-03
  +1.20563649549948253767e-03+j3.18813303668079653375e-03
  +1.48523054749682991739e-03+j3.69870359337962344853e-03
  +1.76489510556029254376e-03+j4.30799370519786145595e-03
  +2.05037055257729569635e-03+j5.06782939285549578756e-03
  +2.36709928064309828299e-03+j6.03615216000463403190e-03
  +2.76131829138484422362e-03+j7.27184861138781540174e-03
  +3.30260069928575488926e-03+j8.83120064978072660811e-03
  +4.08985731998724386105e-03+j1.07621683518866768231e-02
  +5.25942021567593447073e-03+j1.30915639804371243538e-02
  +6.98979907474873464468e-03+j1.58004081961245421151e-02
  +9.49190482239248636831e-03+j1.87855878728221542540e-02
  +1.29674754243640725365e-02+j2.18159140478269945873e-02
  +1.75219032550437275875e-02+j2.45115642337015646191e-02
  +2.30485879810745919460e-02+j2.63963511280054553831e-02
  +2.91597297202880120781e-02+j2.70519561490706120233e-02
  +3.52589676068041299462e-02+j2.63123218126012740903e-02
  +4.07541087514831576466e-02+j2.43532193510373889955e-02
  +4.52667055519947528208e-02+j2.15966114179062806944e-02
  +4.86986777244539370546e-02+j1.85153349569465719426e-02
  +5.11595025669383182687e-02+j1.54821088057797134202e-02
  +5.28504249189240341011e-02+j1.27207332381513611719e-02
  +5.39785942571536711543e-02+j1.03284488697401831414e-02
  +5.47165803636977601809e-02+j8.32046058154734154144e-03
  +5.51931128288197653253e-02+j6.66867244647482461384e-03
  +5.54982487319687287086e-02+j5.32718987157145603545e-03
  +5.56925866657864004905e-02+j4.24651706337908930317e-03
  +5.58159347083661411260e-02+j3.38038388170354984000e-03
  +5.58940544623599822049e-02+j2.68841016417392534091e-03
  +5.59434616334870890575e-02+j2.13665424644962631540e-03
  +5.59746821222667431672e-02+j1.69720016712183378697e-03
  +5.59943995014418535727e-02+j1.34738364379229525608e-03
  +5.60068476820319779974e-02+j1.06894661885574148059e-03
  +5.60147048023075799783e-02+j8.47247519791427213844e-04
  +5.60196633162915805237e-02+j6.70573484450557081270e-04
  +5.60227921240578005668e-02+j5.29562828870981097337e-04
  +5.60247660237961908614e-02+j4.16729712949478765111e-04
  +5.60260108609746815267e-02+j3.26077138525590224868e-04
  +5.60267952463473495328e-02+j2.52783428853040829497e-04
  +5.60272884546499788661e-02+j1.92948385870388562473e-04
  +5.60275969310596241857e-02+j1.43387059045660018386e-04
  +5.60277872549204067343e-02+j1.01460871567089070040e-04
  +5.60279005055031795179e-02+j6.49374760949093376029e-05
  +5.60279611271866581634e-02+j3.18720602922467700414e-05
  +5.60279822047944076058e-02+j5.03873618371259907540e-07
  +5.60279682878678519931e-02-j3.08374877147303601429e-05
  +5.60279163725098117155e-02-j6.38210028037191278664e-05
  +5.60278152529570111495e-02-j1.00203074158873177467e-04
  +5.60276431031392144200e-02-j1.41921017891603358637e-04
  +5.60273627661885958995e-02-j1.91196152512592050261e-04
  +5.60269137355607071971e-02-j2.50651936309844553755e-04
  +5.60261990981928761912e-02-j3.23453367153481413220e-04
  +5.60250646263710863626e-02-j4.13474914982898684567e-04
  +5.60232655111903357636e-02-j5.25505624718603458166e-04
  +5.60204135823167345687e-02-j6.65501703616428233988e-04
  +5.60158936754237141153e-02-j8.40898831211886075773e-04
  +5.60087312360369876663e-02-j1.06099840616017239772e-03
  +5.59973829340345286010e-02-j1.33744348502094832602e-03
  +5.59794059748673494825e-02-j1.68480018226500730984e-03
  +5.59509369403380640851e-02-j2.12125647776969985386e-03
  +5.59058731956956558862e-02-j2.66943799332789843265e-03
  +5.58345939694734200165e-02-j3.35730996088241459563e-03
  +5.57219793466203622279e-02-j4.21906816427481626969e-03
  +5.55443842812539945175e-02-j5.29578532243695290771e-03
  +5.52651216154727703556e-02-j6.63531397808008946426e-03
  +5.48279776960317391521e-02-j8.29045946059890973001e-03
</dep>
<dep Pr5.i acfrequency>
  +2.91135353249824123563e-04+j1.03039255399246429921e-03
  +4.43552010523535545673e-04+j1.24496396988503271915e-03
  +6.62330405383691495774e-04+j1.47293061055082052067e-03
  +9.61572266473545217078e-04+j1.69173766831806626776e-03
  +1.34492286174397361956e-03+j1.86745420040252091236e-03
  +1.79675934980655480251e-03+j1.96141679374972014577e-03
  +2.27964241022494181615e-03+j1.94429596430091859369e-03
  +2.74413808993257887781e-03+j1.80994770121971175481e-03
  +3.14689285334911889036e-03+j1.57774749223503008358e-03
  +3.46404304377831992814e-03+j1.28122620410480825108e-03
  +3.69205338379396952320e-03+j9.52766362139168335177e-04
  +3.83963389690576781949e-03+j6.14324113106659314837e-04
  +3.91847331842291521364e-03+j2.76066882279116460400e-04
  +3.93699670246938204093e-03-j6.03868460214798154218e-05
  +3.89741701120589799714e-03-j3.97326413880487753702e-04
  +3.79511507890818245228e-03-j7.36187310696476051447e-04
  +3.62000219244226848631e-03-j1.07278742692707741713e-03
  +3.36054927064120736308e-03-j1.39294333151817923029e-03
  +3.01129905646535999883e-03-j1.67043087296868484476e-03
  +2.58245144691774536350e-03-j1.87094522605966550460e-03
  +2.10564940498932139448e-03-j1.96421010660706267525e-03
  +1.62850304994325862512e-03-j1.93930192190636834816e-03
  +1.19802373514274885895e-03-j1.81175548544302905327e-03
  +8.44251809903902696378e-04-j1.61611581587943410783e-03
  +5.75083862208971424712e-04-j1.39064976574077817269e-03
  +3.82035056581318322507e-04-j1.16553236306953010917e-03
  +2.49364633803707399715e-04-j9.59055556024104795439e-04
  +1.60840069463799931193e-04-j7.79421352319130335447e-04
  +1.02928971194349267544e-04-j6.28270028988518508713e-04
  +6.55333192190818159808e-05-j5.03747663361564599477e-04
  +4.15874112282510772901e-05-j4.02529027947653192214e-04
  +2.63363005425659723897e-05-j3.20948279562981804349e-04
  +1.66561998035232589478e-05-j2.55547368992531745164e-04
  +1.05254884266364160951e-05-j2.03294905019983917225e-04
  +6.64807946130037721969e-06-j1.61636818509445790706e-04
  +4.19792974824244877126e-06-j1.28469954792547060669e-04
  +2.65052599487783988443e-06-j1.02086073797415631949e-04
  +1.67359679810780779527e-06-j8.11092890983188777743e-05
  +1.05696370476002619847e-06-j6.44371443310849185060e-05
  +6.67801945633978060723e-07-j5.11891287904270745148e-05
  +4.22220607852743282548e-07-j4.06634193195278578585e-05
  +2.67254579090736447095e-07-j3.23013296161907679962e-05
  +1.69471780188905281050e-07-j2.56584733942629824514e-05
  +1.07772677985108755357e-07-j2.03815582517726118781e-05
  +6.88422498345831431029e-08-j1.61898017470366503419e-05
  +4.42784414260437547070e-08-j1.28600941104284469867e-05
  +2.87795792618842752583e-08-j1.02151746839807182565e-05
  +1.90003998917707488349e-08-j8.11422114135090170699e-06
  +1.28301315767848803117e-08-j6.44536471915605202736e-06
  +8.93694620855805556043e-09-j5.11974008185898659410e-06
  +6.48050863092172765358e-09-j4.06675656959419199393e-06
  +4.93059985137024646716e-09-j3.23034081798599627809e-06
  +3.95267297038209246347e-09-j2.56595156413966655451e-06
  +3.33564263940965613327e-09-j2.03820812162215962097e-06
  +2.94632280641136389286e-09-j1.61900646026541715169e-06
  +2.70067868635108089114e-09-j1.28602267953812432045e-06
  +2.54568790778821677410e-09-j1.02152423730529885977e-06
  +2.44789564536352161383e-09-j8.11425656299824224809e-07
  +2.38619339362900307433e-09-j6.44538435631576048953e-07
  +2.34726269109655260771e-09-j5.11975229602021957610e-07
  +2.32270032561267526025e-09-j4.06676567791495405862e-07
  +2.30720449731465848025e-09-j3.23034914351539041115e-07
  +2.29743042220707897351e-09-j2.56596047199559812923e-07
  +2.29126835770785297478e-09-j2.03821854929045493004e-07
  +2.28738821065543474165e-09-j1.61901919743185159556e-07
  +2.28495242852855645282e-09-j1.28603852648897882611e-07
  +2.28343519458112144998e-09-j1.02154410807997812141e-07
  +2.28250888333281882598e-09-j8.11450662104712935439e-08
  +2.28197322642682609390e-09-j6.44569970086874562189e-08
  +2.28171179815211462581e-09-j5.12015072946542833558e-08
  +2.28166618463063728808e-09-j4.06727029378492992218e-08
</dep>
<dep Pr4.i acfrequency>
  -3.03255786466194822694e-06-j1.11730310600732836169e-05
  -4.62045872012387965889e-06-j1.35228253646304640289e-05
  -6.90012661725875554641e-06-j1.60424903210872393865e-05
  -1.00191430367732777358e-05-j1.85053202391103691613e-05
  -1.40168701517579134727e-05-j2.05682973851663549532e-05
  -1.87331146531925169852e-05-j2.18416763652526133379e-05
  -2.37821112809554692145e-05-j2.20358625061700159767e-05
  -2.86554407985455824822e-05-j2.11061410159029858805e-05
  -3.29112126178002822505e-05-j1.92776619223050960106e-05
  -3.63153676254346179228e-05-j1.69278903184382387387e-05
  -3.88531817934839620557e-05-j1.44277653469660576254e-05
  -4.06492948499258705550e-05-j1.20446943651738372632e-05
  -4.18770753421067115445e-05-j9.92604514820689902269e-06
  -4.27010447854221054042e-05-j8.12691639158664392239e-06
  -4.32539416296148378194e-05-j6.64615905090106464802e-06
  -4.36343775186341000373e-05-j5.45401636072683373253e-06
  -4.39125363915518441768e-05-j4.50867150191653918490e-06
  -4.41367520049648287485e-05-j3.76445079292651632575e-06
  -4.43379347665575742677e-05-j3.17554675441793739297e-06
  -4.45316364967655696364e-05-j2.69880825003834980266e-06
  -4.47197837283483493357e-05-j2.29773230980865751758e-06
  -4.48948295003414557958e-05-j1.94687535900654081476e-06
  -4.50466185319027003463e-05-j1.63343552351081984812e-06
  -4.51686330576907873395e-05-j1.35417230224763537080e-06
  -4.52602961522810876330e-05-j1.10988730206510046545e-06
  -4.53255463067717020943e-05-j9.01105394255510262376e-07
  -4.53701864068988287696e-05-j7.26409890694902999986e-07
  -4.53998902744133433227e-05-j5.82644302555892181812e-07
  -4.54192887470328756521e-05-j4.65739353765895524618e-07
  -4.54318018117967056596e-05-j3.71451947218815638710e-07
  -4.54398090737734080690e-05-j2.95818727761933875525e-07
  -4.54449067501680201782e-05-j2.35363650562335952310e-07
  -4.54481414668525375371e-05-j1.87150846312984288894e-07
  -4.54501897745642681361e-05-j1.48757229608701457251e-07
  -4.54514851049216551514e-05-j1.18211319451284163768e-07
  -4.54523035752448824331e-05-j9.39233162781819598397e-08
  -4.54528204626065165765e-05-j7.46183547401956233744e-08
  -4.54531467828181930699e-05-j5.92777007224587993736e-08
  -4.54533527511894713921e-05-j4.70890898021753902149e-08
  -4.54534827380155499526e-05-j3.74057826164137360534e-08
  -4.54535647659355695376e-05-j2.97132855979151122714e-08
  -4.54536165267470810289e-05-j2.36025357920961111553e-08
  -4.54536491874851003017e-05-j1.87484095469127047514e-08
  -4.54536697957721227146e-05-j1.48925553435163410965e-08
  -4.54536827990359529892e-05-j1.18297092710849329240e-08
  -4.54536910036869212163e-05-j9.39680089120480437300e-09
  -4.54536961805635352364e-05-j7.46428764784082011837e-09
  -4.54536994470417418635e-05-j5.92926552967398773116e-09
  -4.54537015081704482669e-05-j4.70999370550343623351e-09
  -4.54537028088365795977e-05-j3.74154385714209482605e-09
  -4.54537036297861026944e-05-j2.97234367762628068950e-09
  -4.54537041482200177413e-05-j2.36143104304450469089e-09
  -4.54537044760419886992e-05-j1.87627292328122237055e-09
  -4.54537046840123619353e-05-j1.49103302613616762509e-09
  -4.54537048170215255143e-05-j1.18519599346588668950e-09
  -4.54537049037795121056e-05-j9.42474918860509230666e-10
  -4.54537049630129530117e-05-j7.49944025798849819542e-10
  -4.54537050075071193925e-05-j5.97350325790092946347e-10
  -4.54537050468654200822e-05-j4.76567601223086727349e-10
  -4.54537050895815762153e-05-j3.81163631499670431179e-10
  -4.54537051448714553357e-05-j3.06057604185168684719e-10
  -4.54537052246582794560e-05-j2.47249442481734815377e-10
  -4.54537053461361058976e-05-j2.01606584879013411881e-10
  -4.54537055354557690883e-05-j1.66696762656280298281e-10
  -4.54537058333058451259e-05-j1.40657672075605660959e-10
  -4.54537063035356843506e-05-j1.22096208788126422634e-10
  -4.54537070465381050073e-05-j1.10011125444646685976e-10
  -4.54537082199233126358e-05-j1.03733481194785472659e-10
  -4.54537100700643247097e-05-j1.02878785856631797504e-10
  -4.54537129791660697424e-05-j1.07302736175835265679e-10
  -4.54537175328259819931e-05-j1.17047968687709627041e-10
</dep>
<dep V1.i acfrequency>
  -1.45173242192546197386e-04-j1.05589032080341061262e-03
  -2.21520889937729256128e-04-j1.30421684613770782861e-03
  -3.31602670555664503105e-04-j1.59659297852821741547e-03
  -4.83304385947233745846e-04-j1.93191112766874116199e-03
  -6.80158066905833563927e-04-j2.30608264661953752533e-03
  -9.17500778047256851551e-04-j2.71582098933338027605e-03
  -1.18185438421852698036e-03-j3.16609717417462663974e-03
  -1.45657510669828442300e-03-j3.67759745236372059818e-03
  -1.73198389294249217342e-03-j4.28871604327555645819e-03
  -2.01405518495186095645e-03-j5.05090150253705797573e-03
  -2.32824609884961421929e-03-j6.02172439465766765748e-03
  -2.72066899653491825820e-03-j7.25980391702264141879e-03
  -3.26072362394364814384e-03-j8.82127460463251987510e-03
  -4.04715627520182193860e-03-j1.07540414354950902842e-02
  -5.21616627404631987008e-03-j1.30849178213862226555e-02
  -6.94616469723010037524e-03-j1.57949541797638148832e-02
  -9.44799228600093528307e-03-j1.87810792013202373929e-02
  -1.29233386723591071182e-02-j2.18121495970340674442e-02
  -1.74775653202771698302e-02-j2.45083886869471474779e-02
  -2.30040563445778264984e-02-j2.63936523197554166742e-02
  -2.91150099365596638779e-02-j2.70496584167608036808e-02
  -3.52140727773037898185e-02-j2.63103749372422673902e-02
  -4.07090621329512583615e-02-j2.43515859155138784942e-02
  -4.52215369189370650083e-02-j2.15952572456040332860e-02
  -4.86534174283016554452e-02-j1.85142250696445076485e-02
  -5.11141770206315487757e-02-j1.54812077003854582646e-02
  -5.28050547325171343305e-02-j1.27200068282606656295e-02
  -5.39331943668792598845e-02-j1.03278662254376266821e-02
  -5.46711610749507290197e-02-j8.31999484219357599013e-03
  -5.51476810270079692566e-02-j6.66830099452760550333e-03
  -5.54528089228949541689e-02-j5.32689405284369425081e-03
  -5.56471417590362338323e-02-j4.24628169972852704400e-03
  -5.57704865668992855188e-02-j3.38019673085723695166e-03
  -5.58486042725854156532e-02-j2.68826140694431673511e-03
  -5.58980101483821656405e-02-j2.13653603513017488827e-03
  -5.59292298186915004532e-02-j1.69710624380555569722e-03
  -5.59489466809792446167e-02-j1.34730902543755515048e-03
  -5.59613945352491620744e-02-j1.06888734115501908388e-03
  -5.59692514495563897547e-02-j8.47200430701625074002e-04
  -5.59742098335535634424e-02-j6.70536078667940656575e-04
  -5.59773385592918643061e-02-j5.29533115585383170297e-04
  -5.59793124072694436855e-02-j4.16706110413686688868e-04
  -5.59805572117871991233e-02-j3.26058390116043311704e-04
  -5.59813415765515742795e-02-j2.52768536297697334926e-04
  -5.59818347718509454203e-02-j1.92936556161117482577e-04
  -5.59821432400559385045e-02-j1.43377662244768822302e-04
  -5.59823335587398412949e-02-j1.01453407279441230361e-04
  -5.59824468060561367122e-02-j6.49315468293796616613e-05
  -5.59825074256784863125e-02-j3.18673502985412641550e-05
  -5.59825285019855678481e-02-j5.00132074514117842492e-07
  -5.59825145842380647587e-02+j3.08404600584079847622e-05
  -5.59824626683615919620e-02+j6.38233642347621721010e-05
  -5.59823615484809702925e-02+j1.00204950431796461423e-04
  -5.59821893984552010348e-02+j1.41922508924629490329e-04
  -5.59819090613715777960e-02+j1.91197337708585507953e-04
  -5.59814600306569251642e-02+j2.50652878784763408302e-04
  -5.59807453932298637600e-02+j3.23454117097507238155e-04
  -5.59796109213635817436e-02+j4.13475512333224463988e-04
  -5.59778118061434737385e-02+j5.25506101286204703807e-04
  -5.59749598772271497737e-02+j6.65502084780059707629e-04
  -5.59704399702788402138e-02+j8.40899137269490249205e-04
  -5.59632775308123303626e-02+j1.06099865340961488878e-03
  -5.59519292286883920817e-02+j1.33744368662753326804e-03
  -5.59339522693318921820e-02+j1.68480034896177004004e-03
  -5.59054832345047617026e-02+j2.12125661842737199547e-03
  -5.58604194893921185416e-02+j2.66943811542410701018e-03
  -5.57891402624268797905e-02+j3.35731007089354023878e-03
  -5.56765256384004411649e-02+j4.21906826800829727608e-03
  -5.54989305711839284174e-02+j5.29578542531573912694e-03
  -5.52196679024936076807e-02+j6.63531408538282560516e-03
  -5.47825239784989134750e-02+j8.29045957764687826974e-03
</dep>
<dep V3.i acfrequency>
  -1.54444894105289928462e-05-j5.86399460077443679482e-05
  -2.35326041102652175460e-05-j7.10600315699362681653e-05
  -3.51458729797254375358e-05-j8.44649851825859249166e-05
  -5.10386471452910241956e-05-j9.77327048158671606113e-05
  -7.14168831066017026311e-05-j1.09157347358351499355e-04
  -9.54747471583640287037e-05-j1.16805221669137503852e-04
  -1.21264199186941459743e-04-j1.19264239090084660081e-04
  -1.46221550460041163850e-04-j1.16382768753888480228e-04
  -1.68134527923366168881e-04-j1.09399539923025560244e-04
  -1.85868325172108779303e-04-j1.00348220870539030312e-04
  -1.99435111135682258164e-04-j9.12507005575677760398e-05
  -2.09603404970484791378e-04-j8.36216227600562831551e-05
  -2.17459705436965169446e-04-j7.83751821843172412092e-05
  -2.24144631235743025137e-04-j7.59429976081655899777e-05
  -2.30766774302084722286e-04-j7.64089818354884991883e-05
  -2.38406990530441774759e-04-j7.95635236786860784025e-05
  -2.48113927432523574852e-04-j8.48573520145032983431e-05
  -2.60797950301526167485e-04-j9.12956097652234746520e-05
  -2.76962557287546576670e-04-j9.73877494354243034014e-05
  -2.96329288504970471407e-04-j1.01335452346378376842e-04
