<Qucs Dataset 0.0.19>
<indep acfrequency 91>
  +1.00000000000000000000e+00
  +1.25892541179416728170e+00
  +1.58489319246111337591e+00
  +1.99526231496887973549e+00
  +2.51188643150958013095e+00
  +3.16227766016837907870e+00
  +3.98107170553497269339e+00
  +5.01187233627272288317e+00
  +6.30957344480193160763e+00
  +7.94328234724281401213e+00
  +9.99999999999999822364e+00
  +1.25892541179416692643e+01
  +1.58489319246111364237e+01
  +1.99526231496887973549e+01
  +2.51188643150957986450e+01
  +3.16227766016837890106e+01
  +3.98107170553497198284e+01
  +5.01187233627272163972e+01
  +6.30957344480193071945e+01
  +7.94328234724281259105e+01
  +9.99999999999999573674e+01
  +1.25892541179416653563e+02
  +1.58489319246111250550e+02
  +1.99526231496887817229e+02
  +2.51188643150958057504e+02
  +3.16227766016837961160e+02
  +3.98107170553497269339e+02
  +5.01187233627272291869e+02
  +6.30957344480193228264e+02
  +7.94328234724281401213e+02
  +9.99999999999999772626e+02
  +1.25892541179416684827e+03
  +1.58489319246111290340e+03
  +1.99526231496887862704e+03
  +2.51188643150957886974e+03
  +3.16227766016838040741e+03
  +3.98107170553497007859e+03
  +5.01187233627272416925e+03
  +6.30957344480192750780e+03
  +7.94328234724281537638e+03
  +9.99999999999999090505e+03
  +1.25892541179416712112e+04
  +1.58489319246111190296e+04
  +1.99526231496887921821e+04
  +2.51188643150957723265e+04
  +3.16227766016837813368e+04
  +3.98107170553496762295e+04
  +5.01187233627272071317e+04
  +6.30957344480193423806e+04
  +7.94328234724281064700e+04
  +1.00000000000000014552e+05
  +1.25892541179416628438e+05
  +1.58489319246111350367e+05
  +1.99526231496887776302e+05
  +2.51188643150957999751e+05
  +3.16227766016837616917e+05
  +3.98107170553497155197e+05
  +5.01187233627271722071e+05
  +6.30957344480192987248e+05
  +7.94328234724280424416e+05
  +9.99999999999999534339e+05
  +1.25892541179416538216e+06
  +1.58489319246111251414e+06
  +1.99526231496887654066e+06
  +2.51188643150957813486e+06
  +3.16227766016837954521e+06
  +3.98107170553496899083e+06
  +5.01187233627272211015e+06
  +6.30957344480192568153e+06
  +7.94328234724281355739e+06
  +1.00000000000000055879e+07
  +1.25892541179416682571e+07
  +1.58489319246111139655e+07
  +1.99526231496887505054e+07
  +2.51188643150958120823e+07
  +3.16227766016837731004e+07
  +3.98107170553496629000e+07
  +5.01187233627271056175e+07
  +6.30957344480193331838e+07
  +7.94328234724280834198e+07
  +9.99999999999998211861e+07
  +1.25892541179416820407e+08
  +1.58489319246111333370e+08
  +1.99526231496887743473e+08
  +2.51188643150957494974e+08
  +3.16227766016838073730e+08
  +3.98107170553497076035e+08
  +5.01187233627271592617e+08
  +6.30957344480191707611e+08
  +7.94328234724281668663e+08
  +9.99999999999999284744e+08
</indep>
<dep Pr1.i acfrequency>
  -2.34420976783585570001e-04-j5.27842845416595108345e-10
  -2.34420976783882045085e-04-j6.64514771528321403479e-10
  -2.34420976784358850095e-04-j8.36574532388867886010e-10
  -2.34420976785114782955e-04-j1.05318493768269627877e-09
  -2.34420976786310224270e-04-j1.32588128136465847312e-09
  -2.34420976788212999083e-04-j1.66918563812631154402e-09
  -2.34420976791222608789e-04-j2.10138021682738948235e-09
  -2.34420976796009551115e-04-j2.64548095478208967267e-09
  -2.34420976803562672655e-04-j3.33046320034617124161e-09
  -2.34420976815568151731e-04-j4.19280475586797511618e-09
  -2.34420976834586521510e-04-j5.27842845366796726158e-09
  -2.34420976864724604294e-04-j6.64514771428958565783e-09
  -2.34420976912493305181e-04-j8.36574532190595795108e-09
  -2.34420976988179453069e-04-j1.05318493728712002236e-08
  -2.34420977108166237249e-04-j1.32588128057535537072e-08
  -2.34420977298142825312e-04-j1.66918563655198484083e-08
  -2.34420977599326490993e-04-j2.10138021368490171482e-08
  -2.34420978076955522154e-04-j2.64548094851234625498e-08
  -2.34420978833608373423e-04-j3.33046318783842878574e-08
  -2.34420980032999708370e-04-j4.19280473091032816178e-08
  -2.34420981933796041853e-04-j5.27842840386838119667e-08
  -2.34420984946716087684e-04-j6.64514761492449257190e-08
  -2.34420989721632931982e-04-j8.36574512364896805868e-08
  -2.34420997289098195348e-04-j1.05318489772946420586e-07
  -2.34421009283077925100e-04-j1.32588120164790849857e-07
  -2.34421028291850779479e-04-j1.66918547907061125193e-07
  -2.34421058419081486390e-04-j2.10137989947021677981e-07
  -2.34421106167501396185e-04-j2.64548032157191822971e-07
  -2.34421181843740082098e-04-j3.33046193692587912900e-07
  -2.34421301782421356115e-04-j4.19280223501104792153e-07
  -2.34421491872153586831e-04-j5.27842342389796534507e-07
  -2.34421793143674311215e-04-j6.64513767858075417017e-07
  -2.34422270625980690324e-04-j8.36572529805729233436e-07
  -2.34423027383435080093e-04-j1.05318094200905206972e-06
  -2.34424226758039378534e-04-j1.32587330896619082494e-06
  -2.34426127628484097000e-04-j1.66916973115448656796e-06
  -2.34429140277242839411e-04-j2.10134847842316579305e-06
  -2.34433914935216060164e-04-j2.64541762890009586105e-06
  -2.34441482085161260725e-04-j3.33033685037044494635e-06
  -2.34453474775037968734e-04-j4.19255266012051257100e-06
  -2.34472480816674344953e-04-j5.27792547422708167805e-06
  -2.34502600622445779880e-04-j6.64414419434163682561e-06
  -2.34550330416507369193e-04-j8.36374321335038959518e-06
  -2.34625959761017158830e-04-j1.05278552006511647764e-05
  -2.34745780805955904904e-04-j1.32508451531900522106e-05
  -2.34935575456795387546e-04-j1.66759643986875077471e-05
  -2.35236106451478026126e-04-j2.09821111556471223193e-05
  -2.35711730820984370497e-04-j2.63916334342229702244e-05
  -2.36463828481071712670e-04-j3.31787550423970670731e-05
  -2.37651531440548596363e-04-j4.16774444253557638088e-05
  -2.39523210266286644930e-04-j5.22860088201561470185e-05
  -2.42463035079544438890e-04-j6.54627496839818492219e-05
  -2.47056731818384972110e-04-j8.17017157686210457757e-05
  -2.54176955964145788805e-04-j1.01468962246464960964e-04
  -2.65076222495183350288e-04-j1.25068193580928863637e-04
  -2.81445130681818027774e-04-j1.52396439395514530059e-04
  -3.05337761468602237377e-04-j1.82566670680173940948e-04
  -3.38800145131338745468e-04-j2.13459660311486252009e-04
  -3.83049965413673101488e-04-j2.41463943935277898425e-04
  -4.37323056448711414753e-04-j2.61884264094188184014e-04
  -4.98067041626503391981e-04-j2.70371972138208627179e-04
  -5.59466295274838867554e-04-j2.64892944981455849291e-04
  -6.15456684680072522997e-04-j2.46823729425497723385e-04
  -6.61921152905292804747e-04-j2.20203494795995522804e-04
  -6.97558305673726055003e-04-j1.89817441968385557018e-04
  -7.23276621235762829168e-04-j1.59578453856914381130e-04
  -7.41036926304752775405e-04-j1.31921307075582531360e-04
  -7.52939270523080060940e-04-j1.07969598028947240832e-04
  -7.60768582792775076122e-04-j8.79755179420786681543e-05
  -7.65875433998121574533e-04-j7.17224911108637838437e-05
  -7.69219332963057755501e-04-j5.87972262799335787737e-05
  -7.71462599831475065622e-04-j4.87439314376995362827e-05
  -7.73063694489177152813e-04-j4.11392486888793925000e-05
  -7.74353982016965335100e-04-j3.56203067727287487352e-05
  -7.75596900086011615920e-04-j3.18857266534312443120e-05
  -7.77032295668165498212e-04-j2.96788260967247240717e-05
  -7.78906431793340665523e-04-j2.87552868746462287806e-05
  -7.81481742684871170251e-04-j2.88352689762262246950e-05
  -7.85011956493714482819e-04-j2.95458974657220040138e-05
  -7.89666066848110988381e-04-j3.03788488696544758093e-05
  -7.95407588425201287838e-04-j3.07134637663317972109e-05
  -8.01894617673995437242e-04-j2.99519979762900181281e-05
  -8.08512593469467417094e-04-j2.77321802453740137706e-05
  -8.14581724478352620610e-04-j2.40678889270149727424e-05
  -8.19611573232411770758e-04-j1.92867099940145875713e-05
  -8.23419026965854935173e-04-j1.38150536061620074734e-05
  -8.26068774694200722540e-04-j7.98036820087699220430e-06
  -8.27736926895888958100e-04-j1.92850045895859482052e-06
  -8.28596243334812931382e-04+j4.36482773691048666265e-06
  -8.28750933886430811957e-04+j1.10474469428164708549e-05
  -8.28205028173967217585e-04+j1.83452006125432143225e-05
</dep>
<dep Pr2.i acfrequency>
  -4.75832533076586588100e-20-j5.72030077742220483295e-24
  -4.73934719865129770802e-20-j7.20142942039844684411e-24
  -4.70926888625729019603e-20-j9.06605732805039945747e-24
  -4.66159797370330660042e-20-j1.14134796384990505178e-23
  -4.58604466891808304528e-20-j1.43686989696457337108e-23
  -4.46630075049602430904e-20-j1.80890791963173701439e-23
  -4.27651942935023544935e-20-j2.27727195288019293608e-23
  -3.97573630540988949560e-20-j2.86689918039126151458e-23
  -3.49902717986934696391e-20-j3.60917960739919293378e-23
  -2.74349413201532932547e-20-j4.54362283035119713509e-23
  -1.54605494779026056482e-20-j5.71995236486215409123e-23
  +3.51758263678852216330e-21-j7.20073424594740847585e-23
  +3.35958950311061005946e-20-j9.06467027266623063062e-23
  +8.12668075858696316320e-20-j1.14107120991631741869e-22
  +1.56820112373054493641e-19-j1.43631770027066881293e-22
  +2.76564030800036629044e-19-j1.80780614237886669977e-22
  +4.66345351958190584899e-19-j2.27507361825105141576e-22
  +7.67128475929615655354e-19-j2.86251292615957367635e-22
  +1.24383760154818892393e-18-j3.60042787965682770849e-22
  +1.99937064959824593622e-18-j4.52616083789099665707e-22
  +3.19680983431572235762e-18-j5.68511110966244342514e-22
  +5.09462304702180470697e-18-j7.13121680339129273146e-22
  +8.10245428956060654940e-18-j8.92596474230482829455e-22
  +1.28695455528413370759e-17-j1.11339581910543303653e-21
  +2.04248760511638504584e-17-j1.38109803893752175841e-21
  +3.23992679431047569661e-17-j1.69762844257451784194e-21
  +5.13774001826127536293e-17-j2.05524023591992983581e-21
  +8.14557128904560892201e-17-j2.42388775781213630304e-21
  +1.29126626232761891272e-16-j2.72525591124149162803e-21
  +2.04679932998163755765e-16-j2.77996414009838697411e-21
  +3.24423856394201209642e-16-j2.20099364788692789277e-21
  +5.14205190034044284152e-16-j1.79498030001416835264e-22
  +8.14988345357995391405e-16+j4.94450771206008598480e-21
  +1.29169754973048913582e-15+j1.65411777981978291013e-20
  +2.04723079560079231674e-15+j4.14078751288873580699e-20
  +3.24467047721821162624e-15+j9.31988671769708685801e-20
  +5.14248493806605679860e-15+j1.99272921896223433485e-19
  +8.15031931577118450506e-15+j4.14360809123781687888e-19
  +1.29174184540844072628e-14+j8.47838830405257689709e-19
  +2.04727687330731703555e-14+j1.71814224926124477287e-18
  +3.24472103095508372818e-14+j3.46130178305328631419e-18
  +5.14254673422743367666e-14+j6.94737595597288081578e-18
  +8.15040934816359283269e-14+j1.39118612824955518408e-17
  +1.29175793989942236331e-13+j2.78150752759319958845e-17
  +2.04731077475476309261e-13+j5.55524012398213247509e-17
  +3.24479963974742444033e-13+j1.10852562939379795115e-16
  +5.14273755642950239241e-13+j2.21013462244517026055e-16
  +8.15088169450159584131e-13+j4.40201220981184909152e-16
  +1.29187575391073435683e-12+j8.75542370945463985655e-16
  +2.04760533579809338923e-12+j1.73779503547537395488e-15
  +3.24553603196004514642e-12+j3.43811180803551846209e-15
  +5.14457535608444091260e-12+j6.76765531492798573829e-15
  +8.15545311023503824928e-12+j1.32147607481370931892e-14
  +1.29300674141882955988e-11+j2.54737544759200589359e-14
  +2.05037993543839485620e-11+j4.80977108001820440512e-14
  +3.25225566762635034501e-11+j8.77882195896842514685e-14
  +5.16053926264641375462e-11+j1.51337983356662397852e-13
  +8.19233829663267644326e-11+j2.35388026755654439428e-13
  +1.30120676593331627061e-10+j2.94018733594621502489e-13
  +2.06770932486784257283e-10+j1.56835694386806392342e-13
  +3.28666160920301110518e-10-j6.46785862076399059648e-13
  +5.22408385275904439343e-10-j3.22558922374097673128e-12
  +8.30068643666534467979e-10-j9.95506617449254057004e-12
  +1.31813940165078715836e-09-j2.56839762451441865018e-11
  +2.09168370276669942808e-09-j6.01336341142353171483e-11
  +3.31658401721441040929e-09-j1.32710724867739686102e-10
  +5.25428394398900814264e-09-j2.82105888001463049966e-10
  +8.31553089456825316511e-09-j5.85301120781946820328e-10
  +1.31423081242144485988e-08-j1.19495367642802643960e-09
  +2.07297543983007316037e-08-j2.41226827236232518795e-09
  +3.26001980344649808383e-08-j4.82709041429865218424e-09
  +5.10334919204781869073e-08-j9.58131843650126737576e-09
  +7.93279331879388654975e-08-j1.88467359391528044152e-08
  +1.21988550147355201866e-07-j3.66422157073879561177e-08
  +1.84582546856305787577e-07-j7.00982261093529421411e-08
  +2.72775435655127834691e-07-j1.31084166296879996614e-07
  +3.89960003680445114862e-07-j2.37567629034181013078e-07
  +5.33457701748948582124e-07-j4.13229778983989112717e-07
  +6.91048477782133724467e-07-j6.83663193057994980148e-07
  +8.41535530434783111736e-07-j1.06968161032638540301e-06
  +9.61699679085699235884e-07-j1.58250249248499203662e-06
  +1.03603819173494069056e-06-j2.22657777177164440535e-06
  +1.06148364089974112947e-06-j3.00981869931010821833e-06
  +1.04340133043777203123e-06-j3.95412566498740991638e-06
  +9.86888953163369023216e-07-j5.10008252848174387827e-06
  +8.89456363411583381378e-07-j6.50629039067663188256e-06
  +7.36961516738313776701e-07-j8.24765167799481539561e-06
  +5.00607198398469266869e-07-j1.04154420379523752268e-05
  +1.32085839133467941678e-07-j1.31190924546793367738e-05
  -4.45146424252022196772e-07-j1.64880507861140315350e-05
  -1.34992112048064772765e-06-j2.06713925537574638421e-05
</dep>
<dep Pr3.i acfrequency>
  +0.00000000000000000000e+00
  +0.00000000000000000000e+00
  +0.00000000000000000000e+00
  +0.00000000000000000000e+00
  +0.00000000000000000000e+00
  +0.00000000000000000000e+00
  +0.00000000000000000000e+00
  +0.00000000000000000000e+00
  +0.00000000000000000000e+00
  +0.00000000000000000000e+00
  +0.00000000000000000000e+00
  +0.00000000000000000000e+00
  +0.00000000000000000000e+00
  +0.00000000000000000000e+00
  +0.00000000000000000000e+00
  +0.00000000000000000000e+00
  +0.00000000000000000000e+00
  +0.00000000000000000000e+00
  +0.00000000000000000000e+00
  +0.00000000000000000000e+00
  +0.00000000000000000000e+00
  +0.00000000000000000000e+00
  +0.00000000000000000000e+00
  +0.00000000000000000000e+00
  +0.00000000000000000000e+00
  +0.00000000000000000000e+00
  +0.00000000000000000000e+00
  +0.00000000000000000000e+00
  +0.00000000000000000000e+00
  +0.00000000000000000000e+00
  +0.00000000000000000000e+00
  +0.00000000000000000000e+00
  +0.00000000000000000000e+00
  +0.00000000000000000000e+00
  +0.00000000000000000000e+00
  +0.00000000000000000000e+00
  +0.00000000000000000000e+00
  +0.00000000000000000000e+00
  +0.00000000000000000000e+00
  +0.00000000000000000000e+00
  +0.00000000000000000000e+00
  +0.00000000000000000000e+00
  +0.00000000000000000000e+00
  +0.00000000000000000000e+00
  +0.00000000000000000000e+00
  +0.00000000000000000000e+00
  +0.00000000000000000000e+00
  +0.00000000000000000000e+00
  +0.00000000000000000000e+00
  +0.00000000000000000000e+00
  +0.00000000000000000000e+00
  +0.00000000000000000000e+00
  +0.00000000000000000000e+00
  +0.00000000000000000000e+00
  +0.00000000000000000000e+00
  +0.00000000000000000000e+00
  +0.00000000000000000000e+00
  +0.00000000000000000000e+00
  +0.00000000000000000000e+00
  +0.00000000000000000000e+00
  +0.00000000000000000000e+00
  +0.00000000000000000000e+00
  +0.00000000000000000000e+00
  +0.00000000000000000000e+00
  +0.00000000000000000000e+00
  +0.00000000000000000000e+00
  +0.00000000000000000000e+00
  +0.00000000000000000000e+00
  +0.00000000000000000000e+00
  +0.00000000000000000000e+00
  +0.00000000000000000000e+00
  +0.00000000000000000000e+00
  +0.00000000000000000000e+00
  +0.00000000000000000000e+00
  +0.00000000000000000000e+00
  +0.00000000000000000000e+00
  +0.00000000000000000000e+00
  +0.00000000000000000000e+00
  +0.00000000000000000000e+00
  +0.00000000000000000000e+00
  +0.00000000000000000000e+00
  +0.00000000000000000000e+00
  +0.00000000000000000000e+00
  +0.00000000000000000000e+00
  +0.00000000000000000000e+00
  +0.00000000000000000000e+00
  +0.00000000000000000000e+00
  +0.00000000000000000000e+00
  +0.00000000000000000000e+00
  +0.00000000000000000000e+00
  +0.00000000000000000000e+00
</dep>
<dep Pr4.i acfrequency>
  -8.70799417544248047420e-17-j9.26464527388560440398e-14
  -8.70789377537965296025e-17-j1.16634973665534870387e-13
  -8.70773465200355794568e-17-j1.46834732251488803728e-13
  -8.70748245844802600966e-17-j1.84853975765398806064e-13
  -8.70708275859867894649e-17-j2.32717367562257283264e-13
  -8.70644927702843140874e-17-j2.92973807789996930695e-13
  -8.70544527640020064267e-17-j3.68832171616981744196e-13
  -8.70385404263934170909e-17-j4.64332193535955662683e-13
  -8.70133210708420230778e-17-j5.84559597956759839674e-13
  -8.69733510859125922675e-17-j7.35916932576383207586e-13
  -8.69100029289002137477e-17-j9.26464527390893726872e-13
  -8.68096028661091969417e-17-j1.16634973666000497745e-12
  -8.66504794901013391833e-17-j1.46834732252417912743e-12
  -8.63982859347861550223e-17-j1.84853975767252384329e-12
  -8.59985860859887060307e-17-j2.32717367565956038740e-12
  -8.53651045171122701613e-17-j2.92973807797373297652e-12
  -8.43611038923404003233e-17-j3.68832171631698935192e-12
  -8.27698701401443674234e-17-j4.64332193565325138462e-12
  -8.02479346067858471122e-17-j5.84559598015354297159e-12
  -7.62509361685422579966e-17-j7.35916932693296644754e-12
  -6.99161206047230266088e-17-j9.26464527624164273777e-12
  -5.98761146708075263876e-17-j1.16634973712546314320e-11
  -4.39637779370691622549e-17-j1.46834732345289288861e-11
  -1.87444245835218237154e-17-j1.84853975952552966523e-11
  +2.12255548254859851175e-17-j2.32717367935681037912e-11
  +8.45736979710163100382e-17-j2.92973808535070618216e-11
  +1.84973725930141501324e-16-j3.68832173103600418443e-11
  +3.44097014444147361534e-16-j4.64332196502151741226e-11
  +5.96290349984494158173e-16-j5.84559603875105084594e-11
  +9.95989646731820565564e-16-j7.35916944385040138530e-11
  +1.62946982892007156877e-15-j9.26464550952254200225e-11
  +2.63346697049388759763e-15-j1.16634978367106872299e-10
  +4.22469197330625416769e-15-j1.46834741632346660910e-10
  +6.74660552922763911280e-15-j1.84853994482649863010e-10
  +1.07435487628270994357e-14-j2.32717404907994348354e-10
  +1.70782256594296904676e-14-j2.92973882304283172902e-10
  +2.71178832794923188844e-14-j3.68832320291694595592e-10
  +4.30293450979883686573e-14-j4.64332490178384203880e-10
  +6.82465008021875159982e-14-j5.84560189827912326157e-10
  +1.08210960118188407229e-13-j7.35918113488305672670e-10
  +1.71545238024839043973e-13-j9.26466883536844351224e-10
  +2.71910440497573999416e-13-j1.16635443752644824988e-09
  +4.30946260973752875422e-13-j1.46835670115502813378e-09
  +6.82919925061026622188e-13-j1.84855846787447244064e-09
  +1.08206758457531076370e-12-j2.32721099911683474786e-09
  +1.71416272344005004815e-12-j2.92981252181849277526e-09
  +2.71468320656599504352e-12-j3.68847016840254623139e-09
  +4.29718482930244508565e-12-j4.64361787468994487413e-09
  +6.79722433043773314131e-12-j5.84618563011338891008e-09
  +1.07393734292655434974e-11-j7.36034323048985796761e-09
  +1.69370110095478082700e-11-j9.26697933783637566398e-09
  +2.66347954869063724839e-11-j1.16681287884720705368e-08
  +4.16967342047699214374e-11-j1.46926341630389766621e-08
  +6.48157953470070730187e-11-j1.85034287505696036903e-08
  +9.96471764152523298438e-11-j2.33069583637727894502e-08
  +1.50601435279706041562e-10-j2.93653937837231982005e-08
  +2.21733207708689280249e-10-j3.70123292981090005073e-08
  +3.13790897147359179576e-10-j4.66724120664253576423e-08
  +4.18454328834567132540e-10-j5.88846115462411178783e-08
  +5.09890608361982635588e-10-j7.43280303115408804683e-08
  +5.36169168768666844311e-10-j9.38500382862605173808e-08
  +4.14122434033902679137e-10-j1.18500790308868369905e-07
  +2.67598909618329446092e-11-j1.49582933222900073741e-07
  -7.85496103436202381422e-10-j1.88723709610910171250e-07
  -2.25091535691081120987e-09-j2.37969382846508912732e-07
