<Qucs Dataset 0.0.19>
<indep acfrequency 71>
  +1.00000000000000000000e+00
  +1.25892541179416728170e+00
  +1.58489319246111359796e+00
  +1.99526231496887973549e+00
  +2.51188643150958013095e+00
  +3.16227766016837952279e+00
  +3.98107170553497269339e+00
  +5.01187233627272377134e+00
  +6.30957344480193338399e+00
  +7.94328234724281756485e+00
  +1.00000000000000017764e+01
  +1.25892541179416745933e+01
  +1.58489319246111364237e+01
  +1.99526231496887973549e+01
  +2.51188643150958093031e+01
  +3.16227766016838032215e+01
  +3.98107170553497340393e+01
  +5.01187233627272377134e+01
  +6.30957344480193640379e+01
  +7.94328234724281969648e+01
  +1.00000000000000042633e+02
  +1.25892541179416767250e+02
  +1.58489319246111392658e+02
  +1.99526231496888016181e+02
  +2.51188643150958057504e+02
  +3.16227766016837961160e+02
  +3.98107170553497269339e+02
  +5.01187233627272689773e+02
  +6.30957344480193796699e+02
  +7.94328234724282083334e+02
  +1.00000000000000068212e+03
  +1.25892541179416798514e+03
  +1.58489319246111426764e+03
  +1.99526231496888044603e+03
  +2.51188643150958114347e+03
  +3.16227766016838040741e+03
  +3.98107170553497689980e+03
  +5.01187233627272416925e+03
  +6.30957344480193842173e+03
  +7.94328234724281537638e+03
  +1.00000000000000090949e+04
  +1.25892541179416712112e+04
  +1.58489319246111463144e+04
  +1.99526231496888285619e+04
  +2.51188643150958159822e+04
  +3.16227766016838395444e+04
  +3.98107170553497417131e+04
  +5.01187233627272944432e+04
  +6.30957344480193423806e+04
  +7.94328234724282374373e+04
  +1.00000000000000014552e+05
  +1.25892541179416846717e+05
  +1.58489319246111350367e+05
  +1.99526231496888125548e+05
  +2.51188643150958436308e+05
  +3.16227766016838198993e+05
  +3.98107170553497853689e+05
  +5.01187233627272595186e+05
  +6.30957344480194151402e+05
  +7.94328234724281937815e+05
  +1.00000000000000128057e+06
  +1.25892541179416771047e+06
  +1.58489319246111530811e+06
  +1.99526231496888003312e+06
  +2.51188643150958279148e+06
  +3.16227766016838513315e+06
  +3.98107170553497597575e+06
  +5.01187233627273142338e+06
  +6.30957344480193778872e+06
  +7.94328234724282752723e+06
  +1.00000000000000055879e+07
</indep>
<dep Pr1.i acfrequency>
  +3.85414960071951140375e-02-j7.02023656618970062966e-10
  +3.85414960071951001597e-02-j8.83795420998283807671e-10
  +3.85414960071950932208e-02-j1.11263251432206370635e-09
  +3.85414960071950724041e-02-j1.40072134626848228886e-09
  +3.85414960071950446485e-02-j1.76340369765992845474e-09
  +3.85414960071949960763e-02-j2.21999372623588005956e-09
  +3.85414960071949266873e-02-j2.79480651598196810256e-09
  +3.85414960071948087261e-02-j3.51845294401761153120e-09
  +3.85414960071946421927e-02-j4.42946982142575252524e-09
  +3.85414960071943368813e-02-j5.57637211896820859168e-09
  +3.85414960071938858532e-02-j7.02023656618948576950e-09
  +3.85414960071931711472e-02-j8.83795420998241207869e-09
  +3.85414960071920123519e-02-j1.11263251432197825859e-08
  +3.85414960071902082395e-02-j1.40072134626831292363e-08
  +3.85414960071873563541e-02-j1.76340369765959166816e-08
  +3.85414960071828877064e-02-j2.21999372623521202850e-08
  +3.85414960071756920734e-02-j2.79480651598063055151e-08
  +3.85414960071642914707e-02-j3.51845294401493940695e-08
  +3.85414960071464168800e-02-j4.42946982142044252202e-08
  +3.85414960071178216983e-02-j5.57637211895759884227e-08
  +3.85414960070728090935e-02-j7.02023656616835527532e-08
  +3.85414960070011233806e-02-j8.83795420994020766948e-08
  +3.85414960068877557320e-02-j1.11263251431356100103e-07
  +3.85414960067079967465e-02-j1.40072134625151814626e-07
  +3.85414960064230580072e-02-j1.76340369762607841255e-07
  +3.85414960059713984641e-02-j2.21999372616833507154e-07
  +3.85414960052557833969e-02-j2.79480651584720757602e-07
  +3.85414960041214893494e-02-j3.51845294374873270114e-07
  +3.85414960023238509224e-02-j4.42946982088928338092e-07
  +3.85414959994745884297e-02-j5.57637211789779823316e-07
  +3.85414959949588950550e-02-j7.02023656405372878747e-07
  +3.85414959878020713102e-02-j8.83795420572102909190e-07
  +3.85414959764591447122e-02-j1.11263251347171819522e-06
  +3.85414959584818722638e-02-j1.40072134457182084221e-06
  +3.85414959299494666589e-02-j1.76340369427102659532e-06
  +3.85414958847527661101e-02-j2.21999371947229467216e-06
  +3.85414958131435891886e-02-j2.79480650248777322698e-06
  +3.85414956996742164019e-02-j3.51845291709852819954e-06
  +3.85414955197809078191e-02-j4.42946976770917137331e-06
  +3.85414952346994771348e-02-j5.57637201179061281719e-06
  +3.85414947828495585425e-02-j7.02023635233401545585e-06
  +3.85414940667190147883e-02-j8.83795378327605447237e-06
  +3.85414929317067778136e-02-j1.11263242918054298806e-05
  +3.85414911328542664215e-02-j1.40072117638736025851e-05
  +3.85414882818409104681e-02-j1.76340335869849906098e-05
  +3.85414837633827403462e-02-j2.21999304992435224338e-05
  +3.85414766020460500262e-02-j2.79480516656078211248e-05
  +3.85414652520941689029e-02-j3.51845025156536349038e-05
  +3.85414472636431137964e-02-j4.42946444927431497098e-05
  +3.85414187539092970014e-02-j5.57636140011975495775e-05
  +3.85413735690908684783e-02-j7.02021517928658368582e-05
  +3.85413019561888850473e-02-j8.83791153756169128516e-05
  +3.85411884579860974931e-02-j1.11262400008102900636e-04
  +3.85410085766448376465e-02-j1.40070435819420298839e-04
  +3.85407234873790874308e-02-j1.76336980224157648329e-04
  +3.85402716595398750488e-02-j2.21992609674217562668e-04
  +3.85395555816622215062e-02-j2.79467157982642904011e-04
  +3.85384207270971779202e-02-j3.51818371863761786885e-04
  +3.85366222354215984258e-02-j4.42893267032564493402e-04
  +3.85337721489737092262e-02-j5.57530043803914580197e-04
  +3.85292558967838677519e-02-j7.01809852319980288435e-04
  +3.85221002047593727435e-02-j8.83368901713966342415e-04
  +3.85107644323171016687e-02-j1.11178173788587203279e-03
  +3.84928115816337984567e-02-j1.39902458697594746229e-03
  +3.84643911839245636330e-02-j1.76002062737651678373e-03
  +3.84194304742546469122e-02-j2.21325121936417250693e-03
  +3.83483792446375759688e-02-j2.78137742759194906902e-03
  +3.82362868523003843202e-02-j3.49173387694463530084e-03
  +3.80599173517239611209e-02-j4.37639525001234670071e-03
  +3.77835723493942024498e-02-j5.47121524267674217562e-03
  +3.73534093389032290089e-02-j6.81272169261578058180e-03
</dep>
<dep Pr2.i acfrequency>
  -3.85164869763508152523e-02+j7.00317369032878508188e-10
  -3.85164869763508083134e-02+j8.81647332196324221139e-10
  -3.85164869763507944356e-02+j1.10992823074248609257e-09
  -3.85164869763507736189e-02+j1.39731685494945516970e-09
  -3.85164869763507458633e-02+j1.75911769702417112631e-09
  -3.85164869763506972911e-02+j2.21459797112056010833e-09
  -3.85164869763506279021e-02+j2.78801366275147355703e-09
  -3.85164869763505168798e-02+j3.50990124846715412268e-09
  -3.85164869763503295297e-02+j4.41870387458335165583e-09
  -3.85164869763500519739e-02+j5.56281859490629043962e-09
  -3.85164869763496009458e-02+j7.00317369032857104890e-09
  -3.85164869763488654231e-02+j8.81647332196281455902e-09
  -3.85164869763477205056e-02+j1.10992823074240052074e-08
  -3.85164869763459233321e-02+j1.39731685494928493593e-08
  -3.85164869763430645078e-02+j1.75911769702383347118e-08
  -3.85164869763384640211e-02+j2.21459797111988148936e-08
  -3.85164869763312822659e-02+j2.78801366275011971052e-08
  -3.85164869763198747243e-02+j3.50990124846445776203e-08
  -3.85164869763016393112e-02+j4.41870387457795380603e-08
  -3.85164869762729469849e-02+j5.56281859489552666918e-08
  -3.85164869762272266129e-02+j7.00317369030705393050e-08
  -3.85164869761550690552e-02+j8.81647332191992160466e-08
  -3.85164869760404940391e-02+j1.10992823073383916831e-07
  -3.85164869758590142079e-02+j1.39731685493220342468e-07
  -3.85164869755713346056e-02+j1.75911769698974846834e-07
  -3.85164869751154909094e-02+j2.21459797105188022851e-07
  -3.85164869743928120482e-02+j2.78801366261442662056e-07
  -3.85164869732476031206e-02+j3.50990124819371307721e-07
  -3.85164869714324231698e-02+j4.41870387403774464728e-07
  -3.85164869685557936796e-02+j5.56281859381767406743e-07
  -3.85164869639965518067e-02+j7.00317368815650265777e-07
  -3.85164869567705264730e-02+j8.81647331762893686777e-07
  -3.85164869453182220904e-02+j1.10992822987768047337e-06
  -3.85164869271674495388e-02+j1.39731685322394025212e-06
  -3.85164868984010158592e-02+j1.75911769358136396273e-06
  -3.85164868527686429789e-02+j2.21459796424673621511e-06
  -3.85164867805097566045e-02+j2.78801364903972551836e-06
  -3.85164866659869209453e-02+j3.50990122111277368721e-06
  -3.85164864844408372235e-02+j4.41870382000050189502e-06
  -3.85164861967327507020e-02+j5.56281848600109251940e-06
  -3.85164857407296196135e-02+j7.00317347303065236954e-06
  -3.85164850180206366770e-02+j8.81647288839526126192e-06
  -3.85164838725539221409e-02+j1.10992814423132141438e-05
  -3.85164820571722091302e-02+j1.39731668233754820115e-05
  -3.85164791799336020395e-02+j1.75911735261412115324e-05
  -3.85164746199054275344e-02+j2.21459728393696549868e-05
  -3.85164673926580991559e-02+j2.78801229163308076666e-05
  -3.85164559382839694068e-02+j3.50989851272451072717e-05
  -3.85164377843381713906e-02+j4.41869841605842654541e-05
  -3.85164090123524607834e-02+j5.56280770373392729534e-05
  -3.85163634118808606566e-02+j7.00315195960729487863e-05
  -3.85162911402098240288e-02+j8.81642996354835306073e-05
  -3.85161765978546608014e-02+j1.10991957962505878848e-04
  -3.85159950618347637907e-02+j1.39729959378024292359e-04
  -3.85157073500031685298e-02+j1.75908325671206836787e-04
  -3.85152513659167763937e-02+j2.21452925444218701222e-04
  -3.85145287011648060349e-02+j2.78787655742453025810e-04
  -3.85133834081574019659e-02+j3.50962769518290795649e-04
  -3.85115683753547988211e-02+j4.41815808871766357857e-04
  -3.85086920796813558798e-02+j5.56172968707561825308e-04
  -3.85041343051882659076e-02+j7.00100128051062749884e-04
  -3.84969128465615581525e-02+j8.81213957527293614141e-04
  -3.84854729457781291613e-02+j1.10906378137688439549e-03
  -3.84673553257927208771e-02+j1.39559283152614391731e-03
  -3.84386744455132850495e-02+j1.75568028116397222699e-03
  -3.83933025504918784554e-02+j2.20774719948165464023e-03
  -3.83216037670938564075e-02+j2.77436909021525329039e-03
  -3.82084953784209910288e-02+j3.48275390939651935049e-03
  -3.80305412494466241191e-02+j4.36478004473750489517e-03
  -3.77517480564116963970e-02+j5.45598364258889374084e-03
  -3.73178597126815614349e-02+j6.79236152517004830587e-03
</dep>
<dep Pr3.i acfrequency>
  +0.00000000000000000000e+00
  +0.00000000000000000000e+00
  +0.00000000000000000000e+00
  +0.00000000000000000000e+00
  +0.00000000000000000000e+00
  +0.00000000000000000000e+00
  +0.00000000000000000000e+00
  +0.00000000000000000000e+00
  +0.00000000000000000000e+00
  +0.00000000000000000000e+00
  +0.00000000000000000000e+00
  +0.00000000000000000000e+00
  +0.00000000000000000000e+00
  +0.00000000000000000000e+00
  +0.00000000000000000000e+00
  +0.00000000000000000000e+00
  +0.00000000000000000000e+00
  +0.00000000000000000000e+00
  +0.00000000000000000000e+00
  +0.00000000000000000000e+00
  +0.00000000000000000000e+00
  +0.00000000000000000000e+00
  +0.00000000000000000000e+00
  +0.00000000000000000000e+00
  +0.00000000000000000000e+00
  +0.00000000000000000000e+00
  +0.00000000000000000000e+00
  +0.00000000000000000000e+00
  +0.00000000000000000000e+00
  +0.00000000000000000000e+00
  +0.00000000000000000000e+00
  +0.00000000000000000000e+00
  +0.00000000000000000000e+00
  +0.00000000000000000000e+00
  +0.00000000000000000000e+00
  +0.00000000000000000000e+00
  +0.00000000000000000000e+00
  +0.00000000000000000000e+00
  +0.00000000000000000000e+00
  +0.00000000000000000000e+00
  +0.00000000000000000000e+00
  +0.00000000000000000000e+00
  +0.00000000000000000000e+00
  +0.00000000000000000000e+00
  +0.00000000000000000000e+00
  +0.00000000000000000000e+00
  +0.00000000000000000000e+00
  +0.00000000000000000000e+00
  +0.00000000000000000000e+00
  +0.00000000000000000000e+00
  +0.00000000000000000000e+00
  +0.00000000000000000000e+00
  +0.00000000000000000000e+00
  +0.00000000000000000000e+00
  +0.00000000000000000000e+00
  +0.00000000000000000000e+00
  +0.00000000000000000000e+00
  +0.00000000000000000000e+00
  +0.00000000000000000000e+00
  +0.00000000000000000000e+00
  +0.00000000000000000000e+00
  +0.00000000000000000000e+00
  +0.00000000000000000000e+00
  +0.00000000000000000000e+00
  +0.00000000000000000000e+00
  +0.00000000000000000000e+00
  +0.00000000000000000000e+00
  +0.00000000000000000000e+00
  +0.00000000000000000000e+00
  +0.00000000000000000000e+00
  +0.00000000000000000000e+00
</dep>
<dep Pr4.i acfrequency>
  -2.46071042210650735992e-11-j1.95687983560786393847e-14
  -2.46071042211449870012e-11-j2.46356575287433198286e-14
  -2.46071042212900505699e-11-j3.10144552991932488568e-14
  -2.46071042215819645468e-11-j3.90448859091086590086e-14
  -2.46071042220316729191e-11-j4.91545990715808877250e-14
  -2.46071042227063582620e-11-j6.18819738777671719151e-14
  -2.46071042238047894920e-11-j7.79047894467038255895e-14
  -2.46071042255649296691e-11-j9.80763191349294674596e-14
  -2.46071042283578403839e-11-j1.23470770454197057105e-13
  -2.46071042327645513933e-11-j1.55440490538592642070e-13
  -2.46071042396857460619e-11-j1.95687983560784418539e-13
  -2.46071042506306218798e-11-j2.46356575287429424376e-13
  -2.46071042680467351937e-11-j3.10144552991925332022e-13
  -2.46071042957063204025e-11-j3.90448859091071330361e-13
  -2.46071043394980504376e-11-j4.91545990715779607355e-13
  -2.46071044088845807009e-11-j6.18819738777612497785e-13
  -2.46071045188731647026e-11-j7.79047894466919813163e-13
  -2.46071046931531404311e-11-j9.80763191349061197012e-13
  -2.46071049694285440422e-11-j1.23470770454150245467e-12
  -2.46071054072404758001e-11-j1.55440490538499599398e-12
  -2.46071061011190359410e-11-j1.95687983560597363841e-12
  -2.46071072008623488609e-11-j2.46356575287056890177e-12
  -2.46071089438764073169e-11-j3.10144552991182808176e-12
  -2.46071117062746232871e-11-j3.90448859089587777085e-12
  -2.46071160844952252549e-11-j4.91545990712821325949e-12
  -2.46071230234264459937e-11-j6.18819738771709324151e-12
  -2.46071340209468427482e-11-j7.79047894455140486591e-12
  -2.46071514508100342286e-11-j9.80763191325552505899e-12
  -2.46071790752918045581e-11-j1.23470770449460256602e-11
  -2.46072228571356580676e-11-j1.55440490529141945042e-11
  -2.46072922467122692153e-11-j1.95687983541927743935e-11
  -2.46074022217334976992e-11-j2.46356575249805239422e-11
  -2.46075765204135311500e-11-j3.10144552916855500648e-11
  -2.46078527651803305258e-11-j3.90448858941284471454e-11
  -2.46082905836696726056e-11-j4.91545990416924926789e-11
  -2.46089844792405500702e-11-j6.18819738181311326828e-11
  -2.46100842295586461739e-11-j7.79047893277150023626e-11
  -2.46118272163563020383e-11-j9.80763188975155404534e-11
  -2.46145896642689086132e-11-j1.23470769980493950015e-10
  -2.46189678491457664110e-11-j1.55440489593431080832e-10
  -2.46259068044397649105e-11-j1.95687981674939613125e-10
  -2.46369043074919442654e-11-j2.46356571524676714891e-10
  -2.46543341748250371727e-11-j3.10144545484244256156e-10
  -2.46819586522239885762e-11-j3.90448844111280256873e-10
  -2.47257404967994103145e-11-j4.91545960827169153848e-10
  -2.47951300400020577839e-11-j6.18819679141995598588e-10
  -2.49051050440872882020e-11-j7.79047775478215784306e-10
  -2.50794036529096841751e-11-j9.80762953935396903820e-10
  -2.53556482648080616188e-11-j1.23470723083905337926e-09
  -2.57934663023796401306e-11-j1.55440396022462109130e-09
  -2.64873607093413816947e-11-j1.95687794976382063748e-09
  -2.75871081755194699581e-11-j2.46356199012301922487e-09
  -2.93300877960896678631e-11-j3.10143802225037987048e-09
  -3.20925176701127868481e-11-j3.90447361116426747993e-09
  -3.64706572396727155306e-11-j4.91543001870415367833e-09
  -4.34094988096404249968e-11-j6.18813775269255375221e-09
  -5.44067160054229641328e-11-j7.79035995773477271438e-09
  -7.18358654950815085135e-11-j9.80739450555939794105e-09
  -9.94585397898469285827e-11-j1.23466033613221353209e-08
  -1.43235855194633794593e-10-j1.55431039519824159249e-08
  -2.12614022187732089260e-10-j1.95669126999659758244e-08
  -3.22560452631034011944e-10-j2.46318953716479360561e-08
  -4.96787296016322329240e-10-j3.10069495092080585409e-08
  -7.72851674541531723301e-10-j3.90299121031883572793e-08
  -1.21021711825367012150e-09-j4.91247293994676608950e-08
  -1.90297518590823183668e-09-j6.18223981646427938832e-08
  -2.99987038473471062595e-09-j7.77859901477926736808e-08
  -4.73569373211222108060e-09-j9.78395040046219762306e-08
  -7.48018080816975143387e-09-j1.22998958182396271448e-07
  -1.18133807174337895079e-08-j1.54501294001843483811e-07
  -1.86398554482610988302e-08-j1.93820932560032658364e-07
</dep>
<dep Pr5.i acfrequency>
  +2.51832710878962199176e-05+j1.33638485851372169869e-11
  +2.51832710878962504107e-05+j1.68240885831987739555e-11
  +2.51832710878963181734e-05+j2.11802726476650651166e-11
  +2.51832710878964164292e-05+j2.66643834648744687034e-11
  +2.51832710878965790595e-05+j3.35684699337546742216e-11
  +2.51832710878968365575e-05+j4.22601998346522278967e-11
  +2.51832710878972465215e-05+j5.32024394793433199523e-11
  +2.51832710878978970428e-05+j6.69779030299865336379e-11
  +2.51832710878989236467e-05+j8.43201841531354837024e-11
  +2.51832710879005668906e-05+j1.06152822557546012386e-10
  +2.51832710879031384827e-05+j1.33638485851371523634e-10
  +2.51832710879072076290e-05+j1.68240885831986317838e-10
  +2.51832710879136891251e-05+j2.11802726476647930517e-10
  +2.51832710879239687169e-05+j2.66643834648739194038e-10
  +2.51832710879402317495e-05+j3.35684699337536040567e-10
  +2.51832710879659815511e-05+j4.22601998346500371606e-10
  +2.51832710880068661374e-05+j5.32024394793389746691e-10
  +2.51832710880716370528e-05+j6.69779030299779723185e-10
  +2.51832710881741890258e-05+j8.43201841531182007975e-10
  +2.51832710883368837262e-05+j1.06152822557511635277e-09
  +2.51832710885945375962e-05+j1.33638485851302086991e-09
  +2.51832710890031327374e-05+j1.68240885831848540567e-09
  +2.51832710896505437359e-05+j2.11802726476372918813e-09
  +2.51832710906766733296e-05+j2.66643834648189873733e-09
  +2.51832710923030036933e-05+j3.35684699336440419166e-09
  +2.51832710948805656094e-05+j4.22601998344314857030e-09
  +2.51832710989656157786e-05+j5.32024394789027154781e-09
  +2.51832711054400916820e-05+j6.69779030291073275007e-09
  +2.51832711157013571250e-05+j8.43201841513813469178e-09
  +2.51832711319645049088e-05+j1.06152822554046220003e-08
  +2.51832711577397818682e-05+j1.33638485844388395626e-08
  +2.51832711985907985565e-05+j1.68240885818053029106e-08
  +2.51832712633353983476e-05+j2.11802726448847549216e-08
  +2.51832713659486118196e-05+j2.66643834593269150788e-08
  +2.51832715285799947896e-05+j3.35684699226864432079e-08
  +2.51832717863328016535e-05+j4.22601998125677686980e-08
  +2.51832721948437681357e-05+j5.32024394352793589873e-08
  +2.51832728418461376221e-05+j6.69779029420678149907e-08
  +2.51832738679791939146e-05+j8.43201839777144795273e-08
  +2.51832754942903605424e-05+j1.06152822207534586945e-07
  +2.51832780718198420331e-05+j1.33638485153006556940e-07
  +2.51832821564852584026e-05+j1.68240884438567091308e-07
  +2.51832886305026898963e-05+j2.11802723696409374754e-07
  +2.51832988913884792083e-05+j2.66643829101434237280e-07
  +2.51833151536115401625e-05+j3.35684688269206933935e-07
  +2.51833409275718004508e-05+j4.22601976262278835572e-07
  +2.51833817764329931930e-05+j5.32024350729568084762e-07
  +2.51834465174719390344e-05+j6.69778942380900531837e-07
  +2.51835491249369847276e-05+j8.43201666109991610534e-07
  +2.51837117465723943821e-05+j1.06152787556393857274e-06
  +2.51839694849085745894e-05+j1.33638416014917876326e-06
  +2.51843779721262112407e-05+j1.68240746490025345743e-06
  +2.51850253796778924414e-05+j2.11802448453138375984e-06
  +2.51860514487573221992e-05+j2.66643279919740915155e-06
