<Qucs Dataset 0.0.20>
<indep frequency 78>
1.000000000000e+00
1.232846739442e+00
1.519911082953e+00
1.873817422860e+00
2.310129700083e+00
2.848035868436e+00
3.511191734215e+00
4.328761281083e+00
5.336699231206e+00
6.579332246576e+00
8.111308307897e+00
1.000000000000e+01
1.232846739442e+01
1.519911082953e+01
1.873817422860e+01
2.310129700083e+01
2.848035868436e+01
3.511191734215e+01
4.328761281083e+01
5.336699231206e+01
6.579332246576e+01
8.111308307897e+01
1.000000000000e+02
1.232846739442e+02
1.519911082953e+02
1.873817422860e+02
2.310129700083e+02
2.848035868436e+02
3.511191734215e+02
4.328761281083e+02
5.336699231206e+02
6.579332246576e+02
8.111308307897e+02
1.000000000000e+03
1.232846739442e+03
1.519911082953e+03
1.873817422860e+03
2.310129700083e+03
2.848035868436e+03
3.511191734215e+03
4.328761281083e+03
5.336699231206e+03
6.579332246576e+03
8.111308307897e+03
1.000000000000e+04
1.232846739442e+04
1.519911082953e+04
1.873817422860e+04
2.310129700083e+04
2.848035868436e+04
3.511191734215e+04
4.328761281083e+04
5.336699231206e+04
6.579332246576e+04
8.111308307897e+04
1.000000000000e+05
1.232846739442e+05
1.519911082953e+05
1.873817422860e+05
2.310129700083e+05
2.848035868436e+05
3.511191734215e+05
4.328761281083e+05
5.336699231206e+05
6.579332246576e+05
8.111308307897e+05
1.000000000000e+06
1.232846739442e+06
1.519911082953e+06
1.873817422860e+06
2.310129700083e+06
2.848035868436e+06
3.511191734215e+06
4.328761281083e+06
5.336699231206e+06
6.579332246576e+06
8.111308307897e+06
1.000000000000e+07
</indep>
<dep ac.v(vc1) frequency>
-4.281861620930e+01+j7.601651058821e-07
-4.281861620930e+01+j9.371670722243e-07
-4.281861620930e+01+j1.155383369304e-06
-4.281861620930e+01+j1.424410619652e-06
-4.281861620930e+01+j1.756079988065e-06
-4.281861620930e+01+j2.164977487485e-06
-4.281861620930e+01+j2.669085436412e-06
-4.281861620930e+01+j3.290573277573e-06
-4.281861620930e+01+j4.056772536151e-06
-4.281861620930e+01+j5.001378793851e-06
-4.281861620930e+01+j6.165933538714e-06
-4.281861620930e+01+j7.601651058821e-06
-4.281861620930e+01+j9.371670722243e-06
-4.281861620930e+01+j1.155383369304e-05
-4.281861620930e+01+j1.424410619652e-05
-4.281861620929e+01+j1.756079988065e-05
-4.281861620929e+01+j2.164977487485e-05
-4.281861620929e+01+j2.669085436411e-05
-4.281861620928e+01+j3.290573277571e-05
-4.281861620926e+01+j4.056772536147e-05
-4.281861620925e+01+j5.001378793845e-05
-4.281861620922e+01+j6.165933538703e-05
-4.281861620917e+01+j7.601651058799e-05
-4.281861620910e+01+j9.371670722202e-05
-4.281861620900e+01+j1.155383369297e-04
-4.281861620885e+01+j1.424410619638e-04
-4.281861620861e+01+j1.756079988038e-04
-4.281861620825e+01+j2.164977487435e-04
-4.281861620771e+01+j2.669085436317e-04
-4.281861620688e+01+j3.290573277395e-04
-4.281861620562e+01+j4.056772535817e-04
-4.281861620371e+01+j5.001378793226e-04
-4.281861620081e+01+j6.165933537543e-04
-4.281861619639e+01+j7.601651056625e-04
-4.281861618968e+01+j9.371670718129e-04
-4.281861617948e+01+j1.155383368533e-03
-4.281861616398e+01+j1.424410618208e-03
-4.281861614042e+01+j1.756079985358e-03
-4.281861610461e+01+j2.164977482413e-03
-4.281861605017e+01+j2.669085426908e-03
-4.281861596744e+01+j3.290573259764e-03
-4.281861584169e+01+j4.056772502780e-03
-4.281861565057e+01+j5.001378731322e-03
-4.281861536008e+01+j6.165933421545e-03
-4.281861491856e+01+j7.601650839267e-03
-4.281861424749e+01+j9.371670310839e-03
-4.281861322753e+01+j1.155383292215e-02
-4.281861167727e+01+j1.424410475200e-02
-4.281860932102e+01+j1.756079717389e-02
-4.281860573972e+01+j2.164976980287e-02
-4.281860029647e+01+j2.669084486015e-02
-4.281859202322e+01+j3.290571496703e-02
-4.281857944862e+01+j4.056769199128e-02
-4.281856033636e+01+j5.001372540882e-02
-4.281853128746e+01+j6.165921821799e-02
-4.281848713578e+01+j7.601629103483e-02
-4.281842002932e+01+j9.371629582011e-02
-4.281831803385e+01+j1.155375660393e-01
-4.281816301071e+01+j1.424396174611e-01
-4.281792739138e+01+j1.756052920839e-01
-4.281756927573e+01+j2.164926768855e-01
-4.281702498281e+01+j2.668990400124e-01
-4.281619773145e+01+j3.290395200237e-01
-4.281494044179e+01+j4.056438861184e-01
-4.281302960926e+01+j5.000753574790e-01
-4.281012562774e+01+j6.164762068960e-01
-4.280571255931e+01+j7.599456156554e-01
-4.279900676266e+01+j9.367558497332e-01
-4.278881841551e+01+j1.154612990287e+00
-4.277334196168e+01+j1.422967573416e+00
-4.274983972973e+01+j1.753377415290e+00
-4.271416593945e+01+j2.159917433614e+00
-4.266005442957e+01+j2.659615398875e+00
-4.257806167604e+01+j3.272861033670e+00
-4.245401854931e+01+j4.023676223844e+00
-4.226680869656e+01+j4.939625905482e+00
-4.198528539329e+01+j6.050962514366e+00
-4.156422824630e+01+j7.388297372357e+00
</dep>
<dep ac.v(vc2) frequency>
4.281666955650e+01-j7.586113654376e-07
4.281666955650e+01-j9.352515483835e-07
4.281666955650e+01-j1.153021821983e-06
4.281666955650e+01-j1.421499193737e-06
4.281666955650e+01-j1.752490646118e-06
4.281666955650e+01-j2.160552378969e-06
4.281666955650e+01-j2.663629955806e-06
4.281666955650e+01-j3.283847506096e-06
4.281666955650e+01-j4.048480690715e-06
4.281666955650e+01-j4.991156219243e-06
4.281666955650e+01-j6.153330670939e-06
4.281666955650e+01-j7.586113654376e-06
4.281666955650e+01-j9.352515483834e-06
4.281666955650e+01-j1.153021821983e-05
4.281666955650e+01-j1.421499193737e-05
4.281666955650e+01-j1.752490646118e-05
4.281666955649e+01-j2.160552378969e-05
4.281666955649e+01-j2.663629955805e-05
4.281666955648e+01-j3.283847506094e-05
4.281666955647e+01-j4.048480690712e-05
4.281666955645e+01-j4.991156219236e-05
4.281666955642e+01-j6.153330670927e-05
4.281666955637e+01-j7.586113654354e-05
4.281666955631e+01-j9.352515483793e-05
4.281666955620e+01-j1.153021821975e-04
4.281666955605e+01-j1.421499193722e-04
4.281666955581e+01-j1.752490646091e-04
4.281666955544e+01-j2.160552378918e-04
4.281666955489e+01-j2.663629955709e-04
4.281666955406e+01-j3.283847505914e-04
4.281666955278e+01-j4.048480690375e-04
4.281666955085e+01-j4.991156218604e-04
4.281666954791e+01-j6.153330669743e-04
4.281666954344e+01-j7.586113652135e-04
4.281666953665e+01-j9.352515479634e-04
4.281666952633e+01-j1.153021821196e-03
4.281666951064e+01-j1.421499192262e-03
4.281666948679e+01-j1.752490643354e-03
4.281666945054e+01-j2.160552373791e-03
4.281666939546e+01-j2.663629946102e-03
4.281666931172e+01-j3.283847487912e-03
4.281666918446e+01-j4.048480656642e-03
4.281666899103e+01-j4.991156155396e-03
4.281666869703e+01-j6.153330551302e-03
4.281666825019e+01-j7.586113430198e-03
4.281666757102e+01-j9.352515063765e-03
4.281666653874e+01-j1.153021743269e-02
4.281666496977e+01-j1.421499046242e-02
4.281666258507e+01-j1.752490369740e-02
4.281665896055e+01-j2.160551861088e-02
4.281665345160e+01-j2.663628985391e-02
4.281664507848e+01-j3.283845687715e-02
4.281663235210e+01-j4.048477283402e-02
4.281661300914e+01-j4.991149834562e-02
4.281658360959e+01-j6.153318707222e-02
4.281653892497e+01-j7.586091236576e-02
4.281647100850e+01-j9.352473477034e-02
4.281636778189e+01-j1.153013950694e-01
4.281621088754e+01-j1.421484444430e-01
4.281597242420e+01-j1.752463008758e-01
4.281560998603e+01-j2.160500592023e-01
4.281505912357e+01-j2.663532917724e-01
4.281422188776e+01-j3.283665677863e-01
4.281294942419e+01-j4.048139987535e-01
4.281101553228e+01-j4.990517831398e-01
4.280807651092e+01-j6.152134527586e-01
4.280361020436e+01-j7.583872524827e-01
4.279682353505e+01-j9.348316656053e-01
4.278651237157e+01-j1.152235220469e+00
4.277084948537e+01-j1.420025764588e+00
4.274706444081e+01-j1.749731184231e+00
4.271096206395e+01-j2.155385847345e+00
4.265620205029e+01-j2.653960745243e+00
4.257323031917e+01-j3.265763032765e+00
4.244771458024e+01-j4.014689677739e+00
4.225830156123e+01-j4.928109470751e+00
4.197350935426e+01-j6.035957372828e+00
4.154766342121e+01-j7.368320604383e+00
</dep>
<dep ac.v(vcc) frequency>
0.000000000000e+00+j0.000000000000e+00
0.000000000000e+00+j0.000000000000e+00
0.000000000000e+00+j0.000000000000e+00
0.000000000000e+00+j0.000000000000e+00
0.000000000000e+00+j0.000000000000e+00
0.000000000000e+00+j0.000000000000e+00
0.000000000000e+00+j0.000000000000e+00
0.000000000000e+00+j0.000000000000e+00
0.000000000000e+00+j0.000000000000e+00
0.000000000000e+00+j0.000000000000e+00
0.000000000000e+00+j0.000000000000e+00
0.000000000000e+00+j0.000000000000e+00
0.000000000000e+00+j0.000000000000e+00
0.000000000000e+00+j0.000000000000e+00
0.000000000000e+00+j0.000000000000e+00
0.000000000000e+00+j0.000000000000e+00
0.000000000000e+00+j0.000000000000e+00
0.000000000000e+00+j0.000000000000e+00
0.000000000000e+00+j0.000000000000e+00
0.000000000000e+00+j0.000000000000e+00
0.000000000000e+00+j0.000000000000e+00
0.000000000000e+00+j0.000000000000e+00
0.000000000000e+00+j0.000000000000e+00
0.000000000000e+00+j0.000000000000e+00
0.000000000000e+00+j0.000000000000e+00
0.000000000000e+00+j0.000000000000e+00
0.000000000000e+00+j0.000000000000e+00
0.000000000000e+00+j0.000000000000e+00
0.000000000000e+00+j0.000000000000e+00
0.000000000000e+00+j0.000000000000e+00
0.000000000000e+00+j0.000000000000e+00
0.000000000000e+00+j0.000000000000e+00
0.000000000000e+00+j0.000000000000e+00
0.000000000000e+00+j0.000000000000e+00
0.000000000000e+00+j0.000000000000e+00
0.000000000000e+00+j0.000000000000e+00
0.000000000000e+00+j0.000000000000e+00
0.000000000000e+00+j0.000000000000e+00
0.000000000000e+00+j0.000000000000e+00
0.000000000000e+00+j0.000000000000e+00
0.000000000000e+00+j0.000000000000e+00
0.000000000000e+00+j0.000000000000e+00
0.000000000000e+00+j0.000000000000e+00
0.000000000000e+00+j0.000000000000e+00
0.000000000000e+00+j0.000000000000e+00
0.000000000000e+00+j0.000000000000e+00
0.000000000000e+00+j0.000000000000e+00
0.000000000000e+00+j0.000000000000e+00
0.000000000000e+00+j0.000000000000e+00
0.000000000000e+00+j0.000000000000e+00
0.000000000000e+00+j0.000000000000e+00
0.000000000000e+00+j0.000000000000e+00
0.000000000000e+00+j0.000000000000e+00
0.000000000000e+00+j0.000000000000e+00
0.000000000000e+00+j0.000000000000e+00
0.000000000000e+00+j0.000000000000e+00
0.000000000000e+00+j0.000000000000e+00
0.000000000000e+00+j0.000000000000e+00
0.000000000000e+00+j0.000000000000e+00
0.000000000000e+00+j0.000000000000e+00
0.000000000000e+00+j0.000000000000e+00
0.000000000000e+00+j0.000000000000e+00
0.000000000000e+00+j0.000000000000e+00
0.000000000000e+00+j0.000000000000e+00
0.000000000000e+00+j0.000000000000e+00
0.000000000000e+00+j0.000000000000e+00
0.000000000000e+00+j0.000000000000e+00
0.000000000000e+00+j0.000000000000e+00
0.000000000000e+00+j0.000000000000e+00
0.000000000000e+00+j0.000000000000e+00
0.000000000000e+00+j0.000000000000e+00
0.000000000000e+00+j0.000000000000e+00
0.000000000000e+00+j0.000000000000e+00
0.000000000000e+00+j0.000000000000e+00
0.000000000000e+00+j0.000000000000e+00
0.000000000000e+00+j0.000000000000e+00
0.000000000000e+00+j0.000000000000e+00
0.000000000000e+00+j0.000000000000e+00
</dep>
<dep ac.v(vee) frequency>
0.000000000000e+00+j0.000000000000e+00
0.000000000000e+00+j0.000000000000e+00
0.000000000000e+00+j0.000000000000e+00
0.000000000000e+00+j0.000000000000e+00
0.000000000000e+00+j0.000000000000e+00
0.000000000000e+00+j0.000000000000e+00
0.000000000000e+00+j0.000000000000e+00
0.000000000000e+00+j0.000000000000e+00
0.000000000000e+00+j0.000000000000e+00
0.000000000000e+00+j0.000000000000e+00
0.000000000000e+00+j0.000000000000e+00
0.000000000000e+00+j0.000000000000e+00
0.000000000000e+00+j0.000000000000e+00
0.000000000000e+00+j0.000000000000e+00
0.000000000000e+00+j0.000000000000e+00
0.000000000000e+00+j0.000000000000e+00
0.000000000000e+00+j0.000000000000e+00
0.000000000000e+00+j0.000000000000e+00
0.000000000000e+00+j0.000000000000e+00
0.000000000000e+00+j0.000000000000e+00
0.000000000000e+00+j0.000000000000e+00
0.000000000000e+00+j0.000000000000e+00
0.000000000000e+00+j0.000000000000e+00
0.000000000000e+00+j0.000000000000e+00
0.000000000000e+00+j0.000000000000e+00
0.000000000000e+00+j0.000000000000e+00
0.000000000000e+00+j0.000000000000e+00
0.000000000000e+00+j0.000000000000e+00
0.000000000000e+00+j0.000000000000e+00
0.000000000000e+00+j0.000000000000e+00
0.000000000000e+00+j0.000000000000e+00
0.000000000000e+00+j0.000000000000e+00
0.000000000000e+00+j0.000000000000e+00
0.000000000000e+00+j0.000000000000e+00
0.000000000000e+00+j0.000000000000e+00
0.000000000000e+00+j0.000000000000e+00
0.000000000000e+00+j0.000000000000e+00
0.000000000000e+00+j0.000000000000e+00
0.000000000000e+00+j0.000000000000e+00
0.000000000000e+00+j0.000000000000e+00
0.000000000000e+00+j0.000000000000e+00
0.000000000000e+00+j0.000000000000e+00
0.000000000000e+00+j0.000000000000e+00
0.000000000000e+00+j0.000000000000e+00
0.000000000000e+00+j0.000000000000e+00
0.000000000000e+00+j0.000000000000e+00
0.000000000000e+00+j0.000000000000e+00
0.000000000000e+00+j0.000000000000e+00
0.000000000000e+00+j0.000000000000e+00
0.000000000000e+00+j0.000000000000e+00
0.000000000000e+00+j0.000000000000e+00
0.000000000000e+00+j0.000000000000e+00
0.000000000000e+00+j0.000000000000e+00
0.000000000000e+00+j0.000000000000e+00
0.000000000000e+00+j0.000000000000e+00
0.000000000000e+00+j0.000000000000e+00
0.000000000000e+00+j0.000000000000e+00
0.000000000000e+00+j0.000000000000e+00
0.000000000000e+00+j0.000000000000e+00
0.000000000000e+00+j0.000000000000e+00
0.000000000000e+00+j0.000000000000e+00
0.000000000000e+00+j0.000000000000e+00
0.000000000000e+00+j0.000000000000e+00
0.000000000000e+00+j0.000000000000e+00
0.000000000000e+00+j0.000000000000e+00
0.000000000000e+00+j0.000000000000e+00
0.000000000000e+00+j0.000000000000e+00
0.000000000000e+00+j0.000000000000e+00
0.000000000000e+00+j0.000000000000e+00
0.000000000000e+00+j0.000000000000e+00
0.000000000000e+00+j0.000000000000e+00
0.000000000000e+00+j0.000000000000e+00
0.000000000000e+00+j0.000000000000e+00
0.000000000000e+00+j0.000000000000e+00
0.000000000000e+00+j0.000000000000e+00
0.000000000000e+00+j0.000000000000e+00
0.000000000000e+00+j0.000000000000e+00
0.000000000000e+00+j0.000000000000e+00
</dep>
<dep ac.i(pr1) frequency>
3.568218017442e-02-j6.334709215684e-10
3.568218017442e-02-j7.809725601870e-10
3.568218017442e-02-j9.628194744202e-10
3.568218017442e-02-j1.187008849710e-09
3.568218017442e-02-j1.463399990054e-09
3.568218017442e-02-j1.804147906238e-09
3.568218017442e-02-j2.224237863677e-09
3.568218017442e-02-j2.742144397977e-09
3.568218017442e-02-j3.380643780126e-09
3.568218017442e-02-j4.167815661543e-09
3.568218017442e-02-j5.138277948929e-09
3.568218017442e-02-j6.334709215684e-09
3.568218017442e-02-j7.809725601869e-09
3.568218017442e-02-j9.628194744201e-09
3.568218017441e-02-j1.187008849710e-08
3.568218017441e-02-j1.463399990054e-08
3.568218017441e-02-j1.804147906237e-08
3.568218017440e-02-j2.224237863676e-08
3.568218017440e-02-j2.742144397976e-08
3.568218017439e-02-j3.380643780123e-08
3.568218017437e-02-j4.167815661538e-08
3.568218017435e-02-j5.138277948919e-08
3.568218017431e-02-j6.334709215666e-08
3.568218017425e-02-j7.809725601835e-08
3.568218017417e-02-j9.628194744138e-08
3.568218017404e-02-j1.187008849698e-07
3.568218017384e-02-j1.463399990032e-07
3.568218017354e-02-j1.804147906196e-07
3.568218017309e-02-j2.224237863597e-07
3.568218017240e-02-j2.742144397829e-07
3.568218017135e-02-j3.380643779848e-07
3.568218016976e-02-j4.167815661022e-07
3.568218016734e-02-j5.138277947952e-07
3.568218016366e-02-j6.334709213854e-07
3.568218015807e-02-j7.809725598441e-07
3.568218014957e-02-j9.628194737778e-07
3.568218013665e-02-j1.187008848507e-06
3.568218011702e-02-j1.463399987799e-06
3.568218008717e-02-j1.804147902011e-06
3.568218004181e-02-j2.224237855757e-06
3.568217997287e-02-j2.742144383137e-06
3.568217986808e-02-j3.380643752317e-06
3.568217970881e-02-j4.167815609435e-06
3.568217946673e-02-j5.138277851288e-06
3.568217909880e-02-j6.334709032722e-06
3.568217853958e-02-j7.809725259033e-06
3.568217768961e-02-j9.628194101789e-06
3.568217639772e-02-j1.187008729334e-05
3.568217443418e-02-j1.463399764491e-05
3.568217144977e-02-j1.804147483573e-05
3.568216691373e-02-j2.224237071679e-05
3.568216001935e-02-j2.742142913919e-05
3.568214954052e-02-j3.380640999273e-05
3.568213361363e-02-j4.167810450735e-05
3.568210940621e-02-j5.138268184833e-05
3.568207261315e-02-j6.334690919569e-05
3.568201669110e-02-j7.809691318342e-05
3.568193169488e-02-j9.628130503279e-05
3.568180250892e-02-j1.186996812176e-04
3.568160615948e-02-j1.463377434033e-04
3.568130772977e-02-j1.804105640713e-04
3.568085415234e-02-j2.224158666770e-04
3.568016477621e-02-j2.741996000198e-04
3.567911703483e-02-j3.380365717654e-04
3.567752467438e-02-j4.167294645659e-04
3.567510468978e-02-j5.137301724134e-04
3.567142713276e-02-j6.332880130462e-04
3.566583896888e-02-j7.806298747777e-04
3.565734867959e-02-j9.621774919062e-04
3.564445163473e-02-j1.185806311180e-03
3.562486644144e-02-j1.461147846075e-03
3.559513828287e-02-j1.799931194678e-03
3.555004535798e-02-j2.216346165729e-03
3.548171806337e-02-j2.727384194725e-03
3.537834879110e-02-j3.353063519870e-03
3.522234058047e-02-j4.116354921235e-03
3.498773782774e-02-j5.042468761971e-03
3.463685687192e-02-j6.156914476964e-03
</dep>
<dep ac.i(pr2) frequency>
-3.568055796375e-02+j6.321761378647e-10
-3.568055796375e-02+j7.793762903196e-10
-3.568055796375e-02+j9.608515183189e-10
-3.568055796375e-02+j1.184582661447e-09
-3.568055796375e-02+j1.460408871765e-09
-3.568055796375e-02+j1.800460315808e-09
-3.568055796375e-02+j2.219691629839e-09
-3.568055796375e-02+j2.736539588413e-09
-3.568055796375e-02+j3.373733908929e-09
-3.568055796375e-02+j4.159296849369e-09
-3.568055796375e-02+j5.127775559116e-09
-3.568055796375e-02+j6.321761378647e-09
-3.568055796375e-02+j7.793762903195e-09
-3.568055796375e-02+j9.608515183189e-09
-3.568055796375e-02+j1.184582661447e-08
-3.568055796375e-02+j1.460408871765e-08
-3.568055796374e-02+j1.800460315807e-08
-3.568055796374e-02+j2.219691629838e-08
-3.568055796373e-02+j2.736539588412e-08
-3.568055796372e-02+j3.373733908927e-08
-3.568055796371e-02+j4.159296849364e-08
-3.568055796368e-02+j5.127775559106e-08
-3.568055796364e-02+j6.321761378628e-08
-3.568055796359e-02+j7.793762903161e-08
-3.568055796350e-02+j9.608515183124e-08
-3.568055796337e-02+j1.184582661435e-07
-3.568055796317e-02+j1.460408871742e-07
-3.568055796287e-02+j1.800460315765e-07
-3.568055796241e-02+j2.219691629758e-07
-3.568055796171e-02+j2.736539588262e-07
-3.568055796065e-02+j3.373733908646e-07
-3.568055795904e-02+j4.159296848837e-07
-3.568055795659e-02+j5.127775558119e-07
-3.568055795287e-02+j6.321761376779e-07
-3.568055794721e-02+j7.793762899695e-07
-3.568055793861e-02+j9.608515176630e-07
-3.568055792553e-02+j1.184582660218e-06
-3.568055790566e-02+j1.460408869462e-06
-3.568055787545e-02+j1.800460311492e-06
-3.568055782955e-02+j2.219691621752e-06
-3.568055775977e-02+j2.736539573260e-06
-3.568055765372e-02+j3.373733880535e-06
-3.568055749252e-02+j4.159296796163e-06
-3.568055724753e-02+j5.127775459418e-06
-3.568055687515e-02+j6.321761191831e-06
-3.568055630918e-02+j7.793762553138e-06
-3.568055544895e-02+j9.608514527244e-06
-3.568055414147e-02+j1.184582538535e-05
-3.568055215423e-02+j1.460408641450e-05
-3.568054913379e-02+j1.800459884240e-05
-3.568054454300e-02+j2.219690821159e-05
-3.568053756540e-02+j2.736538073096e-05
-3.568052696008e-02+j3.373731069502e-05
-3.568051084095e-02+j4.159291528802e-05
-3.568048634133e-02+j5.127765589351e-05
-3.568044910414e-02+j6.321742697147e-05
-3.568039250708e-02+j7.793727897529e-05
-3.568030648491e-02+j9.608449589113e-05
-3.568017573961e-02+j1.184570370358e-04
-3.567997702017e-02+j1.460385840631e-04
-3.567967498836e-02+j1.800417160019e-04
-3.567921593630e-02+j2.219610764770e-04
-3.567851823980e-02+j2.736388064886e-04
-3.567745785349e-02+j3.373449989613e-04
-3.567584627690e-02+j4.158764859498e-04
-3.567339709243e-02+j5.126778772988e-04
-3.566967517030e-02+j6.319893770689e-04
-3.566401961254e-02+j7.790263880044e-04
-3.565542697631e-02+j9.601960170575e-04
-3.564237457114e-02+j1.183354803823e-03
-3.562255370068e-02+j1.458109320193e-03
-3.559246838662e-02+j1.796154872788e-03
-3.554683504191e-02+j2.211633954369e-03
-3.547769193265e-02+j2.721469193971e-03
