<Qucs Dataset 0.0.21>
<indep time 116>
0.000000000000e+00
3.960400000000e-07
4.119391281355e-07
4.437373844064e-07
5.073338969483e-07
6.345269220321e-07
8.889129721996e-07
1.257272544283e-06
1.675602660474e-06
2.225045361799e-06
3.101471445260e-06
4.854323612181e-06
8.360027946024e-06
1.537143661371e-05
2.939425394908e-05
5.743988861982e-05
9.704388861982e-05
1.366478886198e-04
1.762518886198e-04
2.158558886198e-04
2.554598886198e-04
2.950638886198e-04
3.346678886198e-04
3.742718886198e-04
4.138758886198e-04
4.534798886198e-04
4.930838886198e-04
5.326878886198e-04
5.722918886198e-04
6.118958886198e-04
6.514998886198e-04
6.911038886198e-04
7.307078886198e-04
7.703118886198e-04
8.099158886198e-04
8.495198886198e-04
8.891238886198e-04
9.287278886198e-04
9.683318886198e-04
1.007935888620e-03
1.047539888620e-03
1.087143888620e-03
1.126747888620e-03
1.166351888620e-03
1.205955888620e-03
1.245559888620e-03
1.285163888620e-03
1.324767888620e-03
1.364371888620e-03
1.403975888620e-03
1.443579888620e-03
1.483183888620e-03
1.522787888620e-03
1.562391888620e-03
1.601995888620e-03
1.641599888620e-03
1.681203888620e-03
1.720807888620e-03
1.760411888620e-03
1.800015888620e-03
1.839619888620e-03
1.879223888620e-03
1.918827888620e-03
1.958431888620e-03
1.998035888620e-03
2.037639888620e-03
2.077243888620e-03
2.116847888620e-03
2.156451888620e-03
2.196055888620e-03
2.235659888620e-03
2.275263888620e-03
2.314867888620e-03
2.354471888620e-03
2.394075888620e-03
2.433679888620e-03
2.473283888620e-03
2.512887888620e-03
2.552491888620e-03
2.592095888620e-03
2.631699888620e-03
2.671303888620e-03
2.710907888620e-03
2.750511888620e-03
2.790115888620e-03
2.829719888620e-03
2.869323888620e-03
2.908927888620e-03
2.948531888620e-03
2.988135888620e-03
3.027739888620e-03
3.067343888620e-03
3.106947888620e-03
3.146551888620e-03
3.186155888620e-03
3.225759888620e-03
3.265363888620e-03
3.304967888620e-03
3.344571888620e-03
3.384175888620e-03
3.423779888620e-03
3.463383888620e-03
3.502987888620e-03
3.542591888620e-03
3.582195888620e-03
3.621799888620e-03
3.661403888620e-03
3.701007888620e-03
3.740611888620e-03
3.780215888620e-03
3.819819888620e-03
3.859423888620e-03
3.899027888620e-03
3.938631888620e-03
3.978235888620e-03
4.000000000000e-03
</indep>
<dep tran.v(vcc) time>
5.000000000000e+00
5.000000000000e+00
5.000000000000e+00
5.000000000000e+00
5.000000000000e+00
5.000000000000e+00
5.000000000000e+00
5.000000000000e+00
5.000000000000e+00
5.000000000000e+00
5.000000000000e+00
5.000000000000e+00
5.000000000000e+00
5.000000000000e+00
5.000000000000e+00
5.000000000000e+00
5.000000000000e+00
5.000000000000e+00
5.000000000000e+00
5.000000000000e+00
5.000000000000e+00
5.000000000000e+00
5.000000000000e+00
5.000000000000e+00
5.000000000000e+00
5.000000000000e+00
5.000000000000e+00
5.000000000000e+00
5.000000000000e+00
5.000000000000e+00
5.000000000000e+00
5.000000000000e+00
5.000000000000e+00
5.000000000000e+00
5.000000000000e+00
5.000000000000e+00
5.000000000000e+00
5.000000000000e+00
5.000000000000e+00
5.000000000000e+00
5.000000000000e+00
5.000000000000e+00
5.000000000000e+00
5.000000000000e+00
5.000000000000e+00
5.000000000000e+00
5.000000000000e+00
5.000000000000e+00
5.000000000000e+00
5.000000000000e+00
5.000000000000e+00
5.000000000000e+00
5.000000000000e+00
5.000000000000e+00
5.000000000000e+00
5.000000000000e+00
5.000000000000e+00
5.000000000000e+00
5.000000000000e+00
5.000000000000e+00
5.000000000000e+00
5.000000000000e+00
5.000000000000e+00
5.000000000000e+00
5.000000000000e+00
5.000000000000e+00
5.000000000000e+00
5.000000000000e+00
5.000000000000e+00
5.000000000000e+00
5.000000000000e+00
5.000000000000e+00
5.000000000000e+00
5.000000000000e+00
5.000000000000e+00
5.000000000000e+00
5.000000000000e+00
5.000000000000e+00
5.000000000000e+00
5.000000000000e+00
5.000000000000e+00
5.000000000000e+00
5.000000000000e+00
5.000000000000e+00
5.000000000000e+00
5.000000000000e+00
5.000000000000e+00
5.000000000000e+00
5.000000000000e+00
5.000000000000e+00
5.000000000000e+00
5.000000000000e+00
5.000000000000e+00
5.000000000000e+00
5.000000000000e+00
5.000000000000e+00
5.000000000000e+00
5.000000000000e+00
5.000000000000e+00
5.000000000000e+00
5.000000000000e+00
5.000000000000e+00
5.000000000000e+00
5.000000000000e+00
5.000000000000e+00
5.000000000000e+00
5.000000000000e+00
5.000000000000e+00
5.000000000000e+00
5.000000000000e+00
5.000000000000e+00
5.000000000000e+00
5.000000000000e+00
5.000000000000e+00
5.000000000000e+00
5.000000000000e+00
</dep>
<dep tran.v(vee) time>
-5.000000000000e+00
-5.000000000000e+00
-5.000000000000e+00
-5.000000000000e+00
-5.000000000000e+00
-5.000000000000e+00
-5.000000000000e+00
-5.000000000000e+00
-5.000000000000e+00
-5.000000000000e+00
-5.000000000000e+00
-5.000000000000e+00
-5.000000000000e+00
-5.000000000000e+00
-5.000000000000e+00
-5.000000000000e+00
-5.000000000000e+00
-5.000000000000e+00
-5.000000000000e+00
-5.000000000000e+00
-5.000000000000e+00
-5.000000000000e+00
-5.000000000000e+00
-5.000000000000e+00
-5.000000000000e+00
-5.000000000000e+00
-5.000000000000e+00
-5.000000000000e+00
-5.000000000000e+00
-5.000000000000e+00
-5.000000000000e+00
-5.000000000000e+00
-5.000000000000e+00
-5.000000000000e+00
-5.000000000000e+00
-5.000000000000e+00
-5.000000000000e+00
-5.000000000000e+00
-5.000000000000e+00
-5.000000000000e+00
-5.000000000000e+00
-5.000000000000e+00
-5.000000000000e+00
-5.000000000000e+00
-5.000000000000e+00
-5.000000000000e+00
-5.000000000000e+00
-5.000000000000e+00
-5.000000000000e+00
-5.000000000000e+00
-5.000000000000e+00
-5.000000000000e+00
-5.000000000000e+00
-5.000000000000e+00
-5.000000000000e+00
-5.000000000000e+00
-5.000000000000e+00
-5.000000000000e+00
-5.000000000000e+00
-5.000000000000e+00
-5.000000000000e+00
-5.000000000000e+00
-5.000000000000e+00
-5.000000000000e+00
-5.000000000000e+00
-5.000000000000e+00
-5.000000000000e+00
-5.000000000000e+00
-5.000000000000e+00
-5.000000000000e+00
-5.000000000000e+00
-5.000000000000e+00
-5.000000000000e+00
-5.000000000000e+00
-5.000000000000e+00
-5.000000000000e+00
-5.000000000000e+00
-5.000000000000e+00
-5.000000000000e+00
-5.000000000000e+00
-5.000000000000e+00
-5.000000000000e+00
-5.000000000000e+00
-5.000000000000e+00
-5.000000000000e+00
-5.000000000000e+00
-5.000000000000e+00
-5.000000000000e+00
-5.000000000000e+00
-5.000000000000e+00
-5.000000000000e+00
-5.000000000000e+00
-5.000000000000e+00
-5.000000000000e+00
-5.000000000000e+00
-5.000000000000e+00
-5.000000000000e+00
-5.000000000000e+00
-5.000000000000e+00
-5.000000000000e+00
-5.000000000000e+00
-5.000000000000e+00
-5.000000000000e+00
-5.000000000000e+00
-5.000000000000e+00
-5.000000000000e+00
-5.000000000000e+00
-5.000000000000e+00
-5.000000000000e+00
-5.000000000000e+00
-5.000000000000e+00
-5.000000000000e+00
-5.000000000000e+00
-5.000000000000e+00
-5.000000000000e+00
-5.000000000000e+00
</dep>
<dep tran.v(vin) time>
0.000000000000e+00
2.488390140994e-04
2.588286987423e-04
2.788080601795e-04
3.187667488681e-04
3.986839671716e-04
5.585175888372e-04
7.899594214547e-04
1.052792752616e-03
1.397991691700e-03
1.948588647364e-03
3.049588595952e-03
5.250345283993e-03
9.643150248640e-03
1.836413667310e-02
3.531215098400e-02
5.726582140920e-02
7.569179559336e-02
8.945499438684e-02
9.770757550864e-02
9.994116243176e-02
9.601816145723e-02
8.618023777820e-02
7.103342839070e-02
5.151080892738e-02
2.881501421650e-02
4.344153421938e-03
-2.039431645112e-02
-4.387645310984e-02
-6.465570705601e-02
-8.145203210793e-02
-9.323073896417e-02
-9.926623426244e-02
-9.918671867195e-02
-9.299709052198e-02
-8.107864405438e-02
-6.416558088834e-02
-4.329978164109e-02
-1.976662386872e-02
4.984199921598e-03
2.942798640947e-02
5.205894642452e-02
7.148296475785e-02
8.650348062025e-02
9.619519832849e-02
9.996108748489e-02
9.756916131806e-02
8.916676756071e-02
7.527151151639e-02
5.673937047330e-02
3.471196368509e-02
1.054622619982e-02
-1.426918122132e-02
-3.820557676908e-02
-5.978842763280e-02
-7.768818435364e-02
-9.080218389552e-02
-9.832257603032e-02
-9.978608862794e-02
-9.510256620363e-02
-8.456052368732e-02
-6.880937329109e-02
-4.881941933743e-02
-2.582208545192e-02
-1.234056252116e-03
2.342999343416e-02
4.665070575564e-02
6.699763550863e-02
8.321736860002e-02
9.431073501796e-02
9.959435982691e-02
9.874276051534e-02
9.180839740978e-02
7.921844200729e-02
6.174846230384e-02
4.047464615835e-02
1.670750583454e-02
-8.088852338232e-03
-3.238692002488e-02
-5.468988464273e-02
-7.362383619607e-02
-8.802240305030e-02
-9.699860290224e-02
-9.999948277404e-02
-9.684018209122e-02
-8.771532048674e-02
-7.318700881816e-02
-5.415022194486e-02
-3.177766637557e-02
-7.447539056437e-03
1.734137248840e-02
4.106201865196e-02
6.225315724392e-02
7.960936911347e-02
9.206147474193e-02
9.884239797222e-02
9.953441952952e-02
9.409490941595e-02
8.285895300892e-02
6.651870909019e-02
4.608077139456e-02
2.280416029771e-02
-1.877235513353e-03
-2.644298962923e-02
-4.937979941458e-02
-6.927470866499e-02
-8.490214871050e-02
-9.529943604898e-02
-9.982607569480e-02
-9.820321703043e-02
-9.053083159682e-02
-7.728155463413e-02
-5.927156974694e-02
-3.761033026055e-02
-1.363221453943e-02
-9.797174393179e-17
</dep>
<dep tran.v(vout) time>
8.362122742615e-04
1.085098328760e-03
1.095501751375e-03
1.117144432449e-03
1.165426278370e-03
1.280003588055e-03
1.557780797862e-03
2.010470904160e-03
2.537943895750e-03
3.228451176819e-03
4.329492522981e-03
6.531601141939e-03
1.093320321825e-02
1.971975669717e-02
3.716560762922e-02
7.107822595800e-02
1.150298819379e-01
1.519485248472e-01
1.795567811143e-01
1.961569621433e-01
2.007234975358e-01
1.929779865640e-01
1.733947383848e-01
1.431828991950e-01
1.042008744688e-01
5.885268654458e-02
9.929288453982e-03
-3.955301139090e-02
-8.654847469267e-02
-1.281596719620e-01
-1.618256254963e-01
-1.854701374340e-01
-1.976389020065e-01
-1.975800956544e-01
-1.852994801429e-01
-1.615514681207e-01
-1.278010286528e-01
-8.612526446074e-02
-3.909344090074e-02
1.039907772740e-02
5.930158699086e-02
1.046033921010e-01
1.435120366239e-01
1.736323855604e-01
1.931072836322e-01
2.007386774056e-01
1.960548653786e-01
1.793459433582e-01
1.516397027881e-01
1.146443894047e-01
7.063754969281e-02
2.233150146962e-02
-2.729937583333e-02
-7.519638510450e-02
-1.184102750993e-01
-1.542777139156e-01
-1.805904261016e-01
-1.957262878856e-01
-1.987540640655e-01
-1.894860917261e-01
-1.684944015367e-01
-1.370710427770e-01
-9.715281023885e-02
-5.119773150927e-02
-2.037735065550e-03
4.729977990310e-02
9.377457209077e-02
1.345246046974e-01
1.670386989288e-01
1.893147811995e-01
1.999797624129e-01
1.983774769634e-01
1.846058437213e-01
1.595139979567e-01
1.246469076066e-01
8.215318387382e-02
3.464982486672e-02
-1.493618441502e-02
-6.355090793112e-02
-1.081989391568e-01
-1.461304903993e-01
-1.750082954618e-01
-1.930540028977e-01
-1.991553883440e-01
-1.929371362865e-01
-1.747817676407e-01
-1.458082012309e-01
-1.078007710780e-01
-6.310129740087e-02
-1.446290123158e-02
3.511773414624e-02
8.258676468241e-02
1.250195728938e-01
1.598026097455e-01
1.847927754340e-01
1.984510024673e-01
1.999355564158e-01
1.891553419295e-01
1.667741108590e-01
1.341709233307e-01
9.335389285127e-02
4.683773433648e-02
-2.512351981752e-03
-5.165602341381e-02
-9.756619829235e-02
-1.374144600410e-01
-1.687463188650e-01
-1.896314288307e-01
-1.987834449219e-01
-1.956383620506e-01
-1.803901248066e-01
-1.539778548642e-01
-1.180287898240e-01
-7.475728906414e-02
-2.682914281348e-02
4.332388302469e-04
</dep>
