<Qucs Dataset 24.2.1>
<indep time 116>
0.000000000000e+00
4.000000000000e-07
4.152282903426e-07
4.456848710278e-07
5.065980323983e-07
6.284243551392e-07
8.720770006209e-07
1.170295051821e-06
1.485195647907e-06
1.819867605977e-06
2.428831236847e-06
3.646758498587e-06
6.082613022067e-06
1.095432206903e-05
2.069774016294e-05
4.018457635078e-05
7.915824872646e-05
1.191582487265e-04
1.591582487265e-04
1.991582487265e-04
2.391582487265e-04
2.791582487265e-04
3.191582487265e-04
3.591582487265e-04
3.991582487265e-04
4.391582487265e-04
4.791582487265e-04
5.191582487265e-04
5.591582487265e-04
5.991582487265e-04
6.391582487265e-04
6.791582487265e-04
7.191582487265e-04
7.591582487265e-04
7.991582487265e-04
8.391582487265e-04
8.791582487265e-04
9.191582487265e-04
9.591582487265e-04
9.991582487265e-04
1.039158248726e-03
1.079158248726e-03
1.119158248726e-03
1.159158248726e-03
1.199158248726e-03
1.239158248726e-03
1.279158248726e-03
1.319158248726e-03
1.359158248726e-03
1.399158248726e-03
1.439158248726e-03
1.479158248726e-03
1.519158248726e-03
1.559158248726e-03
1.599158248726e-03
1.639158248726e-03
1.679158248726e-03
1.719158248726e-03
1.759158248726e-03
1.799158248726e-03
1.839158248726e-03
1.879158248726e-03
1.919158248726e-03
1.959158248726e-03
1.999158248726e-03
2.039158248726e-03
2.079158248726e-03
2.119158248726e-03
2.159158248726e-03
2.199158248726e-03
2.239158248726e-03
2.279158248726e-03
2.319158248726e-03
2.359158248726e-03
2.399158248726e-03
2.439158248726e-03
2.479158248726e-03
2.519158248726e-03
2.559158248726e-03
2.599158248726e-03
2.639158248726e-03
2.679158248726e-03
2.719158248726e-03
2.759158248726e-03
2.799158248726e-03
2.839158248726e-03
2.879158248726e-03
2.919158248726e-03
2.959158248726e-03
2.999158248726e-03
3.039158248726e-03
3.079158248726e-03
3.119158248726e-03
3.159158248726e-03
3.199158248726e-03
3.239158248726e-03
3.279158248726e-03
3.319158248726e-03
3.359158248726e-03
3.399158248726e-03
3.439158248726e-03
3.479158248726e-03
3.519158248726e-03
3.559158248726e-03
3.599158248726e-03
3.639158248726e-03
3.679158248726e-03
3.719158248726e-03
3.759158248726e-03
3.799158248726e-03
3.839158248726e-03
3.879158248726e-03
3.919158248726e-03
3.959158248726e-03
3.999158248726e-03
4.000000000000e-03
</indep>
<dep tran.v(vcc) time>
5.000000000000e+00
5.000000000000e+00
5.000000000000e+00
5.000000000000e+00
5.000000000000e+00
5.000000000000e+00
5.000000000000e+00
5.000000000000e+00
5.000000000000e+00
5.000000000000e+00
5.000000000000e+00
5.000000000000e+00
5.000000000000e+00
5.000000000000e+00
5.000000000000e+00
5.000000000000e+00
5.000000000000e+00
5.000000000000e+00
5.000000000000e+00
5.000000000000e+00
5.000000000000e+00
5.000000000000e+00
5.000000000000e+00
5.000000000000e+00
5.000000000000e+00
5.000000000000e+00
5.000000000000e+00
5.000000000000e+00
5.000000000000e+00
5.000000000000e+00
5.000000000000e+00
5.000000000000e+00
5.000000000000e+00
5.000000000000e+00
5.000000000000e+00
5.000000000000e+00
5.000000000000e+00
5.000000000000e+00
5.000000000000e+00
5.000000000000e+00
5.000000000000e+00
5.000000000000e+00
5.000000000000e+00
5.000000000000e+00
5.000000000000e+00
5.000000000000e+00
5.000000000000e+00
5.000000000000e+00
5.000000000000e+00
5.000000000000e+00
5.000000000000e+00
5.000000000000e+00
5.000000000000e+00
5.000000000000e+00
5.000000000000e+00
5.000000000000e+00
5.000000000000e+00
5.000000000000e+00
5.000000000000e+00
5.000000000000e+00
5.000000000000e+00
5.000000000000e+00
5.000000000000e+00
5.000000000000e+00
5.000000000000e+00
5.000000000000e+00
5.000000000000e+00
5.000000000000e+00
5.000000000000e+00
5.000000000000e+00
5.000000000000e+00
5.000000000000e+00
5.000000000000e+00
5.000000000000e+00
5.000000000000e+00
5.000000000000e+00
5.000000000000e+00
5.000000000000e+00
5.000000000000e+00
5.000000000000e+00
5.000000000000e+00
5.000000000000e+00
5.000000000000e+00
5.000000000000e+00
5.000000000000e+00
5.000000000000e+00
5.000000000000e+00
5.000000000000e+00
5.000000000000e+00
5.000000000000e+00
5.000000000000e+00
5.000000000000e+00
5.000000000000e+00
5.000000000000e+00
5.000000000000e+00
5.000000000000e+00
5.000000000000e+00
5.000000000000e+00
5.000000000000e+00
5.000000000000e+00
5.000000000000e+00
5.000000000000e+00
5.000000000000e+00
5.000000000000e+00
5.000000000000e+00
5.000000000000e+00
5.000000000000e+00
5.000000000000e+00
5.000000000000e+00
5.000000000000e+00
5.000000000000e+00
5.000000000000e+00
5.000000000000e+00
5.000000000000e+00
5.000000000000e+00
5.000000000000e+00
</dep>
<dep tran.v(vee) time>
-5.000000000000e+00
-5.000000000000e+00
-5.000000000000e+00
-5.000000000000e+00
-5.000000000000e+00
-5.000000000000e+00
-5.000000000000e+00
-5.000000000000e+00
-5.000000000000e+00
-5.000000000000e+00
-5.000000000000e+00
-5.000000000000e+00
-5.000000000000e+00
-5.000000000000e+00
-5.000000000000e+00
-5.000000000000e+00
-5.000000000000e+00
-5.000000000000e+00
-5.000000000000e+00
-5.000000000000e+00
-5.000000000000e+00
-5.000000000000e+00
-5.000000000000e+00
-5.000000000000e+00
-5.000000000000e+00
-5.000000000000e+00
-5.000000000000e+00
-5.000000000000e+00
-5.000000000000e+00
-5.000000000000e+00
-5.000000000000e+00
-5.000000000000e+00
-5.000000000000e+00
-5.000000000000e+00
-5.000000000000e+00
-5.000000000000e+00
-5.000000000000e+00
-5.000000000000e+00
-5.000000000000e+00
-5.000000000000e+00
-5.000000000000e+00
-5.000000000000e+00
-5.000000000000e+00
-5.000000000000e+00
-5.000000000000e+00
-5.000000000000e+00
-5.000000000000e+00
-5.000000000000e+00
-5.000000000000e+00
-5.000000000000e+00
-5.000000000000e+00
-5.000000000000e+00
-5.000000000000e+00
-5.000000000000e+00
-5.000000000000e+00
-5.000000000000e+00
-5.000000000000e+00
-5.000000000000e+00
-5.000000000000e+00
-5.000000000000e+00
-5.000000000000e+00
-5.000000000000e+00
-5.000000000000e+00
-5.000000000000e+00
-5.000000000000e+00
-5.000000000000e+00
-5.000000000000e+00
-5.000000000000e+00
-5.000000000000e+00
-5.000000000000e+00
-5.000000000000e+00
-5.000000000000e+00
-5.000000000000e+00
-5.000000000000e+00
-5.000000000000e+00
-5.000000000000e+00
-5.000000000000e+00
-5.000000000000e+00
-5.000000000000e+00
-5.000000000000e+00
-5.000000000000e+00
-5.000000000000e+00
-5.000000000000e+00
-5.000000000000e+00
-5.000000000000e+00
-5.000000000000e+00
-5.000000000000e+00
-5.000000000000e+00
-5.000000000000e+00
-5.000000000000e+00
-5.000000000000e+00
-5.000000000000e+00
-5.000000000000e+00
-5.000000000000e+00
-5.000000000000e+00
-5.000000000000e+00
-5.000000000000e+00
-5.000000000000e+00
-5.000000000000e+00
-5.000000000000e+00
-5.000000000000e+00
-5.000000000000e+00
-5.000000000000e+00
-5.000000000000e+00
-5.000000000000e+00
-5.000000000000e+00
-5.000000000000e+00
-5.000000000000e+00
-5.000000000000e+00
-5.000000000000e+00
-5.000000000000e+00
-5.000000000000e+00
-5.000000000000e+00
-5.000000000000e+00
-5.000000000000e+00
-5.000000000000e+00
</dep>
<dep tran.v(vin) time>
0.000000000000e+00
2.513271477004e-04
2.608953333297e-04
2.800316973352e-04
3.183043938809e-04
3.948496414892e-04
5.479393977993e-04
7.353114411334e-04
9.331624036175e-04
1.143431622764e-03
1.526020439517e-03
2.291125449292e-03
3.820888168000e-03
6.877370518693e-03
1.296814765467e-02
2.498130121191e-02
4.771122776560e-02
6.806821227300e-02
8.414822066591e-02
9.494088687887e-02
9.976806800108e-02
9.832645448949e-02
9.070662822293e-02
7.738737090947e-02
5.920558047093e-02
3.730368566851e-02
1.305786310218e-02
-1.200843302633e-02
-3.632019514386e-02
-5.834982582417e-02
-7.671312235230e-02
-9.025625127191e-02
-9.812824798483e-02
-9.983448598641e-02
-9.526775606791e-02
-8.471500266536e-02
-6.883929408537e-02
-4.863815948477e-02
-2.538091044511e-02
-5.288854577283e-04
2.435637134807e-02
4.771122776560e-02
6.806821227300e-02
8.414822066591e-02
9.494088687887e-02
9.976806800108e-02
9.832645448949e-02
9.070662822293e-02
7.738737090947e-02
5.920558047093e-02
3.730368566851e-02
1.305786310218e-02
-1.200843302633e-02
-3.632019514386e-02
-5.834982582417e-02
-7.671312235230e-02
-9.025625127191e-02
-9.812824798483e-02
-9.983448598641e-02
-9.526775606791e-02
-8.471500266536e-02
-6.883929408536e-02
-4.863815948477e-02
-2.538091044511e-02
-5.288854577267e-04
2.435637134807e-02
4.771122776560e-02
6.806821227300e-02
8.414822066591e-02
9.494088687888e-02
9.976806800108e-02
9.832645448949e-02
9.070662822293e-02
7.738737090947e-02
5.920558047093e-02
3.730368566851e-02
1.305786310217e-02
-1.200843302633e-02
-3.632019514386e-02
-5.834982582417e-02
-7.671312235230e-02
-9.025625127191e-02
-9.812824798483e-02
-9.983448598641e-02
-9.526775606791e-02
-8.471500266536e-02
-6.883929408536e-02
-4.863815948477e-02
-2.538091044511e-02
-5.288854577252e-04
2.435637134807e-02
4.771122776560e-02
6.806821227300e-02
8.414822066591e-02
9.494088687888e-02
9.976806800108e-02
9.832645448949e-02
9.070662822293e-02
7.738737090947e-02
5.920558047093e-02
3.730368566851e-02
1.305786310217e-02
-1.200843302633e-02
-3.632019514387e-02
-5.834982582418e-02
-7.671312235230e-02
-9.025625127191e-02
-9.812824798483e-02
-9.983448598641e-02
-9.526775606791e-02
-8.471500266536e-02
-6.883929408536e-02
-4.863815948477e-02
-2.538091044511e-02
-5.288854577238e-04
-9.797174393179e-17
</dep>
<dep tran.v(vout) time>
8.362139850976e-04
7.100922827015e-04
7.051023061082e-04
6.947399513693e-04
6.717249603109e-04
6.173615216868e-04
4.856030172359e-04
3.037038207168e-04
1.056874210072e-04
-1.048282777269e-04
-4.874296255123e-04
-1.252539566458e-03
-2.782383377776e-03
-5.839128916471e-03
-1.193099061048e-02
-2.394839217934e-02
-4.669504700867e-02
-6.708256656574e-02
-8.320046607422e-02
-9.404001849285e-02
-9.891620747680e-02
-9.752648086614e-02
-8.995441250569e-02
-7.667944389464e-02
-5.853211504906e-02
-3.665618061718e-02
-1.242277697383e-02
1.264209357417e-02
3.696676244735e-02
5.901964928056e-02
7.741818610342e-02
9.100330359224e-02
9.892434747829e-02
1.006807323287e-01
9.616490506429e-02
8.565787337300e-02
6.982250374665e-02
4.965118559999e-02
2.641389750104e-02
1.568246564874e-03
-2.332220847248e-02
-4.669586311508e-02
-6.708176987691e-02
-8.320124372807e-02
-9.403925949796e-02
-9.891694818228e-02
-9.752575808678e-02
-8.995511771591e-02
-7.667875590280e-02
-5.853278616714e-02
-3.665552603434e-02
-1.242341535403e-02
1.264271607840e-02
3.696615549802e-02
5.902024099032e-02
7.741760932328e-02
9.100386574723e-02
9.892379964925e-02
1.006812661257e-01
9.616438501059e-02
8.565837996697e-02
6.982201033396e-02
4.965166610486e-02
2.641342963550e-02
1.568702054726e-03
-2.332265184552e-02
-4.669543160463e-02
-6.708218977442e-02
-8.320083519830e-02
-9.403965690076e-02
-9.891656167002e-02
-9.752613394066e-02
-8.995475229251e-02
-7.667911111942e-02
-5.853244093774e-02
-3.665586149202e-02
-1.242308945663e-02
1.264239953371e-02
3.696646289369e-02
5.901994254374e-02
7.741789901699e-02
9.100358461377e-02
9.892407241148e-02
1.006810015491e-01
9.616464158341e-02
8.565813121927e-02
6.982225143173e-02
4.965143248517e-02
2.641365594567e-02
1.568482888740e-03
-2.332243966154e-02
-4.669563696568e-02
-6.708199108025e-02
-8.320102737866e-02
-9.403947108406e-02
-9.891674127030e-02
-9.752596041235e-02
-8.995491989046e-02
-7.667894931297e-02
-5.853259708881e-02
-3.665571086287e-02
-1.242323469467e-02
1.264253950889e-02
3.696632805566e-02
5.902007236786e-02
7.741777408597e-02
9.100370477012e-02
9.892395691372e-02
1.006811125021e-01
9.616453506378e-02
8.565823341484e-02
6.982215345318e-02
4.965152635159e-02
2.641356608864e-02
1.568568837038e-03
1.038337332048e-03
</dep>
<indep v(vcc) 1>
5.000000000000e+00+j0.000000000000e+00
</indep>
<indep v(vee) 1>
-5.000000000000e+00+j0.000000000000e+00
</indep>
<indep v(vin) 1>
0.000000000000e+00+j0.000000000000e+00
</indep>
<indep v(vout) 1>
8.362140000000e-04+j0.000000000000e+00
</indep>
