<Qucs Dataset 0.0.22>
<indep time 119>
0.000000000000e+00
3.960400000000e-07
4.012132281048e-07
4.115596843145e-07
4.322525967339e-07
4.736384215727e-07
5.564100712502e-07
7.067604873299e-07
9.593996790356e-07
1.198426602664e-06
1.441378456145e-06
1.740468953988e-06
2.244859864202e-06
3.090739029438e-06
4.767454579006e-06
8.120885678142e-06
1.482774787641e-05
2.824147227296e-05
5.506892106604e-05
9.467292106604e-05
1.342769210660e-04
1.738809210660e-04
2.134849210660e-04
2.530889210660e-04
2.926929210660e-04
3.322969210660e-04
3.719009210660e-04
4.115049210660e-04
4.511089210660e-04
4.907129210660e-04
5.303169210660e-04
5.699209210660e-04
6.095249210660e-04
6.491289210660e-04
6.887329210660e-04
7.283369210660e-04
7.679409210660e-04
8.075449210660e-04
8.471489210660e-04
8.867529210660e-04
9.263569210660e-04
9.659609210660e-04
1.005564921066e-03
1.045168921066e-03
1.084772921066e-03
1.124376921066e-03
1.163980921066e-03
1.203584921066e-03
1.243188921066e-03
1.282792921066e-03
1.322396921066e-03
1.362000921066e-03
1.401604921066e-03
1.441208921066e-03
1.480812921066e-03
1.520416921066e-03
1.560020921066e-03
1.599624921066e-03
1.639228921066e-03
1.678832921066e-03
1.718436921066e-03
1.758040921066e-03
1.797644921066e-03
1.837248921066e-03
1.876852921066e-03
1.916456921066e-03
1.956060921066e-03
1.995664921066e-03
2.035268921066e-03
2.074872921066e-03
2.114476921066e-03
2.154080921066e-03
2.193684921066e-03
2.233288921066e-03
2.272892921066e-03
2.312496921066e-03
2.352100921066e-03
2.391704921066e-03
2.431308921066e-03
2.470912921066e-03
2.510516921066e-03
2.550120921066e-03
2.589724921066e-03
2.629328921066e-03
2.668932921066e-03
2.708536921066e-03
2.748140921066e-03
2.787744921066e-03
2.827348921066e-03
2.866952921066e-03
2.906556921066e-03
2.946160921066e-03
2.985764921066e-03
3.025368921066e-03
3.064972921066e-03
3.104576921066e-03
3.144180921066e-03
3.183784921066e-03
3.223388921066e-03
3.262992921066e-03
3.302596921066e-03
3.342200921066e-03
3.381804921066e-03
3.421408921066e-03
3.461012921066e-03
3.500616921066e-03
3.540220921066e-03
3.579824921066e-03
3.619428921066e-03
3.659032921066e-03
3.698636921066e-03
3.738240921066e-03
3.777844921066e-03
3.817448921066e-03
3.857052921066e-03
3.896656921066e-03
3.936260921066e-03
3.975864921066e-03
4.000000000000e-03
</indep>
<dep tran.v(vcc) time>
5.000000000000e+00
5.000000000000e+00
5.000000000000e+00
5.000000000000e+00
5.000000000000e+00
5.000000000000e+00
5.000000000000e+00
5.000000000000e+00
5.000000000000e+00
5.000000000000e+00
5.000000000000e+00
5.000000000000e+00
5.000000000000e+00
5.000000000000e+00
5.000000000000e+00
5.000000000000e+00
5.000000000000e+00
5.000000000000e+00
5.000000000000e+00
5.000000000000e+00
5.000000000000e+00
5.000000000000e+00
5.000000000000e+00
5.000000000000e+00
5.000000000000e+00
5.000000000000e+00
5.000000000000e+00
5.000000000000e+00
5.000000000000e+00
5.000000000000e+00
5.000000000000e+00
5.000000000000e+00
5.000000000000e+00
5.000000000000e+00
5.000000000000e+00
5.000000000000e+00
5.000000000000e+00
5.000000000000e+00
5.000000000000e+00
5.000000000000e+00
5.000000000000e+00
5.000000000000e+00
5.000000000000e+00
5.000000000000e+00
5.000000000000e+00
5.000000000000e+00
5.000000000000e+00
5.000000000000e+00
5.000000000000e+00
5.000000000000e+00
5.000000000000e+00
5.000000000000e+00
5.000000000000e+00
5.000000000000e+00
5.000000000000e+00
5.000000000000e+00
5.000000000000e+00
5.000000000000e+00
5.000000000000e+00
5.000000000000e+00
5.000000000000e+00
5.000000000000e+00
5.000000000000e+00
5.000000000000e+00
5.000000000000e+00
5.000000000000e+00
5.000000000000e+00
5.000000000000e+00
5.000000000000e+00
5.000000000000e+00
5.000000000000e+00
5.000000000000e+00
5.000000000000e+00
5.000000000000e+00
5.000000000000e+00
5.000000000000e+00
5.000000000000e+00
5.000000000000e+00
5.000000000000e+00
5.000000000000e+00
5.000000000000e+00
5.000000000000e+00
5.000000000000e+00
5.000000000000e+00
5.000000000000e+00
5.000000000000e+00
5.000000000000e+00
5.000000000000e+00
5.000000000000e+00
5.000000000000e+00
5.000000000000e+00
5.000000000000e+00
5.000000000000e+00
5.000000000000e+00
5.000000000000e+00
5.000000000000e+00
5.000000000000e+00
5.000000000000e+00
5.000000000000e+00
5.000000000000e+00
5.000000000000e+00
5.000000000000e+00
5.000000000000e+00
5.000000000000e+00
5.000000000000e+00
5.000000000000e+00
5.000000000000e+00
5.000000000000e+00
5.000000000000e+00
5.000000000000e+00
5.000000000000e+00
5.000000000000e+00
5.000000000000e+00
5.000000000000e+00
5.000000000000e+00
5.000000000000e+00
5.000000000000e+00
5.000000000000e+00
5.000000000000e+00
</dep>
<dep tran.v(vee) time>
-5.000000000000e+00
-5.000000000000e+00
-5.000000000000e+00
-5.000000000000e+00
-5.000000000000e+00
-5.000000000000e+00
-5.000000000000e+00
-5.000000000000e+00
-5.000000000000e+00
-5.000000000000e+00
-5.000000000000e+00
-5.000000000000e+00
-5.000000000000e+00
-5.000000000000e+00
-5.000000000000e+00
-5.000000000000e+00
-5.000000000000e+00
-5.000000000000e+00
-5.000000000000e+00
-5.000000000000e+00
-5.000000000000e+00
-5.000000000000e+00
-5.000000000000e+00
-5.000000000000e+00
-5.000000000000e+00
-5.000000000000e+00
-5.000000000000e+00
-5.000000000000e+00
-5.000000000000e+00
-5.000000000000e+00
-5.000000000000e+00
-5.000000000000e+00
-5.000000000000e+00
-5.000000000000e+00
-5.000000000000e+00
-5.000000000000e+00
-5.000000000000e+00
-5.000000000000e+00
-5.000000000000e+00
-5.000000000000e+00
-5.000000000000e+00
-5.000000000000e+00
-5.000000000000e+00
-5.000000000000e+00
-5.000000000000e+00
-5.000000000000e+00
-5.000000000000e+00
-5.000000000000e+00
-5.000000000000e+00
-5.000000000000e+00
-5.000000000000e+00
-5.000000000000e+00
-5.000000000000e+00
-5.000000000000e+00
-5.000000000000e+00
-5.000000000000e+00
-5.000000000000e+00
-5.000000000000e+00
-5.000000000000e+00
-5.000000000000e+00
-5.000000000000e+00
-5.000000000000e+00
-5.000000000000e+00
-5.000000000000e+00
-5.000000000000e+00
-5.000000000000e+00
-5.000000000000e+00
-5.000000000000e+00
-5.000000000000e+00
-5.000000000000e+00
-5.000000000000e+00
-5.000000000000e+00
-5.000000000000e+00
-5.000000000000e+00
-5.000000000000e+00
-5.000000000000e+00
-5.000000000000e+00
-5.000000000000e+00
-5.000000000000e+00
-5.000000000000e+00
-5.000000000000e+00
-5.000000000000e+00
-5.000000000000e+00
-5.000000000000e+00
-5.000000000000e+00
-5.000000000000e+00
-5.000000000000e+00
-5.000000000000e+00
-5.000000000000e+00
-5.000000000000e+00
-5.000000000000e+00
-5.000000000000e+00
-5.000000000000e+00
-5.000000000000e+00
-5.000000000000e+00
-5.000000000000e+00
-5.000000000000e+00
-5.000000000000e+00
-5.000000000000e+00
-5.000000000000e+00
-5.000000000000e+00
-5.000000000000e+00
-5.000000000000e+00
-5.000000000000e+00
-5.000000000000e+00
-5.000000000000e+00
-5.000000000000e+00
-5.000000000000e+00
-5.000000000000e+00
-5.000000000000e+00
-5.000000000000e+00
-5.000000000000e+00
-5.000000000000e+00
-5.000000000000e+00
-5.000000000000e+00
-5.000000000000e+00
-5.000000000000e+00
-5.000000000000e+00
-5.000000000000e+00
</dep>
<dep tran.v(vin) time>
0.000000000000e+00
2.488390140994e-04
2.520894389858e-04
2.585902879561e-04
2.715919825907e-04
2.975953578668e-04
3.496020462921e-04
4.440692514666e-04
6.028049459178e-04
7.529865263965e-04
9.056324137731e-04
1.093547099538e-03
1.410440283226e-03
1.941846547549e-03
2.995032107355e-03
5.100289138934e-03
9.303076964992e-03
1.765166527696e-02
3.391453310826e-02
5.603824608266e-02
7.470988406370e-02
8.877923449005e-02
9.737959548977e-02
9.998116655667e-02
9.642368538685e-02
8.692630037706e-02
7.207407061795e-02
5.278192501132e-02
3.023830070629e-02
5.831932846517e-03
-1.893369446461e-02
-4.253296597836e-02
-6.351211644067e-02
-8.057878561980e-02
-9.268163044185e-02
-9.907508995730e-02
-9.936531347921e-02
-9.353442262215e-02
-8.194161264870e-02
-6.530102527832e-02
-4.463775604042e-02
-2.122470621232e-02
3.495830603301e-03
2.800101682803e-02
5.078128093728e-02
7.043331027280e-02
8.574649808331e-02
9.577751947189e-02
9.990844221344e-02
9.788479269228e-02
8.983123201750e-02
7.624387663379e-02
5.795973649461e-02
3.610515347112e-02
1.202641630039e-02
-1.279317366058e-02
-3.682467694920e-02
-5.858770191594e-02
-7.674159999452e-02
-9.016805250136e-02
-9.803996144199e-02
-9.987240050441e-02
-9.555248754997e-02
-8.534633839289e-02
-6.988267350081e-02
-5.011408747852e-02
-2.725836721680e-02
-2.723473633163e-03
2.197919171139e-02
4.532789215903e-02
6.588429816559e-02
8.238209145581e-02
9.380497291893e-02
9.944926879269e-02
9.896727846182e-02
9.238869355456e-02
8.011876887519e-02
6.291335784736e-02
4.183235033757e-02
1.817438118804e-02
-6.603168448129e-03
-3.097394888165e-02
-5.343666827018e-02
-7.260757538478e-02
-8.730570162498e-02
-9.662561119306e-02
-9.999317786259e-02
-9.720095237345e-02
-8.842094174691e-02
-7.419401328780e-02
-5.539657600959e-02
-3.318659197753e-02
-8.932243385754e-03
1.587235037218e-02
3.969917363164e-02
6.108044346766e-02
7.869902824093e-02
9.146958570458e-02
9.860542239203e-02
9.966695560561e-02
9.458879264450e-02
8.368375913397e-02
6.762362830239e-02
4.739773832342e-02
2.425204698295e-02
-3.876219671016e-04
-2.500341258060e-02
-4.807893986768e-02
-6.819270233115e-02
-8.410564947824e-02
-9.483750996292e-02
-9.972717838304e-02
-9.847344077745e-02
-9.115353004581e-02
-7.821836823790e-02
-6.046478879756e-02
-3.898644992990e-02
-1.510646293278e-02
-9.797174393179e-17
</dep>
<dep tran.v(vout) time>
3.018680120275e-03
3.279908283929e-03
3.283365548164e-03
3.290370791645e-03
3.304930048890e-03
3.336233412305e-03
3.406935350263e-03
3.556992376328e-03
3.845818438658e-03
4.138569539193e-03
4.441608854131e-03
4.816705802212e-03
5.450331304686e-03
6.513213171438e-03
8.619715062123e-03
1.283062712015e-02
2.123747100043e-02
3.793911723436e-02
7.048137268775e-02
1.147726618379e-01
1.521815873970e-01
1.803998882690e-01
1.976929546409e-01
2.029918910669e-01
1.959737893110e-01
1.770675504392e-01
1.474411835191e-01
1.089164744156e-01
6.386980610727e-02
1.507304814400e-02
-3.446479333187e-02
-8.169502866870e-02
-1.237053018583e-01
-1.579104903771e-01
-1.822007519817e-01
-1.950824154156e-01
-1.957593503687e-01
-1.841923839644e-01
-1.610916037209e-01
-1.278824667060e-01
-8.660838742162e-02
-3.981421465758e-02
9.619651698174e-03
5.864581788839e-02
1.042462745082e-01
1.436098835635e-01
1.743137615147e-01
1.944645369720e-01
2.028227757606e-01
1.988717466942e-01
1.828566403327e-01
1.557622708726e-01
1.192594134980e-01
7.559506173836e-02
2.746064713604e-02
-2.218022103501e-02
-7.026802942705e-02
-1.138419558533e-01
-1.502163038049e-01
-1.771517459303e-01
-1.929876295407e-01
-1.967497658216e-01
-1.882051013575e-01
-1.678812692287e-01
-1.370290325234e-01
-9.755014878631e-02
-5.187543895438e-02
-2.819690812620e-03
4.659625548916e-02
9.332720535512e-02
1.344954695547e-01
1.675639869714e-01
1.904966456347e-01
2.018797936691e-01
2.010131298168e-01
1.879491453596e-01
1.634934818646e-01
1.291518135616e-01
8.704048167830e-02
3.975283508039e-02
-9.797332862718e-03
-5.855837826522e-02
-1.035257875519e-01
-1.419301795631e-01
-1.714050753744e-01
-1.901354239985e-01
-1.969667512369e-01
-1.914788589248e-01
-1.740092073094e-01
-1.456345518239e-01
-1.081022621861e-01
-6.372495788082e-02
-1.523584053375e-02
3.437754072194e-02
8.205939650166e-02
1.248719384488e-01
1.601782908096e-01
1.858030536484e-01
2.001681252708e-01
2.023881636308e-01
1.923268197067e-01
1.706034987482e-01
1.385567856113e-01
9.816045672837e-02
5.190336707800e-02
2.634707519604e-03
-4.661013683546e-02
-9.279789813825e-02
-1.330830037147e-01
-1.649841013847e-01
-1.865357298414e-01
-1.964105380097e-01
-1.939999528556e-01
-1.794527265129e-01
-1.536647550640e-01
-1.182248670404e-01
-7.531600893636e-02
-2.758167310497e-02
2.629855628270e-03
</dep>
