<Qucs Dataset 0.0.19>
<indep time 101>
  +0.00000000000000000000e+00
  +4.00000000000000032721e-05
  +8.00000000000000065442e-05
  +1.20000000000000016593e-04
  +1.60000000000000013088e-04
  +2.00000000000000009584e-04
  +2.40000000000000033185e-04
  +2.80000000000000029681e-04
  +3.20000000000000026177e-04
  +3.60000000000000022673e-04
  +4.00000000000000019169e-04
  +4.40000000000000015665e-04
  +4.80000000000000066371e-04
  +5.20000000000000062866e-04
  +5.60000000000000059362e-04
  +6.00000000000000055858e-04
  +6.40000000000000052354e-04
  +6.80000000000000048850e-04
  +7.20000000000000045346e-04
  +7.60000000000000041842e-04
  +8.00000000000000038337e-04
  +8.40000000000000034833e-04
  +8.80000000000000031329e-04
  +9.20000000000000027825e-04
  +9.60000000000000132741e-04
  +1.00000000000000002082e-03
  +1.04000000000000012573e-03
  +1.08000000000000001381e-03
  +1.12000000000000011872e-03
  +1.16000000000000000680e-03
  +1.20000000000000011172e-03
  +1.23999999999999999979e-03
  +1.28000000000000010471e-03
  +1.32000000000000020962e-03
  +1.36000000000000009770e-03
  +1.40000000000000020262e-03
  +1.44000000000000009069e-03
  +1.48000000000000019561e-03
  +1.52000000000000008368e-03
  +1.56000000000000018860e-03
  +1.60000000000000007667e-03
  +1.64000000000000018159e-03
  +1.68000000000000006967e-03
  +1.72000000000000017458e-03
  +1.76000000000000006266e-03
  +1.80000000000000016757e-03
  +1.84000000000000005565e-03
  +1.88000000000000016057e-03
  +1.92000000000000026548e-03
  +1.96000000000000037040e-03
  +2.00000000000000004163e-03
  +2.04000000000000014655e-03
  +2.08000000000000025147e-03
  +2.12000000000000035638e-03
  +2.16000000000000002762e-03
  +2.20000000000000013253e-03
  +2.24000000000000023745e-03
  +2.28000000000000034237e-03
  +2.32000000000000001360e-03
  +2.36000000000000011852e-03
  +2.40000000000000022343e-03
  +2.44000000000000032835e-03
  +2.47999999999999999958e-03
  +2.52000000000000010450e-03
  +2.56000000000000020942e-03
  +2.60000000000000031433e-03
  +2.64000000000000041925e-03
  +2.68000000000000009048e-03
  +2.72000000000000019540e-03
  +2.76000000000000030032e-03
  +2.80000000000000040523e-03
  +2.84000000000000007647e-03
  +2.88000000000000018138e-03
  +2.92000000000000028630e-03
  +2.96000000000000039121e-03
  +3.00000000000000006245e-03
  +3.04000000000000016737e-03
  +3.08000000000000027228e-03
  +3.12000000000000037720e-03
  +3.16000000000000004843e-03
  +3.20000000000000015335e-03
  +3.24000000000000025827e-03
  +3.28000000000000036318e-03
  +3.32000000000000046810e-03
  +3.36000000000000013933e-03
  +3.40000000000000024425e-03
  +3.44000000000000034917e-03
  +3.48000000000000045408e-03
  +3.52000000000000012532e-03
  +3.56000000000000023023e-03
  +3.60000000000000033515e-03
  +3.64000000000000044006e-03
  +3.68000000000000011130e-03
  +3.72000000000000021622e-03
  +3.76000000000000032113e-03
  +3.80000000000000042605e-03
  +3.84000000000000053096e-03
  +3.88000000000000020220e-03
  +3.92000000000000074080e-03
  +3.95999999999999997835e-03
  +4.00000000000000008327e-03
</indep>
<dep V1.It time>
  -8.00000703728911040780e-16
  -2.83809855459706369050e-12
  -2.55710417006150683927e-12
  -2.12448396389300579231e-12
  -1.56114806774708426348e-12
  -9.01001408519556915593e-13
  -1.89391705644544826762e-13
  +5.36167756022284855102e-13
  +1.22718358516570285285e-12
  +1.84602734644128810539e-12
  +2.35108409015760857545e-12
  +2.71290821457513461034e-12
  +2.90789458195692283027e-12
  +2.92135765768918889340e-12
  +2.75012441831998030843e-12
  +2.40312370463898930129e-12
  +1.90098131977042058366e-12
  +1.27506783787076240606e-12
  +5.65611279582227768583e-13
  -1.81038365264638412389e-13
  -9.15770878587721367758e-13
  -1.59037069765613346731e-12
  -2.16107681272018402267e-12
  -2.59167792410766046930e-12
  -2.85585910021601550680e-12
  -2.93864369247881282496e-12
  -2.83693022637462941945e-12
  -2.55919736037207982557e-12
  -2.12432463976991550423e-12
  -1.56006663591679843436e-12
  -9.01432962870518673201e-13
  -1.88686887697895587751e-13
  +5.35391908343731751630e-13
  +1.22770880170583377074e-12
  +1.84575379229010160108e-12
  +2.35182991798526005304e-12
  +2.71410949357416630630e-12
  +2.90879875504670158880e-12
  +2.91921489511456350168e-12
  +2.74978524346119039398e-12
  +2.40277805907214463800e-12
  +1.89934326090811163922e-12
  +1.27437387263364848150e-12
  +5.64836423429827626901e-13
  -1.82022247327982814376e-13
  -9.16689387023094283110e-13
  -1.59108343756617655631e-12
  -2.16152916623112002950e-12
  -2.59187570273828205943e-12
  -2.85588399810313271525e-12
  -2.93875735045491215384e-12
  -2.83730985007998980717e-12
  -2.55967444023023105774e-12
  -2.12470625189187959188e-12
  -1.56036088799576687804e-12
  -9.01699883989652498210e-13
  -1.88813602422795796038e-13
  +5.35374591701209832867e-13
  +1.22735891761353473332e-12
  +1.84531273722083048626e-12
  +2.35132164125270019128e-12
  +2.71353648852764040129e-12
  +2.90816822333409570976e-12
  +2.92121036396978366356e-12
  +2.74973875267873842382e-12
  +2.40261430680927209969e-12
  +1.90041806463376306572e-12
  +1.27450404053691988756e-12
  +5.65137870053077687302e-13
  -1.82584522854314496145e-13
  -9.17551103997664230737e-13
  -1.59214384217231586985e-12
  -2.16280685692132467219e-12
  -2.59338487960727240856e-12
  -2.85756820833406285776e-12
  -2.94036911488818050394e-12
  -2.83864899770764710575e-12
  -2.56079721530414849659e-12
  -2.12572011932219554617e-12
  -1.56131841366854806277e-12
  -9.02618158603896308558e-13
  -1.89763861359267851485e-13
  +5.34838464808106228388e-13
  +1.22707097759148789200e-12
  +1.84500460367449960071e-12
  +2.35128055377838288757e-12
  +2.71342272524745576692e-12
  +2.90795695812088233451e-12
  +2.92104079966167777663e-12
  +2.75044398270146429937e-12
  +2.40286489134294189895e-12
  +1.90062635173640443926e-12
  +1.27446284503687697828e-12
  +5.64938350910764497953e-13
  -1.82096438799635204494e-13
  -9.16708186583140773356e-13
  -1.59186655583262113448e-12
  -2.16223290397815170713e-12
  -2.59348670307348145456e-12
  -2.85709978057676029267e-12
  -2.94054488268176573052e-12
</dep>
<dep V2.It time>
  -5.00069748953763766001e-05
  -5.00079499268449385245e-05
  -5.00078576465022152744e-05
  -5.00077116226904934524e-05
  -5.00075190482423723951e-05
  -5.00072918461527378756e-05
  -5.00070447903898935150e-05
  -5.00067931677525826699e-05
  -5.00065531992476632094e-05
  -5.00063394957448188586e-05
  -5.00061662075345538382e-05
  -5.00060435749849648262e-05
  -5.00059792212762557707e-05
  -5.00059774151315783214e-05
  -5.00060383491331903990e-05
  -5.00061581714455205831e-05
  -5.00063293377425176797e-05
  -5.00065410824045034153e-05
  -5.00067800931509938325e-05
  -5.00070313464317614430e-05
  -5.00072790508566719756e-05
  -5.00075076391943699919e-05
  -5.00077027464495578847e-05
  -5.00078521124349583598e-05
  -5.00079463520351584624e-05
  -5.00079795447146933105e-05
  -5.00079496142123215187e-05
  -5.00078584717981896842e-05
  -5.00077118393501033559e-05
  -5.00075188818254907637e-05
  -5.00072917150170011117e-05
  -5.00070447944079061087e-05
  -5.00067932543428160801e-05
  -5.00065531903564261247e-05
  -5.00063396216276028730e-05
  -5.00061659753257839391e-05
  -5.00060431524381474120e-05
  -5.00059788688502680721e-05
  -5.00059776913690327274e-05
  -5.00060381182059677965e-05
  -5.00061578249233931845e-05
  -5.00063294271173210820e-05
  -5.00065408964634649158e-05
  -5.00067799782971005636e-05
  -5.00070313328218257819e-05
  -5.00072790521600794985e-05
  -5.00075076062244053428e-05
  -5.00077026540238976605e-05
  -5.00078519532522801990e-05
  -5.00079461444157889033e-05
  -5.00079793737533782731e-05
  -5.00079495462558507187e-05
  -5.00078584558859845911e-05
  -5.00077118083138471628e-05
  -5.00075188343935362950e-05
  -5.00072916697295849877e-05
  -5.00070445939708609464e-05
  -5.00067931349868817102e-05
  -5.00065530943439743921e-05
  -5.00063395553473560655e-05
  -5.00061659359631735457e-05
  -5.00060431461077077673e-05
  -5.00059789022593820349e-05
  -5.00059772425019742961e-05
  -5.00060382725489300897e-05
  -5.00061581588031811509e-05
  -5.00063293689815467841e-05
  -5.00065411411308968466e-05
  -5.00067801492099043301e-05
  -5.00070311534341524463e-05
  -5.00072789753175215742e-05
  -5.00075076080195595374e-05
  -5.00077027435138297810e-05
  -5.00078521396836288022e-05
  -5.00079464155587873650e-05
  -5.00079796496583620828e-05
  -5.00079497549488108214e-05
  -5.00078586107074933944e-05
  -5.00077119444290873356e-05
  -5.00075189717574385573e-05
  -5.00072918173083861095e-05
  -5.00070447793245396952e-05
  -5.00067932849467805382e-05
  -5.00065531754802981802e-05
  -5.00063396110246951611e-05
  -5.00061658686352418501e-05
  -5.00060430408171281810e-05
  -5.00059789571928161385e-05
  -5.00059771909401243458e-05
  -5.00060378281295739018e-05
  -5.00061578599313258809e-05
  -5.00063290411377562574e-05
  -5.00065408372860704857e-05
  -5.00067799522003339431e-05
  -5.00070312442812481887e-05
  -5.00072790756657994385e-05
  -5.00075077156413296486e-05
  -5.00077029434137476345e-05
  -5.00078523622835620800e-05
  -5.00079466954149562570e-05
  -5.00079799225666991793e-05
</dep>
<dep V3.It time>
  +6.97489457638330007646e-08
  -2.40737468056970554524e-06
  -4.73893767890576382622e-06
  -6.76833595646714592084e-06
  -8.36807484533149110279e-06
  -9.43763864392254737436e-06
  -9.90981769820444834975e-06
  -9.75494565069586020431e-06
  -8.98274952842676958225e-06
  -7.64175393997240412860e-06
  -5.81621131410576271934e-06
  -3.62083370768443068424e-06
  -1.19356560188380512631e-06
  +1.31308106625414980563e-06
  +3.74160524665439146781e-06
  +5.93941358956209646409e-06
  +7.76840955177007708892e-06
  +9.11367048342239442587e-06
  +9.89066862262698470764e-06
  +1.00505822733848463799e-05
  +9.58336344407255130305e-06
  +8.51836919417259090265e-06
  +6.92251701853827239834e-06
  +4.89608017259207272851e-06
  +2.56638713323932695851e-06
  +7.98210812701100187974e-08
  -2.40737781291453766663e-06
  -4.73892940226446676005e-06
  -6.76833378580019807079e-06
  -8.36807651358768184483e-06
  -9.43763994879148000652e-06
  -9.90981766695894960770e-06
  -9.75494478331102362744e-06
  -8.98274961631007840750e-06
  -7.64175267558183095740e-06
  -5.81621364015892014499e-06
  -3.62083794147127601407e-06
  -1.19356913196330202082e-06
  +1.31308383798823111440e-06
  +3.74160294222958041691e-06
  +5.93941011837310944610e-06
  +7.76841045012284648729e-06
  +9.11366863306765391658e-06
  +9.89066748404134475268e-06
  +1.00505821490048207866e-05
  +9.58336346837842091659e-06
  +8.51836887417870870787e-06
  +6.92251610197944798245e-06
  +4.89607858647020794508e-06
  +2.56638506136913909997e-06
  +7.98193767622731881906e-08
  -2.40737848505080737673e-06
  -4.73892955312620410812e-06
  -6.76833408886239986974e-06
  -8.36807698153853318519e-06
  -9.43764039568609685920e-06
  -9.90981965862997347212e-06
  -9.75494596526644285365e-06
  -8.98275057013429352069e-06
  -7.64175333146942528868e-06
  -5.81621402641333614948e-06
  -3.62083799687499720960e-06
  -1.19356878939722315585e-06
  +1.31307934629243686710e-06
  +3.74160448923146654766e-06
  +5.93941347265206205598e-06
  +7.76840987416580252081e-06
  +9.11367108073084692147e-06
  +9.89066919257358452436e-06
  +1.00505803459915394400e-05
  +9.58336269340416737749e-06
  +8.51836888723008712663e-06
  +6.92251699371648518102e-06
  +4.89608044944071731010e-06
  +2.56638777279665419176e-06
  +7.98221350363435484037e-08
  -2.40737640146154176327e-06
  -4.73892801036798861849e-06
  -6.76833273431309176248e-06
  -8.36807561511606525363e-06
  -9.43763892748535446642e-06
  -9.90981781211487397032e-06
  -9.75494447629035734510e-06
  -8.98274977163175847208e-06
  -7.64175278750025531460e-06
  -5.81621471507252255464e-06
  -3.62083906488357983345e-06
  -1.19356825394580104102e-06
  +1.31307881623183587814e-06
  +3.74160003755718623529e-06
  +5.93941046600296451030e-06
  +7.76840659284903724854e-06
  +9.11366802725484663494e-06
  +9.89066722339440587892e-06
  +1.00505812510327774515e-05
  +9.58336370473973257018e-06
  +8.51836996132349567499e-06
  +6.92251900221826800671e-06
  +4.89608267592039146085e-06
  +2.56639058129156158840e-06
  +7.98248650485869497954e-08
</dep>
<dep _net0.Vt time>
  +6.97489457638330039198e-04
  +7.95241910788424522481e-04
  +7.85990621113896942643e-04
  +7.71351028197418881784e-04
  +7.52044096886599977916e-04
  +7.29265190289873042884e-04
  +7.04495860782699862175e-04
  +6.79268565910295203311e-04
  +6.55209962334254406198e-04
  +6.33784877854891184716e-04
  +6.16412088189703037504e-04
  +6.04118191623513232057e-04
  +5.97667337592362128001e-04
  +5.97487306111067761893e-04
  +6.03597198076122006850e-04
  +6.15610666373663114291e-04
  +6.32771240121823863069e-04
  +6.53999587622010455576e-04
  +6.77961153400964710615e-04
  +7.03149891021280113931e-04
  +7.27982811210155971240e-04
  +7.50899391524349800811e-04
  +7.70459592513819614863e-04
  +7.85434315749193720166e-04
  +7.94882615907823017118e-04
  +7.98210812701075750862e-04
  +7.95210587340115532956e-04
  +7.86073387526825605003e-04
  +7.71372734866882935230e-04
  +7.52027414324647021024e-04
  +7.29252141600564393782e-04
  +7.04496173237668661497e-04
  +6.79277239758628256262e-04
  +6.55209083501158374638e-04
  +6.33797521760695050340e-04
  +6.16388827658145735215e-04
  +6.04075853755042064749e-04
  +5.97632036797371966365e-04
  +5.97515023451991394120e-04
  +6.03574153827907827763e-04
  +6.15575954483800415369e-04
  +6.32780223649535952975e-04
  +6.53981084074630489127e-04
  +6.77949767544554671335e-04
  +7.03148647221026349904e-04
  +7.27983054268830178692e-04
  +7.50896191585561896889e-04
  +7.70450426925619962469e-04
  +7.85418454530600516038e-04
  +7.94861897206002531412e-04
  +7.98193767622682967024e-04
  +7.95203865977393603744e-04
  +7.86071878909513259773e-04
  +7.71369704244907554956e-04
  +7.52022734816154840749e-04
  +7.29247672654383723850e-04
  +7.04476256527428418112e-04
  +6.79265420204448570896e-04
  +6.55199545259094249909e-04
  +6.33790962884748457912e-04
  +6.16384965114006493428e-04
  +6.04075299717847361870e-04
  +5.97635462458359265590e-04
  +5.97470106494072360215e-04
  +6.03589623846789951993e-04
  +6.15609497273359785631e-04
  +6.32774464078992692623e-04
  +6.54005560706521506774e-04
  +6.77966852866986784479e-04
  +7.03130617088232779018e-04
  +7.27975304526287930046e-04
  +7.50896322099244874215e-04
  +7.70459344295980536922e-04
  +7.85437084235518566226e-04
  +7.94889011481134848472e-04
  +7.98221350363362020658e-04
  +7.95224701869856262504e-04
  +7.86087306491644655961e-04
  +7.71383249738099500796e-04
  +7.52036399040702805210e-04
  +7.29262354661813967140e-04
  +7.04494721678409910673e-04
  +6.79280309965317398609e-04
  +6.55207530284289559573e-04
  +6.33796402576570659312e-04
  +6.16378078522154273199e-04
  +6.04064619631883531307e-04
  +5.97640816972430329902e-04
  +5.97464805888092611447e-04
  +6.03545107104011893662e-04
  +6.15579430782387622065e-04
  +6.32741650911380817263e-04
  +6.53975025946508395705e-04
  +6.77947161075216566013e-04
  +7.03139667500602078345e-04
  +7.27985417881925572607e-04
  +7.50907063033501146788e-04
  +7.70479429313792544415e-04
  +7.85459349032550328135e-04
  +7.94917096429833104979e-04
  +7.98248650485771467020e-04
</dep>
<dep VEE.Vt time>
  -5.00000000000000000000e+00
  -5.00000000000000000000e+00
  -5.00000000000000000000e+00
  -5.00000000000000000000e+00
  -5.00000000000000000000e+00
  -5.00000000000000000000e+00
  -5.00000000000000000000e+00
  -5.00000000000000000000e+00
  -5.00000000000000000000e+00
  -5.00000000000000000000e+00
  -5.00000000000000000000e+00
  -5.00000000000000000000e+00
  -5.00000000000000000000e+00
  -5.00000000000000000000e+00
  -5.00000000000000000000e+00
  -5.00000000000000000000e+00
  -5.00000000000000000000e+00
  -5.00000000000000000000e+00
  -5.00000000000000000000e+00
  -5.00000000000000000000e+00
  -5.00000000000000000000e+00
  -5.00000000000000000000e+00
  -5.00000000000000000000e+00
  -5.00000000000000000000e+00
  -5.00000000000000000000e+00
  -5.00000000000000000000e+00
  -5.00000000000000000000e+00
  -5.00000000000000000000e+00
  -5.00000000000000000000e+00
  -5.00000000000000000000e+00
  -5.00000000000000000000e+00
  -5.00000000000000000000e+00
  -5.00000000000000000000e+00
  -5.00000000000000000000e+00
  -5.00000000000000000000e+00
  -5.00000000000000000000e+00
  -5.00000000000000000000e+00
  -5.00000000000000000000e+00
  -5.00000000000000000000e+00
  -5.00000000000000000000e+00
  -5.00000000000000000000e+00
  -5.00000000000000000000e+00
  -5.00000000000000000000e+00
  -5.00000000000000000000e+00
  -5.00000000000000000000e+00
  -5.00000000000000000000e+00
  -5.00000000000000000000e+00
  -5.00000000000000000000e+00
  -5.00000000000000000000e+00
  -5.00000000000000000000e+00
  -5.00000000000000000000e+00
  -5.00000000000000000000e+00
  -5.00000000000000000000e+00
  -5.00000000000000000000e+00
  -5.00000000000000000000e+00
  -5.00000000000000000000e+00
  -5.00000000000000000000e+00
  -5.00000000000000000000e+00
  -5.00000000000000000000e+00
  -5.00000000000000000000e+00
  -5.00000000000000000000e+00
  -5.00000000000000000000e+00
  -5.00000000000000000000e+00
  -5.00000000000000000000e+00
  -5.00000000000000000000e+00
  -5.00000000000000000000e+00
  -5.00000000000000000000e+00
  -5.00000000000000000000e+00
  -5.00000000000000000000e+00
  -5.00000000000000000000e+00
  -5.00000000000000000000e+00
  -5.00000000000000000000e+00
  -5.00000000000000000000e+00
  -5.00000000000000000000e+00
  -5.00000000000000000000e+00
  -5.00000000000000000000e+00
  -5.00000000000000000000e+00
  -5.00000000000000000000e+00
  -5.00000000000000000000e+00
  -5.00000000000000000000e+00
  -5.00000000000000000000e+00
  -5.00000000000000000000e+00
  -5.00000000000000000000e+00
  -5.00000000000000000000e+00
  -5.00000000000000000000e+00
  -5.00000000000000000000e+00
  -5.00000000000000000000e+00
  -5.00000000000000000000e+00
  -5.00000000000000000000e+00
  -5.00000000000000000000e+00
  -5.00000000000000000000e+00
  -5.00000000000000000000e+00
  -5.00000000000000000000e+00
  -5.00000000000000000000e+00
  -5.00000000000000000000e+00
  -5.00000000000000000000e+00
  -5.00000000000000000000e+00
  -5.00000000000000000000e+00
  -5.00000000000000000000e+00
  -5.00000000000000000000e+00
  -5.00000000000000000000e+00
</dep>
<dep VIN.Vt time>
  +0.00000000000000000000e+00
  +2.48689887164854801782e-02
  +4.81753674101715323452e-02
  +6.84547105928688809362e-02
  +8.44327925502015158576e-02
  +9.51056516295153558938e-02
  +9.98026728428271642235e-02
  +9.82287250728688804413e-02
  +9.04827052466019576826e-02
  +7.70513242775789364281e-02
  +5.87785252292473275881e-02
  +3.68124552684678182923e-02
  +1.25333233564304102198e-02
  -1.25333233564304293017e-02
  -3.68124552684677905368e-02
  -5.87785252292473067715e-02
  -7.70513242775789364281e-02
  -9.04827052466019438048e-02
  -9.82287250728688804413e-02
  -9.98026728428271642235e-02
  -9.51056516295153697715e-02
  -8.44327925502015574910e-02
  -6.84547105928688948140e-02
  -4.81753674101715323452e-02
  -2.48689887164854489532e-02
  -2.44929359829470653761e-17
  +2.48689887164854905865e-02
  +4.81753674101714907119e-02
  +6.84547105928688670584e-02
  +8.44327925502014742243e-02
  +9.51056516295153558938e-02
  +9.98026728428271642235e-02
  +9.82287250728688665635e-02
  +9.04827052466019299271e-02
  +7.70513242775789780614e-02
  +5.87785252292473414659e-02
  +3.68124552684677974757e-02
  +1.25333233564303911378e-02
  -1.25333233564303182794e-02
  -3.68124552684678946202e-02
  -5.87785252292472859548e-02
  -7.70513242775789364281e-02
  -9.04827052466019021715e-02
  -9.82287250728688943191e-02
  -9.98026728428271642235e-02
  -9.51056516295153836493e-02
  -8.44327925502015158576e-02
  -6.84547105928688531806e-02
  -4.81753674101714768341e-02
  -2.48689887164853899726e-02
  -4.89858719658941307521e-17
  +2.48689887164854663004e-02
  +4.81753674101715462230e-02
  +6.84547105928689086918e-02
