<Qucs Dataset 24.2.1>
<indep time 112>
0.000000000000e+00
4.000000000000e-07
4.946065165506e-07
6.838195496519e-07
1.062245615854e-06
1.730776232393e-06
2.439510586066e-06
3.348160344455e-06
5.165459861232e-06
8.800058894786e-06
1.606925696190e-05
3.060765309611e-05
5.968444536455e-05
9.968444536455e-05
1.396844453645e-04
1.796844453645e-04
2.196844453645e-04
2.596844453645e-04
2.996844453645e-04
3.396844453645e-04
3.796844453645e-04
4.196844453645e-04
4.596844453645e-04
4.996844453645e-04
5.396844453645e-04
5.796844453645e-04
6.196844453645e-04
6.596844453645e-04
6.996844453645e-04
7.396844453645e-04
7.796844453645e-04
8.196844453645e-04
8.596844453645e-04
8.996844453645e-04
9.396844453645e-04
9.796844453645e-04
1.019684445365e-03
1.059684445365e-03
1.099684445365e-03
1.139684445365e-03
1.179684445365e-03
1.219684445365e-03
1.259684445365e-03
1.299684445365e-03
1.339684445365e-03
1.379684445365e-03
1.419684445365e-03
1.459684445365e-03
1.499684445365e-03
1.539684445365e-03
1.579684445365e-03
1.619684445365e-03
1.659684445365e-03
1.699684445365e-03
1.739684445365e-03
1.779684445365e-03
1.819684445365e-03
1.859684445365e-03
1.899684445365e-03
1.939684445365e-03
1.979684445365e-03
2.019684445365e-03
2.059684445365e-03
2.099684445365e-03
2.139684445365e-03
2.179684445365e-03
2.219684445365e-03
2.259684445365e-03
2.299684445365e-03
2.339684445365e-03
2.379684445365e-03
2.419684445365e-03
2.459684445365e-03
2.499684445365e-03
2.539684445365e-03
2.579684445365e-03
2.619684445365e-03
2.659684445365e-03
2.699684445365e-03
2.739684445365e-03
2.779684445365e-03
2.819684445365e-03
2.859684445365e-03
2.899684445365e-03
2.939684445365e-03
2.979684445365e-03
3.019684445365e-03
3.059684445365e-03
3.099684445365e-03
3.139684445365e-03
3.179684445365e-03
3.219684445365e-03
3.259684445365e-03
3.299684445365e-03
3.339684445365e-03
3.379684445365e-03
3.419684445365e-03
3.459684445365e-03
3.499684445365e-03
3.539684445365e-03
3.579684445365e-03
3.619684445365e-03
3.659684445365e-03
3.699684445365e-03
3.739684445365e-03
3.779684445365e-03
3.819684445365e-03
3.859684445365e-03
3.899684445365e-03
3.939684445365e-03
3.979684445365e-03
4.000000000000e-03
</indep>
<dep tran.v(vcc) time>
5.000000000000e+00
5.000000000000e+00
5.000000000000e+00
5.000000000000e+00
5.000000000000e+00
5.000000000000e+00
5.000000000000e+00
5.000000000000e+00
5.000000000000e+00
5.000000000000e+00
5.000000000000e+00
5.000000000000e+00
5.000000000000e+00
5.000000000000e+00
5.000000000000e+00
5.000000000000e+00
5.000000000000e+00
5.000000000000e+00
5.000000000000e+00
5.000000000000e+00
5.000000000000e+00
5.000000000000e+00
5.000000000000e+00
5.000000000000e+00
5.000000000000e+00
5.000000000000e+00
5.000000000000e+00
5.000000000000e+00
5.000000000000e+00
5.000000000000e+00
5.000000000000e+00
5.000000000000e+00
5.000000000000e+00
5.000000000000e+00
5.000000000000e+00
5.000000000000e+00
5.000000000000e+00
5.000000000000e+00
5.000000000000e+00
5.000000000000e+00
5.000000000000e+00
5.000000000000e+00
5.000000000000e+00
5.000000000000e+00
5.000000000000e+00
5.000000000000e+00
5.000000000000e+00
5.000000000000e+00
5.000000000000e+00
5.000000000000e+00
5.000000000000e+00
5.000000000000e+00
5.000000000000e+00
5.000000000000e+00
5.000000000000e+00
5.000000000000e+00
5.000000000000e+00
5.000000000000e+00
5.000000000000e+00
5.000000000000e+00
5.000000000000e+00
5.000000000000e+00
5.000000000000e+00
5.000000000000e+00
5.000000000000e+00
5.000000000000e+00
5.000000000000e+00
5.000000000000e+00
5.000000000000e+00
5.000000000000e+00
5.000000000000e+00
5.000000000000e+00
5.000000000000e+00
5.000000000000e+00
5.000000000000e+00
5.000000000000e+00
5.000000000000e+00
5.000000000000e+00
5.000000000000e+00
5.000000000000e+00
5.000000000000e+00
5.000000000000e+00
5.000000000000e+00
5.000000000000e+00
5.000000000000e+00
5.000000000000e+00
5.000000000000e+00
5.000000000000e+00
5.000000000000e+00
5.000000000000e+00
5.000000000000e+00
5.000000000000e+00
5.000000000000e+00
5.000000000000e+00
5.000000000000e+00
5.000000000000e+00
5.000000000000e+00
5.000000000000e+00
5.000000000000e+00
5.000000000000e+00
5.000000000000e+00
5.000000000000e+00
5.000000000000e+00
5.000000000000e+00
5.000000000000e+00
5.000000000000e+00
5.000000000000e+00
5.000000000000e+00
5.000000000000e+00
5.000000000000e+00
5.000000000000e+00
5.000000000000e+00
</dep>
<dep tran.v(vee) time>
-5.000000000000e+00
-5.000000000000e+00
-5.000000000000e+00
-5.000000000000e+00
-5.000000000000e+00
-5.000000000000e+00
-5.000000000000e+00
-5.000000000000e+00
-5.000000000000e+00
-5.000000000000e+00
-5.000000000000e+00
-5.000000000000e+00
-5.000000000000e+00
-5.000000000000e+00
-5.000000000000e+00
-5.000000000000e+00
-5.000000000000e+00
-5.000000000000e+00
-5.000000000000e+00
-5.000000000000e+00
-5.000000000000e+00
-5.000000000000e+00
-5.000000000000e+00
-5.000000000000e+00
-5.000000000000e+00
-5.000000000000e+00
-5.000000000000e+00
-5.000000000000e+00
-5.000000000000e+00
-5.000000000000e+00
-5.000000000000e+00
-5.000000000000e+00
-5.000000000000e+00
-5.000000000000e+00
-5.000000000000e+00
-5.000000000000e+00
-5.000000000000e+00
-5.000000000000e+00
-5.000000000000e+00
-5.000000000000e+00
-5.000000000000e+00
-5.000000000000e+00
-5.000000000000e+00
-5.000000000000e+00
-5.000000000000e+00
-5.000000000000e+00
-5.000000000000e+00
-5.000000000000e+00
-5.000000000000e+00
-5.000000000000e+00
-5.000000000000e+00
-5.000000000000e+00
-5.000000000000e+00
-5.000000000000e+00
-5.000000000000e+00
-5.000000000000e+00
-5.000000000000e+00
-5.000000000000e+00
-5.000000000000e+00
-5.000000000000e+00
-5.000000000000e+00
-5.000000000000e+00
-5.000000000000e+00
-5.000000000000e+00
-5.000000000000e+00
-5.000000000000e+00
-5.000000000000e+00
-5.000000000000e+00
-5.000000000000e+00
-5.000000000000e+00
-5.000000000000e+00
-5.000000000000e+00
-5.000000000000e+00
-5.000000000000e+00
-5.000000000000e+00
-5.000000000000e+00
-5.000000000000e+00
-5.000000000000e+00
-5.000000000000e+00
-5.000000000000e+00
-5.000000000000e+00
-5.000000000000e+00
-5.000000000000e+00
-5.000000000000e+00
-5.000000000000e+00
-5.000000000000e+00
-5.000000000000e+00
-5.000000000000e+00
-5.000000000000e+00
-5.000000000000e+00
-5.000000000000e+00
-5.000000000000e+00
-5.000000000000e+00
-5.000000000000e+00
-5.000000000000e+00
-5.000000000000e+00
-5.000000000000e+00
-5.000000000000e+00
-5.000000000000e+00
-5.000000000000e+00
-5.000000000000e+00
-5.000000000000e+00
-5.000000000000e+00
-5.000000000000e+00
-5.000000000000e+00
-5.000000000000e+00
-5.000000000000e+00
-5.000000000000e+00
-5.000000000000e+00
-5.000000000000e+00
-5.000000000000e+00
-5.000000000000e+00
</dep>
<dep tran.v(vin) time>
0.000000000000e+00
2.513271477004e-04
3.107699395350e-04
4.296551727712e-04
6.674236494034e-04
1.087457345076e-03
1.532729687746e-03
2.103556021906e-03
3.244984389838e-03
5.526423127827e-03
1.007946625739e-02
1.911303095193e-02
3.662803734214e-02
5.861800695483e-02
7.692479160861e-02
9.039810869602e-02
9.819138015307e-02
9.981492607247e-02
9.516673309312e-02
8.453886427477e-02
6.859910770184e-02
4.834901690213e-02
2.506097955521e-02
1.982686950072e-04
-2.467690011649e-02
-4.800152853837e-02
-6.831004438492e-02
-8.432638891599e-02
-9.504419630070e-02
-9.979002728374e-02
-9.826568385050e-02
-9.056694610502e-02
-7.717755405383e-02
-5.893881244226e-02
-3.699672848315e-02
-1.273000400899e-02
1.233659343473e-02
3.662803734214e-02
5.861800695483e-02
7.692479160861e-02
9.039810869602e-02
9.819138015307e-02
9.981492607247e-02
9.516673309312e-02
8.453886427477e-02
6.859910770184e-02
4.834901690213e-02
2.506097955521e-02
1.982686950062e-04
-2.467690011649e-02
-4.800152853837e-02
-6.831004438492e-02
-8.432638891599e-02
-9.504419630070e-02
-9.979002728374e-02
-9.826568385050e-02
-9.056694610502e-02
-7.717755405383e-02
-5.893881244226e-02
-3.699672848314e-02
-1.273000400899e-02
1.233659343474e-02
3.662803734214e-02
5.861800695483e-02
7.692479160861e-02
9.039810869602e-02
9.819138015307e-02
9.981492607247e-02
9.516673309312e-02
8.453886427477e-02
6.859910770183e-02
4.834901690213e-02
2.506097955521e-02
1.982686950048e-04
-2.467690011649e-02
-4.800152853837e-02
-6.831004438492e-02
-8.432638891599e-02
-9.504419630070e-02
-9.979002728374e-02
-9.826568385050e-02
-9.056694610502e-02
-7.717755405383e-02
-5.893881244226e-02
-3.699672848314e-02
-1.273000400898e-02
1.233659343474e-02
3.662803734214e-02
5.861800695483e-02
7.692479160861e-02
9.039810869602e-02
9.819138015307e-02
9.981492607247e-02
9.516673309312e-02
8.453886427477e-02
6.859910770183e-02
4.834901690212e-02
2.506097955521e-02
1.982686950032e-04
-2.467690011649e-02
-4.800152853837e-02
-6.831004438492e-02
-8.432638891599e-02
-9.504419630070e-02
-9.979002728374e-02
-9.826568385050e-02
-9.056694610502e-02
-7.717755405383e-02
-5.893881244225e-02
-3.699672848314e-02
-1.273000400898e-02
-9.797174393179e-17
</dep>
<dep tran.v(vout) time>
5.008327631666e-01
5.007096917255e-01
5.006738213322e-01
5.005903754070e-01
5.003776807219e-01
4.999583244005e-01
4.995121353502e-01
4.989418451766e-01
4.978000269699e-01
4.955186858685e-01
4.909647562015e-01
4.819288779333e-01
4.644037181785e-01
4.423888762532e-01
4.240452705694e-01
4.105274929012e-01
4.026829603386e-01
4.010064881041e-01
4.056015401636e-01
4.161812287212e-01
4.320789947929e-01
4.522976842356e-01
4.755651580513e-01
5.004211237925e-01
5.253021364355e-01
5.486464491829e-01
5.689856681667e-01
5.850433570312e-01
5.958090331704e-01
6.006077365089e-01
5.991364913232e-01
5.914891661151e-01
5.781448759192e-01
5.599434564665e-01
5.380272340424e-01
5.137745928207e-01
4.887081360804e-01
4.644041334195e-01
4.423884696787e-01
4.240456686401e-01
4.105271031736e-01
4.026833418812e-01
4.010061145913e-01
4.056019057992e-01
4.161808708129e-01
4.320793451213e-01
4.522973413426e-01
4.755654936511e-01
5.004207953464e-01
5.253024578652e-01
5.486461346351e-01
5.689859759650e-01
5.850430558523e-01
5.958093278576e-01
6.006074481878e-01
5.991367734016e-01
5.914888901583e-01
5.781451458734e-01
5.599431923979e-01
5.380274923400e-01
5.137743401815e-01
4.887083831720e-01
4.644038917670e-01
4.423887059989e-01
4.240454375474e-01
4.105273291418e-01
4.026831209364e-01
4.010063306120e-01
4.056016946050e-01
4.161810772763e-01
4.320791432945e-01
4.522975386249e-01
4.755653008227e-01
5.004209838099e-01
5.253022736793e-01
5.486463146291e-01
5.689858000788e-01
5.850432277135e-01
5.958091599404e-01
6.006076122407e-01
5.991366131347e-01
5.914890467159e-01
5.781449929498e-01
5.599433417615e-01
5.380273464638e-01
5.137744826414e-01
4.887082440585e-01
4.644040276027e-01
4.423885733737e-01
4.240455670282e-01
4.105272027406e-01
4.026832443216e-01
4.010062101803e-01
4.056018121444e-01
4.161809625689e-01
4.320792552288e-01
4.522974294058e-01
4.755654073833e-01
5.004208798520e-01
5.253023750890e-01
5.486462157140e-01
5.689858965519e-01
5.850431336306e-01
5.958092516834e-01
6.006075227877e-01
5.991367003464e-01
5.914889616978e-01
5.781450758211e-01
5.599432609910e-01
5.380274251787e-01
5.137744059381e-01
5.010447429866e-01
</dep>
<indep v(vcc) 1>
5.000000000000e+00+j0.000000000000e+00
</indep>
<indep v(vee) 1>
-5.000000000000e+00+j0.000000000000e+00
</indep>
<indep v(vin) 1>
0.000000000000e+00+j0.000000000000e+00
</indep>
<indep v(vout) 1>
5.008328000000e-01+j0.000000000000e+00
</indep>
