<Qucs Dataset 0.0.24>
<indep time 113>
0.000000000000e+00
3.960400000000e-07
4.913070716732e-07
6.818412150196e-07
1.062909501712e-06
1.728825507615e-06
2.438307102753e-06
3.345117992886e-06
5.158739773153e-06
8.785983333687e-06
1.604047045476e-05
3.054944469689e-05
5.956739318117e-05
9.917139318117e-05
1.387753931812e-04
1.783793931812e-04
2.179833931812e-04
2.575873931812e-04
2.971913931812e-04
3.367953931812e-04
3.763993931812e-04
4.160033931812e-04
4.556073931812e-04
4.952113931812e-04
5.348153931812e-04
5.744193931812e-04
6.140233931812e-04
6.536273931812e-04
6.932313931812e-04
7.328353931812e-04
7.724393931812e-04
8.120433931812e-04
8.516473931812e-04
8.912513931812e-04
9.308553931812e-04
9.704593931812e-04
1.010063393181e-03
1.049667393181e-03
1.089271393181e-03
1.128875393181e-03
1.168479393181e-03
1.208083393181e-03
1.247687393181e-03
1.287291393181e-03
1.326895393181e-03
1.366499393181e-03
1.406103393181e-03
1.445707393181e-03
1.485311393181e-03
1.524915393181e-03
1.564519393181e-03
1.604123393181e-03
1.643727393181e-03
1.683331393181e-03
1.722935393181e-03
1.762539393181e-03
1.802143393181e-03
1.841747393181e-03
1.881351393181e-03
1.920955393181e-03
1.960559393181e-03
2.000163393181e-03
2.039767393181e-03
2.079371393181e-03
2.118975393181e-03
2.158579393181e-03
2.198183393181e-03
2.237787393181e-03
2.277391393181e-03
2.316995393181e-03
2.356599393181e-03
2.396203393181e-03
2.435807393181e-03
2.475411393181e-03
2.515015393181e-03
2.554619393181e-03
2.594223393181e-03
2.633827393181e-03
2.673431393181e-03
2.713035393181e-03
2.752639393181e-03
2.792243393181e-03
2.831847393181e-03
2.871451393181e-03
2.911055393181e-03
2.950659393181e-03
2.990263393181e-03
3.029867393181e-03
3.069471393181e-03
3.109075393181e-03
3.148679393181e-03
3.188283393181e-03
3.227887393181e-03
3.267491393181e-03
3.307095393181e-03
3.346699393181e-03
3.386303393181e-03
3.425907393181e-03
3.465511393181e-03
3.505115393181e-03
3.544719393181e-03
3.584323393181e-03
3.623927393181e-03
3.663531393181e-03
3.703135393181e-03
3.742739393181e-03
3.782343393181e-03
3.821947393181e-03
3.861551393181e-03
3.901155393181e-03
3.940759393181e-03
3.980363393181e-03
4.000000000000e-03
</indep>
<dep tran.v(vcc) time>
5.000000000000e+00
5.000000000000e+00
5.000000000000e+00
5.000000000000e+00
5.000000000000e+00
5.000000000000e+00
5.000000000000e+00
5.000000000000e+00
5.000000000000e+00
5.000000000000e+00
5.000000000000e+00
5.000000000000e+00
5.000000000000e+00
5.000000000000e+00
5.000000000000e+00
5.000000000000e+00
5.000000000000e+00
5.000000000000e+00
5.000000000000e+00
5.000000000000e+00
5.000000000000e+00
5.000000000000e+00
5.000000000000e+00
5.000000000000e+00
5.000000000000e+00
5.000000000000e+00
5.000000000000e+00
5.000000000000e+00
5.000000000000e+00
5.000000000000e+00
5.000000000000e+00
5.000000000000e+00
5.000000000000e+00
5.000000000000e+00
5.000000000000e+00
5.000000000000e+00
5.000000000000e+00
5.000000000000e+00
5.000000000000e+00
5.000000000000e+00
5.000000000000e+00
5.000000000000e+00
5.000000000000e+00
5.000000000000e+00
5.000000000000e+00
5.000000000000e+00
5.000000000000e+00
5.000000000000e+00
5.000000000000e+00
5.000000000000e+00
5.000000000000e+00
5.000000000000e+00
5.000000000000e+00
5.000000000000e+00
5.000000000000e+00
5.000000000000e+00
5.000000000000e+00
5.000000000000e+00
5.000000000000e+00
5.000000000000e+00
5.000000000000e+00
5.000000000000e+00
5.000000000000e+00
5.000000000000e+00
5.000000000000e+00
5.000000000000e+00
5.000000000000e+00
5.000000000000e+00
5.000000000000e+00
5.000000000000e+00
5.000000000000e+00
5.000000000000e+00
5.000000000000e+00
5.000000000000e+00
5.000000000000e+00
5.000000000000e+00
5.000000000000e+00
5.000000000000e+00
5.000000000000e+00
5.000000000000e+00
5.000000000000e+00
5.000000000000e+00
5.000000000000e+00
5.000000000000e+00
5.000000000000e+00
5.000000000000e+00
5.000000000000e+00
5.000000000000e+00
5.000000000000e+00
5.000000000000e+00
5.000000000000e+00
5.000000000000e+00
5.000000000000e+00
5.000000000000e+00
5.000000000000e+00
5.000000000000e+00
5.000000000000e+00
5.000000000000e+00
5.000000000000e+00
5.000000000000e+00
5.000000000000e+00
5.000000000000e+00
5.000000000000e+00
5.000000000000e+00
5.000000000000e+00
5.000000000000e+00
5.000000000000e+00
5.000000000000e+00
5.000000000000e+00
5.000000000000e+00
5.000000000000e+00
5.000000000000e+00
5.000000000000e+00
</dep>
<dep tran.v(vee) time>
-5.000000000000e+00
-5.000000000000e+00
-5.000000000000e+00
-5.000000000000e+00
-5.000000000000e+00
-5.000000000000e+00
-5.000000000000e+00
-5.000000000000e+00
-5.000000000000e+00
-5.000000000000e+00
-5.000000000000e+00
-5.000000000000e+00
-5.000000000000e+00
-5.000000000000e+00
-5.000000000000e+00
-5.000000000000e+00
-5.000000000000e+00
-5.000000000000e+00
-5.000000000000e+00
-5.000000000000e+00
-5.000000000000e+00
-5.000000000000e+00
-5.000000000000e+00
-5.000000000000e+00
-5.000000000000e+00
-5.000000000000e+00
-5.000000000000e+00
-5.000000000000e+00
-5.000000000000e+00
-5.000000000000e+00
-5.000000000000e+00
-5.000000000000e+00
-5.000000000000e+00
-5.000000000000e+00
-5.000000000000e+00
-5.000000000000e+00
-5.000000000000e+00
-5.000000000000e+00
-5.000000000000e+00
-5.000000000000e+00
-5.000000000000e+00
-5.000000000000e+00
-5.000000000000e+00
-5.000000000000e+00
-5.000000000000e+00
-5.000000000000e+00
-5.000000000000e+00
-5.000000000000e+00
-5.000000000000e+00
-5.000000000000e+00
-5.000000000000e+00
-5.000000000000e+00
-5.000000000000e+00
-5.000000000000e+00
-5.000000000000e+00
-5.000000000000e+00
-5.000000000000e+00
-5.000000000000e+00
-5.000000000000e+00
-5.000000000000e+00
-5.000000000000e+00
-5.000000000000e+00
-5.000000000000e+00
-5.000000000000e+00
-5.000000000000e+00
-5.000000000000e+00
-5.000000000000e+00
-5.000000000000e+00
-5.000000000000e+00
-5.000000000000e+00
-5.000000000000e+00
-5.000000000000e+00
-5.000000000000e+00
-5.000000000000e+00
-5.000000000000e+00
-5.000000000000e+00
-5.000000000000e+00
-5.000000000000e+00
-5.000000000000e+00
-5.000000000000e+00
-5.000000000000e+00
-5.000000000000e+00
-5.000000000000e+00
-5.000000000000e+00
-5.000000000000e+00
-5.000000000000e+00
-5.000000000000e+00
-5.000000000000e+00
-5.000000000000e+00
-5.000000000000e+00
-5.000000000000e+00
-5.000000000000e+00
-5.000000000000e+00
-5.000000000000e+00
-5.000000000000e+00
-5.000000000000e+00
-5.000000000000e+00
-5.000000000000e+00
-5.000000000000e+00
-5.000000000000e+00
-5.000000000000e+00
-5.000000000000e+00
-5.000000000000e+00
-5.000000000000e+00
-5.000000000000e+00
-5.000000000000e+00
-5.000000000000e+00
-5.000000000000e+00
-5.000000000000e+00
-5.000000000000e+00
-5.000000000000e+00
-5.000000000000e+00
-5.000000000000e+00
</dep>
<dep tran.v(vin) time>
0.000000000000e+00
2.488390140994e-04
3.086968471216e-04
4.284121599020e-04
6.678407718936e-04
1.086231740942e-03
1.531973605662e-03
2.101644878630e-03
3.240764254719e-03
5.517592685973e-03
1.006147110981e-02
1.907713050149e-02
3.655959250375e-02
5.835653280033e-02
7.655858671731e-02
9.004446906918e-02
9.798342085678e-02
9.988638578633e-02
9.563613717593e-02
8.549449936825e-02
7.008621879477e-02
5.036047826861e-02
2.753242530697e-02
3.008316462914e-03
-2.170111106543e-02
-4.507370405533e-02
-6.566966113128e-02
-8.222022758814e-02
-9.370585337596e-02
-9.941899954881e-02
-9.900772416677e-02
-9.249736266699e-02
-8.028896714694e-02
-6.313460070337e-02
-4.209100874795e-02
-1.845452124526e-02
6.318803966639e-03
3.070287743199e-02
5.319558842945e-02
7.241133818328e-02
8.716639569114e-02
9.655181806833e-02
9.998944336020e-02
9.726750654667e-02
8.855368471731e-02
7.438476780642e-02
5.563359119290e-02
3.345526718678e-02
9.216027657335e-03
-1.559093875220e-02
-3.943747021681e-02
-6.085456974425e-02
-7.852289851009e-02
-9.135404993185e-02
-9.855759782644e-02
-9.968978834198e-02
-9.468087613777e-02
-8.383942084535e-02
-6.783327913982e-02
-4.764846334997e-02
-2.452840100440e-02
1.026629454850e-04
2.472740263986e-02
4.782888180645e-02
6.798400025717e-02
8.395115988259e-02
9.474674973284e-02
9.970573854151e-02
9.852264206425e-02
9.127034155715e-02
7.839559413656e-02
6.069151159172e-02
3.924870301385e-02
1.538809095947e-02
-9.420460184908e-03
-3.364869097125e-02
-5.580409091829e-02
-7.452184032747e-02
-8.864888607555e-02
-9.731497213621e-02
-9.998624919991e-02
-9.649816092526e-02
-8.706558095929e-02
-7.226957626427e-02
-5.302161215862e-02
-3.050740411718e-02
-6.113875179254e-03
1.865628145661e-02
4.227717152567e-02
6.329369802492e-02
8.041119827936e-02
9.257519791287e-02
9.903636870965e-02
9.939668882399e-02
9.363396177148e-02
8.210318377955e-02
6.551467526581e-02
4.489032359151e-02
2.150063262936e-02
-3.213542973723e-03
-2.772975750351e-02
-5.053776006842e-02
-7.023252926240e-02
-8.560082546810e-02
-9.569592899440e-02
-9.989596002039e-02
-9.794218771328e-02
-8.995496859735e-02
-7.642633233632e-02
-5.818967166098e-02
-3.636840360666e-02
-1.230676463757e-02
-9.797174393179e-17
</dep>
<dep tran.v(vout) time>
5.008327631666e-01
5.007116465684e-01
5.006756276964e-01
5.005916873033e-01
5.003773711315e-01
4.999595177963e-01
4.995129010191e-01
4.989437527915e-01
4.978042495133e-01
4.955275154609e-01
4.909827562356e-01
4.819647903829e-01
4.644722171440e-01
4.426507132586e-01
4.244124097046e-01
4.108826806590e-01
4.028931681567e-01
4.009378239375e-01
4.051353570701e-01
4.152288990361e-01
4.305949929323e-01
4.502886935023e-01
4.730952220626e-01
4.976112196879e-01
5.223249097825e-01
5.457153836169e-01
5.663402626220e-01
5.829304553289e-01
5.944625559414e-01
6.002275476069e-01
5.998689386359e-01
5.934101475450e-01
5.812477501361e-01
5.641322479291e-01
5.431167471328e-01
5.194970658994e-01
4.947270339953e-01
4.703337053574e-01
4.478186184112e-01
4.285698683417e-01
4.137721250185e-01
4.043380313867e-01
4.008477001818e-01
4.035171680785e-01
4.121809874804e-01
4.263064296678e-01
4.450223777490e-01
4.671768283246e-01
4.914041019210e-01
5.162126452026e-01
5.400733207225e-01
5.615171193550e-01
5.792222173008e-01
5.920987646048e-01
5.993527350987e-01
6.005380544674e-01
5.955809363310e-01
5.847875007669e-01
5.688219120585e-01
5.486684022013e-01
5.255677685124e-01
5.009437449793e-01
4.763125533557e-01
4.531921825890e-01
4.330062562894e-01
4.169988961725e-01
4.061555781374e-01
4.011448711034e-01
4.022748614757e-01
4.094765097951e-01
4.223056220288e-01
4.399724419153e-01
4.613881241530e-01
4.852339365342e-01
5.100404191843e-01
5.342799353937e-01
5.564587957838e-01
5.752112077364e-01
5.893815216902e-01
5.980972664276e-01
6.008210940352e-01
5.973856400041e-01
5.880021168120e-01
5.732489781718e-01
5.540346498450e-01
5.315431645510e-01
5.071596656955e-01
4.823865992273e-01
4.587496770722e-01
4.377053365947e-01
4.205496097898e-01
4.083396614847e-01
4.018273231173e-01
4.014140877530e-01
4.071251003164e-01
4.186088537648e-01
4.351576286362e-01
4.557522736560e-01
4.791238338335e-01
5.038328454070e-01
5.283569137726e-01
5.511855644020e-01
5.709122504196e-01
5.863220130220e-01
5.964653375264e-01
6.007176079162e-01
5.988166471084e-01
5.908797805498e-01
5.773957197177e-01
5.591953220436e-01
5.373995656338e-01
5.133513149481e-01
5.010446801764e-01
</dep>
