<Qucs Dataset 0.0.24>
<indep time 116>
0.000000000000e+00
3.960400000000e-07
4.119390974954e-07
4.437372924861e-07
5.073336824676e-07
6.345264624306e-07
8.889120223565e-07
1.257275406477e-06
1.675605519897e-06
2.225056045934e-06
3.101472012107e-06
4.854303944453e-06
8.359967809146e-06
1.537129553853e-05
2.939395099730e-05
5.743926191484e-05
9.704326191484e-05
1.366472619148e-04
1.762512619148e-04
2.158552619148e-04
2.554592619148e-04
2.950632619148e-04
3.346672619148e-04
3.742712619148e-04
4.138752619148e-04
4.534792619148e-04
4.930832619148e-04
5.326872619148e-04
5.722912619148e-04
6.118952619148e-04
6.514992619148e-04
6.911032619148e-04
7.307072619148e-04
7.703112619148e-04
8.099152619148e-04
8.495192619148e-04
8.891232619148e-04
9.287272619148e-04
9.683312619148e-04
1.007935261915e-03
1.047539261915e-03
1.087143261915e-03
1.126747261915e-03
1.166351261915e-03
1.205955261915e-03
1.245559261915e-03
1.285163261915e-03
1.324767261915e-03
1.364371261915e-03
1.403975261915e-03
1.443579261915e-03
1.483183261915e-03
1.522787261915e-03
1.562391261915e-03
1.601995261915e-03
1.641599261915e-03
1.681203261915e-03
1.720807261915e-03
1.760411261915e-03
1.800015261915e-03
1.839619261915e-03
1.879223261915e-03
1.918827261915e-03
1.958431261915e-03
1.998035261915e-03
2.037639261915e-03
2.077243261915e-03
2.116847261915e-03
2.156451261915e-03
2.196055261915e-03
2.235659261915e-03
2.275263261915e-03
2.314867261915e-03
2.354471261915e-03
2.394075261915e-03
2.433679261915e-03
2.473283261915e-03
2.512887261915e-03
2.552491261915e-03
2.592095261915e-03
2.631699261915e-03
2.671303261915e-03
2.710907261915e-03
2.750511261915e-03
2.790115261915e-03
2.829719261915e-03
2.869323261915e-03
2.908927261915e-03
2.948531261915e-03
2.988135261915e-03
3.027739261915e-03
3.067343261915e-03
3.106947261915e-03
3.146551261915e-03
3.186155261915e-03
3.225759261915e-03
3.265363261915e-03
3.304967261915e-03
3.344571261915e-03
3.384175261915e-03
3.423779261915e-03
3.463383261915e-03
3.502987261915e-03
3.542591261915e-03
3.582195261915e-03
3.621799261915e-03
3.661403261915e-03
3.701007261915e-03
3.740611261915e-03
3.780215261915e-03
3.819819261915e-03
3.859423261915e-03
3.899027261915e-03
3.938631261915e-03
3.978235261915e-03
4.000000000000e-03
</indep>
<dep tran.v(vcc) time>
5.000000000000e+00
5.000000000000e+00
5.000000000000e+00
5.000000000000e+00
5.000000000000e+00
5.000000000000e+00
5.000000000000e+00
5.000000000000e+00
5.000000000000e+00
5.000000000000e+00
5.000000000000e+00
5.000000000000e+00
5.000000000000e+00
5.000000000000e+00
5.000000000000e+00
5.000000000000e+00
5.000000000000e+00
5.000000000000e+00
5.000000000000e+00
5.000000000000e+00
5.000000000000e+00
5.000000000000e+00
5.000000000000e+00
5.000000000000e+00
5.000000000000e+00
5.000000000000e+00
5.000000000000e+00
5.000000000000e+00
5.000000000000e+00
5.000000000000e+00
5.000000000000e+00
5.000000000000e+00
5.000000000000e+00
5.000000000000e+00
5.000000000000e+00
5.000000000000e+00
5.000000000000e+00
5.000000000000e+00
5.000000000000e+00
5.000000000000e+00
5.000000000000e+00
5.000000000000e+00
5.000000000000e+00
5.000000000000e+00
5.000000000000e+00
5.000000000000e+00
5.000000000000e+00
5.000000000000e+00
5.000000000000e+00
5.000000000000e+00
5.000000000000e+00
5.000000000000e+00
5.000000000000e+00
5.000000000000e+00
5.000000000000e+00
5.000000000000e+00
5.000000000000e+00
5.000000000000e+00
5.000000000000e+00
5.000000000000e+00
5.000000000000e+00
5.000000000000e+00
5.000000000000e+00
5.000000000000e+00
5.000000000000e+00
5.000000000000e+00
5.000000000000e+00
5.000000000000e+00
5.000000000000e+00
5.000000000000e+00
5.000000000000e+00
5.000000000000e+00
5.000000000000e+00
5.000000000000e+00
5.000000000000e+00
5.000000000000e+00
5.000000000000e+00
5.000000000000e+00
5.000000000000e+00
5.000000000000e+00
5.000000000000e+00
5.000000000000e+00
5.000000000000e+00
5.000000000000e+00
5.000000000000e+00
5.000000000000e+00
5.000000000000e+00
5.000000000000e+00
5.000000000000e+00
5.000000000000e+00
5.000000000000e+00
5.000000000000e+00
5.000000000000e+00
5.000000000000e+00
5.000000000000e+00
5.000000000000e+00
5.000000000000e+00
5.000000000000e+00
5.000000000000e+00
5.000000000000e+00
5.000000000000e+00
5.000000000000e+00
5.000000000000e+00
5.000000000000e+00
5.000000000000e+00
5.000000000000e+00
5.000000000000e+00
5.000000000000e+00
5.000000000000e+00
5.000000000000e+00
5.000000000000e+00
5.000000000000e+00
5.000000000000e+00
5.000000000000e+00
5.000000000000e+00
5.000000000000e+00
</dep>
<dep tran.v(vee) time>
-5.000000000000e+00
-5.000000000000e+00
-5.000000000000e+00
-5.000000000000e+00
-5.000000000000e+00
-5.000000000000e+00
-5.000000000000e+00
-5.000000000000e+00
-5.000000000000e+00
-5.000000000000e+00
-5.000000000000e+00
-5.000000000000e+00
-5.000000000000e+00
-5.000000000000e+00
-5.000000000000e+00
-5.000000000000e+00
-5.000000000000e+00
-5.000000000000e+00
-5.000000000000e+00
-5.000000000000e+00
-5.000000000000e+00
-5.000000000000e+00
-5.000000000000e+00
-5.000000000000e+00
-5.000000000000e+00
-5.000000000000e+00
-5.000000000000e+00
-5.000000000000e+00
-5.000000000000e+00
-5.000000000000e+00
-5.000000000000e+00
-5.000000000000e+00
-5.000000000000e+00
-5.000000000000e+00
-5.000000000000e+00
-5.000000000000e+00
-5.000000000000e+00
-5.000000000000e+00
-5.000000000000e+00
-5.000000000000e+00
-5.000000000000e+00
-5.000000000000e+00
-5.000000000000e+00
-5.000000000000e+00
-5.000000000000e+00
-5.000000000000e+00
-5.000000000000e+00
-5.000000000000e+00
-5.000000000000e+00
-5.000000000000e+00
-5.000000000000e+00
-5.000000000000e+00
-5.000000000000e+00
-5.000000000000e+00
-5.000000000000e+00
-5.000000000000e+00
-5.000000000000e+00
-5.000000000000e+00
-5.000000000000e+00
-5.000000000000e+00
-5.000000000000e+00
-5.000000000000e+00
-5.000000000000e+00
-5.000000000000e+00
-5.000000000000e+00
-5.000000000000e+00
-5.000000000000e+00
-5.000000000000e+00
-5.000000000000e+00
-5.000000000000e+00
-5.000000000000e+00
-5.000000000000e+00
-5.000000000000e+00
-5.000000000000e+00
-5.000000000000e+00
-5.000000000000e+00
-5.000000000000e+00
-5.000000000000e+00
-5.000000000000e+00
-5.000000000000e+00
-5.000000000000e+00
-5.000000000000e+00
-5.000000000000e+00
-5.000000000000e+00
-5.000000000000e+00
-5.000000000000e+00
-5.000000000000e+00
-5.000000000000e+00
-5.000000000000e+00
-5.000000000000e+00
-5.000000000000e+00
-5.000000000000e+00
-5.000000000000e+00
-5.000000000000e+00
-5.000000000000e+00
-5.000000000000e+00
-5.000000000000e+00
-5.000000000000e+00
-5.000000000000e+00
-5.000000000000e+00
-5.000000000000e+00
-5.000000000000e+00
-5.000000000000e+00
-5.000000000000e+00
-5.000000000000e+00
-5.000000000000e+00
-5.000000000000e+00
-5.000000000000e+00
-5.000000000000e+00
-5.000000000000e+00
-5.000000000000e+00
-5.000000000000e+00
-5.000000000000e+00
-5.000000000000e+00
-5.000000000000e+00
-5.000000000000e+00
</dep>
<dep tran.v(vin) time>
0.000000000000e+00
2.488390140994e-04
2.588286794906e-04
2.788080024245e-04
3.187666141066e-04
3.986836783978e-04
5.585169920425e-04
7.899612197679e-04
1.052794549145e-03
1.397998404084e-03
1.948589003457e-03
3.049576244102e-03
5.250307550993e-03
9.643062021585e-03
1.836394956008e-02
3.531178258106e-02
5.726549859810e-02
7.569153825994e-02
8.945481838340e-02
9.770749167735e-02
9.994117593682e-02
9.601827146670e-02
8.618043751525e-02
7.103370555111e-02
5.151114643748e-02
2.881539128495e-02
4.344546820525e-03
-2.039393095659e-02
-4.387609926664e-02
-6.465540666165e-02
-8.145180366732e-02
-9.323059654975e-02
-9.926618664724e-02
-9.918676878916e-02
-9.299723528428e-02
-8.107887454410e-02
-6.416588290683e-02
-4.330013658337e-02
-1.976700986958e-02
4.983806640620e-03
2.942761007532e-02
5.205861022018e-02
7.148268939423e-02
8.650328306032e-02
9.619509074237e-02
9.996107650012e-02
9.756924761131e-02
8.916694581614e-02
7.527177075309e-02
5.673969472174e-02
3.471233297087e-02
1.054661777415e-02
-1.426879148025e-02
-3.820521287014e-02
-5.978811199294e-02
-7.768793641695e-02
-9.080201893543e-02
-9.832250420871e-02
-9.978611436918e-02
-9.510268792201e-02
-8.456073388473e-02
-6.880965901891e-02
-4.881976299423e-02
-2.582246586771e-02
-1.234449992473e-03
2.342961062448e-02
4.665035745852e-02
6.699734317991e-02
8.321715024779e-02
9.431060409316e-02
9.959432439479e-02
9.874282275860e-02
9.180855349410e-02
7.921868231754e-02
6.174877203641e-02
4.047500623304e-02
1.670789406999e-02
-8.088459858143e-03
-3.238654747777e-02
-5.468955497829e-02
-7.362356972232e-02
-8.802221618260e-02
-9.699850715203e-02
-9.999948403974e-02
-9.684028029486e-02
-8.771550957877e-02
-7.318727715011e-02
-5.415055298691e-02
-3.177803973483e-02
-7.447931733172e-03
1.734098468391e-02
4.106165960929e-02
6.225284908086e-02
7.960913081352e-02
9.206132098487e-02
9.884233822981e-02
9.953445748203e-02
9.409504272541e-02
8.285917346320e-02
6.651900310883e-02
4.608112086539e-02
2.280454369258e-02
-1.876841812377e-03
-2.644260987496e-02
-4.937945700070e-02
-6.927442468491e-02
-8.490194065800e-02
-9.529931674053e-02
-9.982605248006e-02
-9.820329133948e-02
-9.053099885207e-02
-7.728180453228e-02
-5.927188689375e-02
-3.761069511910e-02
-1.363260463366e-02
-9.797174393179e-17
</dep>
<dep tran.v(vout) time>
8.362139850976e-04
1.085097756674e-03
1.095501063064e-03
1.117143501095e-03
1.165424802148e-03
1.280000871851e-03
1.557775653286e-03
2.010468999737e-03
2.537941731796e-03
3.228458904360e-03
4.329487540145e-03
6.531570734990e-03
1.093312205565e-02
1.971957453345e-02
3.716522768042e-02
7.107748334257e-02
1.150292308925e-01
1.519480057420e-01
1.795564258778e-01
1.961567929137e-01
2.007235246979e-01
1.929782086908e-01
1.733951417616e-01
1.431834592111e-01
1.042015566033e-01
5.885344900676e-02
9.930084259613e-03
-3.955223104277e-02
-8.654775788098e-02
-1.281590626291e-01
-1.618251611794e-01
-1.854698465282e-01
-1.976388024265e-01
-1.975801933333e-01
-1.852997690510e-01
-1.615519302652e-01
-1.278016355459e-01
-8.612597852671e-02
-3.909421812714e-02
1.039828540349e-02
5.930082840793e-02
1.046027141679e-01
1.435114811372e-01
1.736319869125e-01
1.931070664199e-01
2.007386551782e-01
1.960550395495e-01
1.793463033625e-01
1.516402264975e-01
1.146450447181e-01
7.063829629461e-02
2.233229352390e-02
-2.729858706201e-02
-7.519564805383e-02
-1.184096351131e-01
-1.542772102698e-01
-1.805900897585e-01
-1.957261394197e-01
-1.987541125556e-01
-1.894863340432e-01
-1.684948226831e-01
-1.370716166699e-01
-9.715350145180e-02
-5.119849732542e-02
-2.038528232883e-03
4.729900837909e-02
9.377386981600e-02
1.345240150644e-01
1.670382583408e-01
1.893145169259e-01
1.999796908165e-01
1.983776025811e-01
1.846061589000e-01
1.595144834054e-01
1.246475335083e-01
8.215391179439e-02
3.465061005437e-02
-1.493539020877e-02
-6.355015353989e-02
-1.081982709340e-01
-1.461299494163e-01
-1.750079149276e-01
-1.930538061599e-01
-1.991553874065e-01
-1.929373311115e-01
-1.747821461122e-01
-1.458087399368e-01
-1.078014367196e-01
-6.310204887442e-02
-1.446369213275e-02
3.511695263851e-02
8.258604082115e-02
1.250189513711e-01
1.598021289575e-01
1.847924650998e-01
1.984508818123e-01
1.999356329752e-01
1.891556110946e-01
1.667745561525e-01
1.341715174284e-01
9.335459926051e-02
4.683850964707e-02
-2.511555425012e-03
-5.165525457533e-02
-9.756550442826e-02
-1.374138837906e-01
-1.687458956203e-01
-1.896311845608e-01
-1.987833945675e-01
-1.956385086106e-01
-1.803904591445e-01
-1.539783562815e-01
-1.180294273234e-01
-7.475802327193e-02
-2.682992839172e-02
4.332330749240e-04
</dep>
