<Qucs Dataset 0.0.19>
<indep time 101>
  +0.00000000000000000000e+00
  +4.00000000000000032721e-05
  +8.00000000000000065442e-05
  +1.20000000000000016593e-04
  +1.60000000000000013088e-04
  +2.00000000000000009584e-04
  +2.40000000000000033185e-04
  +2.80000000000000029681e-04
  +3.20000000000000026177e-04
  +3.60000000000000022673e-04
  +4.00000000000000019169e-04
  +4.40000000000000015665e-04
  +4.80000000000000066371e-04
  +5.20000000000000062866e-04
  +5.60000000000000059362e-04
  +6.00000000000000055858e-04
  +6.40000000000000052354e-04
  +6.80000000000000048850e-04
  +7.20000000000000045346e-04
  +7.60000000000000041842e-04
  +8.00000000000000038337e-04
  +8.40000000000000034833e-04
  +8.80000000000000031329e-04
  +9.20000000000000027825e-04
  +9.60000000000000132741e-04
  +1.00000000000000002082e-03
  +1.04000000000000012573e-03
  +1.08000000000000001381e-03
  +1.12000000000000011872e-03
  +1.16000000000000000680e-03
  +1.20000000000000011172e-03
  +1.23999999999999999979e-03
  +1.28000000000000010471e-03
  +1.32000000000000020962e-03
  +1.36000000000000009770e-03
  +1.40000000000000020262e-03
  +1.44000000000000009069e-03
  +1.48000000000000019561e-03
  +1.52000000000000008368e-03
  +1.56000000000000018860e-03
  +1.60000000000000007667e-03
  +1.64000000000000018159e-03
  +1.68000000000000006967e-03
  +1.72000000000000017458e-03
  +1.76000000000000006266e-03
  +1.80000000000000016757e-03
  +1.84000000000000005565e-03
  +1.88000000000000016057e-03
  +1.92000000000000026548e-03
  +1.96000000000000037040e-03
  +2.00000000000000004163e-03
  +2.04000000000000014655e-03
  +2.08000000000000025147e-03
  +2.12000000000000035638e-03
  +2.16000000000000002762e-03
  +2.20000000000000013253e-03
  +2.24000000000000023745e-03
  +2.28000000000000034237e-03
  +2.32000000000000001360e-03
  +2.36000000000000011852e-03
  +2.40000000000000022343e-03
  +2.44000000000000032835e-03
  +2.47999999999999999958e-03
  +2.52000000000000010450e-03
  +2.56000000000000020942e-03
  +2.60000000000000031433e-03
  +2.64000000000000041925e-03
  +2.68000000000000009048e-03
  +2.72000000000000019540e-03
  +2.76000000000000030032e-03
  +2.80000000000000040523e-03
  +2.84000000000000007647e-03
  +2.88000000000000018138e-03
  +2.92000000000000028630e-03
  +2.96000000000000039121e-03
  +3.00000000000000006245e-03
  +3.04000000000000016737e-03
  +3.08000000000000027228e-03
  +3.12000000000000037720e-03
  +3.16000000000000004843e-03
  +3.20000000000000015335e-03
  +3.24000000000000025827e-03
  +3.28000000000000036318e-03
  +3.32000000000000046810e-03
  +3.36000000000000013933e-03
  +3.40000000000000024425e-03
  +3.44000000000000034917e-03
  +3.48000000000000045408e-03
  +3.52000000000000012532e-03
  +3.56000000000000023023e-03
  +3.60000000000000033515e-03
  +3.64000000000000044006e-03
  +3.68000000000000011130e-03
  +3.72000000000000021622e-03
  +3.76000000000000032113e-03
  +3.80000000000000042605e-03
  +3.84000000000000053096e-03
  +3.88000000000000020220e-03
  +3.92000000000000074080e-03
  +3.95999999999999997835e-03
  +4.00000000000000008327e-03
</indep>
<dep V1.It time>
  -7.99987121993959075113e-16
  +5.32866197503041500762e-12
  +4.85954966281166416118e-12
  +4.06531649812540868970e-12
  +3.00619926190003054602e-12
  +1.74356691304357059821e-12
  +3.62592228065369836768e-13
  -1.04327676182622819336e-12
  -2.37792043616823788041e-12
  -3.55191313703321260177e-12
  -4.48875286885081876921e-12
  -5.13044160840435759057e-12
  -5.44082205484681855929e-12
  -5.40667198189194320382e-12
  -5.03688929037323038687e-12
  -4.36028059981123360676e-12
  -3.42248657794945255789e-12
  -2.28252355865164629300e-12
  -1.00901148408473201124e-12
  +3.23865327396907326169e-13
  +1.63745485787819137056e-12
  +2.85505033823034093627e-12
  +3.90515277318517720879e-12
  +4.72226686616812802158e-12
  +5.25584494847582397630e-12
  +5.46319074476537883709e-12
  +5.32936096084768408073e-12
  +4.85586849291459496498e-12
  +4.06629697999290985856e-12
  +3.00586499883339617899e-12
  +1.74200045993984744189e-12
  +3.61945270064060194220e-13
  -1.04334369657763794895e-12
  -2.37800366032226433360e-12
  -3.55202849459481989641e-12
  -4.48889752604921052240e-12
  -5.13060748828738370308e-12
  -5.44100062431051052393e-12
  -5.40685593564639924111e-12
  -5.03707313388729054943e-12
  -4.36046080450211409385e-12
  -3.42266151237392638911e-12
  -2.28265531587465739805e-12
  -1.00914131642117500305e-12
  +3.23099218034572841163e-13
  +1.63753155643797889493e-12
  +2.85496706465536471291e-12
  +3.90630739749159766943e-12
  +4.72324933815399665368e-12
  +5.25698036748771682437e-12
  +5.46692087082427715147e-12
  +5.33183970156619202802e-12
  +4.85777504380915885588e-12
  +4.06613888316757494241e-12
  +3.00408621938635878380e-12
  +1.74374346390619571108e-12
  +3.62297000270612123297e-13
  -1.04330280911535708680e-12
  -2.37851601778217542974e-12
  -3.55165940340600613137e-12
  -4.49034832354318750735e-12
  -5.13118174391589409070e-12
  -5.44245763278660699707e-12
  -5.40692317105008086671e-12
  -5.03681899490605393580e-12
  -4.36030153519156588912e-12
  -3.42258849013823258028e-12
  -2.28265251013866027736e-12
  -1.00919308698175885513e-12
  +3.24433520897271077456e-13
  +1.63803337822374293867e-12
  +2.85469928380621925553e-12
  +3.90605661653050991511e-12
  +4.72243045611955321710e-12
  +5.25715243459106939268e-12
  +5.46790216199740315362e-12
  +5.33401421472387044837e-12
  +4.85991112493366508455e-12
  +4.06862797626691096116e-12
  +3.00737093901835552045e-12
  +1.74455662563317006552e-12
  +3.62482252283714074295e-13
  -1.04368667898343694225e-12
  -2.37827156838432681636e-12
  -3.55179297690903052201e-12
  -4.48941179909661555638e-12
  -5.13074263619963846734e-12
  -5.44165234959191085391e-12
  -5.40715287346839035921e-12
  -5.03623500643268382840e-12
  -4.36177620523908194515e-12
  -3.42280387682942436011e-12
  -2.28100223762883757440e-12
  -1.00825689322645405659e-12
  +3.23039362219537143516e-13
  +1.63676532442862320391e-12
  +2.85474362624385839028e-12
  +3.90578289202821608113e-12
  +4.72175938353115017804e-12
  +5.25267886917682534086e-12
  +5.46634019265140864640e-12
</dep>
<dep V2.It time>
  -7.99988039426923482352e-16
  -5.25896777847435333634e-12
  -4.73585220839333171846e-12
  -3.91904632526549493271e-12
  -2.87330153756330634148e-12
  -1.65752943943631933285e-12
  -3.44947645852788348177e-13
  +9.87670394210578442556e-13
  +2.26253061413865812556e-12
  +3.40496778700808735771e-12
  +4.34622714565022926963e-12
  +5.02715132510921732364e-12
  +5.40184356058005520227e-12
  +5.44118912628218898037e-12
  +5.13595040444187786846e-12
  +4.49900095405122999739e-12
  +3.56616977488815796296e-12
  +2.39524369489054081391e-12
  +1.06249012108900435780e-12
  -3.43258946503365069272e-13
  -1.72564114389818524642e-12
  -2.98961519381523275389e-12
  -4.05410678791569636790e-12
  -4.84774657429129307772e-12
  -5.32915601547612435801e-12
  -5.46523119329915285151e-12
  -5.26016100292946079190e-12
  -4.73290815695281132198e-12
  -3.91935822882316392323e-12
  -2.87253600027047746744e-12
  -1.65579774743801321839e-12
  -3.44259683918717509683e-13
  +9.87472706279702346413e-13
  +2.26234388486398910329e-12
  +3.40480572545789280032e-12
  +4.34608724933157641091e-12
  +5.02702749908605105743e-12
  +5.40173027030059307301e-12
  +5.44108238909962699094e-12
  +5.13584763808077976643e-12
  +4.49890048105589914115e-12
  +3.56607033351758918908e-12
  +2.39508890061434944115e-12
  +1.06231988449342626790e-12
  -3.42764784256304914331e-13
  -1.72526030745997443192e-12
  -2.99006671575081629514e-12
  -4.05485345993589258561e-12
  -4.84956723248010331949e-12
  -5.32936770677276040411e-12
  -5.46824389891226876532e-12
  -5.26197657962728974888e-12
  -4.73435265472086983522e-12
  -3.91961598745690453591e-12
  -2.87149454390026001711e-12
  -1.65744032050159638282e-12
  -3.44570762749885336736e-13
  +9.87406492613984079806e-13
  +2.26305632969143456432e-12
  +3.40428206063065308909e-12
  +4.34730639265722183059e-12
  +5.02717949736076444416e-12
  +5.40278203415031443043e-12
  +5.44079432675799705624e-12
  +5.13522203439351550383e-12
  +4.49837325224030580424e-12
  +3.56563363068212909970e-12
  +2.39472651714982924809e-12
  +1.06201538642263876811e-12
  -3.43537782887287397190e-13
  -1.72556415151146612044e-12
  -2.98997438716929026273e-12
  -4.05422907206427547571e-12
  -4.84912444692357473084e-12
  -5.32930466507974993259e-12
  -5.46987147406776345091e-12
  -5.26357240649924827230e-12
  -4.73671365888962684558e-12
  -3.92137036233492989721e-12
  -2.87480312614548724002e-12
  -1.65778695177695581747e-12
  -3.45433437044126283225e-13
  +9.87474294907923496175e-13
  +2.26221699728195025400e-12
  +3.40512147435716835845e-12
  +4.34585738162729384485e-12
  +5.02744336666087171447e-12
  +5.40143907837399694200e-12
  +5.44158350639275785074e-12
  +5.13415029613011957610e-12
  +4.50045132789637476365e-12
  +3.56576780104475496710e-12
  +2.39261569987695233908e-12
  +1.06231507651039165673e-12
  -3.43378658293485007881e-13
  -1.72546495709291646574e-12
  -2.99035227401891429250e-12
  -4.05367955674158287221e-12
  -4.84840029888555950478e-12
  -5.32549780766960714781e-12
  -5.46801120003828994870e-12
</dep>
<dep V3.It time>
  -9.00002647394604544879e-08
  -9.01080365514489023085e-08
  -9.01179256627394155470e-08
  -9.01193364604849775371e-08
  -9.01117164348273763655e-08
  -9.00986714162348913696e-08
  -9.00810729993277845990e-08
  -9.00567994966232478560e-08
  -9.00290473094309064075e-08
  -8.99995941780774753281e-08
  -8.99702991582099821795e-08
  -8.99430021640306772283e-08
  -8.99194145354108418244e-08
  -8.99010138383556766929e-08
  -8.98889518404606723972e-08
  -8.98839823771857569138e-08
  -8.98864140111311193189e-08
  -8.98960858022299108280e-08
  -8.99123858300521584786e-08
  -8.99333878981654837315e-08
  -8.99581609077985766827e-08
  -8.99869905767794493994e-08
  -9.00168530072900957097e-08
  -9.00452301416823380060e-08
  -9.00716074457172911543e-08
  -9.00928005318429751910e-08
  -9.01080948139956832621e-08
  -9.01166168772735940231e-08
  -9.01192032791879982698e-08
  -9.01131609675107635735e-08
  -9.00999862970613052820e-08
  -9.00805281909081034367e-08
  -9.00557663979002326373e-08
  -9.00280400307016257509e-08
  -8.99986112710158437189e-08
  -8.99693372707886194003e-08
  -8.99420581017356558397e-08
  -8.99184859806931951801e-08
  -8.99000995524458527642e-08
  -8.98880516542738880786e-08
  -8.98830970843738578628e-08
  -8.98855452061457490734e-08
  -8.98952404826608095895e-08
  -8.99115722087992733794e-08
  -8.99335203684904827047e-08
  -8.99565424753025682041e-08
  -8.99886646879616931152e-08
  -9.00151693719911086934e-08
  -9.00470191443638370491e-08
  -9.00697667701575836591e-08
  -9.00911286703958036130e-08
  -9.01072132778674568683e-08
  -9.01180184904398047843e-08
  -9.01174863747384683186e-08
  -9.01113022347452707318e-08
  -9.01009451863372622865e-08
  -9.00816283191138389692e-08
  -9.00559461598580517490e-08
  -9.00281629754309486628e-08
  -8.99986309321663414201e-08
  -8.99690809573659391107e-08
  -8.99417831847839226515e-08
  -8.99177311275504317156e-08
  -8.98995355995975884009e-08
  -8.98875234833427224744e-08
  -8.98825970232537068274e-08
  -8.98850712920076006859e-08
  -8.98947898247357322093e-08
  -8.99111421237748094778e-08
  -8.99307497966758880776e-08
  -8.99571092812768524083e-08
  -8.99880379103560981402e-08
  -9.00157169184971755490e-08
  -9.00464990120508912938e-08
  -9.00703391640225807553e-08
  -9.00937231960588520327e-08
  -9.01072438596236375621e-08
  -9.01181266806901227843e-08
  -9.01174523847601476482e-08
  -9.01136129052547536585e-08
  -9.00984230377158522793e-08
  -9.00813107187282318573e-08
  -9.00570217565073271392e-08
  -9.00284247285603481755e-08
  -8.99986825986423439847e-08
  -8.99690858114191761163e-08
  -8.99417623983082925666e-08
  -8.99177959412970427172e-08
  -8.98993169570910860098e-08
  -8.98870838248708855245e-08
  -8.98815736894615752614e-08
  -8.98843269703448944994e-08
  -8.98941542622335127371e-08
  -8.99091904012223040339e-08
  -8.99325900241764084735e-08
  -8.99582867006576161868e-08
  -8.99870613292798031977e-08
  -9.00167362057098655746e-08
  -9.00453739611217469714e-08
  -9.00707574574533697495e-08
  -9.00914318356571203338e-08
</dep>
<dep _net0.Vt time>
  +7.00008575325368844790e-04
  +2.53904386863933358154e-02
  +4.87141187827179814041e-02
  +6.90212055110005912040e-02
  +8.50352792764063891706e-02
  +9.57502823895979710001e-02
  +1.00492922966307199339e-01
  +9.89652224207280550861e-02
  +9.12631459429447261522e-02
  +7.78706510677978080981e-02
  +5.96292403687826572112e-02
  +3.76850897819541730271e-02
  +1.34170312942561379549e-02
  -1.16500836894822684675e-02
  -3.59411961922717279605e-02
  -5.79300063470181217373e-02
  -7.62348764075712337362e-02
  -8.97056427365592601308e-02
  -9.74958900682257184611e-02
  -9.91161318581976896747e-02
  -9.44645873857517803796e-02
  -8.38334501108744939435e-02
  -6.78908068847760975961e-02
  -4.76382831252215865891e-02
  -2.43486081732093399832e-02
  +5.15113254603425784611e-04
  +2.53904057221883416862e-02
  +4.87142674326093566561e-02
  +6.90211844111894984310e-02
  +8.50352844007846303542e-02
  +9.57503306474863369324e-02
  +1.00492955349016463429e-01
  +9.89652179756012884138e-02
  +9.12631410960876854332e-02
  +7.78706465324537078221e-02
  +5.96292362820641519416e-02
  +3.76850860789545785701e-02
  +1.34170278481677805738e-02
  -1.16500870146129965194e-02
  -3.59411995209187179467e-02
  -5.79300097832692872935e-02
  -7.62348800306812263150e-02
  -8.97056479851848220797e-02
  -9.74958957869414277742e-02
  -9.91161361105033084096e-02
  -9.44645687409812612190e-02
  -8.38334694269282643120e-02
  -6.78908270607122693585e-02
  -4.76383428225540528356e-02
  -2.43486178942961678517e-02
  +5.15002275646013582718e-04
  +2.53903188592721346106e-02
  +4.87142071856520031403e-02
  +6.90211875224035070753e-02
  +8.50353373559269709592e-02
  +9.57502701544998835459e-02
  +1.00492938734752498831e-01
  +9.89652208209776673709e-02
  +9.12631696957823118632e-02
  +7.78706383446297473183e-02
  +5.96292969289527463594e-02
  +3.76851094264773270326e-02
  +1.34170947582183293367e-02
  -1.16500771019866899286e-02
  -3.59412047049137012289e-02
  -5.79300148963509189959e-02
  -7.62348846437486821204e-02
  -8.97056520478447666500e-02
  -9.74958993708545801349e-02
  -9.91161479586087079685e-02
  -9.44645913789678576267e-02
  -8.38334540056800553431e-02
  -6.78908180633552432726e-02
  -4.76383180435281244902e-02
  -2.43486239906126125665e-02
  +5.14959575121401620657e-04
  +2.53902655561732588929e-02
  +4.87141211927587455821e-02
  +6.90211245680088097965e-02
  +8.50352257687688323218e-02
  +9.57502575938532496380e-02
  +1.00492920389992315688e-01
  +9.89652301328832889604e-02
  +9.12631514840090002361e-02
  +7.78706549386852936445e-02
  +5.96292548134504107882e-02
  +3.76851096012134623159e-02
  +1.34170543141432473122e-02
  -1.16500515700203380320e-02
  -3.59412224605116445431e-02
  -5.79299275245923062094e-02
  -7.62348663283475558305e-02
  -8.97057089486311548532e-02
  -9.74958734990549191757e-02
  -9.91161332981174147960e-02
  -9.44645693108415313022e-02
  -8.38334601815823449167e-02
  -6.78908058972450961788e-02
  -4.76382904729187872661e-02
  -2.43484674149946518640e-02
  +5.15035710550846735287e-04
</dep>
<dep VOUT.Vt time>
  +5.00019883798599393265e-04
  +4.98801833210877898495e-02
  +9.65278030396785613476e-02
  +1.37142274351601534121e-01
  +1.69170743987018090682e-01
  +1.90601045059145907112e-01
  +2.00086574753703283491e-01
  +1.97031392557077827954e-01
  +1.81627398383211735577e-01
  +1.54842496985324123981e-01
  +1.18359687874850252887e-01
  +7.44713221598318347860e-02
  +2.59350679078364856900e-02
  -2.41993634005690412547e-02
  -7.27818411162568235095e-02
  -1.16759749585691144369e-01
  -1.53369795173552675438e-01
  -1.80311631329972271720e-01
  -1.95892408411470986263e-01
  -1.99133126563898948946e-01
  -1.89830213492334448633e-01
  -1.68568063488336972178e-01
  -1.36682830305139862981e-01
  -9.61777550134322728459e-02
  -4.95983107267705045085e-02
  +1.29302463252394943564e-04
  +4.98801168097988481542e-02
  +9.65281134284589059646e-02
  +1.37142233483630165969e-01
  +1.69170739790487412169e-01
  +1.90601128426485549872e-01
  +2.00086644967455401511e-01
  +1.97031393997777304339e-01
  +1.81627398762247732611e-01
  +1.54842497743671675403e-01
  +1.18359689320256075695e-01
  +7.44713241944271603368e-02
  +2.59350703011804913090e-02
  -2.41993609079969758391e-02
  -7.27818387717145548477e-02
  -1.16759747605291896999e-01
  -1.53369793731750858612e-01
  -1.80311633374068108759e-01
  -1.95892411712733888196e-01
  -1.99133136393246257256e-01
  -1.89830160018324922699e-01
  -1.68568118861704363542e-01
  -1.36682853820814909085e-01
  -9.61778922985827983139e-02
  -4.95983117622632654897e-02
  +1.29097223099027371470e-04
  +4.98799518986601311821e-02
  +9.65279789179491337636e-02
  +1.37142256875126877791e-01
  +1.69170864288506611617e-01
  +1.90600997851154752016e-01
  +2.00086600737517356086e-01
  +1.97031397890932602479e-01
  +1.81627454732410015259e-01
  +1.54842481171348911317e-01
  +1.18359813177633374504e-01
  +7.44713736388216973605e-02
  +2.59352116703273037623e-02
  -2.41993354431396801019e-02
  -7.27818438580350446365e-02
  -1.16759752830883120622e-01
  -1.53369798218779634924e-01
  -1.80311636992839890992e-01
  -1.95892414579737661473e-01
  -1.99133132383829791756e-01
  -1.89830210962532025532e-01
  -1.68568081751313519900e-01
  -1.36682841301496854625e-01
  -9.61778375390173884130e-02
  -4.95983296788816557799e-02
  +1.28985876464958552088e-04
  +4.98798449862348849959e-02
  +9.65278058495993851462e-02
  +1.37142131305752645876e-01
  +1.69170618006627221375e-01
  +1.90600997951251016627e-01
  +2.00086567223859701503e-01
  +1.97031405758848754406e-01
  +1.81627415691191507197e-01
  +1.54842513842923024114e-01
  +1.18359728897764721056e-01
  +7.44713741961600395047e-02
  +2.59351301337288203674e-02
  -2.41992821925856513299e-02
  -7.27818749727826702633e-02
  -1.16759567853356283074e-01
  -1.53369754144619868663e-01
  -1.80311744439225124514e-01
  -1.95892343318713857414e-01
  -1.99133121465009527151e-01
  -1.89830178600303350889e-01
  -1.68568084337354706648e-01
  -1.36682827162054709724e-01
  -9.61777711470773316593e-02
  -4.95980207093765362858e-02
  +1.29161061513073828618e-04
</dep>
<dep VIN.Vt time>
  +0.00000000000000000000e+00
  +2.48689887164854801782e-02
  +4.81753674101715323452e-02
  +6.84547105928688809362e-02
  +8.44327925502015158576e-02
  +9.51056516295153558938e-02
  +9.98026728428271642235e-02
  +9.82287250728688804413e-02
  +9.04827052466019576826e-02
  +7.70513242775789364281e-02
  +5.87785252292473275881e-02
  +3.68124552684678182923e-02
  +1.25333233564304102198e-02
  -1.25333233564304293017e-02
  -3.68124552684677905368e-02
  -5.87785252292473067715e-02
  -7.70513242775789364281e-02
  -9.04827052466019438048e-02
  -9.82287250728688804413e-02
  -9.98026728428271642235e-02
  -9.51056516295153697715e-02
  -8.44327925502015574910e-02
  -6.84547105928688948140e-02
  -4.81753674101715323452e-02
  -2.48689887164854489532e-02
  -2.44929359829470653761e-17
  +2.48689887164854905865e-02
  +4.81753674101714907119e-02
  +6.84547105928688670584e-02
  +8.44327925502014742243e-02
  +9.51056516295153558938e-02
  +9.98026728428271642235e-02
  +9.82287250728688665635e-02
  +9.04827052466019299271e-02
  +7.70513242775789780614e-02
  +5.87785252292473414659e-02
  +3.68124552684677974757e-02
  +1.25333233564303911378e-02
  -1.25333233564303182794e-02
  -3.68124552684678946202e-02
  -5.87785252292472859548e-02
  -7.70513242775789364281e-02
  -9.04827052466019021715e-02
  -9.82287250728688943191e-02
  -9.98026728428271642235e-02
  -9.51056516295153836493e-02
  -8.44327925502015158576e-02
  -6.84547105928688531806e-02
  -4.81753674101714768341e-02
  -2.48689887164853899726e-02
  -4.89858719658941307521e-17
  +2.48689887164854663004e-02
  +4.81753674101715462230e-02
  +6.84547105928689086918e-02
