<Qucs Dataset 0.0.19>
<indep time 101>
  +0.00000000000000000000e+00
  +4.00000000000000032721e-05
  +8.00000000000000065442e-05
  +1.20000000000000016593e-04
  +1.60000000000000013088e-04
  +2.00000000000000009584e-04
  +2.40000000000000033185e-04
  +2.80000000000000029681e-04
  +3.20000000000000026177e-04
  +3.60000000000000022673e-04
  +4.00000000000000019169e-04
  +4.40000000000000015665e-04
  +4.80000000000000066371e-04
  +5.20000000000000062866e-04
  +5.60000000000000059362e-04
  +6.00000000000000055858e-04
  +6.40000000000000052354e-04
  +6.80000000000000048850e-04
  +7.20000000000000045346e-04
  +7.60000000000000041842e-04
  +8.00000000000000038337e-04
  +8.40000000000000034833e-04
  +8.80000000000000031329e-04
  +9.20000000000000027825e-04
  +9.60000000000000132741e-04
  +1.00000000000000002082e-03
  +1.04000000000000012573e-03
  +1.08000000000000001381e-03
  +1.12000000000000011872e-03
  +1.16000000000000000680e-03
  +1.20000000000000011172e-03
  +1.23999999999999999979e-03
  +1.28000000000000010471e-03
  +1.32000000000000020962e-03
  +1.36000000000000009770e-03
  +1.40000000000000020262e-03
  +1.44000000000000009069e-03
  +1.48000000000000019561e-03
  +1.52000000000000008368e-03
  +1.56000000000000018860e-03
  +1.60000000000000007667e-03
  +1.64000000000000018159e-03
  +1.68000000000000006967e-03
  +1.72000000000000017458e-03
  +1.76000000000000006266e-03
  +1.80000000000000016757e-03
  +1.84000000000000005565e-03
  +1.88000000000000016057e-03
  +1.92000000000000026548e-03
  +1.96000000000000037040e-03
  +2.00000000000000004163e-03
  +2.04000000000000014655e-03
  +2.08000000000000025147e-03
  +2.12000000000000035638e-03
  +2.16000000000000002762e-03
  +2.20000000000000013253e-03
  +2.24000000000000023745e-03
  +2.28000000000000034237e-03
  +2.32000000000000001360e-03
  +2.36000000000000011852e-03
  +2.40000000000000022343e-03
  +2.44000000000000032835e-03
  +2.47999999999999999958e-03
  +2.52000000000000010450e-03
  +2.56000000000000020942e-03
  +2.60000000000000031433e-03
  +2.64000000000000041925e-03
  +2.68000000000000009048e-03
  +2.72000000000000019540e-03
  +2.76000000000000030032e-03
  +2.80000000000000040523e-03
  +2.84000000000000007647e-03
  +2.88000000000000018138e-03
  +2.92000000000000028630e-03
  +2.96000000000000039121e-03
  +3.00000000000000006245e-03
  +3.04000000000000016737e-03
  +3.08000000000000027228e-03
  +3.12000000000000037720e-03
  +3.16000000000000004843e-03
  +3.20000000000000015335e-03
  +3.24000000000000025827e-03
  +3.28000000000000036318e-03
  +3.32000000000000046810e-03
  +3.36000000000000013933e-03
  +3.40000000000000024425e-03
  +3.44000000000000034917e-03
  +3.48000000000000045408e-03
  +3.52000000000000012532e-03
  +3.56000000000000023023e-03
  +3.60000000000000033515e-03
  +3.64000000000000044006e-03
  +3.68000000000000011130e-03
  +3.72000000000000021622e-03
  +3.76000000000000032113e-03
  +3.80000000000000042605e-03
  +3.84000000000000053096e-03
  +3.88000000000000020220e-03
  +3.92000000000000074080e-03
  +3.95999999999999997835e-03
  +4.00000000000000008327e-03
</indep>
<dep V1.It time>
  -7.99987121993959075113e-16
  -2.64038754238510939488e-12
  -2.38197637896083747734e-12
  -1.97797151091817496863e-12
  -1.45328839807758302698e-12
  -8.40369798802230829050e-13
  -1.74752622212842076218e-13
  +4.99768027555998665708e-13
  +1.14432384021134609082e-12
  +1.71952995303979486142e-12
  +2.18974224708028023930e-12
  +2.52779459820293265648e-12
  +2.70634057527711548770e-12
  +2.71769674286408346505e-12
  +2.55635092125717437220e-12
  +2.23253190184931358548e-12
  +1.76512611595803274103e-12
  +1.18292339761245293691e-12
  +5.24303070743688798760e-13
  -1.69539178018150098198e-13
  -8.51285435626953599457e-13
  -1.47869058943297787874e-12
  -2.00881952141237232634e-12
  -2.41058610877264005645e-12
  -2.65675831670150712464e-12
  -2.73574670091533799598e-12
  -2.64168897662862657733e-12
  -2.38464282653591186950e-12
  -1.97947577877707666429e-12
  -1.45451230932400909065e-12
  -8.40078197909937302661e-13
  -1.75951771634916214663e-13
  +4.99805225820124877033e-13
  +1.14429997784326661378e-12
  +1.72034330065782689814e-12
  +2.19059830239372478546e-12
  +2.52725891606297553140e-12
  +2.70662380777658404317e-12
  +2.71761098391472450819e-12
  +2.55628366684881582090e-12
  +2.23271626480484513885e-12
  +1.76485357722401012104e-12
  +1.18326086937370412318e-12
  +5.23919260287483239303e-13
  -1.69123824484241707265e-13
  -8.51720639086214542319e-13
  -1.47824469962377121341e-12
  -2.00926899055490947177e-12
  -2.41013850213198493349e-12
  -2.65719996024050284788e-12
  -2.73531404756408062602e-12
  -2.64211046572152012686e-12
  -2.38423400344393226680e-12
  -1.97987095935567108784e-12
  -1.45413134138476201112e-12
  -8.40444694226781053427e-13
  -1.75599770393520531210e-13
  +4.99467567072655635630e-13
  +1.14462357637075688697e-12
  +1.72003338611926655636e-12
  +2.19089497585374673346e-12
  +2.52697499471874758657e-12
  +2.70689549657630341744e-12
  +2.71735098900827104418e-12
  +2.55653251699430132699e-12
  +2.23247800630130625645e-12
  +1.76508179618028856064e-12
  +1.18304214295115093052e-12
  +5.24129032691218385067e-13
  -1.69325169878076480870e-13
  -8.51527207939761072155e-13
  -1.47843071254507710194e-12
  -2.00908991879685811396e-12
  -2.41031108890379484596e-12
  -2.65703342467025906644e-12
  -2.73547494222257675035e-12
  -2.64195482581820726257e-12
  -2.38438475044719926411e-12
  -1.97972476745826871316e-12
  -1.45427329254024684470e-12
  -8.40306691937662818623e-13
  -1.75734094393140186116e-13
  +4.99598463419587685838e-13
  +1.14449587549942429193e-12
  +1.72015810675100581881e-12
  +2.19077303564039428314e-12
  +2.52709434039198373682e-12
  +2.70677857209429211054e-12
  +2.71746565441072901958e-12
  +2.55641995863870929329e-12
  +2.23258860057601929735e-12
  +1.76497303123003642599e-12
  +1.18314920581785670348e-12
  +5.24023551643690930638e-13
  -1.69221156960385396912e-13
  -8.51629860129683862987e-13
  -1.47832931976839103783e-12
  -2.00919014752729373783e-12
  -2.41021193469629877244e-12
  -2.65713158815280233208e-12
  -2.73537769125833578642e-12
</dep>
<dep V2.It time>
  -7.99988039426923482352e-16
  +2.65607522477458500088e-12
  +2.41109346361130135847e-12
  +2.01288254716152938434e-12
  +1.48503839663936892353e-12
  +8.60459648484711091064e-13
  +1.77895343948508672754e-13
  -5.14764205734903489505e-13
  -1.17413614067014150061e-12
  -1.75714194645003549181e-12
  -2.22619695155909227522e-12
  -2.55459222905771348706e-12
  -2.71683269952386000608e-12
  -2.70996425259557636509e-12
  -2.53228716444418653534e-12
  -2.19876916691467489623e-12
  -1.73000019279418715805e-12
  -1.15583913668439906517e-12
  -5.11962407892059182600e-13
  +1.63325456441109088598e-13
  +8.28032077744386800650e-13
  +1.44335668505760901594e-12
  +1.97009734263684808306e-12
  +2.37722729977719277863e-12
  +2.63693948491195015375e-12
  +2.73352414048788402533e-12
  +2.65753068341413316466e-12
  +2.41378786583029451179e-12
  +2.01464372304481131698e-12
  +1.48617456187693238912e-12
  +8.60351366468220106198e-13
  +1.79015681344673769088e-13
  -5.14723317645152717379e-13
  -1.17427810514602411333e-12
  -1.75794094364977909099e-12
  -2.22725504762665677238e-12
  -2.55385868684911814690e-12
  -2.71731209415466707236e-12
  -2.70968233432306539246e-12
  -2.53241708850158300367e-12
  -2.19875484256365807601e-12
  -1.72992795306440499191e-12
  -1.15597484708027008113e-12
  -5.11781534167871474016e-13
  +1.63113880227257833302e-13
  +8.28262981579365458773e-13
  +1.44311535585538977226e-12
  +1.97034217454035607664e-12
  +2.37698430351278028744e-12
  +2.63717657531220890092e-12
  +2.73329601077784287827e-12
  +2.65774761104858872421e-12
  +2.41358372984146836508e-12
  +2.01483399988738963409e-12
  +1.48599879428917781016e-12
  +8.60512307075661207572e-13
  +1.78869622640449894536e-13
  -5.14591990360697184244e-13
  -1.17439500923813146771e-12
  -1.75783803648734775103e-12
  -2.22734446906633764927e-12
  -2.55378218239704656548e-12
  -2.71737628543134544230e-12
  -2.70962983545727257367e-12
  -2.53245851841023197719e-12
  -2.19872386641227182941e-12
  -1.72994907436673809497e-12
  -1.15596300362335437819e-12
  -5.11784651285865918686e-13
  +1.63108795034639672265e-13
  +8.28275773227577286677e-13
  +1.44309532568750109653e-12
  +1.97036900226283904247e-12
  +2.37695109365356026220e-12
  +2.63721577573704653150e-12
  +2.73325118933019705345e-12
  +2.65779770420020800422e-12
  +2.41352869578561915899e-12
  +2.01489366104986938961e-12
  +1.48593480407032966734e-12
  +8.60580343030412291345e-13
  +1.78797810267755378946e-13
  -5.14516657381663656551e-13
  -1.17447362021726493766e-12
  -1.75775637706597637715e-12
  -2.22742896032735533080e-12
  -2.55369506300602924510e-12
  -2.71746584200936839638e-12
  -2.70953802004994992733e-12
  -2.53255242655936342351e-12
  -2.19862801973085501868e-12
  -1.73004671673107892134e-12
  -1.15586369766023118363e-12
  -5.11885498851752726628e-13
  +1.63211071584281387012e-13
  +8.28172171680890675176e-13
  +1.44320015613031189204e-12
  +1.97026303185948313474e-12
  +2.37705812153156797591e-12
  +2.63710776707303144308e-12
  +2.73336010728683761491e-12
</dep>
<dep V3.It time>
  +7.00008575325368832296e-08
  -2.40712415564467112006e-06
  -4.73868010523115887372e-06
  -6.76808481565252889964e-06
  -8.36782268534771695270e-06
  -9.43738769933987282554e-06
  -9.90956913437097672347e-06
  -9.75469499797547567464e-06
  -8.98249980155562777022e-06
  -7.64150278183328078270e-06
  -5.81596292645154762006e-06
  -3.62059595998685814251e-06
  -1.19332098393391593573e-06
  +1.31332215428362187721e-06
  +3.74185122011967960518e-06
  +5.93965815549800455196e-06
  +7.76865750831023965011e-06
  +9.11391873675418065373e-06
  +9.89091947080811955144e-06
  +1.00508345070122399444e-05
  +9.58361763561438152552e-06
  +8.51862519555848109025e-06
  +6.92277423214912156907e-06
  +4.89633902657667690114e-06
  +2.56664628109690118421e-06
  +8.00812740108666011089e-08
  -2.40711841558674034971e-06
  -4.73867019694888350767e-06
  -6.76807695498556485608e-06
  -8.36782062604357880996e-06
  -9.43738647624379230064e-06
  -9.90956666891140126820e-06
  -9.75469547596876657830e-06
  -8.98250094564249768991e-06
  -7.64150595114811780170e-06
  -5.81596712823414454006e-06
  -3.62059275853753038661e-06
  -1.19332337842737446305e-06
  +1.31332389916165874503e-06
  +3.74184999691697838453e-06
  +5.93965896098459730123e-06
  +7.76865703613608542288e-06
  +9.11391894407719879549e-06
  +9.89091947286750228577e-06
  +1.00508343404545272270e-05
  +9.58361793040566912463e-06
  +8.51862480178290972248e-06
  +6.92277470136648537128e-06
  +4.89633850082071429079e-06
  +2.56664684825681427348e-06
  +8.00806775229658779123e-08
  -2.40711779936686742030e-06
  -4.73867082531312392910e-06
  -6.76807632044025227392e-06
  -8.36782126211830678717e-06
  -9.43738584223418824708e-06
  -9.90956729811153022439e-06
  -9.75469485364045837505e-06
  -8.98250155958206602223e-06
  -7.64150534667961787592e-06
  -5.81596772249409665938e-06
  -3.62059217495149783343e-06
  -1.19332395108752691201e-06
  +1.31332446080986851893e-06
  +3.74184944623890936271e-06
  +5.93965950083140784585e-06
  +7.76865650690910207335e-06
  +9.11391946294872155605e-06
  +9.89091896404981168165e-06
  +1.00508348395449558394e-05
  +9.58361744070072640389e-06
  +8.51862528245174053729e-06
  +6.92277422938274076246e-06
  +4.89633896446762859582e-06
  +2.56664639260478857715e-06
  +8.00811255133419529658e-08
  -2.40711824001818780141e-06
  -4.73867039169004799289e-06
  -6.76807674733316694135e-06
  -8.36782084167060472880e-06
  -9.43738625650827711686e-06
  -9.90956688975276370440e-06
  -9.75469525632901693954e-06
  -8.98250116233146744945e-06
  -7.64150573871197680352e-06
  -5.81596733547231877962e-06
  -3.62059255715878406320e-06
  -1.19332357350968146777e-06
  +1.31332408768705427067e-06
  +3.74184981507111675666e-06
  +5.93965913613489345050e-06
  +7.76865686761582277769e-06
  +9.11391910609438462285e-06
  +9.89091931718115082047e-06
  +1.00508344900147755818e-05
  +9.58361778674448347524e-06
  +8.51862493978633541255e-06
  +6.92277456877154292634e-06
  +4.89633862825949190008e-06
  +2.56664672572260857406e-06
  +8.00807954006960279943e-08
</dep>
<dep _net0.Vt time>
  +7.00008575325368844790e-04
  +7.97747160038771532288e-04
  +7.88566357859938824038e-04
  +7.73862436343600952268e-04
  +7.54565696724341533098e-04
  +7.31774636116614709234e-04
  +7.06981499117410243198e-04
  +6.81775093114138494230e-04
  +6.57707231045672824701e-04
  +6.36296459246131311527e-04
  +6.18895964731859776591e-04
  +6.06495668599238988219e-04
  +6.00113517091253705071e-04
  +5.99898186405786607370e-04
  +6.06056932729006877028e-04
  +6.18056325732732744424e-04
  +6.35250805523452808862e-04
  +6.56482120939873791364e-04
  +6.80469635212304908671e-04
  +7.05672227295228824025e-04
  +7.30524726628438273758e-04
  +7.53459405383239072887e-04
  +7.73031728622324237725e-04
  +7.88022855595240040785e-04
  +7.97474094483561547243e-04
  +8.00812740108641503249e-04
  +7.97804560618089325663e-04
  +7.88665440682662479202e-04
  +7.73941043013211369024e-04
  +7.54586289765702333474e-04
  +7.31786867077427764447e-04
  +7.07006153713162573300e-04
  +6.81770313181206065976e-04
  +6.57695790176955792650e-04
  +6.36264766097808989048e-04
  +6.18853946905898355708e-04
  +6.06527683092497648179e-04
  +6.00089572156648170913e-04
  +5.99915635186267209161e-04
  +6.06044700701885647245e-04
  +6.18064380598682761372e-04
  +6.35246083781916635186e-04
  +6.56484194170080118461e-04
  +6.80469655806130273301e-04
  +7.05670561718108805931e-04
  +7.30527674541308139067e-04
  +7.53455467627580201609e-04
  +7.73036420796002158445e-04
  +7.88017598035661045834e-04
  +7.97479766082754442692e-04
  +8.00806775229609825277e-04
  +7.97810722816793757572e-04
  +7.88659157040316445911e-04
  +7.73947388466389571068e-04
  +7.54579929018413969079e-04
  +7.31793207173465454045e-04
  +7.06999861711862386156e-04
  +6.81776536464280156699e-04
  +6.57689650781369695293e-04
  +6.36270810782812068669e-04
  +6.18848004306405026498e-04
  +6.06533518952843617167e-04
  +6.00083845555323845342e-04
  +5.99921251668391101140e-04
  +6.06039193921221151784e-04
  +6.18069779066814485938e-04
  +6.35240791511993991431e-04
  +6.56489382885255086039e-04
  +6.80464567629276897293e-04
  +7.05675552622390023401e-04
  +7.30522777491874643341e-04
  +7.53460274315769710889e-04
  +7.73031700958543466391e-04
  +7.88022234504624145661e-04
  +7.97475209562473565973e-04
  +8.00811255133346104607e-04
  +7.97806316303393712672e-04
  +7.88663493271047700076e-04
  +7.73943119537352590930e-04
  +7.54584133495312986591e-04
  +7.31789064432578138623e-04
  +7.07003945299518776930e-04
  +6.81772509578717415650e-04
  +6.57693623287207863176e-04
  +6.36266890459352653028e-04
  +6.18851874524195154012e-04
  +6.06529696879842643298e-04
  +6.00087621333625625270e-04
  +5.99917520440274693559e-04
  +6.06042882243316917597e-04
  +6.18066132101683122710e-04
  +6.35244398579200872205e-04
  +6.56485814341899848699e-04
  +6.80468098942667255422e-04
  +7.05672057320579017466e-04
  +7.30526237929436791582e-04
  +7.53456847661896841895e-04
  +7.73035094846543638022e-04
  +7.88018872423553893777e-04
  +7.97478540740300312004e-04
  +8.00807954006862174681e-04
</dep>
<dep VIN.Vt time>
  +0.00000000000000000000e+00
  +2.48689887164854801782e-02
  +4.81753674101715323452e-02
  +6.84547105928688809362e-02
  +8.44327925502015158576e-02
  +9.51056516295153558938e-02
  +9.98026728428271642235e-02
  +9.82287250728688804413e-02
  +9.04827052466019576826e-02
  +7.70513242775789364281e-02
  +5.87785252292473275881e-02
  +3.68124552684678182923e-02
  +1.25333233564304102198e-02
  -1.25333233564304293017e-02
  -3.68124552684677905368e-02
  -5.87785252292473067715e-02
  -7.70513242775789364281e-02
  -9.04827052466019438048e-02
  -9.82287250728688804413e-02
  -9.98026728428271642235e-02
  -9.51056516295153697715e-02
  -8.44327925502015574910e-02
  -6.84547105928688948140e-02
  -4.81753674101715323452e-02
  -2.48689887164854489532e-02
  -2.44929359829470653761e-17
  +2.48689887164854905865e-02
  +4.81753674101714907119e-02
  +6.84547105928688670584e-02
  +8.44327925502014742243e-02
  +9.51056516295153558938e-02
  +9.98026728428271642235e-02
  +9.82287250728688665635e-02
  +9.04827052466019299271e-02
  +7.70513242775789780614e-02
  +5.87785252292473414659e-02
  +3.68124552684677974757e-02
  +1.25333233564303911378e-02
  -1.25333233564303182794e-02
  -3.68124552684678946202e-02
  -5.87785252292472859548e-02
  -7.70513242775789364281e-02
  -9.04827052466019021715e-02
  -9.82287250728688943191e-02
  -9.98026728428271642235e-02
  -9.51056516295153836493e-02
  -8.44327925502015158576e-02
  -6.84547105928688531806e-02
  -4.81753674101714768341e-02
  -2.48689887164853899726e-02
  -4.89858719658941307521e-17
  +2.48689887164854663004e-02
  +4.81753674101715462230e-02
  +6.84547105928689086918e-02
  +8.44327925502014742243e-02
  +9.51056516295153420160e-02
  +9.98026728428271642235e-02
  +9.82287250728688665635e-02
  +9.04827052466020131938e-02
  +7.70513242775789919392e-02
  +5.87785252292473622826e-02
  +3.68124552684678182923e-02
  +1.25333233564305906310e-02
  -1.25333233564302939933e-02
  -3.68124552684678738035e-02
  -5.87785252292472581992e-02
  -7.70513242775790196948e-02
  -9.04827052466019576826e-02
  -9.82287250728688388079e-02
  -9.98026728428271642235e-02
  -9.51056516295153836493e-02
  -8.44327925502016268799e-02
  -6.84547105928688670584e-02
  -4.81753674101716572453e-02
  -2.48689887164854107893e-02
  -7.34788079488411899652e-17
  +2.48689887164852685419e-02
  +4.81753674101715254063e-02
  +6.84547105928690197141e-02
  +8.44327925502013632020e-02
  +9.51056516295153420160e-02
  +9.98026728428271503457e-02
  +9.82287250728688804413e-02
  +9.04827052466018744159e-02
  +7.70513242775791168393e-02
  +5.87785252292473830993e-02
  +3.68124552684676795145e-02
  +1.25333233564304397101e-02
  -1.25333233564302679725e-02
  -3.68124552684678460479e-02
  -5.87785252292472512603e-02
  -7.70513242775790058170e-02
  -9.04827052466019576826e-02
  -9.82287250728688388079e-02
  -9.98026728428271642235e-02
  -9.51056516295153975271e-02
  -8.44327925502014464687e-02
  -6.84547105928688809362e-02
  -4.81753674101713658118e-02
  -2.48689887164857820201e-02
  -9.79717439317882615043e-17
</dep>
<dep VOUT.Vt time>
  +5.00019883798599393265e-04
  -2.41730047774542759764e-02
  -4.74977943527234783283e-02
  -6.78066224132628236898e-02
  -8.38233882258168083723e-02
  -9.45419536441856472875e-02
  -9.92886765873866039556e-02
  -9.77652683437849057135e-02
  -9.00675042385820495694e-02
  -7.66790508196740078217e-02
  -5.84411382844996288299e-02
  -3.64999364136890103172e-02
  -1.22335902970601931999e-02
  +1.28326179042450843476e-02
  +3.71241098147715997690e-02
  +5.91142306336311235127e-02
  +7.74215165354796147623e-02
  +9.08954571575151526464e-02
  +9.86895833090868784820e-02
  +1.00314051893502065305e-01
  +9.56668703171798529006e-02
  +8.50399837511421619052e-02
  +6.91011536292313738317e-02
  +4.88518553203533129059e-02
  +2.55644348827603375141e-02
  +7.02127489469456266859e-04
  -2.41728844586351840351e-02
  -4.74975994963432110452e-02
  -6.78064567591031147620e-02
  -8.38233566123356976796e-02
  -9.45419195777036786010e-02
  -9.92886365642731416603e-02
  -9.77652768212902006928e-02
  -9.00675355524193504975e-02
  -7.66791130793564729151e-02
  -5.84412307045296258723e-02
  -3.64998635856732950300e-02
  -1.22336472967253858529e-02
  +1.28326621387222020165e-02
  +3.71240758538702794733e-02
  +5.91142563463251738409e-02
  +7.74214974258766314152e-02
  +9.08954709991044718098e-02
  +9.86895736531476081010e-02
  +1.00314058240238021535e-01
  +9.56668665709189819379e-02
  +8.50399854691124973405e-02
  +6.91011534784718856050e-02
  +4.88518542746307835034e-02
  +2.55644368276575287280e-02
  +7.02124883087973123558e-04
  -2.41728813800979221160e-02
  -4.74976028968971883404e-02
  -6.78064531549549126543e-02
