<Qucs Dataset 0.0.22>
<indep time 117>
0.000000000000e+00
3.960400000000e-07
4.078047995834e-07
4.313343987503e-07
4.783935970841e-07
5.725119937516e-07
7.469082255812e-07
1.028027698645e-06
1.333723390873e-06
1.620203264333e-06
2.031736425591e-06
2.775805416917e-06
4.263943399568e-06
7.240219364871e-06
1.319277129548e-05
2.509787515669e-05
4.890808287911e-05
8.851208287911e-05
1.281160828791e-04
1.677200828791e-04
2.073240828791e-04
2.469280828791e-04
2.865320828791e-04
3.261360828791e-04
3.657400828791e-04
4.053440828791e-04
4.449480828791e-04
4.845520828791e-04
5.241560828791e-04
5.637600828791e-04
6.033640828791e-04
6.429680828791e-04
6.825720828791e-04
7.221760828791e-04
7.617800828791e-04
8.013840828791e-04
8.409880828791e-04
8.805920828791e-04
9.201960828791e-04
9.598000828791e-04
9.994040828791e-04
1.039008082879e-03
1.078612082879e-03
1.118216082879e-03
1.157820082879e-03
1.197424082879e-03
1.237028082879e-03
1.276632082879e-03
1.316236082879e-03
1.355840082879e-03
1.395444082879e-03
1.435048082879e-03
1.474652082879e-03
1.514256082879e-03
1.553860082879e-03
1.593464082879e-03
1.633068082879e-03
1.672672082879e-03
1.712276082879e-03
1.751880082879e-03
1.791484082879e-03
1.831088082879e-03
1.870692082879e-03
1.910296082879e-03
1.949900082879e-03
1.989504082879e-03
2.029108082879e-03
2.068712082879e-03
2.108316082879e-03
2.147920082879e-03
2.187524082879e-03
2.227128082879e-03
2.266732082879e-03
2.306336082879e-03
2.345940082879e-03
2.385544082879e-03
2.425148082879e-03
2.464752082879e-03
2.504356082879e-03
2.543960082879e-03
2.583564082879e-03
2.623168082879e-03
2.662772082879e-03
2.702376082879e-03
2.741980082879e-03
2.781584082879e-03
2.821188082879e-03
2.860792082879e-03
2.900396082879e-03
2.940000082879e-03
2.979604082879e-03
3.019208082879e-03
3.058812082879e-03
3.098416082879e-03
3.138020082879e-03
3.177624082879e-03
3.217228082879e-03
3.256832082879e-03
3.296436082879e-03
3.336040082879e-03
3.375644082879e-03
3.415248082879e-03
3.454852082879e-03
3.494456082879e-03
3.534060082879e-03
3.573664082879e-03
3.613268082879e-03
3.652872082879e-03
3.692476082879e-03
3.732080082879e-03
3.771684082879e-03
3.811288082879e-03
3.850892082879e-03
3.890496082879e-03
3.930100082879e-03
3.969704082879e-03
4.000000000000e-03
</indep>
<dep tran.v(vcc) time>
5.000000000000e+00
5.000000000000e+00
5.000000000000e+00
5.000000000000e+00
5.000000000000e+00
5.000000000000e+00
5.000000000000e+00
5.000000000000e+00
5.000000000000e+00
5.000000000000e+00
5.000000000000e+00
5.000000000000e+00
5.000000000000e+00
5.000000000000e+00
5.000000000000e+00
5.000000000000e+00
5.000000000000e+00
5.000000000000e+00
5.000000000000e+00
5.000000000000e+00
5.000000000000e+00
5.000000000000e+00
5.000000000000e+00
5.000000000000e+00
5.000000000000e+00
5.000000000000e+00
5.000000000000e+00
5.000000000000e+00
5.000000000000e+00
5.000000000000e+00
5.000000000000e+00
5.000000000000e+00
5.000000000000e+00
5.000000000000e+00
5.000000000000e+00
5.000000000000e+00
5.000000000000e+00
5.000000000000e+00
5.000000000000e+00
5.000000000000e+00
5.000000000000e+00
5.000000000000e+00
5.000000000000e+00
5.000000000000e+00
5.000000000000e+00
5.000000000000e+00
5.000000000000e+00
5.000000000000e+00
5.000000000000e+00
5.000000000000e+00
5.000000000000e+00
5.000000000000e+00
5.000000000000e+00
5.000000000000e+00
5.000000000000e+00
5.000000000000e+00
5.000000000000e+00
5.000000000000e+00
5.000000000000e+00
5.000000000000e+00
5.000000000000e+00
5.000000000000e+00
5.000000000000e+00
5.000000000000e+00
5.000000000000e+00
5.000000000000e+00
5.000000000000e+00
5.000000000000e+00
5.000000000000e+00
5.000000000000e+00
5.000000000000e+00
5.000000000000e+00
5.000000000000e+00
5.000000000000e+00
5.000000000000e+00
5.000000000000e+00
5.000000000000e+00
5.000000000000e+00
5.000000000000e+00
5.000000000000e+00
5.000000000000e+00
5.000000000000e+00
5.000000000000e+00
5.000000000000e+00
5.000000000000e+00
5.000000000000e+00
5.000000000000e+00
5.000000000000e+00
5.000000000000e+00
5.000000000000e+00
5.000000000000e+00
5.000000000000e+00
5.000000000000e+00
5.000000000000e+00
5.000000000000e+00
5.000000000000e+00
5.000000000000e+00
5.000000000000e+00
5.000000000000e+00
5.000000000000e+00
5.000000000000e+00
5.000000000000e+00
5.000000000000e+00
5.000000000000e+00
5.000000000000e+00
5.000000000000e+00
5.000000000000e+00
5.000000000000e+00
5.000000000000e+00
5.000000000000e+00
5.000000000000e+00
5.000000000000e+00
5.000000000000e+00
5.000000000000e+00
5.000000000000e+00
5.000000000000e+00
5.000000000000e+00
</dep>
<dep tran.v(vee) time>
-5.000000000000e+00
-5.000000000000e+00
-5.000000000000e+00
-5.000000000000e+00
-5.000000000000e+00
-5.000000000000e+00
-5.000000000000e+00
-5.000000000000e+00
-5.000000000000e+00
-5.000000000000e+00
-5.000000000000e+00
-5.000000000000e+00
-5.000000000000e+00
-5.000000000000e+00
-5.000000000000e+00
-5.000000000000e+00
-5.000000000000e+00
-5.000000000000e+00
-5.000000000000e+00
-5.000000000000e+00
-5.000000000000e+00
-5.000000000000e+00
-5.000000000000e+00
-5.000000000000e+00
-5.000000000000e+00
-5.000000000000e+00
-5.000000000000e+00
-5.000000000000e+00
-5.000000000000e+00
-5.000000000000e+00
-5.000000000000e+00
-5.000000000000e+00
-5.000000000000e+00
-5.000000000000e+00
-5.000000000000e+00
-5.000000000000e+00
-5.000000000000e+00
-5.000000000000e+00
-5.000000000000e+00
-5.000000000000e+00
-5.000000000000e+00
-5.000000000000e+00
-5.000000000000e+00
-5.000000000000e+00
-5.000000000000e+00
-5.000000000000e+00
-5.000000000000e+00
-5.000000000000e+00
-5.000000000000e+00
-5.000000000000e+00
-5.000000000000e+00
-5.000000000000e+00
-5.000000000000e+00
-5.000000000000e+00
-5.000000000000e+00
-5.000000000000e+00
-5.000000000000e+00
-5.000000000000e+00
-5.000000000000e+00
-5.000000000000e+00
-5.000000000000e+00
-5.000000000000e+00
-5.000000000000e+00
-5.000000000000e+00
-5.000000000000e+00
-5.000000000000e+00
-5.000000000000e+00
-5.000000000000e+00
-5.000000000000e+00
-5.000000000000e+00
-5.000000000000e+00
-5.000000000000e+00
-5.000000000000e+00
-5.000000000000e+00
-5.000000000000e+00
-5.000000000000e+00
-5.000000000000e+00
-5.000000000000e+00
-5.000000000000e+00
-5.000000000000e+00
-5.000000000000e+00
-5.000000000000e+00
-5.000000000000e+00
-5.000000000000e+00
-5.000000000000e+00
-5.000000000000e+00
-5.000000000000e+00
-5.000000000000e+00
-5.000000000000e+00
-5.000000000000e+00
-5.000000000000e+00
-5.000000000000e+00
-5.000000000000e+00
-5.000000000000e+00
-5.000000000000e+00
-5.000000000000e+00
-5.000000000000e+00
-5.000000000000e+00
-5.000000000000e+00
-5.000000000000e+00
-5.000000000000e+00
-5.000000000000e+00
-5.000000000000e+00
-5.000000000000e+00
-5.000000000000e+00
-5.000000000000e+00
-5.000000000000e+00
-5.000000000000e+00
-5.000000000000e+00
-5.000000000000e+00
-5.000000000000e+00
-5.000000000000e+00
-5.000000000000e+00
-5.000000000000e+00
-5.000000000000e+00
-5.000000000000e+00
-5.000000000000e+00
</dep>
<dep tran.v(vin) time>
0.000000000000e+00
2.488390140994e-04
2.562310321152e-04
2.710150639060e-04
3.005831093938e-04
3.597191189466e-04
4.692945562579e-04
6.459243615416e-04
8.379933132546e-04
1.017986151444e-03
1.276542973093e-03
1.744001561463e-03
2.678794167358e-03
4.547595081392e-03
8.279773090848e-03
1.570418318943e-02
3.024848427714e-02
5.279099914709e-02
7.208147633262e-02
8.693158146286e-02
9.642651651768e-02
9.998137332886e-02
9.737716516571e-02
8.877431678287e-02
7.470278191461e-02
5.602939699912e-02
3.390448221262e-02
9.690979302990e-03
-1.511950851697e-02
-3.899860249591e-02
-6.047529972150e-02
-7.822659002453e-02
-9.115895621561e-02
-9.847573706683e-02
-9.972620333570e-02
-9.483332364384e-02
-8.409850977358e-02
-6.818304906188e-02
-4.806736769569e-02
-2.499063437627e-02
-3.744248949497e-04
2.426484995524e-02
4.740935850555e-02
6.763334986647e-02
8.369098321099e-02
9.459307421598e-02
9.966803091765e-02
9.860322520312e-02
9.146425136623e-02
7.869088535972e-02
6.106999366235e-02
3.968706063244e-02
1.585932036558e-02
-8.945387723676e-03
-3.319904092764e-02
-5.540756269011e-02
-7.420286089588e-02
-8.842710525109e-02
-9.720405208879e-02
-9.999302284004e-02
-9.662221098233e-02
-8.729926568628e-02
-7.259850018561e-02
-5.342551286207e-02
-3.096140046145e-02
-6.590000025173e-03
1.818735841092e-02
4.184433693589e-02
6.292361542120e-02
8.012666553620e-02
9.239374285166e-02
9.896916934758e-02
9.944788478452e-02
9.380039927469e-02
8.237460992170e-02
6.587436961999e-02
4.531612822144e-02
2.196631706537e-02
-2.736665882086e-03
-2.727106439807e-02
-5.012550741879e-02
-6.989211270751e-02
-8.535321539083e-02
-9.555637870147e-02
-9.987306610628e-02
-9.803736049173e-02
-9.016234522303e-02
-7.673313796860e-02
-5.857700642120e-02
-3.681240685083e-02
-1.278008482271e-02
1.203951757755e-02
3.611746012107e-02
5.797049040157e-02
7.625241533425e-02
8.983702950937e-02
9.788749183775e-02
9.990787673940e-02
9.577372421277e-02
8.573970683511e-02
7.042394139084e-02
5.076991156459e-02
2.798834734212e-02
3.482641471421e-03
-2.123760251164e-02
-4.464956506774e-02
-6.531101957247e-02
-8.194917653995e-02
-9.353909015871e-02
-9.936679713093e-02
-9.907329832807e-02
-9.267667389985e-02
-8.057096949854e-02
-6.350192222981e-02
-4.252102166296e-02
-1.892073583986e-02
-9.797174393179e-17
</dep>
<dep tran.v(vout) time>
3.018680120275e-03
2.894655969640e-03
2.890857143705e-03
2.883025787064e-03
2.865945928951e-03
2.826451785872e-03
2.738866658775e-03
2.575988493673e-03
2.387133387368e-03
2.207693529466e-03
1.949279137664e-03
1.481818729582e-03
5.469957967677e-04
-1.321911703323e-03
-5.054508614450e-03
-1.248056280331e-02
-2.703135813033e-02
-4.959433322068e-02
-6.891790230292e-02
-8.380839892000e-02
-9.335174714040e-02
-9.695692682193e-02
-9.440490275287e-02
-8.584991147750e-02
-7.182185778657e-02
-5.318207399119e-02
-3.108156365908e-02
-6.879080947393e-03
1.793183486868e-02
4.182532704527e-02
6.332702215290e-02
8.111478893201e-02
9.409050565033e-02
1.014571368536e-01
1.027586458596e-01
9.791703639322e-02
8.722844009606e-02
7.135336427353e-02
5.126773413711e-02
2.821082681108e-02
3.601087601189e-03
-2.104361314546e-02
-4.420691857117e-02
-6.446015809883e-02
-8.055740307700e-02
-9.150536001508e-02
-9.663123569211e-02
-9.561768522075e-02
-8.852868393121e-02
-7.579943331184e-02
-5.821553804774e-02
-3.685878680680e-02
-1.304617787952e-02
1.175672170818e-02
3.602069767910e-02
5.825230430768e-02
7.708079488163e-02
9.134749163915e-02
1.001723713365e-01
1.030129345454e-01
9.969309726813e-02
9.041843775545e-02
7.575925659205e-02
5.661959907700e-02
3.417752840581e-02
9.816474953532e-03
-1.496379313026e-02
-3.863586127562e-02
-5.974235051786e-02
-7.698221015853e-02
-8.929424850975e-02
-9.591922153566e-02
-9.644978978400e-02
-9.085252021906e-02
-7.947294380332e-02
-6.301136186580e-02
-4.248252584253e-02
-1.915039273653e-02
5.547087030439e-03
3.008911838046e-02
5.296325726194e-02
7.276099118614e-02
8.826217209969e-02
9.851244113735e-02
1.028798306651e-01
1.010958129989e-01
9.326979237188e-02
7.988434788822e-02
6.176358789407e-02
4.002423718002e-02
1.600505256910e-02
-8.813915449019e-03
-3.290416948387e-02
-5.478130860330e-02
-7.309803015320e-02
-8.672562190047e-02
-9.482494505127e-02
-9.689672709374e-02
-9.281366737377e-02
-8.282697848299e-02
-6.755216320745e-02
-4.792989238578e-02
-2.516921801871e-02
-6.719773280004e-04
2.405249021227e-02
4.748135215922e-02
6.817110290494e-02
8.484743708685e-02
9.648283844026e-02
1.023607507311e-01
1.021188823088e-01
9.577232481504e-02
8.371185707513e-02
6.668060429724e-02
4.572756076890e-02
2.214363682555e-02
3.226011577657e-03
</dep>
