<Qucs Dataset 0.0.21>
<indep time 117>
0.000000000000e+00
3.960400000000e-07
4.112908001118e-07
4.417924003355e-07
5.027956007828e-07
6.248020016773e-07
8.688148034665e-07
1.167152867854e-06
1.481952077309e-06
1.815897733119e-06
2.424409111076e-06
3.641431866989e-06
6.075477378814e-06
1.094356840247e-05
2.067975044977e-05
4.015211454437e-05
7.909684273358e-05
1.187008427336e-04
1.583048427336e-04
1.979088427336e-04
2.375128427336e-04
2.771168427336e-04
3.167208427336e-04
3.563248427336e-04
3.959288427336e-04
4.355328427336e-04
4.751368427336e-04
5.147408427336e-04
5.543448427336e-04
5.939488427336e-04
6.335528427336e-04
6.731568427336e-04
7.127608427336e-04
7.523648427336e-04
7.919688427336e-04
8.315728427336e-04
8.711768427336e-04
9.107808427336e-04
9.503848427336e-04
9.899888427336e-04
1.029592842734e-03
1.069196842734e-03
1.108800842734e-03
1.148404842734e-03
1.188008842734e-03
1.227612842734e-03
1.267216842734e-03
1.306820842734e-03
1.346424842734e-03
1.386028842734e-03
1.425632842734e-03
1.465236842734e-03
1.504840842734e-03
1.544444842734e-03
1.584048842734e-03
1.623652842734e-03
1.663256842734e-03
1.702860842734e-03
1.742464842734e-03
1.782068842734e-03
1.821672842734e-03
1.861276842734e-03
1.900880842734e-03
1.940484842734e-03
1.980088842734e-03
2.019692842734e-03
2.059296842734e-03
2.098900842734e-03
2.138504842734e-03
2.178108842734e-03
2.217712842734e-03
2.257316842734e-03
2.296920842734e-03
2.336524842734e-03
2.376128842734e-03
2.415732842734e-03
2.455336842734e-03
2.494940842734e-03
2.534544842734e-03
2.574148842734e-03
2.613752842734e-03
2.653356842734e-03
2.692960842734e-03
2.732564842734e-03
2.772168842734e-03
2.811772842734e-03
2.851376842734e-03
2.890980842734e-03
2.930584842734e-03
2.970188842734e-03
3.009792842734e-03
3.049396842734e-03
3.089000842734e-03
3.128604842734e-03
3.168208842734e-03
3.207812842734e-03
3.247416842734e-03
3.287020842734e-03
3.326624842734e-03
3.366228842734e-03
3.405832842734e-03
3.445436842734e-03
3.485040842734e-03
3.524644842734e-03
3.564248842734e-03
3.603852842734e-03
3.643456842734e-03
3.683060842734e-03
3.722664842734e-03
3.762268842734e-03
3.801872842734e-03
3.841476842734e-03
3.881080842734e-03
3.920684842734e-03
3.960288842734e-03
3.999892842734e-03
4.000000000000e-03
</indep>
<dep tran.v(vcc) time>
5.000000000000e+00
5.000000000000e+00
5.000000000000e+00
5.000000000000e+00
5.000000000000e+00
5.000000000000e+00
5.000000000000e+00
5.000000000000e+00
5.000000000000e+00
5.000000000000e+00
5.000000000000e+00
5.000000000000e+00
5.000000000000e+00
5.000000000000e+00
5.000000000000e+00
5.000000000000e+00
5.000000000000e+00
5.000000000000e+00
5.000000000000e+00
5.000000000000e+00
5.000000000000e+00
5.000000000000e+00
5.000000000000e+00
5.000000000000e+00
5.000000000000e+00
5.000000000000e+00
5.000000000000e+00
5.000000000000e+00
5.000000000000e+00
5.000000000000e+00
5.000000000000e+00
5.000000000000e+00
5.000000000000e+00
5.000000000000e+00
5.000000000000e+00
5.000000000000e+00
5.000000000000e+00
5.000000000000e+00
5.000000000000e+00
5.000000000000e+00
5.000000000000e+00
5.000000000000e+00
5.000000000000e+00
5.000000000000e+00
5.000000000000e+00
5.000000000000e+00
5.000000000000e+00
5.000000000000e+00
5.000000000000e+00
5.000000000000e+00
5.000000000000e+00
5.000000000000e+00
5.000000000000e+00
5.000000000000e+00
5.000000000000e+00
5.000000000000e+00
5.000000000000e+00
5.000000000000e+00
5.000000000000e+00
5.000000000000e+00
5.000000000000e+00
5.000000000000e+00
5.000000000000e+00
5.000000000000e+00
5.000000000000e+00
5.000000000000e+00
5.000000000000e+00
5.000000000000e+00
5.000000000000e+00
5.000000000000e+00
5.000000000000e+00
5.000000000000e+00
5.000000000000e+00
5.000000000000e+00
5.000000000000e+00
5.000000000000e+00
5.000000000000e+00
5.000000000000e+00
5.000000000000e+00
5.000000000000e+00
5.000000000000e+00
5.000000000000e+00
5.000000000000e+00
5.000000000000e+00
5.000000000000e+00
5.000000000000e+00
5.000000000000e+00
5.000000000000e+00
5.000000000000e+00
5.000000000000e+00
5.000000000000e+00
5.000000000000e+00
5.000000000000e+00
5.000000000000e+00
5.000000000000e+00
5.000000000000e+00
5.000000000000e+00
5.000000000000e+00
5.000000000000e+00
5.000000000000e+00
5.000000000000e+00
5.000000000000e+00
5.000000000000e+00
5.000000000000e+00
5.000000000000e+00
5.000000000000e+00
5.000000000000e+00
5.000000000000e+00
5.000000000000e+00
5.000000000000e+00
5.000000000000e+00
5.000000000000e+00
5.000000000000e+00
5.000000000000e+00
5.000000000000e+00
5.000000000000e+00
5.000000000000e+00
</dep>
<dep tran.v(vee) time>
-5.000000000000e+00
-5.000000000000e+00
-5.000000000000e+00
-5.000000000000e+00
-5.000000000000e+00
-5.000000000000e+00
-5.000000000000e+00
-5.000000000000e+00
-5.000000000000e+00
-5.000000000000e+00
-5.000000000000e+00
-5.000000000000e+00
-5.000000000000e+00
-5.000000000000e+00
-5.000000000000e+00
-5.000000000000e+00
-5.000000000000e+00
-5.000000000000e+00
-5.000000000000e+00
-5.000000000000e+00
-5.000000000000e+00
-5.000000000000e+00
-5.000000000000e+00
-5.000000000000e+00
-5.000000000000e+00
-5.000000000000e+00
-5.000000000000e+00
-5.000000000000e+00
-5.000000000000e+00
-5.000000000000e+00
-5.000000000000e+00
-5.000000000000e+00
-5.000000000000e+00
-5.000000000000e+00
-5.000000000000e+00
-5.000000000000e+00
-5.000000000000e+00
-5.000000000000e+00
-5.000000000000e+00
-5.000000000000e+00
-5.000000000000e+00
-5.000000000000e+00
-5.000000000000e+00
-5.000000000000e+00
-5.000000000000e+00
-5.000000000000e+00
-5.000000000000e+00
-5.000000000000e+00
-5.000000000000e+00
-5.000000000000e+00
-5.000000000000e+00
-5.000000000000e+00
-5.000000000000e+00
-5.000000000000e+00
-5.000000000000e+00
-5.000000000000e+00
-5.000000000000e+00
-5.000000000000e+00
-5.000000000000e+00
-5.000000000000e+00
-5.000000000000e+00
-5.000000000000e+00
-5.000000000000e+00
-5.000000000000e+00
-5.000000000000e+00
-5.000000000000e+00
-5.000000000000e+00
-5.000000000000e+00
-5.000000000000e+00
-5.000000000000e+00
-5.000000000000e+00
-5.000000000000e+00
-5.000000000000e+00
-5.000000000000e+00
-5.000000000000e+00
-5.000000000000e+00
-5.000000000000e+00
-5.000000000000e+00
-5.000000000000e+00
-5.000000000000e+00
-5.000000000000e+00
-5.000000000000e+00
-5.000000000000e+00
-5.000000000000e+00
-5.000000000000e+00
-5.000000000000e+00
-5.000000000000e+00
-5.000000000000e+00
-5.000000000000e+00
-5.000000000000e+00
-5.000000000000e+00
-5.000000000000e+00
-5.000000000000e+00
-5.000000000000e+00
-5.000000000000e+00
-5.000000000000e+00
-5.000000000000e+00
-5.000000000000e+00
-5.000000000000e+00
-5.000000000000e+00
-5.000000000000e+00
-5.000000000000e+00
-5.000000000000e+00
-5.000000000000e+00
-5.000000000000e+00
-5.000000000000e+00
-5.000000000000e+00
-5.000000000000e+00
-5.000000000000e+00
-5.000000000000e+00
-5.000000000000e+00
-5.000000000000e+00
-5.000000000000e+00
-5.000000000000e+00
-5.000000000000e+00
-5.000000000000e+00
-5.000000000000e+00
</dep>
<dep tran.v(vin) time>
0.000000000000e+00
2.488390140994e-04
2.584213435934e-04
2.775859953748e-04
3.159152676476e-04
3.925736673244e-04
5.458897295315e-04
7.333372019504e-04
9.311244966468e-04
1.140937440793e-03
1.523242258901e-03
2.287779505201e-03
3.816407981213e-03
6.870629773027e-03
1.295693974986e-02
2.496155102274e-02
4.767731625993e-02
6.785739072140e-02
8.385730577391e-02
9.469143266371e-02
9.969236616088e-02
9.855203813918e-02
9.134069522699e-02
7.850257146580e-02
6.082852254964e-02
3.940730743440e-02
1.555851847345e-02
-9.248708274376e-03
-3.348619494669e-02
-5.566086087997e-02
-7.440669955001e-02
-8.856892747541e-02
-9.727512133302e-02
-9.998896108778e-02
-9.654326844615e-02
-8.715030539408e-02
-7.238869840782e-02
-5.316779383385e-02
-3.067164022238e-02
-6.286048421479e-03
1.848677731481e-02
4.212077829948e-02
6.316004986927e-02
8.030852820455e-02
9.250983061358e-02
9.901233095037e-02
9.941546138176e-02
9.369438821686e-02
8.220154171515e-02
6.564490563387e-02
4.504440392472e-02
2.166907125190e-02
-3.041122238783e-03
-2.756397613970e-02
-5.038883055989e-02
-7.010962598324e-02
-8.551151952136e-02
-9.564572181611e-02
-9.988794447938e-02
-9.797685758390e-02
-9.003018814192e-02
-7.653746787112e-02
-5.832987700100e-02
-3.652904180514e-02
-1.247794004024e-02
1.234182933638e-02
3.640131580975e-02
5.821840390672e-02
7.644911465735e-02
8.997039755429e-02
9.794931284963e-02
9.989434241259e-02
9.568566829055e-02
8.558255374933e-02
7.020737210541e-02
5.050726720752e-02
2.769580736371e-02
3.178226955736e-03
-2.153513898380e-02
-4.492189461767e-02
-6.554136612143e-02
-8.212335025122e-02
-9.364636156171e-02
-9.940055807936e-02
-9.903146907580e-02
-9.256183121767e-02
-8.039018793962e-02
-6.326633832219e-02
-4.224514787577e-02
-1.862156658439e-02
6.149142763925e-03
3.054105185617e-02
5.305156727974e-02
7.229399346842e-02
8.708295609483e-02
9.650742364695e-02
9.998682890439e-02
9.730683311248e-02
8.863252970474e-02
7.449827419677e-02
5.577476675141e-02
3.361541519917e-02
9.385282665861e-03
-1.542300321559e-02
-3.928119933790e-02
-6.071959014112e-02
-7.841752521301e-02
-9.128477415976e-02
-9.852868711404e-02
-9.970302365058e-02
-9.473544214424e-02
-8.393195616779e-02
-6.795808340580e-02
-4.779784835160e-02
-2.469316430827e-02
-6.732889110663e-05
-9.797174393179e-17
</dep>
<dep tran.v(vout) time>
8.362122742615e-04
7.120748775637e-04
7.071047417731e-04
6.967791453304e-04
6.738194713447e-04
6.194983582281e-04
4.876420306821e-04
3.056781141315e-04
1.077206123069e-04
-1.023393426099e-04
-4.846568935230e-04
-1.249198895888e-03
-2.777908365279e-03
-5.832392748282e-03
-1.191978545649e-02
-2.392863781115e-02
-4.666110573885e-02
-6.687138651178e-02
-8.290863846430e-02
-9.378907801288e-02
-9.883839803810e-02
-9.774950423909e-02
-9.058561281520e-02
-7.779180593291e-02
-6.015252700238e-02
-3.875798812683e-02
-1.492262877850e-02
9.881816522860e-03
3.413068487232e-02
5.632693136622e-02
7.510640425803e-02
8.930914126409e-02
9.806325468714e-02
1.008265157390e-01
9.743158571597e-02
8.808478678194e-02
7.336464449511e-02
5.417527643560e-02
3.170139583848e-02
7.324899749967e-03
-1.745009049586e-02
-4.109979725850e-02
-6.216499569109e-02
-7.935031704382e-02
-9.159487597974e-02
-9.814655672690e-02
-9.859964352854e-02
-9.292828801781e-02
-8.147984941892e-02
-6.496153092886e-02
-4.438899313659e-02
-2.103139993449e-02
3.674173233167e-03
2.820405757658e-02
5.104886525740e-02
7.079964928309e-02
8.624133187242e-02
9.642110494886e-02
1.007133966147e-01
9.885231177645e-02
9.095393603524e-02
7.750342838515e-02
5.933072621401e-02
3.755398833069e-02
1.351598784156e-02
-1.130372557603e-02
-3.537499940532e-02
-5.721616154804e-02
-7.548061565342e-02
-8.904433255197e-02
-9.707069205072e-02
-9.906628694791e-02
-9.490718286253e-02
-8.485055958892e-02
-6.951498698753e-02
-4.984607845587e-02
-2.705460024056e-02
-2.545407515828e-03
2.217250517141e-02
4.557566538657e-02
6.622315860714e-02
8.284231154249e-02
9.441006750071e-02
1.002131345210e-01
9.989470075119e-02
9.347373664487e-02
8.134640989800e-02
6.425918946767e-02
4.326526256453e-02
1.965734299408e-02
-5.109735515552e-03
-2.951078363041e-02
-5.204214957145e-02
-7.131632926939e-02
-8.614553532981e-02
-9.561669564390e-02
-9.914594616419e-02
-9.651628044366e-02
-8.788930574344e-02
-7.379683106767e-02
-5.510663003607e-02
-3.297039561746e-02
-8.751445436812e-03
1.605797536260e-02
3.992984546035e-02
6.139332953360e-02
7.912649486425e-02
9.203669084474e-02
9.932885874056e-02
1.005535616002e-01
9.563556656054e-02
8.487763329732e-02
6.894266079352e-02
4.881210126647e-02
2.572620468042e-02
1.106957438167e-03
1.039285579840e-03
</dep>
