<Qucs Dataset 0.0.24>
<indep time 117>
0.000000000000e+00
3.960400000000e-07
4.112908610800e-07
4.417925832400e-07
5.027960275600e-07
6.248029162001e-07
8.688166934802e-07
1.167156604914e-06
1.481958671196e-06
1.815904448283e-06
2.424408344732e-06
3.641416137630e-06
6.075431723427e-06
1.094346289502e-05
2.067952523821e-05
4.015164992458e-05
7.909589929732e-05
1.186998992973e-04
1.583038992973e-04
1.979078992973e-04
2.375118992973e-04
2.771158992973e-04
3.167198992973e-04
3.563238992973e-04
3.959278992973e-04
4.355318992973e-04
4.751358992973e-04
5.147398992973e-04
5.543438992973e-04
5.939478992973e-04
6.335518992973e-04
6.731558992973e-04
7.127598992973e-04
7.523638992973e-04
7.919678992973e-04
8.315718992973e-04
8.711758992973e-04
9.107798992973e-04
9.503838992973e-04
9.899878992973e-04
1.029591899297e-03
1.069195899297e-03
1.108799899297e-03
1.148403899297e-03
1.188007899297e-03
1.227611899297e-03
1.267215899297e-03
1.306819899297e-03
1.346423899297e-03
1.386027899297e-03
1.425631899297e-03
1.465235899297e-03
1.504839899297e-03
1.544443899297e-03
1.584047899297e-03
1.623651899297e-03
1.663255899297e-03
1.702859899297e-03
1.742463899297e-03
1.782067899297e-03
1.821671899297e-03
1.861275899297e-03
1.900879899297e-03
1.940483899297e-03
1.980087899297e-03
2.019691899297e-03
2.059295899297e-03
2.098899899297e-03
2.138503899297e-03
2.178107899297e-03
2.217711899297e-03
2.257315899297e-03
2.296919899297e-03
2.336523899297e-03
2.376127899297e-03
2.415731899297e-03
2.455335899297e-03
2.494939899297e-03
2.534543899297e-03
2.574147899297e-03
2.613751899297e-03
2.653355899297e-03
2.692959899297e-03
2.732563899297e-03
2.772167899297e-03
2.811771899297e-03
2.851375899297e-03
2.890979899297e-03
2.930583899297e-03
2.970187899297e-03
3.009791899297e-03
3.049395899297e-03
3.088999899297e-03
3.128603899297e-03
3.168207899297e-03
3.207811899297e-03
3.247415899297e-03
3.287019899297e-03
3.326623899297e-03
3.366227899297e-03
3.405831899297e-03
3.445435899297e-03
3.485039899297e-03
3.524643899297e-03
3.564247899297e-03
3.603851899297e-03
3.643455899297e-03
3.683059899297e-03
3.722663899297e-03
3.762267899297e-03
3.801871899297e-03
3.841475899297e-03
3.881079899297e-03
3.920683899297e-03
3.960287899297e-03
3.999891899297e-03
4.000000000000e-03
</indep>
<dep tran.v(vcc) time>
5.000000000000e+00
5.000000000000e+00
5.000000000000e+00
5.000000000000e+00
5.000000000000e+00
5.000000000000e+00
5.000000000000e+00
5.000000000000e+00
5.000000000000e+00
5.000000000000e+00
5.000000000000e+00
5.000000000000e+00
5.000000000000e+00
5.000000000000e+00
5.000000000000e+00
5.000000000000e+00
5.000000000000e+00
5.000000000000e+00
5.000000000000e+00
5.000000000000e+00
5.000000000000e+00
5.000000000000e+00
5.000000000000e+00
5.000000000000e+00
5.000000000000e+00
5.000000000000e+00
5.000000000000e+00
5.000000000000e+00
5.000000000000e+00
5.000000000000e+00
5.000000000000e+00
5.000000000000e+00
5.000000000000e+00
5.000000000000e+00
5.000000000000e+00
5.000000000000e+00
5.000000000000e+00
5.000000000000e+00
5.000000000000e+00
5.000000000000e+00
5.000000000000e+00
5.000000000000e+00
5.000000000000e+00
5.000000000000e+00
5.000000000000e+00
5.000000000000e+00
5.000000000000e+00
5.000000000000e+00
5.000000000000e+00
5.000000000000e+00
5.000000000000e+00
5.000000000000e+00
5.000000000000e+00
5.000000000000e+00
5.000000000000e+00
5.000000000000e+00
5.000000000000e+00
5.000000000000e+00
5.000000000000e+00
5.000000000000e+00
5.000000000000e+00
5.000000000000e+00
5.000000000000e+00
5.000000000000e+00
5.000000000000e+00
5.000000000000e+00
5.000000000000e+00
5.000000000000e+00
5.000000000000e+00
5.000000000000e+00
5.000000000000e+00
5.000000000000e+00
5.000000000000e+00
5.000000000000e+00
5.000000000000e+00
5.000000000000e+00
5.000000000000e+00
5.000000000000e+00
5.000000000000e+00
5.000000000000e+00
5.000000000000e+00
5.000000000000e+00
5.000000000000e+00
5.000000000000e+00
5.000000000000e+00
5.000000000000e+00
5.000000000000e+00
5.000000000000e+00
5.000000000000e+00
5.000000000000e+00
5.000000000000e+00
5.000000000000e+00
5.000000000000e+00
5.000000000000e+00
5.000000000000e+00
5.000000000000e+00
5.000000000000e+00
5.000000000000e+00
5.000000000000e+00
5.000000000000e+00
5.000000000000e+00
5.000000000000e+00
5.000000000000e+00
5.000000000000e+00
5.000000000000e+00
5.000000000000e+00
5.000000000000e+00
5.000000000000e+00
5.000000000000e+00
5.000000000000e+00
5.000000000000e+00
5.000000000000e+00
5.000000000000e+00
5.000000000000e+00
5.000000000000e+00
5.000000000000e+00
5.000000000000e+00
</dep>
<dep tran.v(vee) time>
-5.000000000000e+00
-5.000000000000e+00
-5.000000000000e+00
-5.000000000000e+00
-5.000000000000e+00
-5.000000000000e+00
-5.000000000000e+00
-5.000000000000e+00
-5.000000000000e+00
-5.000000000000e+00
-5.000000000000e+00
-5.000000000000e+00
-5.000000000000e+00
-5.000000000000e+00
-5.000000000000e+00
-5.000000000000e+00
-5.000000000000e+00
-5.000000000000e+00
-5.000000000000e+00
-5.000000000000e+00
-5.000000000000e+00
-5.000000000000e+00
-5.000000000000e+00
-5.000000000000e+00
-5.000000000000e+00
-5.000000000000e+00
-5.000000000000e+00
-5.000000000000e+00
-5.000000000000e+00
-5.000000000000e+00
-5.000000000000e+00
-5.000000000000e+00
-5.000000000000e+00
-5.000000000000e+00
-5.000000000000e+00
-5.000000000000e+00
-5.000000000000e+00
-5.000000000000e+00
-5.000000000000e+00
-5.000000000000e+00
-5.000000000000e+00
-5.000000000000e+00
-5.000000000000e+00
-5.000000000000e+00
-5.000000000000e+00
-5.000000000000e+00
-5.000000000000e+00
-5.000000000000e+00
-5.000000000000e+00
-5.000000000000e+00
-5.000000000000e+00
-5.000000000000e+00
-5.000000000000e+00
-5.000000000000e+00
-5.000000000000e+00
-5.000000000000e+00
-5.000000000000e+00
-5.000000000000e+00
-5.000000000000e+00
-5.000000000000e+00
-5.000000000000e+00
-5.000000000000e+00
-5.000000000000e+00
-5.000000000000e+00
-5.000000000000e+00
-5.000000000000e+00
-5.000000000000e+00
-5.000000000000e+00
-5.000000000000e+00
-5.000000000000e+00
-5.000000000000e+00
-5.000000000000e+00
-5.000000000000e+00
-5.000000000000e+00
-5.000000000000e+00
-5.000000000000e+00
-5.000000000000e+00
-5.000000000000e+00
-5.000000000000e+00
-5.000000000000e+00
-5.000000000000e+00
-5.000000000000e+00
-5.000000000000e+00
-5.000000000000e+00
-5.000000000000e+00
-5.000000000000e+00
-5.000000000000e+00
-5.000000000000e+00
-5.000000000000e+00
-5.000000000000e+00
-5.000000000000e+00
-5.000000000000e+00
-5.000000000000e+00
-5.000000000000e+00
-5.000000000000e+00
-5.000000000000e+00
-5.000000000000e+00
-5.000000000000e+00
-5.000000000000e+00
-5.000000000000e+00
-5.000000000000e+00
-5.000000000000e+00
-5.000000000000e+00
-5.000000000000e+00
-5.000000000000e+00
-5.000000000000e+00
-5.000000000000e+00
-5.000000000000e+00
-5.000000000000e+00
-5.000000000000e+00
-5.000000000000e+00
-5.000000000000e+00
-5.000000000000e+00
-5.000000000000e+00
-5.000000000000e+00
-5.000000000000e+00
-5.000000000000e+00
</dep>
<dep tran.v(vin) time>
0.000000000000e+00
2.488390140994e-04
2.584213819007e-04
2.775861102967e-04
3.159155357983e-04
3.925742419315e-04
5.458909170444e-04
7.333395499517e-04
9.311286395286e-04
1.140941659780e-03
1.523241777448e-03
2.287769624741e-03
3.816379315986e-03
6.870563637396e-03
1.295679943808e-02
2.496126833442e-02
4.767679519118e-02
6.785695530536e-02
8.385698283314e-02
9.469124209205e-02
9.969231969795e-02
9.855213864719e-02
9.134093651444e-02
7.850293866886e-02
6.082899304783e-02
3.940785224403e-02
1.555910403309e-02
-9.248118036447e-03
-3.348563639038e-02
-5.566036841354e-02
-7.440630351043e-02
-8.856865225956e-02
-9.727498389478e-02
-9.998896989364e-02
-9.654342295365e-02
-8.715059608523e-02
-7.238910737543e-02
-5.316829588465e-02
-3.067220442896e-02
-6.286640027528e-03
1.848619475348e-02
4.212024066989e-02
6.315959029055e-02
8.030817498771e-02
9.250960551755e-02
9.901224784153e-02
9.941552537979e-02
9.369459537935e-02
8.220187928044e-02
6.564535280723e-02
4.504493315932e-02
2.166964994577e-02
-3.040529734423e-03
-2.756340632438e-02
-5.038831853544e-02
-7.010920329144e-02
-8.551121220094e-02
-9.564554879866e-02
-9.988791642313e-02
-9.797697621719e-02
-9.003044615668e-02
-7.653784937310e-02
-5.833035848885e-02
-3.652959361820e-02
-1.247852818565e-02
1.234124108962e-02
3.640076369890e-02
5.821792194298e-02
7.644873253071e-02
8.997013880456e-02
9.794919341634e-02
9.989436965309e-02
9.568584052676e-02
8.558286037115e-02
7.020779422427e-02
5.050777882000e-02
2.769637695340e-02
3.178819434701e-03
-2.153456011352e-02
-4.492136501572e-02
-6.554091841241e-02
-8.212301201496e-02
-9.364615363428e-02
-9.940049326953e-02
-9.903155137600e-02
-9.256205555803e-02
-8.039054050029e-02
-6.326679738469e-02
-4.224568516087e-02
-1.862214899420e-02
6.148551107101e-03
3.054048739964e-02
5.305106479523e-02
7.229358391004e-02
8.708266469225e-02
9.650726835118e-02
9.998681928200e-02
9.730696975620e-02
8.863280419704e-02
7.449866962835e-02
5.577525876284e-02
3.361597348149e-02
9.385872827704e-03
-1.542241752945e-02
-3.928065420697e-02
-6.071911914662e-02
-7.841715736922e-02
-9.128453212662e-02
-9.852858580131e-02
-9.970306929935e-02
-9.473563194243e-02
-8.393227842344e-02
-6.795851826727e-02
-4.779836903051e-02
-2.469373872968e-02
-6.792166945409e-05
-9.797174393179e-17
</dep>
<dep tran.v(vout) time>
8.362139850976e-04
7.120777326558e-04
7.071076220068e-04
6.967820761492e-04
6.738225038808e-04
6.195015800981e-04
4.876454610256e-04
3.056809743308e-04
1.077218774979e-04
-1.023381277500e-04
-4.846509891195e-04
-1.249183591270e-03
-2.777874275437e-03
-5.832321187344e-03
-1.191963971290e-02
-2.392834966742e-02
-4.666057912103e-02
-6.687094578342e-02
-8.290831077101e-02
-9.378888333584e-02
-9.883834836330e-02
-9.774960242352e-02
-9.058585280162e-02
-7.779217273693e-02
-6.015299801682e-02
-3.875853413788e-02
-1.492321613707e-02
9.881224195229e-03
3.413012408034e-02
5.632643684936e-02
7.510600649809e-02
8.930886495498e-02
9.806311687103e-02
1.008265250943e-01
9.743174168971e-02
8.808507995202e-02
7.336505682743e-02
5.417578271339e-02
3.170196490216e-02
7.325496725368e-03
-1.744950235307e-02
-4.109925400020e-02
-6.216453075014e-02
-7.934995888497e-02
-9.159464663097e-02
-9.814647014235e-02
-9.859970500429e-02
-9.292849359491e-02
-8.148018639337e-02
-6.496197837269e-02
-4.438952344401e-02
-2.103198027009e-02
3.673578663854e-03
2.820348556539e-02
5.104835108822e-02
7.079922479273e-02
8.624102325936e-02
9.642093138506e-02
1.007133688431e-01
9.885243166657e-02
9.095419625477e-02
7.750381306052e-02
5.933121170370e-02
3.755454488196e-02
1.351658122701e-02
-1.130313175776e-02
-3.537444167537e-02
-5.721567411329e-02
-7.548022847961e-02
-8.904406934127e-02
-9.707056895431e-02
-9.906631140210e-02
-9.490735329587e-02
-8.485086535751e-02
-6.951540918853e-02
-4.984659093775e-02
-2.705517136475e-02
-2.546001958551e-03
2.217192409943e-02
4.557513362018e-02
6.622270897631e-02
8.284197188337e-02
9.440985881069e-02
1.002130697922e-01
9.989478404618e-02
9.347396296731e-02
8.134676538275e-02
6.425965234933e-02
4.326580440692e-02
1.965793055030e-02
-5.109138360459e-03
-2.951021353215e-02
-5.204164156811e-02
-7.131591452615e-02
-8.614523931318e-02
-9.561653646156e-02
-9.914593353826e-02
-9.651641502564e-02
-8.788957915765e-02
-7.379722634621e-02
-5.510712274254e-02
-3.297095527633e-02
-8.752037484297e-03
1.605738752047e-02
3.992929812468e-02
6.139285654286e-02
7.912612544557e-02
9.203644787545e-02
9.932875727905e-02
1.005536080160e-01
9.563575808634e-02
8.487795825300e-02
6.894309925413e-02
4.881262633918e-02
2.572678411362e-02
1.107555653882e-03
1.039288349981e-03
</dep>
