<Qucs Dataset 0.0.21>
<indep time 113>
0.000000000000e+00
3.960400000000e-07
4.913048505190e-07
6.818345515571e-07
1.062893953633e-06
1.728803766580e-06
2.438274437246e-06
3.345070690896e-06
5.158663198197e-06
8.785848212798e-06
1.604021824200e-05
3.054895830041e-05
5.956643841722e-05
9.917043841722e-05
1.387744384172e-04
1.783784384172e-04
2.179824384172e-04
2.575864384172e-04
2.971904384172e-04
3.367944384172e-04
3.763984384172e-04
4.160024384172e-04
4.556064384172e-04
4.952104384172e-04
5.348144384172e-04
5.744184384172e-04
6.140224384172e-04
6.536264384172e-04
6.932304384172e-04
7.328344384172e-04
7.724384384172e-04
8.120424384172e-04
8.516464384172e-04
8.912504384172e-04
9.308544384172e-04
9.704584384172e-04
1.010062438417e-03
1.049666438417e-03
1.089270438417e-03
1.128874438417e-03
1.168478438417e-03
1.208082438417e-03
1.247686438417e-03
1.287290438417e-03
1.326894438417e-03
1.366498438417e-03
1.406102438417e-03
1.445706438417e-03
1.485310438417e-03
1.524914438417e-03
1.564518438417e-03
1.604122438417e-03
1.643726438417e-03
1.683330438417e-03
1.722934438417e-03
1.762538438417e-03
1.802142438417e-03
1.841746438417e-03
1.881350438417e-03
1.920954438417e-03
1.960558438417e-03
2.000162438417e-03
2.039766438417e-03
2.079370438417e-03
2.118974438417e-03
2.158578438417e-03
2.198182438417e-03
2.237786438417e-03
2.277390438417e-03
2.316994438417e-03
2.356598438417e-03
2.396202438417e-03
2.435806438417e-03
2.475410438417e-03
2.515014438417e-03
2.554618438417e-03
2.594222438417e-03
2.633826438417e-03
2.673430438417e-03
2.713034438417e-03
2.752638438417e-03
2.792242438417e-03
2.831846438417e-03
2.871450438417e-03
2.911054438417e-03
2.950658438417e-03
2.990262438417e-03
3.029866438417e-03
3.069470438417e-03
3.109074438417e-03
3.148678438417e-03
3.188282438417e-03
3.227886438417e-03
3.267490438417e-03
3.307094438417e-03
3.346698438417e-03
3.386302438417e-03
3.425906438417e-03
3.465510438417e-03
3.505114438417e-03
3.544718438417e-03
3.584322438417e-03
3.623926438417e-03
3.663530438417e-03
3.703134438417e-03
3.742738438417e-03
3.782342438417e-03
3.821946438417e-03
3.861550438417e-03
3.901154438417e-03
3.940758438417e-03
3.980362438417e-03
4.000000000000e-03
</indep>
<dep tran.v(vcc) time>
5.000000000000e+00
5.000000000000e+00
5.000000000000e+00
5.000000000000e+00
5.000000000000e+00
5.000000000000e+00
5.000000000000e+00
5.000000000000e+00
5.000000000000e+00
5.000000000000e+00
5.000000000000e+00
5.000000000000e+00
5.000000000000e+00
5.000000000000e+00
5.000000000000e+00
5.000000000000e+00
5.000000000000e+00
5.000000000000e+00
5.000000000000e+00
5.000000000000e+00
5.000000000000e+00
5.000000000000e+00
5.000000000000e+00
5.000000000000e+00
5.000000000000e+00
5.000000000000e+00
5.000000000000e+00
5.000000000000e+00
5.000000000000e+00
5.000000000000e+00
5.000000000000e+00
5.000000000000e+00
5.000000000000e+00
5.000000000000e+00
5.000000000000e+00
5.000000000000e+00
5.000000000000e+00
5.000000000000e+00
5.000000000000e+00
5.000000000000e+00
5.000000000000e+00
5.000000000000e+00
5.000000000000e+00
5.000000000000e+00
5.000000000000e+00
5.000000000000e+00
5.000000000000e+00
5.000000000000e+00
5.000000000000e+00
5.000000000000e+00
5.000000000000e+00
5.000000000000e+00
5.000000000000e+00
5.000000000000e+00
5.000000000000e+00
5.000000000000e+00
5.000000000000e+00
5.000000000000e+00
5.000000000000e+00
5.000000000000e+00
5.000000000000e+00
5.000000000000e+00
5.000000000000e+00
5.000000000000e+00
5.000000000000e+00
5.000000000000e+00
5.000000000000e+00
5.000000000000e+00
5.000000000000e+00
5.000000000000e+00
5.000000000000e+00
5.000000000000e+00
5.000000000000e+00
5.000000000000e+00
5.000000000000e+00
5.000000000000e+00
5.000000000000e+00
5.000000000000e+00
5.000000000000e+00
5.000000000000e+00
5.000000000000e+00
5.000000000000e+00
5.000000000000e+00
5.000000000000e+00
5.000000000000e+00
5.000000000000e+00
5.000000000000e+00
5.000000000000e+00
5.000000000000e+00
5.000000000000e+00
5.000000000000e+00
5.000000000000e+00
5.000000000000e+00
5.000000000000e+00
5.000000000000e+00
5.000000000000e+00
5.000000000000e+00
5.000000000000e+00
5.000000000000e+00
5.000000000000e+00
5.000000000000e+00
5.000000000000e+00
5.000000000000e+00
5.000000000000e+00
5.000000000000e+00
5.000000000000e+00
5.000000000000e+00
5.000000000000e+00
5.000000000000e+00
5.000000000000e+00
5.000000000000e+00
5.000000000000e+00
5.000000000000e+00
</dep>
<dep tran.v(vee) time>
-5.000000000000e+00
-5.000000000000e+00
-5.000000000000e+00
-5.000000000000e+00
-5.000000000000e+00
-5.000000000000e+00
-5.000000000000e+00
-5.000000000000e+00
-5.000000000000e+00
-5.000000000000e+00
-5.000000000000e+00
-5.000000000000e+00
-5.000000000000e+00
-5.000000000000e+00
-5.000000000000e+00
-5.000000000000e+00
-5.000000000000e+00
-5.000000000000e+00
-5.000000000000e+00
-5.000000000000e+00
-5.000000000000e+00
-5.000000000000e+00
-5.000000000000e+00
-5.000000000000e+00
-5.000000000000e+00
-5.000000000000e+00
-5.000000000000e+00
-5.000000000000e+00
-5.000000000000e+00
-5.000000000000e+00
-5.000000000000e+00
-5.000000000000e+00
-5.000000000000e+00
-5.000000000000e+00
-5.000000000000e+00
-5.000000000000e+00
-5.000000000000e+00
-5.000000000000e+00
-5.000000000000e+00
-5.000000000000e+00
-5.000000000000e+00
-5.000000000000e+00
-5.000000000000e+00
-5.000000000000e+00
-5.000000000000e+00
-5.000000000000e+00
-5.000000000000e+00
-5.000000000000e+00
-5.000000000000e+00
-5.000000000000e+00
-5.000000000000e+00
-5.000000000000e+00
-5.000000000000e+00
-5.000000000000e+00
-5.000000000000e+00
-5.000000000000e+00
-5.000000000000e+00
-5.000000000000e+00
-5.000000000000e+00
-5.000000000000e+00
-5.000000000000e+00
-5.000000000000e+00
-5.000000000000e+00
-5.000000000000e+00
-5.000000000000e+00
-5.000000000000e+00
-5.000000000000e+00
-5.000000000000e+00
-5.000000000000e+00
-5.000000000000e+00
-5.000000000000e+00
-5.000000000000e+00
-5.000000000000e+00
-5.000000000000e+00
-5.000000000000e+00
-5.000000000000e+00
-5.000000000000e+00
-5.000000000000e+00
-5.000000000000e+00
-5.000000000000e+00
-5.000000000000e+00
-5.000000000000e+00
-5.000000000000e+00
-5.000000000000e+00
-5.000000000000e+00
-5.000000000000e+00
-5.000000000000e+00
-5.000000000000e+00
-5.000000000000e+00
-5.000000000000e+00
-5.000000000000e+00
-5.000000000000e+00
-5.000000000000e+00
-5.000000000000e+00
-5.000000000000e+00
-5.000000000000e+00
-5.000000000000e+00
-5.000000000000e+00
-5.000000000000e+00
-5.000000000000e+00
-5.000000000000e+00
-5.000000000000e+00
-5.000000000000e+00
-5.000000000000e+00
-5.000000000000e+00
-5.000000000000e+00
-5.000000000000e+00
-5.000000000000e+00
-5.000000000000e+00
-5.000000000000e+00
-5.000000000000e+00
-5.000000000000e+00
-5.000000000000e+00
</dep>
<dep tran.v(vin) time>
0.000000000000e+00
2.488390140994e-04
3.086954515360e-04
4.284079731635e-04
6.678310029652e-04
1.086218081453e-03
1.531953083728e-03
2.101615164477e-03
3.240716166526e-03
5.517507916343e-03
1.006131344401e-02
1.907683050219e-02
3.655903413580e-02
5.835604564411e-02
7.655820078268e-02
9.004420813054e-02
9.798330098849e-02
9.988641437253e-02
9.563631245567e-02
8.549481054390e-02
7.008664669727e-02
5.036099653825e-02
2.753300201723e-02
3.008916087228e-03
-2.170052546519e-02
-4.507316855339e-02
-6.566920871570e-02
-8.221988612867e-02
-9.370564390724e-02
-9.941893497456e-02
-9.900780846489e-02
-9.249759064453e-02
-8.028932476002e-02
-6.313506592225e-02
-4.209155291416e-02
-1.845511083702e-02
6.318205269452e-03
3.070230651039e-02
5.319508045342e-02
7.241092444521e-02
8.716610167819e-02
9.655166189232e-02
9.998943464190e-02
9.726764582314e-02
8.855396340883e-02
7.438516874501e-02
5.563408967988e-02
3.345583251429e-02
9.216625000005e-03
-1.559034619194e-02
-3.943691894195e-02
-6.085409371448e-02
-7.852252704985e-02
-9.135380592389e-02
-9.855749630216e-02
-9.968983555550e-02
-9.468106918063e-02
-8.383974782571e-02
-6.783371991498e-02
-4.764899076725e-02
-2.452898257378e-02
1.020630499179e-04
2.472682137295e-02
4.782835497547e-02
6.798356031603e-02
8.395083393259e-02
9.474655785320e-02
9.970569255242e-02
9.852274479874e-02
9.127058668655e-02
7.839596656039e-02
6.069198836788e-02
3.924925477190e-02
1.538868370996e-02
-9.419862956680e-03
-3.364812605581e-02
-5.580359311562e-02
-7.452144030328e-02
-8.864860847217e-02
-9.731483405461e-02
-9.998625914620e-02
-9.649831828674e-02
-8.706587604214e-02
-7.226999089077e-02
-5.302212078691e-02
-3.050797541466e-02
-6.114473952786e-03
1.865569209275e-02
4.227662787754e-02
6.329323358239e-02
8.041084165310e-02
9.257497107180e-02
9.903628562766e-02
9.939675461912e-02
9.363417239060e-02
8.210352624808e-02
6.551512848696e-02
4.489085964588e-02
2.150121849488e-02
-3.212943387615e-03
-2.772918113260e-02
-5.053724241837e-02
-7.023210222156e-02
-8.560051534309e-02
-9.569575488958e-02
-9.989593266099e-02
-9.794230878470e-02
-8.995523064132e-02
-7.642671921038e-02
-5.819015953287e-02
-3.636896242244e-02
-1.230735997299e-02
-9.797174393179e-17
</dep>
<dep tran.v(vout) time>
5.008327614658e-01
5.007116437238e-01
5.006756255065e-01
5.005916868275e-01
5.003773754939e-01
4.999595258598e-01
4.995129159171e-01
4.989437769231e-01
4.978042919936e-01
4.955275946527e-01
4.909829083380e-01
4.819650849643e-01
4.644727705760e-01
4.426511962869e-01
4.244127923324e-01
4.108829393446e-01
4.028932867287e-01
4.009377951151e-01
4.051351823984e-01
4.152285892937e-01
4.305945669744e-01
4.502881775824e-01
4.730946477418e-01
4.976106223544e-01
5.223243260172e-01
5.457148493851e-01
5.663398106222e-01
5.829301134049e-01
5.944623449495e-01
6.002274805397e-01
5.998690194224e-01
5.934103711995e-01
5.812481026827e-01
5.641327076368e-01
5.431172854883e-01
5.194976497219e-01
4.947276271295e-01
4.703342712440e-01
4.478191220037e-01
4.285702785930e-01
4.137724164732e-01
4.043381860624e-01
4.008477083705e-01
4.035170292442e-01
4.121807099992e-01
4.263060305983e-01
4.450218815016e-01
4.671762654313e-01
4.914035068871e-01
5.162120546425e-01
5.400727708489e-01
5.615166439972e-01
5.792218455779e-01
5.920985193688e-01
5.993526312953e-01
6.005380984416e-01
5.955811252152e-01
5.847878228732e-01
5.688223473885e-01
5.486689238829e-01
5.255683442555e-01
5.009443392595e-01
4.763131294131e-01
4.531927048775e-01
4.330066924862e-01
4.169992193451e-01
4.061557682311e-01
4.011449163440e-01
4.022747589318e-01
4.094762657174e-01
4.223052513108e-01
4.399719673257e-01
4.613875747872e-01
4.852333461641e-01
5.100398240397e-01
5.342793720645e-01
5.564582988358e-01
5.752108077088e-01
5.893812430907e-01
5.980971263429e-01
6.008211009618e-01
5.973857934380e-01
5.880024071698e-01
5.732493874882e-01
5.540351527751e-01
5.315437300329e-01
5.071602587659e-01
4.823871832700e-01
4.587502159819e-01
4.377057970902e-01
4.205499633779e-01
4.083398862992e-01
4.018274051847e-01
4.014140219320e-01
4.071248905385e-01
4.186085128658e-01
4.351571774942e-01
4.557517399743e-01
4.791232503670e-01
5.038322480093e-01
5.283563391250e-01
5.511850478136e-01
5.709118235947e-01
5.863217021624e-01
5.964651616642e-01
6.007175777925e-01
5.988167644621e-01
5.908800380584e-01
5.773961014024e-01
5.591958042975e-01
5.374001186342e-01
5.133519045339e-01
5.010446746327e-01
</dep>
