<Qucs Dataset 0.0.22>
<indep time 117>
0.000000000000e+00
3.960400000000e-07
4.085072448439e-07
4.334417345317e-07
4.833107139074e-07
5.830486726587e-07
7.625139516826e-07
1.067611294657e-06
1.367121703795e-06
1.678862386591e-06
2.096614429738e-06
2.901672253874e-06
4.418443119538e-06
7.451984850865e-06
1.351906831352e-05
2.565323523883e-05
4.992156908944e-05
8.952556908944e-05
1.291295690894e-04
1.687335690894e-04
2.083375690894e-04
2.479415690894e-04
2.875455690894e-04
3.271495690894e-04
3.667535690894e-04
4.063575690894e-04
4.459615690894e-04
4.855655690894e-04
5.251695690894e-04
5.647735690894e-04
6.043775690894e-04
6.439815690894e-04
6.835855690894e-04
7.231895690894e-04
7.627935690894e-04
8.023975690894e-04
8.420015690894e-04
8.816055690894e-04
9.212095690894e-04
9.608135690894e-04
1.000417569089e-03
1.040021569089e-03
1.079625569089e-03
1.119229569089e-03
1.158833569089e-03
1.198437569089e-03
1.238041569089e-03
1.277645569089e-03
1.317249569089e-03
1.356853569089e-03
1.396457569089e-03
1.436061569089e-03
1.475665569089e-03
1.515269569089e-03
1.554873569089e-03
1.594477569089e-03
1.634081569089e-03
1.673685569089e-03
1.713289569089e-03
1.752893569089e-03
1.792497569089e-03
1.832101569089e-03
1.871705569089e-03
1.911309569089e-03
1.950913569089e-03
1.990517569089e-03
2.030121569089e-03
2.069725569089e-03
2.109329569089e-03
2.148933569089e-03
2.188537569089e-03
2.228141569089e-03
2.267745569089e-03
2.307349569089e-03
2.346953569089e-03
2.386557569089e-03
2.426161569089e-03
2.465765569089e-03
2.505369569089e-03
2.544973569089e-03
2.584577569089e-03
2.624181569089e-03
2.663785569089e-03
2.703389569089e-03
2.742993569089e-03
2.782597569089e-03
2.822201569089e-03
2.861805569089e-03
2.901409569089e-03
2.941013569089e-03
2.980617569089e-03
3.020221569089e-03
3.059825569089e-03
3.099429569089e-03
3.139033569089e-03
3.178637569089e-03
3.218241569089e-03
3.257845569089e-03
3.297449569089e-03
3.337053569089e-03
3.376657569089e-03
3.416261569089e-03
3.455865569089e-03
3.495469569089e-03
3.535073569089e-03
3.574677569089e-03
3.614281569089e-03
3.653885569089e-03
3.693489569089e-03
3.733093569089e-03
3.772697569089e-03
3.812301569089e-03
3.851905569089e-03
3.891509569089e-03
3.931113569089e-03
3.970717569089e-03
4.000000000000e-03
</indep>
<dep tran.v(vcc) time>
5.000000000000e+00
5.000000000000e+00
5.000000000000e+00
5.000000000000e+00
5.000000000000e+00
5.000000000000e+00
5.000000000000e+00
5.000000000000e+00
5.000000000000e+00
5.000000000000e+00
5.000000000000e+00
5.000000000000e+00
5.000000000000e+00
5.000000000000e+00
5.000000000000e+00
5.000000000000e+00
5.000000000000e+00
5.000000000000e+00
5.000000000000e+00
5.000000000000e+00
5.000000000000e+00
5.000000000000e+00
5.000000000000e+00
5.000000000000e+00
5.000000000000e+00
5.000000000000e+00
5.000000000000e+00
5.000000000000e+00
5.000000000000e+00
5.000000000000e+00
5.000000000000e+00
5.000000000000e+00
5.000000000000e+00
5.000000000000e+00
5.000000000000e+00
5.000000000000e+00
5.000000000000e+00
5.000000000000e+00
5.000000000000e+00
5.000000000000e+00
5.000000000000e+00
5.000000000000e+00
5.000000000000e+00
5.000000000000e+00
5.000000000000e+00
5.000000000000e+00
5.000000000000e+00
5.000000000000e+00
5.000000000000e+00
5.000000000000e+00
5.000000000000e+00
5.000000000000e+00
5.000000000000e+00
5.000000000000e+00
5.000000000000e+00
5.000000000000e+00
5.000000000000e+00
5.000000000000e+00
5.000000000000e+00
5.000000000000e+00
5.000000000000e+00
5.000000000000e+00
5.000000000000e+00
5.000000000000e+00
5.000000000000e+00
5.000000000000e+00
5.000000000000e+00
5.000000000000e+00
5.000000000000e+00
5.000000000000e+00
5.000000000000e+00
5.000000000000e+00
5.000000000000e+00
5.000000000000e+00
5.000000000000e+00
5.000000000000e+00
5.000000000000e+00
5.000000000000e+00
5.000000000000e+00
5.000000000000e+00
5.000000000000e+00
5.000000000000e+00
5.000000000000e+00
5.000000000000e+00
5.000000000000e+00
5.000000000000e+00
5.000000000000e+00
5.000000000000e+00
5.000000000000e+00
5.000000000000e+00
5.000000000000e+00
5.000000000000e+00
5.000000000000e+00
5.000000000000e+00
5.000000000000e+00
5.000000000000e+00
5.000000000000e+00
5.000000000000e+00
5.000000000000e+00
5.000000000000e+00
5.000000000000e+00
5.000000000000e+00
5.000000000000e+00
5.000000000000e+00
5.000000000000e+00
5.000000000000e+00
5.000000000000e+00
5.000000000000e+00
5.000000000000e+00
5.000000000000e+00
5.000000000000e+00
5.000000000000e+00
5.000000000000e+00
5.000000000000e+00
5.000000000000e+00
5.000000000000e+00
5.000000000000e+00
</dep>
<dep tran.v(vee) time>
-5.000000000000e+00
-5.000000000000e+00
-5.000000000000e+00
-5.000000000000e+00
-5.000000000000e+00
-5.000000000000e+00
-5.000000000000e+00
-5.000000000000e+00
-5.000000000000e+00
-5.000000000000e+00
-5.000000000000e+00
-5.000000000000e+00
-5.000000000000e+00
-5.000000000000e+00
-5.000000000000e+00
-5.000000000000e+00
-5.000000000000e+00
-5.000000000000e+00
-5.000000000000e+00
-5.000000000000e+00
-5.000000000000e+00
-5.000000000000e+00
-5.000000000000e+00
-5.000000000000e+00
-5.000000000000e+00
-5.000000000000e+00
-5.000000000000e+00
-5.000000000000e+00
-5.000000000000e+00
-5.000000000000e+00
-5.000000000000e+00
-5.000000000000e+00
-5.000000000000e+00
-5.000000000000e+00
-5.000000000000e+00
-5.000000000000e+00
-5.000000000000e+00
-5.000000000000e+00
-5.000000000000e+00
-5.000000000000e+00
-5.000000000000e+00
-5.000000000000e+00
-5.000000000000e+00
-5.000000000000e+00
-5.000000000000e+00
-5.000000000000e+00
-5.000000000000e+00
-5.000000000000e+00
-5.000000000000e+00
-5.000000000000e+00
-5.000000000000e+00
-5.000000000000e+00
-5.000000000000e+00
-5.000000000000e+00
-5.000000000000e+00
-5.000000000000e+00
-5.000000000000e+00
-5.000000000000e+00
-5.000000000000e+00
-5.000000000000e+00
-5.000000000000e+00
-5.000000000000e+00
-5.000000000000e+00
-5.000000000000e+00
-5.000000000000e+00
-5.000000000000e+00
-5.000000000000e+00
-5.000000000000e+00
-5.000000000000e+00
-5.000000000000e+00
-5.000000000000e+00
-5.000000000000e+00
-5.000000000000e+00
-5.000000000000e+00
-5.000000000000e+00
-5.000000000000e+00
-5.000000000000e+00
-5.000000000000e+00
-5.000000000000e+00
-5.000000000000e+00
-5.000000000000e+00
-5.000000000000e+00
-5.000000000000e+00
-5.000000000000e+00
-5.000000000000e+00
-5.000000000000e+00
-5.000000000000e+00
-5.000000000000e+00
-5.000000000000e+00
-5.000000000000e+00
-5.000000000000e+00
-5.000000000000e+00
-5.000000000000e+00
-5.000000000000e+00
-5.000000000000e+00
-5.000000000000e+00
-5.000000000000e+00
-5.000000000000e+00
-5.000000000000e+00
-5.000000000000e+00
-5.000000000000e+00
-5.000000000000e+00
-5.000000000000e+00
-5.000000000000e+00
-5.000000000000e+00
-5.000000000000e+00
-5.000000000000e+00
-5.000000000000e+00
-5.000000000000e+00
-5.000000000000e+00
-5.000000000000e+00
-5.000000000000e+00
-5.000000000000e+00
-5.000000000000e+00
-5.000000000000e+00
-5.000000000000e+00
-5.000000000000e+00
</dep>
<dep tran.v(vin) time>
0.000000000000e+00
2.488390140994e-04
2.566723900378e-04
2.723391371415e-04
3.036726109107e-04
3.663394659297e-04
4.790998129049e-04
6.707949293548e-04
8.589773367304e-04
1.054840785210e-03
1.317303596631e-03
1.823073446055e-03
2.775833090501e-03
4.680509540242e-03
8.484070052736e-03
1.604870021099e-02
3.085482800773e-02
5.333075294043e-02
7.252139020850e-02
8.724455579208e-02
9.659327141675e-02
9.999163634178e-02
9.723030406909e-02
8.847937853221e-02
7.427793533265e-02
5.550081353777e-02
3.330472373588e-02
9.056992207027e-03
-1.574866928036e-02
-3.958417928725e-02
-6.098121976658e-02
-7.862168757392e-02
-9.141889242100e-02
-9.858449930584e-02
-9.967709162336e-02
-9.462936336597e-02
-8.375226531653e-02
-6.771584981968e-02
-4.750799413408e-02
-2.437354509484e-02
2.623660957484e-04
2.488211497753e-02
4.796907272290e-02
6.810103369415e-02
8.403782633179e-02
9.479771035689e-02
9.971785405772e-02
9.849516613108e-02
9.120496675046e-02
7.829634768330e-02
6.056450728424e-02
3.910176458725e-02
1.523027013296e-02
-9.579441313177e-03
-3.379903882608e-02
-5.593654375244e-02
-7.462823876502e-02
-8.872267574674e-02
-9.735160744055e-02
-9.998347332483e-02
-9.645614487057e-02
-8.698691300319e-02
-7.215910251998e-02
-5.288613804345e-02
-3.035527512438e-02
-5.954462777938e-03
1.881315712391e-02
4.242184658460e-02
6.341726018455e-02
8.050603584819e-02
9.263546869521e-02
9.905835989727e-02
9.937904571304e-02
9.357777121505e-02
8.201190723529e-02
6.539393556273e-02
4.474755855178e-02
2.134463688269e-02
-3.373159757967e-03
-2.788316259238e-02
-5.067550338257e-02
-7.034612552109e-02
-8.568327690050e-02
-9.574215641714e-02
-9.990311572603e-02
-9.790983089516e-02
-8.988509250418e-02
-7.632324148388e-02
-5.805971666476e-02
-3.621958997048e-02
-1.214825959751e-02
1.267142937161e-02
3.671053137520e-02
5.848818666672e-02
7.666284542082e-02
9.011491005221e-02
9.801570480514e-02
9.987852394022e-02
9.558861384179e-02
8.541024208439e-02
6.997041798887e-02
5.022026751628e-02
2.737644188839e-02
2.846169288005e-03
-2.185943338626e-02
-4.521844853082e-02
-6.579191119429e-02
-8.231245237509e-02
-9.376237164408e-02
-9.943632965274e-02
-9.898479853528e-02
-9.243559356768e-02
-8.019215968755e-02
-6.300871842901e-02
-4.194380627413e-02
-1.829506655706e-02
-9.797174393179e-17
</dep>
<dep tran.v(vout) time>
5.031132462004e-01
5.029921429123e-01
5.029882050194e-01
5.029800727267e-01
5.029622547510e-01
5.029208011657e-01
5.028312745427e-01
5.026551811944e-01
5.024704230559e-01
5.022753684979e-01
5.020131055818e-01
5.015073452246e-01
5.005545481983e-01
4.986497569528e-01
4.948457364736e-01
4.872793134108e-01
4.724661048307e-01
4.499683807010e-01
4.307428359454e-01
4.159770663920e-01
4.065775009833e-01
4.031262644468e-01
4.058329550075e-01
4.145337634618e-01
4.286898551317e-01
4.474319571126e-01
4.696028194073e-01
4.938392925780e-01
5.186458035682e-01
5.424966996396e-01
5.639202965280e-01
5.815992037529e-01
5.944420767973e-01
6.016599919311e-01
6.028061501354e-01
5.978120513432e-01
5.869833002909e-01
5.709889610547e-01
5.508123858804e-01
5.276983730781e-01
5.030689656035e-01
4.784431608439e-01
4.553362320706e-01
4.351732915315e-01
4.191947882700e-01
4.083866170710e-01
4.034130462160e-01
4.045819558291e-01
4.118198876695e-01
4.246823829209e-01
4.423757149210e-01
4.638112684012e-01
4.876672741370e-01
5.124754049516e-01
5.367062061541e-01
5.588681894916e-01
5.775949795459e-01
5.917340801214e-01
6.004134118438e-01
6.030993608840e-01
5.996254517071e-01
5.902066748146e-01
5.754222908632e-01
5.561839788978e-01
5.336759582131e-01
5.092856420576e-01
4.845146766468e-01
4.608898241575e-01
4.398656288904e-01
4.227379956123e-01
4.105612770382e-01
4.040863089669e-01
4.037112650847e-01
4.094599286287e-01
4.209775155966e-01
4.375551544354e-01
4.581710135491e-01
4.815557060245e-01
5.062681086992e-01
5.307864386183e-01
5.535997746312e-01
5.733032841474e-01
5.886826862249e-01
5.987910623358e-01
6.030052485041e-01
6.010660966934e-01
5.930926291181e-01
5.795764516277e-01
5.613497841714e-01
5.395358194937e-01
5.154779647659e-01
4.906585964685e-01
4.666062873053e-01
4.448030463232e-01
4.265916735371e-01
4.130943410274e-01
4.051422134800e-01
4.032254496876e-01
4.074618506077e-01
4.175907137070e-01
4.329878249402e-01
4.527049359952e-01
4.755271951137e-01
5.000489270532e-01
5.247593226770e-01
5.481363734494e-01
5.687398033081e-01
5.853005849652e-01
5.967983586448e-01
6.025250107370e-01
6.021276056300e-01
5.956307834600e-01
5.834346159503e-01
5.662905555422e-01
5.452545785365e-01
5.216226715176e-01
5.033305383249e-01
</dep>
