<Qucs Dataset 24.2.1>
<indep time 115>
0.000000000000e+00
4.000000000000e-07
4.160190244299e-07
4.480570732897e-07
5.121331710092e-07
6.402853664483e-07
8.965897573265e-07
1.265622676291e-06
1.687372939985e-06
2.238288561188e-06
3.129038218190e-06
4.910537532194e-06
8.473536160201e-06
1.559953341622e-05
2.985152792825e-05
5.835551695231e-05
9.835551695231e-05
1.383555169523e-04
1.783555169523e-04
2.183555169523e-04
2.583555169523e-04
2.983555169523e-04
3.383555169523e-04
3.783555169523e-04
4.183555169523e-04
4.583555169523e-04
4.983555169523e-04
5.383555169523e-04
5.783555169523e-04
6.183555169523e-04
6.583555169523e-04
6.983555169523e-04
7.383555169523e-04
7.783555169523e-04
8.183555169523e-04
8.583555169523e-04
8.983555169523e-04
9.383555169523e-04
9.783555169523e-04
1.018355516952e-03
1.058355516952e-03
1.098355516952e-03
1.138355516952e-03
1.178355516952e-03
1.218355516952e-03
1.258355516952e-03
1.298355516952e-03
1.338355516952e-03
1.378355516952e-03
1.418355516952e-03
1.458355516952e-03
1.498355516952e-03
1.538355516952e-03
1.578355516952e-03
1.618355516952e-03
1.658355516952e-03
1.698355516952e-03
1.738355516952e-03
1.778355516952e-03
1.818355516952e-03
1.858355516952e-03
1.898355516952e-03
1.938355516952e-03
1.978355516952e-03
2.018355516952e-03
2.058355516952e-03
2.098355516952e-03
2.138355516952e-03
2.178355516952e-03
2.218355516952e-03
2.258355516952e-03
2.298355516952e-03
2.338355516952e-03
2.378355516952e-03
2.418355516952e-03
2.458355516952e-03
2.498355516952e-03
2.538355516952e-03
2.578355516952e-03
2.618355516952e-03
2.658355516952e-03
2.698355516952e-03
2.738355516952e-03
2.778355516952e-03
2.818355516952e-03
2.858355516952e-03
2.898355516952e-03
2.938355516952e-03
2.978355516952e-03
3.018355516952e-03
3.058355516952e-03
3.098355516952e-03
3.138355516952e-03
3.178355516952e-03
3.218355516952e-03
3.258355516952e-03
3.298355516952e-03
3.338355516952e-03
3.378355516952e-03
3.418355516952e-03
3.458355516952e-03
3.498355516952e-03
3.538355516952e-03
3.578355516952e-03
3.618355516952e-03
3.658355516952e-03
3.698355516952e-03
3.738355516952e-03
3.778355516952e-03
3.818355516952e-03
3.858355516952e-03
3.898355516952e-03
3.938355516952e-03
3.978355516952e-03
4.000000000000e-03
</indep>
<dep tran.v(vcc) time>
5.000000000000e+00
5.000000000000e+00
5.000000000000e+00
5.000000000000e+00
5.000000000000e+00
5.000000000000e+00
5.000000000000e+00
5.000000000000e+00
5.000000000000e+00
5.000000000000e+00
5.000000000000e+00
5.000000000000e+00
5.000000000000e+00
5.000000000000e+00
5.000000000000e+00
5.000000000000e+00
5.000000000000e+00
5.000000000000e+00
5.000000000000e+00
5.000000000000e+00
5.000000000000e+00
5.000000000000e+00
5.000000000000e+00
5.000000000000e+00
5.000000000000e+00
5.000000000000e+00
5.000000000000e+00
5.000000000000e+00
5.000000000000e+00
5.000000000000e+00
5.000000000000e+00
5.000000000000e+00
5.000000000000e+00
5.000000000000e+00
5.000000000000e+00
5.000000000000e+00
5.000000000000e+00
5.000000000000e+00
5.000000000000e+00
5.000000000000e+00
5.000000000000e+00
5.000000000000e+00
5.000000000000e+00
5.000000000000e+00
5.000000000000e+00
5.000000000000e+00
5.000000000000e+00
5.000000000000e+00
5.000000000000e+00
5.000000000000e+00
5.000000000000e+00
5.000000000000e+00
5.000000000000e+00
5.000000000000e+00
5.000000000000e+00
5.000000000000e+00
5.000000000000e+00
5.000000000000e+00
5.000000000000e+00
5.000000000000e+00
5.000000000000e+00
5.000000000000e+00
5.000000000000e+00
5.000000000000e+00
5.000000000000e+00
5.000000000000e+00
5.000000000000e+00
5.000000000000e+00
5.000000000000e+00
5.000000000000e+00
5.000000000000e+00
5.000000000000e+00
5.000000000000e+00
5.000000000000e+00
5.000000000000e+00
5.000000000000e+00
5.000000000000e+00
5.000000000000e+00
5.000000000000e+00
5.000000000000e+00
5.000000000000e+00
5.000000000000e+00
5.000000000000e+00
5.000000000000e+00
5.000000000000e+00
5.000000000000e+00
5.000000000000e+00
5.000000000000e+00
5.000000000000e+00
5.000000000000e+00
5.000000000000e+00
5.000000000000e+00
5.000000000000e+00
5.000000000000e+00
5.000000000000e+00
5.000000000000e+00
5.000000000000e+00
5.000000000000e+00
5.000000000000e+00
5.000000000000e+00
5.000000000000e+00
5.000000000000e+00
5.000000000000e+00
5.000000000000e+00
5.000000000000e+00
5.000000000000e+00
5.000000000000e+00
5.000000000000e+00
5.000000000000e+00
5.000000000000e+00
5.000000000000e+00
5.000000000000e+00
5.000000000000e+00
5.000000000000e+00
5.000000000000e+00
</dep>
<dep tran.v(vee) time>
-5.000000000000e+00
-5.000000000000e+00
-5.000000000000e+00
-5.000000000000e+00
-5.000000000000e+00
-5.000000000000e+00
-5.000000000000e+00
-5.000000000000e+00
-5.000000000000e+00
-5.000000000000e+00
-5.000000000000e+00
-5.000000000000e+00
-5.000000000000e+00
-5.000000000000e+00
-5.000000000000e+00
-5.000000000000e+00
-5.000000000000e+00
-5.000000000000e+00
-5.000000000000e+00
-5.000000000000e+00
-5.000000000000e+00
-5.000000000000e+00
-5.000000000000e+00
-5.000000000000e+00
-5.000000000000e+00
-5.000000000000e+00
-5.000000000000e+00
-5.000000000000e+00
-5.000000000000e+00
-5.000000000000e+00
-5.000000000000e+00
-5.000000000000e+00
-5.000000000000e+00
-5.000000000000e+00
-5.000000000000e+00
-5.000000000000e+00
-5.000000000000e+00
-5.000000000000e+00
-5.000000000000e+00
-5.000000000000e+00
-5.000000000000e+00
-5.000000000000e+00
-5.000000000000e+00
-5.000000000000e+00
-5.000000000000e+00
-5.000000000000e+00
-5.000000000000e+00
-5.000000000000e+00
-5.000000000000e+00
-5.000000000000e+00
-5.000000000000e+00
-5.000000000000e+00
-5.000000000000e+00
-5.000000000000e+00
-5.000000000000e+00
-5.000000000000e+00
-5.000000000000e+00
-5.000000000000e+00
-5.000000000000e+00
-5.000000000000e+00
-5.000000000000e+00
-5.000000000000e+00
-5.000000000000e+00
-5.000000000000e+00
-5.000000000000e+00
-5.000000000000e+00
-5.000000000000e+00
-5.000000000000e+00
-5.000000000000e+00
-5.000000000000e+00
-5.000000000000e+00
-5.000000000000e+00
-5.000000000000e+00
-5.000000000000e+00
-5.000000000000e+00
-5.000000000000e+00
-5.000000000000e+00
-5.000000000000e+00
-5.000000000000e+00
-5.000000000000e+00
-5.000000000000e+00
-5.000000000000e+00
-5.000000000000e+00
-5.000000000000e+00
-5.000000000000e+00
-5.000000000000e+00
-5.000000000000e+00
-5.000000000000e+00
-5.000000000000e+00
-5.000000000000e+00
-5.000000000000e+00
-5.000000000000e+00
-5.000000000000e+00
-5.000000000000e+00
-5.000000000000e+00
-5.000000000000e+00
-5.000000000000e+00
-5.000000000000e+00
-5.000000000000e+00
-5.000000000000e+00
-5.000000000000e+00
-5.000000000000e+00
-5.000000000000e+00
-5.000000000000e+00
-5.000000000000e+00
-5.000000000000e+00
-5.000000000000e+00
-5.000000000000e+00
-5.000000000000e+00
-5.000000000000e+00
-5.000000000000e+00
-5.000000000000e+00
-5.000000000000e+00
-5.000000000000e+00
-5.000000000000e+00
</dep>
<dep tran.v(vin) time>
0.000000000000e+00
2.513271477004e-04
2.613921645155e-04
2.815221900997e-04
3.217822062287e-04
4.023020754896e-04
5.633409793045e-04
7.952057993353e-04
1.060187824600e-03
1.406311821278e-03
1.965906043664e-03
3.084892224906e-03
5.321564889336e-03
9.785789830837e-03
1.864648794696e-02
3.584980720407e-02
5.793947823157e-02
7.638859875529e-02
9.003794268160e-02
9.802987153283e-02
9.986222302701e-02
9.541986378084e-02
8.498192356360e-02
6.920425654721e-02
4.907823157651e-02
2.586844081874e-02
1.033240786868e-03
-2.386688156364e-02
-4.726735996926e-02
-6.769785631081e-02
-8.387464736506e-02
-9.478128585599e-02
-9.973246757540e-02
-9.841709156669e-02
-9.091780774210e-02
-7.770582368477e-02
-5.961129694329e-02
-3.777117317985e-02
-1.355774769287e-02
1.150756094357e-02
3.584980720407e-02
5.793947823157e-02
7.638859875529e-02
9.003794268160e-02
9.802987153283e-02
9.986222302701e-02
9.541986378084e-02
8.498192356360e-02
6.920425654721e-02
4.907823157651e-02
2.586844081874e-02
1.033240786867e-03
-2.386688156364e-02
-4.726735996926e-02
-6.769785631081e-02
-8.387464736506e-02
-9.478128585599e-02
-9.973246757540e-02
-9.841709156669e-02
-9.091780774210e-02
-7.770582368476e-02
-5.961129694329e-02
-3.777117317985e-02
-1.355774769287e-02
1.150756094357e-02
3.584980720407e-02
5.793947823158e-02
7.638859875529e-02
9.003794268160e-02
9.802987153283e-02
9.986222302701e-02
9.541986378084e-02
8.498192356360e-02
6.920425654721e-02
4.907823157651e-02
2.586844081874e-02
1.033240786866e-03
-2.386688156364e-02
-4.726735996926e-02
-6.769785631082e-02
-8.387464736506e-02
-9.478128585599e-02
-9.973246757540e-02
-9.841709156669e-02
-9.091780774210e-02
-7.770582368476e-02
-5.961129694329e-02
-3.777117317985e-02
-1.355774769286e-02
1.150756094357e-02
3.584980720407e-02
5.793947823158e-02
7.638859875529e-02
9.003794268160e-02
9.802987153283e-02
9.986222302701e-02
9.541986378084e-02
8.498192356360e-02
6.920425654721e-02
4.907823157651e-02
2.586844081874e-02
1.033240786864e-03
-2.386688156365e-02
-4.726735996926e-02
-6.769785631082e-02
-8.387464736506e-02
-9.478128585599e-02
-9.973246757540e-02
-9.841709156669e-02
-9.091780774210e-02
-7.770582368476e-02
-5.961129694329e-02
-3.777117317985e-02
-1.355774769286e-02
-9.797174393179e-17
</dep>
<dep tran.v(vout) time>
8.362139850976e-04
1.089071028563e-03
1.099613609941e-03
1.121543375821e-03
1.170447758799e-03
1.286401882496e-03
1.567050815199e-03
2.020978369490e-03
2.552747007000e-03
3.245079794724e-03
4.364123266333e-03
6.602203112182e-03
1.107564552472e-02
2.000507066673e-02
3.773048220554e-02
7.215426368227e-02
1.163790400647e-01
1.533453375311e-01
1.807274342609e-01
1.968077413395e-01
2.005730168259e-01
1.917894789394e-01
1.710062993070e-01
1.395320407072e-01
9.934173262568e-02
5.296323498577e-02
3.308175884965e-03
-4.650099761847e-02
-9.333698542967e-02
-1.342545814082e-01
-1.666850646602e-01
-1.885884799598e-01
-1.985907280427e-01
-1.960611992749e-01
-1.811609039745e-01
-1.548240493305e-01
-1.187074544980e-01
-7.507852424249e-02
-2.668051560872e-02
2.344738438771e-02
7.215365051797e-02
1.163796391984e-01
1.533447520650e-01
1.807280063133e-01
1.968071824291e-01
2.005735628620e-01
1.917889455150e-01
1.710068203762e-01
1.395315317436e-01
9.934222972638e-02
5.296274951285e-02
3.308649957975e-03
-4.650146051234e-02
-9.333653350062e-02
-1.342550225807e-01
-1.666846340409e-01
-1.885889002245e-01
-1.985903179375e-01
-1.960615994126e-01
-1.811605136147e-01
-1.548244301001e-01
-1.187070831324e-01
-7.507888638911e-02
-2.668016249724e-02
2.344704012841e-02
7.215398610694e-02
1.163793120992e-01
1.533450708536e-01
1.807276956583e-01
1.968074851252e-01
2.005732679533e-01
1.917892328046e-01
1.710065405415e-01
1.395318042833e-01
9.934196432616e-02
5.296300792448e-02
3.308398388547e-03
-4.650121564301e-02
-9.333677180790e-02
-1.342547907011e-01
-1.666848596241e-01
-1.885886808095e-01
-1.985905313102e-01
-1.960613919583e-01
-1.811607152726e-01
-1.548242341180e-01
-1.187072735580e-01
-7.507870140183e-02
-2.668034216333e-02
2.344721458942e-02
7.215381673597e-02
1.163794764940e-01
1.533449113224e-01
1.807278504368e-01
1.968073349901e-01
2.005734135521e-01
1.917890916371e-01
1.710066773800e-01
1.395316716741e-01
9.934209280327e-02
5.296288348523e-02
3.308518881568e-03
-4.650133227890e-02
-9.333665894248e-02
-1.342548998805e-01
-1.666847540481e-01
-1.885887828628e-01
-1.985904327004e-01
-1.960614872024e-01
-1.811606233176e-01
-1.548243228593e-01
-1.187071879559e-01
-7.507878393818e-02
-2.668026262011e-02
4.332484958518e-04
</dep>
<indep v(vcc) 1>
5.000000000000e+00+j0.000000000000e+00
</indep>
<indep v(vee) 1>
-5.000000000000e+00+j0.000000000000e+00
</indep>
<indep v(vin) 1>
0.000000000000e+00+j0.000000000000e+00
</indep>
<indep v(vout) 1>
8.362140000000e-04+j0.000000000000e+00
</indep>
