<Qucs Dataset 0.0.22>
<indep time 417>
0.000000000000e+00
9.975060000000e-08
1.203693890099e-07
1.616069670296e-07
2.440821230690e-07
3.437317527424e-07
4.472292843551e-07
6.453306786682e-07
8.259490949323e-07
1.033545369146e-06
1.260092576394e-06
1.606942255616e-06
2.081198481171e-06
2.909712203129e-06
4.389059220436e-06
7.347753255050e-06
1.326514132428e-05
2.324020132428e-05
3.321526132428e-05
4.319032132428e-05
5.316538132428e-05
6.314044132428e-05
7.311550132428e-05
8.309056132428e-05
9.306562132428e-05
1.030406813243e-04
1.130157413243e-04
1.229908013243e-04
1.329658613243e-04
1.429409213243e-04
1.529159813243e-04
1.628910413243e-04
1.728661013243e-04
1.828411613243e-04
1.928162213243e-04
2.027912813243e-04
2.127663413243e-04
2.227414013243e-04
2.327164613243e-04
2.426915213243e-04
2.526665813243e-04
2.626416413243e-04
2.726167013243e-04
2.825917613243e-04
2.925668213243e-04
3.025418813243e-04
3.125169413243e-04
3.224920013243e-04
3.324670613243e-04
3.424421213243e-04
3.524171813243e-04
3.623922413243e-04
3.723673013243e-04
3.823423613243e-04
3.923174213243e-04
4.022924813243e-04
4.122675413243e-04
4.222426013243e-04
4.322176613243e-04
4.421927213243e-04
4.521677813243e-04
4.621428413243e-04
4.721179013243e-04
4.820929613243e-04
4.920680213243e-04
5.020430813243e-04
5.120181413243e-04
5.219932013243e-04
5.319682613243e-04
5.419433213243e-04
5.519183813243e-04
5.618934413243e-04
5.718685013243e-04
5.818435613243e-04
5.918186213243e-04
6.017936813243e-04
6.117687413243e-04
6.217438013243e-04
6.317188613243e-04
6.416939213243e-04
6.516689813243e-04
6.616440413243e-04
6.716191013243e-04
6.815941613243e-04
6.915692213243e-04
7.015442813243e-04
7.115193413243e-04
7.214944013243e-04
7.314694613243e-04
7.414445213243e-04
7.514195813243e-04
7.613946413243e-04
7.713697013243e-04
7.813447613243e-04
7.913198213243e-04
8.012948813243e-04
8.112699413243e-04
8.212450013243e-04
8.312200613243e-04
8.411951213243e-04
8.511701813243e-04
8.611452413243e-04
8.711203013243e-04
8.810953613243e-04
8.910704213243e-04
9.010454813243e-04
9.110205413243e-04
9.209956013243e-04
9.309706613243e-04
9.409457213243e-04
9.509207813243e-04
9.608958413243e-04
9.708709013243e-04
9.808459613243e-04
9.908210213243e-04
1.000796081324e-03
1.010771141324e-03
1.020746201324e-03
1.030721261324e-03
1.040696321324e-03
1.050671381324e-03
1.060646441324e-03
1.070621501324e-03
1.080596561324e-03
1.090571621324e-03
1.100546681324e-03
1.110521741324e-03
1.120496801324e-03
1.130471861324e-03
1.140446921324e-03
1.150421981324e-03
1.160397041324e-03
1.170372101324e-03
1.180347161324e-03
1.190322221324e-03
1.200297281324e-03
1.210272341324e-03
1.220247401324e-03
1.230222461324e-03
1.240197521324e-03
1.250172581324e-03
1.260147641324e-03
1.270122701324e-03
1.280097761324e-03
1.290072821324e-03
1.300047881324e-03
1.310022941324e-03
1.319998001324e-03
1.329973061324e-03
1.339948121324e-03
1.349923181324e-03
1.359898241324e-03
1.369873301324e-03
1.379848361324e-03
1.389823421324e-03
1.399798481324e-03
1.409773541324e-03
1.419748601324e-03
1.429723661324e-03
1.439698721324e-03
1.449673781324e-03
1.459648841324e-03
1.469623901324e-03
1.479598961324e-03
1.489574021324e-03
1.499549081324e-03
1.509524141324e-03
1.519499201324e-03
1.529474261324e-03
1.539449321324e-03
1.549424381324e-03
1.559399441324e-03
1.569374501324e-03
1.579349561324e-03
1.589324621324e-03
1.599299681324e-03
1.609274741324e-03
1.619249801324e-03
1.629224861324e-03
1.639199921324e-03
1.649174981324e-03
1.659150041324e-03
1.669125101324e-03
1.679100161324e-03
1.689075221324e-03
1.699050281324e-03
1.709025341324e-03
1.719000401324e-03
1.728975461324e-03
1.738950521324e-03
1.748925581324e-03
1.758900641324e-03
1.768875701324e-03
1.778850761324e-03
1.788825821324e-03
1.798800881324e-03
1.808775941324e-03
1.818751001324e-03
1.828726061324e-03
1.838701121324e-03
1.848676181324e-03
1.858651241324e-03
1.868626301324e-03
1.878601361324e-03
1.888576421324e-03
1.898551481324e-03
1.908526541324e-03
1.918501601324e-03
1.928476661324e-03
1.938451721324e-03
1.948426781324e-03
1.958401841324e-03
1.968376901324e-03
1.978351961324e-03
1.988327021324e-03
1.998302081324e-03
2.008277141324e-03
2.018252201324e-03
2.028227261324e-03
2.038202321324e-03
2.048177381324e-03
2.058152441324e-03
2.068127501324e-03
2.078102561324e-03
2.088077621324e-03
2.098052681324e-03
2.108027741324e-03
2.118002801324e-03
2.127977861324e-03
2.137952921324e-03
2.147927981324e-03
2.157903041324e-03
2.167878101324e-03
2.177853161324e-03
2.187828221324e-03
2.197803281324e-03
2.207778341324e-03
2.217753401324e-03
2.227728461324e-03
2.237703521324e-03
2.247678581324e-03
2.257653641324e-03
2.267628701324e-03
2.277603761324e-03
2.287578821324e-03
2.297553881324e-03
2.307528941324e-03
2.317504001324e-03
2.327479061324e-03
2.337454121324e-03
2.347429181324e-03
2.357404241324e-03
2.367379301324e-03
2.377354361324e-03
2.387329421324e-03
2.397304481324e-03
2.407279541324e-03
2.417254601324e-03
2.427229661324e-03
2.437204721324e-03
2.447179781324e-03
2.457154841324e-03
2.467129901324e-03
2.477104961324e-03
2.487080021324e-03
2.497055081324e-03
2.507030141324e-03
2.517005201324e-03
2.526980261324e-03
2.536955321324e-03
2.546930381324e-03
2.556905441324e-03
2.566880501324e-03
2.576855561324e-03
2.586830621324e-03
2.596805681324e-03
2.606780741324e-03
2.616755801324e-03
2.626730861324e-03
2.636705921324e-03
2.646680981324e-03
2.656656041324e-03
2.666631101324e-03
2.676606161324e-03
2.686581221324e-03
2.696556281324e-03
2.706531341324e-03
2.716506401324e-03
2.726481461324e-03
2.736456521324e-03
2.746431581324e-03
2.756406641324e-03
2.766381701324e-03
2.776356761324e-03
2.786331821324e-03
2.796306881324e-03
2.806281941324e-03
2.816257001324e-03
2.826232061324e-03
2.836207121324e-03
2.846182181324e-03
2.856157241324e-03
2.866132301324e-03
2.876107361324e-03
2.886082421324e-03
2.896057481324e-03
2.906032541324e-03
2.916007601324e-03
2.925982661324e-03
2.935957721324e-03
2.945932781324e-03
2.955907841324e-03
2.965882901324e-03
2.975857961324e-03
2.985833021324e-03
2.995808081324e-03
3.005783141324e-03
3.015758201324e-03
3.025733261324e-03
3.035708321324e-03
3.045683381324e-03
3.055658441324e-03
3.065633501324e-03
3.075608561324e-03
3.085583621324e-03
3.095558681324e-03
3.105533741324e-03
3.115508801324e-03
3.125483861324e-03
3.135458921324e-03
3.145433981324e-03
3.155409041324e-03
3.165384101324e-03
3.175359161324e-03
3.185334221324e-03
3.195309281324e-03
3.205284341324e-03
3.215259401324e-03
3.225234461324e-03
3.235209521324e-03
3.245184581324e-03
3.255159641324e-03
3.265134701324e-03
3.275109761324e-03
3.285084821324e-03
3.295059881324e-03
3.305034941324e-03
3.315010001324e-03
3.324985061324e-03
3.334960121324e-03
3.344935181324e-03
3.354910241324e-03
3.364885301324e-03
3.374860361324e-03
3.384835421324e-03
3.394810481324e-03
3.404785541324e-03
3.414760601324e-03
3.424735661324e-03
3.434710721324e-03
3.444685781324e-03
3.454660841324e-03
3.464635901324e-03
3.474610961324e-03
3.484586021324e-03
3.494561081324e-03
3.504536141324e-03
3.514511201324e-03
3.524486261324e-03
3.534461321324e-03
3.544436381324e-03
3.554411441324e-03
3.564386501324e-03
3.574361561324e-03
3.584336621324e-03
3.594311681324e-03
3.604286741324e-03
3.614261801324e-03
3.624236861324e-03
3.634211921324e-03
3.644186981324e-03
3.654162041324e-03
3.664137101324e-03
3.674112161324e-03
3.684087221324e-03
3.694062281324e-03
3.704037341324e-03
3.714012401324e-03
3.723987461324e-03
3.733962521324e-03
3.743937581324e-03
3.753912641324e-03
3.763887701324e-03
3.773862761324e-03
3.783837821324e-03
3.793812881324e-03
3.803787941324e-03
3.813763001324e-03
3.823738061324e-03
3.833713121324e-03
3.843688181324e-03
3.853663241324e-03
3.863638301324e-03
3.873613361324e-03
3.883588421324e-03
3.893563481324e-03
3.903538541324e-03
3.913513601324e-03
3.923488661324e-03
3.933463721324e-03
3.943438781324e-03
3.953413841324e-03
3.963388901324e-03
3.973363961324e-03
3.983339021324e-03
3.993314081324e-03
4.000000000000e-03
</indep>
<dep tran.v(vcc) time>
5.000000000000e+00
5.000000000000e+00
5.000000000000e+00
5.000000000000e+00
5.000000000000e+00
5.000000000000e+00
5.000000000000e+00
5.000000000000e+00
5.000000000000e+00
5.000000000000e+00
5.000000000000e+00
5.000000000000e+00
5.000000000000e+00
5.000000000000e+00
5.000000000000e+00
5.000000000000e+00
5.000000000000e+00
5.000000000000e+00
5.000000000000e+00
5.000000000000e+00
5.000000000000e+00
5.000000000000e+00
5.000000000000e+00
5.000000000000e+00
5.000000000000e+00
5.000000000000e+00
5.000000000000e+00
5.000000000000e+00
5.000000000000e+00
5.000000000000e+00
5.000000000000e+00
5.000000000000e+00
5.000000000000e+00
5.000000000000e+00
5.000000000000e+00
5.000000000000e+00
5.000000000000e+00
5.000000000000e+00
5.000000000000e+00
5.000000000000e+00
5.000000000000e+00
5.000000000000e+00
5.000000000000e+00
5.000000000000e+00
5.000000000000e+00
5.000000000000e+00
5.000000000000e+00
5.000000000000e+00
5.000000000000e+00
5.000000000000e+00
5.000000000000e+00
5.000000000000e+00
5.000000000000e+00
5.000000000000e+00
5.000000000000e+00
5.000000000000e+00
5.000000000000e+00
5.000000000000e+00
5.000000000000e+00
5.000000000000e+00
5.000000000000e+00
5.000000000000e+00
5.000000000000e+00
5.000000000000e+00
5.000000000000e+00
5.000000000000e+00
5.000000000000e+00
5.000000000000e+00
5.000000000000e+00
5.000000000000e+00
5.000000000000e+00
5.000000000000e+00
5.000000000000e+00
5.000000000000e+00
5.000000000000e+00
5.000000000000e+00
5.000000000000e+00
5.000000000000e+00
5.000000000000e+00
5.000000000000e+00
5.000000000000e+00
5.000000000000e+00
5.000000000000e+00
5.000000000000e+00
5.000000000000e+00
5.000000000000e+00
5.000000000000e+00
5.000000000000e+00
5.000000000000e+00
5.000000000000e+00
5.000000000000e+00
5.000000000000e+00
5.000000000000e+00
5.000000000000e+00
5.000000000000e+00
5.000000000000e+00
5.000000000000e+00
5.000000000000e+00
5.000000000000e+00
5.000000000000e+00
5.000000000000e+00
5.000000000000e+00
5.000000000000e+00
5.000000000000e+00
5.000000000000e+00
5.000000000000e+00
5.000000000000e+00
5.000000000000e+00
5.000000000000e+00
5.000000000000e+00
5.000000000000e+00
5.000000000000e+00
5.000000000000e+00
5.000000000000e+00
5.000000000000e+00
5.000000000000e+00
5.000000000000e+00
5.000000000000e+00
5.000000000000e+00
5.000000000000e+00
5.000000000000e+00
5.000000000000e+00
5.000000000000e+00
5.000000000000e+00
5.000000000000e+00
5.000000000000e+00
5.000000000000e+00
5.000000000000e+00
5.000000000000e+00
5.000000000000e+00
5.000000000000e+00
5.000000000000e+00
5.000000000000e+00
5.000000000000e+00
5.000000000000e+00
5.000000000000e+00
5.000000000000e+00
5.000000000000e+00
5.000000000000e+00
5.000000000000e+00
5.000000000000e+00
5.000000000000e+00
5.000000000000e+00
5.000000000000e+00
5.000000000000e+00
5.000000000000e+00
5.000000000000e+00
5.000000000000e+00
5.000000000000e+00
5.000000000000e+00
5.000000000000e+00
5.000000000000e+00
5.000000000000e+00
5.000000000000e+00
5.000000000000e+00
5.000000000000e+00
5.000000000000e+00
5.000000000000e+00
5.000000000000e+00
5.000000000000e+00
5.000000000000e+00
5.000000000000e+00
5.000000000000e+00
5.000000000000e+00
5.000000000000e+00
5.000000000000e+00
5.000000000000e+00
5.000000000000e+00
5.000000000000e+00
5.000000000000e+00
5.000000000000e+00
5.000000000000e+00
5.000000000000e+00
5.000000000000e+00
5.000000000000e+00
5.000000000000e+00
5.000000000000e+00
5.000000000000e+00
5.000000000000e+00
5.000000000000e+00
5.000000000000e+00
5.000000000000e+00
5.000000000000e+00
5.000000000000e+00
5.000000000000e+00
5.000000000000e+00
5.000000000000e+00
5.000000000000e+00
5.000000000000e+00
5.000000000000e+00
5.000000000000e+00
5.000000000000e+00
5.000000000000e+00
5.000000000000e+00
5.000000000000e+00
5.000000000000e+00
5.000000000000e+00
5.000000000000e+00
5.000000000000e+00
5.000000000000e+00
5.000000000000e+00
5.000000000000e+00
5.000000000000e+00
5.000000000000e+00
5.000000000000e+00
5.000000000000e+00
5.000000000000e+00
5.000000000000e+00
5.000000000000e+00
5.000000000000e+00
5.000000000000e+00
5.000000000000e+00
5.000000000000e+00
5.000000000000e+00
5.000000000000e+00
5.000000000000e+00
5.000000000000e+00
5.000000000000e+00
5.000000000000e+00
5.000000000000e+00
5.000000000000e+00
5.000000000000e+00
5.000000000000e+00
5.000000000000e+00
5.000000000000e+00
5.000000000000e+00
5.000000000000e+00
5.000000000000e+00
5.000000000000e+00
5.000000000000e+00
5.000000000000e+00
5.000000000000e+00
5.000000000000e+00
5.000000000000e+00
5.000000000000e+00
5.000000000000e+00
5.000000000000e+00
5.000000000000e+00
5.000000000000e+00
5.000000000000e+00
5.000000000000e+00
5.000000000000e+00
5.000000000000e+00
5.000000000000e+00
5.000000000000e+00
5.000000000000e+00
5.000000000000e+00
5.000000000000e+00
5.000000000000e+00
5.000000000000e+00
5.000000000000e+00
5.000000000000e+00
5.000000000000e+00
5.000000000000e+00
5.000000000000e+00
5.000000000000e+00
5.000000000000e+00
5.000000000000e+00
5.000000000000e+00
5.000000000000e+00
5.000000000000e+00
5.000000000000e+00
5.000000000000e+00
5.000000000000e+00
5.000000000000e+00
5.000000000000e+00
5.000000000000e+00
5.000000000000e+00
5.000000000000e+00
5.000000000000e+00
5.000000000000e+00
5.000000000000e+00
5.000000000000e+00
5.000000000000e+00
5.000000000000e+00
5.000000000000e+00
5.000000000000e+00
5.000000000000e+00
5.000000000000e+00
5.000000000000e+00
5.000000000000e+00
5.000000000000e+00
5.000000000000e+00
5.000000000000e+00
5.000000000000e+00
5.000000000000e+00
5.000000000000e+00
5.000000000000e+00
5.000000000000e+00
5.000000000000e+00
5.000000000000e+00
5.000000000000e+00
5.000000000000e+00
5.000000000000e+00
5.000000000000e+00
5.000000000000e+00
5.000000000000e+00
5.000000000000e+00
5.000000000000e+00
5.000000000000e+00
5.000000000000e+00
5.000000000000e+00
5.000000000000e+00
5.000000000000e+00
5.000000000000e+00
5.000000000000e+00
5.000000000000e+00
5.000000000000e+00
5.000000000000e+00
5.000000000000e+00
5.000000000000e+00
5.000000000000e+00
5.000000000000e+00
5.000000000000e+00
5.000000000000e+00
5.000000000000e+00
5.000000000000e+00
5.000000000000e+00
5.000000000000e+00
5.000000000000e+00
5.000000000000e+00
5.000000000000e+00
5.000000000000e+00
5.000000000000e+00
5.000000000000e+00
5.000000000000e+00
5.000000000000e+00
5.000000000000e+00
5.000000000000e+00
5.000000000000e+00
5.000000000000e+00
5.000000000000e+00
5.000000000000e+00
5.000000000000e+00
5.000000000000e+00
5.000000000000e+00
5.000000000000e+00
5.000000000000e+00
5.000000000000e+00
5.000000000000e+00
5.000000000000e+00
5.000000000000e+00
5.000000000000e+00
5.000000000000e+00
5.000000000000e+00
5.000000000000e+00
5.000000000000e+00
5.000000000000e+00
5.000000000000e+00
5.000000000000e+00
5.000000000000e+00
5.000000000000e+00
5.000000000000e+00
5.000000000000e+00
5.000000000000e+00
5.000000000000e+00
5.000000000000e+00
5.000000000000e+00
5.000000000000e+00
5.000000000000e+00
5.000000000000e+00
5.000000000000e+00
5.000000000000e+00
5.000000000000e+00
5.000000000000e+00
5.000000000000e+00
5.000000000000e+00
5.000000000000e+00
5.000000000000e+00
5.000000000000e+00
5.000000000000e+00
5.000000000000e+00
5.000000000000e+00
5.000000000000e+00
5.000000000000e+00
5.000000000000e+00
5.000000000000e+00
5.000000000000e+00
5.000000000000e+00
5.000000000000e+00
5.000000000000e+00
5.000000000000e+00
5.000000000000e+00
5.000000000000e+00
5.000000000000e+00
5.000000000000e+00
5.000000000000e+00
5.000000000000e+00
5.000000000000e+00
5.000000000000e+00
5.000000000000e+00
5.000000000000e+00
5.000000000000e+00
5.000000000000e+00
5.000000000000e+00
5.000000000000e+00
5.000000000000e+00
5.000000000000e+00
5.000000000000e+00
5.000000000000e+00
5.000000000000e+00
5.000000000000e+00
5.000000000000e+00
5.000000000000e+00
5.000000000000e+00
5.000000000000e+00
5.000000000000e+00
5.000000000000e+00
5.000000000000e+00
5.000000000000e+00
5.000000000000e+00
5.000000000000e+00
5.000000000000e+00
5.000000000000e+00
5.000000000000e+00
5.000000000000e+00
5.000000000000e+00
</dep>
<dep tran.v(vee) time>
-5.000000000000e+00
-5.000000000000e+00
-5.000000000000e+00
-5.000000000000e+00
-5.000000000000e+00
-5.000000000000e+00
-5.000000000000e+00
-5.000000000000e+00
-5.000000000000e+00
-5.000000000000e+00
-5.000000000000e+00
-5.000000000000e+00
-5.000000000000e+00
-5.000000000000e+00
-5.000000000000e+00
-5.000000000000e+00
-5.000000000000e+00
-5.000000000000e+00
-5.000000000000e+00
-5.000000000000e+00
-5.000000000000e+00
-5.000000000000e+00
-5.000000000000e+00
-5.000000000000e+00
-5.000000000000e+00
-5.000000000000e+00
-5.000000000000e+00
-5.000000000000e+00
-5.000000000000e+00
-5.000000000000e+00
-5.000000000000e+00
-5.000000000000e+00
-5.000000000000e+00
-5.000000000000e+00
-5.000000000000e+00
-5.000000000000e+00
-5.000000000000e+00
-5.000000000000e+00
-5.000000000000e+00
-5.000000000000e+00
-5.000000000000e+00
-5.000000000000e+00
-5.000000000000e+00
-5.000000000000e+00
-5.000000000000e+00
-5.000000000000e+00
-5.000000000000e+00
-5.000000000000e+00
-5.000000000000e+00
-5.000000000000e+00
-5.000000000000e+00
-5.000000000000e+00
-5.000000000000e+00
-5.000000000000e+00
-5.000000000000e+00
-5.000000000000e+00
-5.000000000000e+00
-5.000000000000e+00
-5.000000000000e+00
-5.000000000000e+00
-5.000000000000e+00
-5.000000000000e+00
-5.000000000000e+00
-5.000000000000e+00
-5.000000000000e+00
-5.000000000000e+00
-5.000000000000e+00
-5.000000000000e+00
-5.000000000000e+00
-5.000000000000e+00
-5.000000000000e+00
-5.000000000000e+00
-5.000000000000e+00
-5.000000000000e+00
-5.000000000000e+00
-5.000000000000e+00
-5.000000000000e+00
-5.000000000000e+00
-5.000000000000e+00
-5.000000000000e+00
-5.000000000000e+00
-5.000000000000e+00
-5.000000000000e+00
-5.000000000000e+00
-5.000000000000e+00
-5.000000000000e+00
-5.000000000000e+00
-5.000000000000e+00
-5.000000000000e+00
-5.000000000000e+00
-5.000000000000e+00
-5.000000000000e+00
-5.000000000000e+00
-5.000000000000e+00
-5.000000000000e+00
-5.000000000000e+00
-5.000000000000e+00
-5.000000000000e+00
-5.000000000000e+00
-5.000000000000e+00
-5.000000000000e+00
-5.000000000000e+00
-5.000000000000e+00
-5.000000000000e+00
-5.000000000000e+00
-5.000000000000e+00
-5.000000000000e+00
-5.000000000000e+00
-5.000000000000e+00
-5.000000000000e+00
-5.000000000000e+00
-5.000000000000e+00
-5.000000000000e+00
-5.000000000000e+00
-5.000000000000e+00
-5.000000000000e+00
-5.000000000000e+00
-5.000000000000e+00
-5.000000000000e+00
-5.000000000000e+00
-5.000000000000e+00
-5.000000000000e+00
-5.000000000000e+00
-5.000000000000e+00
-5.000000000000e+00
-5.000000000000e+00
-5.000000000000e+00
-5.000000000000e+00
-5.000000000000e+00
-5.000000000000e+00
-5.000000000000e+00
-5.000000000000e+00
-5.000000000000e+00
-5.000000000000e+00
-5.000000000000e+00
-5.000000000000e+00
-5.000000000000e+00
-5.000000000000e+00
-5.000000000000e+00
-5.000000000000e+00
-5.000000000000e+00
-5.000000000000e+00
-5.000000000000e+00
-5.000000000000e+00
-5.000000000000e+00
-5.000000000000e+00
-5.000000000000e+00
-5.000000000000e+00
-5.000000000000e+00
-5.000000000000e+00
-5.000000000000e+00
-5.000000000000e+00
-5.000000000000e+00
-5.000000000000e+00
-5.000000000000e+00
-5.000000000000e+00
-5.000000000000e+00
-5.000000000000e+00
-5.000000000000e+00
-5.000000000000e+00
-5.000000000000e+00
-5.000000000000e+00
-5.000000000000e+00
-5.000000000000e+00
-5.000000000000e+00
-5.000000000000e+00
-5.000000000000e+00
-5.000000000000e+00
-5.000000000000e+00
-5.000000000000e+00
-5.000000000000e+00
-5.000000000000e+00
-5.000000000000e+00
-5.000000000000e+00
-5.000000000000e+00
-5.000000000000e+00
-5.000000000000e+00
-5.000000000000e+00
-5.000000000000e+00
-5.000000000000e+00
-5.000000000000e+00
-5.000000000000e+00
-5.000000000000e+00
-5.000000000000e+00
-5.000000000000e+00
-5.000000000000e+00
-5.000000000000e+00
-5.000000000000e+00
-5.000000000000e+00
-5.000000000000e+00
-5.000000000000e+00
-5.000000000000e+00
-5.000000000000e+00
-5.000000000000e+00
-5.000000000000e+00
-5.000000000000e+00
-5.000000000000e+00
-5.000000000000e+00
-5.000000000000e+00
-5.000000000000e+00
-5.000000000000e+00
-5.000000000000e+00
