<Qucs Dataset 0.0.24>
<indep frequency 106>
1.000000000000e+01
1.115883992508e+01
1.245197084735e+01
1.389495494373e+01
1.550515779833e+01
1.730195738846e+01
1.930697728883e+01
2.154434690032e+01
2.404099183510e+01
2.682695795280e+01
2.993577294720e+01
3.340484983513e+01
3.727593720315e+01
4.159562163072e+01
4.641588833613e+01
5.179474679231e+01
5.779692884153e+01
6.449466771038e+01
7.196856730012e+01
8.030857221392e+01
8.961505019466e+01
1.000000000000e+02
1.115883992508e+02
1.245197084735e+02
1.389495494373e+02
1.550515779833e+02
1.730195738846e+02
1.930697728883e+02
2.154434690032e+02
2.404099183510e+02
2.682695795280e+02
2.993577294720e+02
3.340484983513e+02
3.727593720315e+02
4.159562163072e+02
4.641588833613e+02
5.179474679231e+02
5.779692884153e+02
6.449466771038e+02
7.196856730011e+02
8.030857221391e+02
8.961505019466e+02
1.000000000000e+03
1.115883992508e+03
1.245197084735e+03
1.389495494373e+03
1.550515779833e+03
1.730195738846e+03
1.930697728883e+03
2.154434690032e+03
2.404099183510e+03
2.682695795280e+03
2.993577294720e+03
3.340484983513e+03
3.727593720315e+03
4.159562163072e+03
4.641588833613e+03
5.179474679231e+03
5.779692884153e+03
6.449466771038e+03
7.196856730011e+03
8.030857221391e+03
8.961505019466e+03
1.000000000000e+04
1.115883992508e+04
1.245197084735e+04
1.389495494373e+04
1.550515779833e+04
1.730195738846e+04
1.930697728883e+04
2.154434690032e+04
2.404099183510e+04
2.682695795280e+04
2.993577294720e+04
3.340484983513e+04
3.727593720315e+04
4.159562163072e+04
4.641588833613e+04
5.179474679231e+04
5.779692884153e+04
6.449466771038e+04
7.196856730011e+04
8.030857221391e+04
8.961505019466e+04
1.000000000000e+05
1.115883992508e+05
1.245197084735e+05
1.389495494373e+05
1.550515779833e+05
1.730195738846e+05
1.930697728883e+05
2.154434690032e+05
2.404099183510e+05
2.682695795280e+05
2.993577294720e+05
3.340484983513e+05
3.727593720315e+05
4.159562163072e+05
4.641588833613e+05
5.179474679231e+05
5.779692884153e+05
6.449466771038e+05
7.196856730011e+05
8.030857221391e+05
8.961505019466e+05
1.000000000000e+06
</indep>
<dep ac.v(vcc) frequency>
0.000000000000e+00+j0.000000000000e+00
0.000000000000e+00+j0.000000000000e+00
0.000000000000e+00+j0.000000000000e+00
0.000000000000e+00+j0.000000000000e+00
0.000000000000e+00+j0.000000000000e+00
0.000000000000e+00+j0.000000000000e+00
0.000000000000e+00+j0.000000000000e+00
0.000000000000e+00+j0.000000000000e+00
0.000000000000e+00+j0.000000000000e+00
0.000000000000e+00+j0.000000000000e+00
0.000000000000e+00+j0.000000000000e+00
0.000000000000e+00+j0.000000000000e+00
0.000000000000e+00+j0.000000000000e+00
0.000000000000e+00+j0.000000000000e+00
0.000000000000e+00+j0.000000000000e+00
0.000000000000e+00+j0.000000000000e+00
0.000000000000e+00+j0.000000000000e+00
0.000000000000e+00+j0.000000000000e+00
0.000000000000e+00+j0.000000000000e+00
0.000000000000e+00+j0.000000000000e+00
0.000000000000e+00+j0.000000000000e+00
0.000000000000e+00+j0.000000000000e+00
0.000000000000e+00+j0.000000000000e+00
0.000000000000e+00+j0.000000000000e+00
0.000000000000e+00+j0.000000000000e+00
0.000000000000e+00+j0.000000000000e+00
0.000000000000e+00+j0.000000000000e+00
0.000000000000e+00+j0.000000000000e+00
0.000000000000e+00+j0.000000000000e+00
0.000000000000e+00+j0.000000000000e+00
0.000000000000e+00+j0.000000000000e+00
0.000000000000e+00+j0.000000000000e+00
0.000000000000e+00+j0.000000000000e+00
0.000000000000e+00+j0.000000000000e+00
0.000000000000e+00+j0.000000000000e+00
0.000000000000e+00+j0.000000000000e+00
0.000000000000e+00+j0.000000000000e+00
0.000000000000e+00+j0.000000000000e+00
0.000000000000e+00+j0.000000000000e+00
0.000000000000e+00+j0.000000000000e+00
0.000000000000e+00+j0.000000000000e+00
0.000000000000e+00+j0.000000000000e+00
0.000000000000e+00+j0.000000000000e+00
0.000000000000e+00+j0.000000000000e+00
0.000000000000e+00+j0.000000000000e+00
0.000000000000e+00+j0.000000000000e+00
0.000000000000e+00+j0.000000000000e+00
0.000000000000e+00+j0.000000000000e+00
0.000000000000e+00+j0.000000000000e+00
0.000000000000e+00+j0.000000000000e+00
0.000000000000e+00+j0.000000000000e+00
0.000000000000e+00+j0.000000000000e+00
0.000000000000e+00+j0.000000000000e+00
0.000000000000e+00+j0.000000000000e+00
0.000000000000e+00+j0.000000000000e+00
0.000000000000e+00+j0.000000000000e+00
0.000000000000e+00+j0.000000000000e+00
0.000000000000e+00+j0.000000000000e+00
0.000000000000e+00+j0.000000000000e+00
0.000000000000e+00+j0.000000000000e+00
0.000000000000e+00+j0.000000000000e+00
0.000000000000e+00+j0.000000000000e+00
0.000000000000e+00+j0.000000000000e+00
0.000000000000e+00+j0.000000000000e+00
0.000000000000e+00+j0.000000000000e+00
0.000000000000e+00+j0.000000000000e+00
0.000000000000e+00+j0.000000000000e+00
0.000000000000e+00+j0.000000000000e+00
0.000000000000e+00+j0.000000000000e+00
0.000000000000e+00+j0.000000000000e+00
0.000000000000e+00+j0.000000000000e+00
0.000000000000e+00+j0.000000000000e+00
0.000000000000e+00+j0.000000000000e+00
0.000000000000e+00+j0.000000000000e+00
0.000000000000e+00+j0.000000000000e+00
0.000000000000e+00+j0.000000000000e+00
0.000000000000e+00+j0.000000000000e+00
0.000000000000e+00+j0.000000000000e+00
0.000000000000e+00+j0.000000000000e+00
0.000000000000e+00+j0.000000000000e+00
0.000000000000e+00+j0.000000000000e+00
0.000000000000e+00+j0.000000000000e+00
0.000000000000e+00+j0.000000000000e+00
0.000000000000e+00+j0.000000000000e+00
0.000000000000e+00+j0.000000000000e+00
0.000000000000e+00+j0.000000000000e+00
0.000000000000e+00+j0.000000000000e+00
0.000000000000e+00+j0.000000000000e+00
0.000000000000e+00+j0.000000000000e+00
0.000000000000e+00+j0.000000000000e+00
0.000000000000e+00+j0.000000000000e+00
0.000000000000e+00+j0.000000000000e+00
0.000000000000e+00+j0.000000000000e+00
0.000000000000e+00+j0.000000000000e+00
0.000000000000e+00+j0.000000000000e+00
0.000000000000e+00+j0.000000000000e+00
0.000000000000e+00+j0.000000000000e+00
0.000000000000e+00+j0.000000000000e+00
0.000000000000e+00+j0.000000000000e+00
0.000000000000e+00+j0.000000000000e+00
0.000000000000e+00+j0.000000000000e+00
0.000000000000e+00+j0.000000000000e+00
0.000000000000e+00+j0.000000000000e+00
0.000000000000e+00+j0.000000000000e+00
0.000000000000e+00+j0.000000000000e+00
0.000000000000e+00+j0.000000000000e+00
</dep>
<dep ac.v(vee) frequency>
0.000000000000e+00+j0.000000000000e+00
0.000000000000e+00+j0.000000000000e+00
0.000000000000e+00+j0.000000000000e+00
0.000000000000e+00+j0.000000000000e+00
0.000000000000e+00+j0.000000000000e+00
0.000000000000e+00+j0.000000000000e+00
0.000000000000e+00+j0.000000000000e+00
0.000000000000e+00+j0.000000000000e+00
0.000000000000e+00+j0.000000000000e+00
0.000000000000e+00+j0.000000000000e+00
0.000000000000e+00+j0.000000000000e+00
0.000000000000e+00+j0.000000000000e+00
0.000000000000e+00+j0.000000000000e+00
0.000000000000e+00+j0.000000000000e+00
0.000000000000e+00+j0.000000000000e+00
0.000000000000e+00+j0.000000000000e+00
0.000000000000e+00+j0.000000000000e+00
0.000000000000e+00+j0.000000000000e+00
0.000000000000e+00+j0.000000000000e+00
0.000000000000e+00+j0.000000000000e+00
0.000000000000e+00+j0.000000000000e+00
0.000000000000e+00+j0.000000000000e+00
0.000000000000e+00+j0.000000000000e+00
0.000000000000e+00+j0.000000000000e+00
0.000000000000e+00+j0.000000000000e+00
0.000000000000e+00+j0.000000000000e+00
0.000000000000e+00+j0.000000000000e+00
0.000000000000e+00+j0.000000000000e+00
0.000000000000e+00+j0.000000000000e+00
0.000000000000e+00+j0.000000000000e+00
0.000000000000e+00+j0.000000000000e+00
0.000000000000e+00+j0.000000000000e+00
0.000000000000e+00+j0.000000000000e+00
0.000000000000e+00+j0.000000000000e+00
0.000000000000e+00+j0.000000000000e+00
0.000000000000e+00+j0.000000000000e+00
0.000000000000e+00+j0.000000000000e+00
0.000000000000e+00+j0.000000000000e+00
0.000000000000e+00+j0.000000000000e+00
0.000000000000e+00+j0.000000000000e+00
0.000000000000e+00+j0.000000000000e+00
0.000000000000e+00+j0.000000000000e+00
0.000000000000e+00+j0.000000000000e+00
0.000000000000e+00+j0.000000000000e+00
0.000000000000e+00+j0.000000000000e+00
0.000000000000e+00+j0.000000000000e+00
0.000000000000e+00+j0.000000000000e+00
0.000000000000e+00+j0.000000000000e+00
0.000000000000e+00+j0.000000000000e+00
0.000000000000e+00+j0.000000000000e+00
0.000000000000e+00+j0.000000000000e+00
0.000000000000e+00+j0.000000000000e+00
0.000000000000e+00+j0.000000000000e+00
0.000000000000e+00+j0.000000000000e+00
0.000000000000e+00+j0.000000000000e+00
0.000000000000e+00+j0.000000000000e+00
0.000000000000e+00+j0.000000000000e+00
0.000000000000e+00+j0.000000000000e+00
0.000000000000e+00+j0.000000000000e+00
0.000000000000e+00+j0.000000000000e+00
0.000000000000e+00+j0.000000000000e+00
0.000000000000e+00+j0.000000000000e+00
0.000000000000e+00+j0.000000000000e+00
0.000000000000e+00+j0.000000000000e+00
0.000000000000e+00+j0.000000000000e+00
0.000000000000e+00+j0.000000000000e+00
0.000000000000e+00+j0.000000000000e+00
0.000000000000e+00+j0.000000000000e+00
0.000000000000e+00+j0.000000000000e+00
0.000000000000e+00+j0.000000000000e+00
0.000000000000e+00+j0.000000000000e+00
0.000000000000e+00+j0.000000000000e+00
0.000000000000e+00+j0.000000000000e+00
0.000000000000e+00+j0.000000000000e+00
0.000000000000e+00+j0.000000000000e+00
0.000000000000e+00+j0.000000000000e+00
0.000000000000e+00+j0.000000000000e+00
0.000000000000e+00+j0.000000000000e+00
0.000000000000e+00+j0.000000000000e+00
0.000000000000e+00+j0.000000000000e+00
0.000000000000e+00+j0.000000000000e+00
0.000000000000e+00+j0.000000000000e+00
0.000000000000e+00+j0.000000000000e+00
0.000000000000e+00+j0.000000000000e+00
0.000000000000e+00+j0.000000000000e+00
0.000000000000e+00+j0.000000000000e+00
0.000000000000e+00+j0.000000000000e+00
0.000000000000e+00+j0.000000000000e+00
0.000000000000e+00+j0.000000000000e+00
0.000000000000e+00+j0.000000000000e+00
0.000000000000e+00+j0.000000000000e+00
0.000000000000e+00+j0.000000000000e+00
0.000000000000e+00+j0.000000000000e+00
0.000000000000e+00+j0.000000000000e+00
0.000000000000e+00+j0.000000000000e+00
0.000000000000e+00+j0.000000000000e+00
0.000000000000e+00+j0.000000000000e+00
0.000000000000e+00+j0.000000000000e+00
0.000000000000e+00+j0.000000000000e+00
0.000000000000e+00+j0.000000000000e+00
0.000000000000e+00+j0.000000000000e+00
0.000000000000e+00+j0.000000000000e+00
0.000000000000e+00+j0.000000000000e+00
0.000000000000e+00+j0.000000000000e+00
0.000000000000e+00+j0.000000000000e+00
0.000000000000e+00+j0.000000000000e+00
</dep>
<dep ac.v(vout) frequency>
9.999609805212e-01-j1.267041487096e-03
9.999607868023e-01-j1.413871319844e-03
9.999605455839e-01-j1.577716382383e-03
9.999602452193e-01-j1.760548468466e-03
9.999598712058e-01-j1.964567871568e-03
9.999594054850e-01-j2.192229864495e-03
9.999588255702e-01-j2.446274247614e-03
9.999581034609e-01-j2.729758321333e-03
9.999572042909e-01-j3.046093679683e-03
9.999560846448e-01-j3.399087267831e-03
9.999546904609e-01-j3.792987197731e-03
9.999529544214e-01-j4.232533873373e-03
9.999507927011e-01-j4.723017041052e-03
9.999481009194e-01-j5.270339451427e-03
9.999447490991e-01-j5.881087899813e-03
9.999405753889e-01-j6.562612500011e-03
9.999353782452e-01-j7.323115146264e-03
9.999289066967e-01-j8.171748228688e-03
9.999208482189e-01-j9.118724791194e-03
9.999108136327e-01-j1.017544145907e-02
9.998983182957e-01-j1.135461561751e-02
9.998827586743e-01-j1.267043849477e-02
9.998633831592e-01-j1.413874599585e-02
9.998392557083e-01-j1.577720934760e-02
9.998092105465e-01-j1.760554785657e-02
9.997717957160e-01-j1.964576634887e-02
9.997252027192e-01-j2.192242016189e-02
9.996671788077e-01-j2.446291089260e-02
9.995949176066e-01-j2.729781648191e-02
9.995049226745e-01-j3.046125963287e-02
9.993928372280e-01-j3.399131902627e-02
9.992532315266e-01-j3.793048831520e-02
9.990793372110e-01-j4.232618845277e-02
9.988627150912e-01-j4.723133953389e-02
9.985928392906e-01-j5.270499900886e-02
9.982565760445e-01-j5.881307383618e-02
9.978375294792e-01-j6.562911485072e-02
9.973152189148e-01-j7.323520226022e-02
9.966640420087e-01-j8.172293161713e-02
9.958519645111e-01-j9.119450959997e-02
9.948388593014e-01-j1.017639680427e-01
9.935743929824e-01-j1.135585020934e-01
9.919953251698e-01-j1.267199327914e-01
9.900220402747e-01-j1.414062833139e-01
9.875540692437e-01-j1.577934374469e-01
9.844642728321e-01-j1.760768111561e-01
9.805912399298e-01-j1.964729007668e-01
9.757292936454e-01-j2.192204523101e-01
9.696152831121e-01-j2.445807885366e-01
9.619110630473e-01-j2.728364692592e-01
9.521802345744e-01-j3.042868406714e-01
9.398573922725e-01-j3.392379766631e-01
9.242079528058e-01-j3.779827591547e-01
9.042770259472e-01-j4.207639952336e-01
8.788276198923e-01-j4.677090574151e-01
8.462735924764e-01-j5.187182681384e-01
8.046246309281e-01-j5.732818762082e-01
7.514847274131e-01-j6.301960406621e-01
6.841882696653e-01-j6.871589271125e-01
6.002170107707e-01-j7.402812937642e-01
4.980812141350e-01-j7.836851733152e-01
3.787566785178e-01-j8.096101338646e-01
2.473582283373e-01-j8.096665500793e-01
1.139729220098e-01-j7.776224228488e-01
-7.860673683795e-03-j7.128959327476e-01
-1.053898733080e-01-j6.223801413569e-01
-1.713771197082e-01-j5.185457603882e-01
-2.060305117782e-01-j4.147283285658e-01
-2.152093042889e-01-j3.208856277721e-01
-2.069471231577e-01-j2.420634202031e-01
-1.886711155539e-01-j1.792186435441e-01
-1.659528991238e-01-j1.308875501775e-01
-1.424076600065e-01-j9.461833290307e-02
-1.201009253229e-01-j6.784638417446e-02
-1.000418856324e-01-j4.830372035940e-02
-8.258884487557e-02-j3.414676591205e-02
-6.773242062896e-02-j2.394674918021e-02
-5.527583201356e-02-j1.662752717426e-02
-4.494244707022e-02-j1.139267434265e-02
-3.643631012786e-02-j7.659227271825e-03
-2.947390436531e-02-j5.003434403861e-03
-2.379902497647e-02-j3.118640942496e-03
-1.918811527271e-02-j1.783562511780e-03
-1.545047225053e-02-j8.388068171038e-04
-1.242589516236e-02-j1.696862237914e-04
-9.981240821357e-03+j3.062807701598e-04
-8.006689891121e-03+j6.484211199179e-04
-6.412142677756e-03+j8.994462225674e-04
-5.123941160060e-03+j1.090168977950e-03
-4.081989335072e-03+j1.242903995389e-03
-3.237276198485e-03+j1.373917686862e-03
-2.549770756224e-03+j1.495193022247e-03
-1.986642018877e-03+j1.615698755685e-03
-1.520750435620e-03+j1.742297338764e-03
-1.129355697257e-03+j1.880383310360e-03
-7.929866182387e-04+j2.034309369930e-03
-4.944211474866e-04+j2.207625538016e-03
-2.177301010899e-04+j2.403122398758e-03
5.264722405191e-05+j2.622626522807e-03
3.327899669373e-04+j2.866439892565e-03
6.400510283925e-04+j3.132248209142e-03
9.933984997946e-04+j3.413275409901e-03
1.412715777314e-03+j3.695536582521e-03
1.915948502017e-03+j3.954485619670e-03
2.512713904613e-03+j4.152556624238e-03
3.194030046721e-03+j4.241144117968e-03
</dep>
<dep ac.vout_db frequency>
-3.319528221576e-04+j0.000000000000e+00
-3.319258277381e-04+j0.000000000000e+00
-3.318922148478e-04+j0.000000000000e+00
-3.318503608918e-04+j0.000000000000e+00
-3.317982455973e-04+j0.000000000000e+00
-3.317333535554e-04+j0.000000000000e+00
-3.316525528716e-04+j0.000000000000e+00
-3.315519443017e-04+j0.000000000000e+00
-3.314266733521e-04+j0.000000000000e+00
-3.312706964431e-04+j0.000000000000e+00
-3.310764901542e-04+j0.000000000000e+00
-3.308346893883e-04+j0.000000000000e+00
-3.305336375219e-04+j0.000000000000e+00
-3.301588271234e-04+j0.000000000000e+00
-3.296922050465e-04+j0.000000000000e+00
-3.291113092779e-04+j0.000000000000e+00
-3.283881976841e-04+j0.000000000000e+00
-3.274881194442e-04+j0.000000000000e+00
-3.263678690451e-04+j0.000000000000e+00
-3.249737496049e-04+j0.000000000000e+00
-3.232390568525e-04+j0.000000000000e+00
-3.210809772437e-04+j0.000000000000e+00
-3.183967736882e-04+j0.000000000000e+00
-3.150591106827e-04+j0.000000000000e+00
-3.109103490061e-04+j0.000000000000e+00
-3.057556210214e-04+j0.000000000000e+00
-2.993544865222e-04+j0.000000000000e+00
-2.914109741576e-04+j0.000000000000e+00
-2.815618505399e-04+j0.000000000000e+00
-2.693630506788e-04+j0.000000000000e+00
-2.542743904252e-04+j0.000000000000e+00
-2.356430257299e-04+j0.000000000000e+00
-2.126867250166e-04+j0.000000000000e+00
-1.844790394336e-04+j0.000000000000e+00
-1.499401391990e-04+j0.000000000000e+00
-1.078398280869e-04+j0.000000000000e+00
-5.682366460670e-05+j0.000000000000e+00
4.519826576050e-06+j0.000000000000e+00
7.752167726580e-05+j0.000000000000e+00
1.631778824328e-04+j0.000000000000e+00
2.617030414945e-04+j0.000000000000e+00
3.717739861903e-04+j0.000000000000e+00
4.892769406515e-04+j0.000000000000e+00
6.052652675852e-04+j0.000000000000e+00
7.026688910883e-04+j0.000000000000e+00
7.510382852232e-04+j0.000000000000e+00
6.982049848520e-04+j0.000000000000e+00
4.571194765483e-04+j0.000000000000e+00
-1.148317335542e-04+j0.000000000000e+00
-1.248201981025e-03+j0.000000000000e+00
-3.311973987754e-03+j0.000000000000e+00
-6.891975033172e-03+j0.000000000000e+00
-1.291204860707e-02+j0.000000000000e+00
-2.282000964989e-02+j0.000000000000e+00
-3.887016310417e-02+j0.000000000000e+00
-6.454598936423e-02+j0.000000000000e+00
-1.051774215430e-01+j0.000000000000e+00
-1.688075545539e-01+j0.000000000000e+00
-2.673311151137e-01+j0.000000000000e+00
-4.178175301937e-01+j0.000000000000e+00
-6.436813334135e-01+j0.000000000000e+00
-9.749388517548e-01+j0.000000000000e+00
-1.446347127180e+00+j0.000000000000e+00
-2.092319188865e+00+j0.000000000000e+00
-2.938949271442e+00+j0.000000000000e+00
-3.996108380059e+00+j0.000000000000e+00
-5.254052445322e+00+j0.000000000000e+00
-6.686776791717e+00+j0.000000000000e+00
-8.259907200882e+00+j0.000000000000e+00
-9.938686381183e+00+j0.000000000000e+00
-1.169307985130e+01+j0.000000000000e+00
-1.349965424705e+01+j0.000000000000e+00
-1.534132993519e+01+j0.000000000000e+00
-1.720621371052e+01+j0.000000000000e+00
-1.908627538277e+01+j0.000000000000e+00
-2.097620724321e+01+j0.000000000000e+00
-2.287255403566e+01+j0.000000000000e+00
-2.477309049760e+01+j0.000000000000e+00
-2.667638997385e+01+j0.000000000000e+00
-2.858152658183e+01+j0.000000000000e+00
-3.048786183183e+01+j0.000000000000e+00
-3.239487416485e+01+j0.000000000000e+00
-3.430199189847e+01+j0.000000000000e+00
-3.620838322566e+01+j0.000000000000e+00
-3.811263649008e+01+j0.000000000000e+00
-4.001222188791e+01+j0.000000000000e+00
-4.190254938670e+01+j0.000000000000e+00
-4.377531308181e+01+j0.000000000000e+00
-4.561564593974e+01+j0.000000000000e+00
-4.739750939037e+01+j0.000000000000e+00
-4.907714323747e+01+j0.000000000000e+00
-5.058640990575e+01+j0.000000000000e+00
-5.183279650383e+01+j0.000000000000e+00
-5.271785709456e+01+j0.000000000000e+00
-5.317738854768e+01+j0.000000000000e+00
-5.321732765913e+01+j0.000000000000e+00
-5.290894390594e+01+j0.000000000000e+00
-5.234897688733e+01+j0.000000000000e+00
-5.162352127561e+01+j0.000000000000e+00
-5.079499605723e+01+j0.000000000000e+00
-4.990521731652e+01+j0.000000000000e+00
-4.898346061859e+01+j0.000000000000e+00
-4.805409170743e+01+j0.000000000000e+00
-4.714244374444e+01+j0.000000000000e+00
-4.627871580329e+01+j0.000000000000e+00
-4.549918306448e+01+j0.000000000000e+00
</dep>
