<Qucs Dataset 0.0.24>
<indep frequency 56>
1.000000000000e+01
1.232846739442e+01
1.519911082953e+01
1.873817422860e+01
2.310129700083e+01
2.848035868436e+01
3.511191734215e+01
4.328761281083e+01
5.336699231206e+01
6.579332246576e+01
8.111308307897e+01
1.000000000000e+02
1.232846739442e+02
1.519911082953e+02
1.873817422860e+02
2.310129700083e+02
2.848035868436e+02
3.511191734215e+02
4.328761281083e+02
5.336699231206e+02
6.579332246576e+02
8.111308307897e+02
1.000000000000e+03
1.232846739442e+03
1.519911082953e+03
1.873817422860e+03
2.310129700083e+03
2.848035868436e+03
3.511191734215e+03
4.328761281083e+03
5.336699231206e+03
6.579332246576e+03
8.111308307897e+03
1.000000000000e+04
1.232846739442e+04
1.519911082953e+04
1.873817422860e+04
2.310129700083e+04
2.848035868436e+04
3.511191734215e+04
4.328761281083e+04
5.336699231206e+04
6.579332246576e+04
8.111308307897e+04
1.000000000000e+05
1.232846739442e+05
1.519911082953e+05
1.873817422860e+05
2.310129700083e+05
2.848035868436e+05
3.511191734215e+05
4.328761281083e+05
5.336699231206e+05
6.579332246576e+05
8.111308307897e+05
1.000000000000e+06
</indep>
<dep ac.v(vcc) frequency>
0.000000000000e+00+j0.000000000000e+00
0.000000000000e+00+j0.000000000000e+00
0.000000000000e+00+j0.000000000000e+00
0.000000000000e+00+j0.000000000000e+00
0.000000000000e+00+j0.000000000000e+00
0.000000000000e+00+j0.000000000000e+00
0.000000000000e+00+j0.000000000000e+00
0.000000000000e+00+j0.000000000000e+00
0.000000000000e+00+j0.000000000000e+00
0.000000000000e+00+j0.000000000000e+00
0.000000000000e+00+j0.000000000000e+00
0.000000000000e+00+j0.000000000000e+00
0.000000000000e+00+j0.000000000000e+00
0.000000000000e+00+j0.000000000000e+00
0.000000000000e+00+j0.000000000000e+00
0.000000000000e+00+j0.000000000000e+00
0.000000000000e+00+j0.000000000000e+00
0.000000000000e+00+j0.000000000000e+00
0.000000000000e+00+j0.000000000000e+00
0.000000000000e+00+j0.000000000000e+00
0.000000000000e+00+j0.000000000000e+00
0.000000000000e+00+j0.000000000000e+00
0.000000000000e+00+j0.000000000000e+00
0.000000000000e+00+j0.000000000000e+00
0.000000000000e+00+j0.000000000000e+00
0.000000000000e+00+j0.000000000000e+00
0.000000000000e+00+j0.000000000000e+00
0.000000000000e+00+j0.000000000000e+00
0.000000000000e+00+j0.000000000000e+00
0.000000000000e+00+j0.000000000000e+00
0.000000000000e+00+j0.000000000000e+00
0.000000000000e+00+j0.000000000000e+00
0.000000000000e+00+j0.000000000000e+00
0.000000000000e+00+j0.000000000000e+00
0.000000000000e+00+j0.000000000000e+00
0.000000000000e+00+j0.000000000000e+00
0.000000000000e+00+j0.000000000000e+00
0.000000000000e+00+j0.000000000000e+00
0.000000000000e+00+j0.000000000000e+00
0.000000000000e+00+j0.000000000000e+00
0.000000000000e+00+j0.000000000000e+00
0.000000000000e+00+j0.000000000000e+00
0.000000000000e+00+j0.000000000000e+00
0.000000000000e+00+j0.000000000000e+00
0.000000000000e+00+j0.000000000000e+00
0.000000000000e+00+j0.000000000000e+00
0.000000000000e+00+j0.000000000000e+00
0.000000000000e+00+j0.000000000000e+00
0.000000000000e+00+j0.000000000000e+00
0.000000000000e+00+j0.000000000000e+00
0.000000000000e+00+j0.000000000000e+00
0.000000000000e+00+j0.000000000000e+00
0.000000000000e+00+j0.000000000000e+00
0.000000000000e+00+j0.000000000000e+00
0.000000000000e+00+j0.000000000000e+00
0.000000000000e+00+j0.000000000000e+00
</dep>
<dep ac.v(vee) frequency>
0.000000000000e+00+j0.000000000000e+00
0.000000000000e+00+j0.000000000000e+00
0.000000000000e+00+j0.000000000000e+00
0.000000000000e+00+j0.000000000000e+00
0.000000000000e+00+j0.000000000000e+00
0.000000000000e+00+j0.000000000000e+00
0.000000000000e+00+j0.000000000000e+00
0.000000000000e+00+j0.000000000000e+00
0.000000000000e+00+j0.000000000000e+00
0.000000000000e+00+j0.000000000000e+00
0.000000000000e+00+j0.000000000000e+00
0.000000000000e+00+j0.000000000000e+00
0.000000000000e+00+j0.000000000000e+00
0.000000000000e+00+j0.000000000000e+00
0.000000000000e+00+j0.000000000000e+00
0.000000000000e+00+j0.000000000000e+00
0.000000000000e+00+j0.000000000000e+00
0.000000000000e+00+j0.000000000000e+00
0.000000000000e+00+j0.000000000000e+00
0.000000000000e+00+j0.000000000000e+00
0.000000000000e+00+j0.000000000000e+00
0.000000000000e+00+j0.000000000000e+00
0.000000000000e+00+j0.000000000000e+00
0.000000000000e+00+j0.000000000000e+00
0.000000000000e+00+j0.000000000000e+00
0.000000000000e+00+j0.000000000000e+00
0.000000000000e+00+j0.000000000000e+00
0.000000000000e+00+j0.000000000000e+00
0.000000000000e+00+j0.000000000000e+00
0.000000000000e+00+j0.000000000000e+00
0.000000000000e+00+j0.000000000000e+00
0.000000000000e+00+j0.000000000000e+00
0.000000000000e+00+j0.000000000000e+00
0.000000000000e+00+j0.000000000000e+00
0.000000000000e+00+j0.000000000000e+00
0.000000000000e+00+j0.000000000000e+00
0.000000000000e+00+j0.000000000000e+00
0.000000000000e+00+j0.000000000000e+00
0.000000000000e+00+j0.000000000000e+00
0.000000000000e+00+j0.000000000000e+00
0.000000000000e+00+j0.000000000000e+00
0.000000000000e+00+j0.000000000000e+00
0.000000000000e+00+j0.000000000000e+00
0.000000000000e+00+j0.000000000000e+00
0.000000000000e+00+j0.000000000000e+00
0.000000000000e+00+j0.000000000000e+00
0.000000000000e+00+j0.000000000000e+00
0.000000000000e+00+j0.000000000000e+00
0.000000000000e+00+j0.000000000000e+00
0.000000000000e+00+j0.000000000000e+00
0.000000000000e+00+j0.000000000000e+00
0.000000000000e+00+j0.000000000000e+00
0.000000000000e+00+j0.000000000000e+00
0.000000000000e+00+j0.000000000000e+00
0.000000000000e+00+j0.000000000000e+00
0.000000000000e+00+j0.000000000000e+00
</dep>
<dep ac.v(vout) frequency>
-3.954075973638e-05-j6.282904925277e-03
-6.009720942651e-05-j7.745699870663e-03
-9.133957444567e-05-j9.548962944816e-03
-1.388214707584e-04-j1.177184969240e-02
-2.109811375701e-04-j1.451184078411e-02
-3.206375670218e-04-j1.788891644831e-02
-4.872597541924e-04-j2.205062224371e-02
-7.404048335206e-04-j2.717816356524e-02
-1.124918560790e-03-j3.349363757293e-02
-1.708781594130e-03-j4.126842393037e-02
-2.594901807521e-03-j5.083255287020e-02
-3.938731723978e-03-j6.258444630143e-02
-5.974346551849e-03-j7.699959896468e-02
-9.052492378509e-03-j9.463521365188e-02
-1.369483842673e-02-j1.161250170021e-01
-2.066848186808e-02-j1.421537390479e-01
-3.108186013232e-02-j1.733932960827e-01
-4.649393901282e-02-j2.103726455951e-01
-6.900658703239e-02-j2.532439007897e-01
-1.012680971578e-01-j3.014103836118e-01
-1.462550829719e-01-j3.530251621857e-01
-2.066560924629e-01-j4.044915863275e-01
-2.837574764020e-01-j4.503088410427e-01
-3.760709618895e-01-j4.837671867700e-01
-4.784872494546e-01-j4.987588342718e-01
-5.829349385609e-01-j4.921140318335e-01
-6.806939679517e-01-j4.650236551411e-01
-7.651111579924e-01-j4.224678997906e-01
-8.330815896525e-01-j3.710982992187e-01
-8.847888499247e-01-j3.170459885504e-01
-9.224449268992e-01-j2.647093733557e-01
-9.489966342935e-01-j2.165802653890e-01
-9.672809195428e-01-j1.736384359430e-01
-9.796458189175e-01-j1.358744961616e-01
-9.878712725281e-01-j1.027207962975e-01
-9.932301802188e-01-j7.333775371215e-02
-9.965908580274e-01-j4.677743848529e-02
-9.985136698733e-01-j2.206297855209e-02
-9.993244839799e-01+j1.783508442947e-03
-9.991611129857e-01+j2.574204361641e-02
-9.979932049603e-01+j5.081083642082e-02
-9.956159125740e-01+j7.802802650278e-02
-9.916155758132e-01+j1.084915504539e-01
-9.853028669081e-01+j1.433680024275e-01
-9.756063684228e-01+j1.838759086240e-01
-9.609192110356e-01+j2.312179335951e-01
-9.388974911957e-01+j2.864178884498e-01
-9.062314259828e-01+j3.499905266607e-01
-8.584680922300e-01+j4.213400556926e-01
-7.900900231832e-01+j4.977753560504e-01
-6.952742919316e-01+j5.731350220976e-01
-5.700031309524e-01+j6.364306026713e-01
-4.160506542866e-01+j6.718672966139e-01
-2.458235051259e-01+j6.626972124772e-01
-8.360716074253e-02+j6.002709307069e-01
4.258991829891e-02+j4.934487468689e-01
</dep>
<dep ac.vout_db frequency>
-4.403661823561e+01+j0.000000000000e+00
-4.221852526830e+01+j0.000000000000e+00
-4.040047849206e+01+j0.000000000000e+00
-3.858250191758e+01+j0.000000000000e+00
-3.676463203301e+01+j0.000000000000e+00
-3.494692428328e+01+j0.000000000000e+00
-3.312946290790e+01+j0.000000000000e+00
-3.131237586991e+01+j0.000000000000e+00
-2.949585749196e+01+j0.000000000000e+00
-2.768020273554e+01+j0.000000000000e+00
-2.586585901285e+01+j0.000000000000e+00
-2.405350427069e+01+j0.000000000000e+00
-2.224416414470e+01+j0.000000000000e+00
-2.043938653552e+01+j0.000000000000e+00
-1.864149902497e+01+j0.000000000000e+00
-1.685398227733e+01+j0.000000000000e+00
-1.508199789955e+01+j0.000000000000e+00
-1.333310428596e+01+j0.000000000000e+00
-1.161816189090e+01+j0.000000000000e+00
-9.952340380504e+00+j0.000000000000e+00
-8.355956434201e+00+j0.000000000000e+00
-6.854582836389e+00+j0.000000000000e+00
-5.477590090506e+00+j0.000000000000e+00
-4.254362555094e+00+j0.000000000000e+00
-3.208352832047e+00+j0.000000000000e+00
-2.350849529211e+00+j0.000000000000e+00
-1.677522036808e+00+j0.000000000000e+00
-1.169781521710e+00+j0.000000000000e+00
-8.001299534505e-01+j0.000000000000e+00
-5.385761548302e-01+j0.000000000000e+00
-3.575183065827e-01+j0.000000000000e+00
-2.342003732754e-01+j0.000000000000e+00
-1.512058566170e-01+j0.000000000000e+00
-9.586633585809e-02+j0.000000000000e+00
-5.928791401633e-02+j0.000000000000e+00
-3.538845091096e-02+j0.000000000000e+00
-2.010449618339e-02+j0.000000000000e+00
-1.079988531550e-02+j0.000000000000e+00
-5.855607128929e-03+j0.000000000000e+00
-4.407795222465e-03+j0.000000000000e+00
-6.205382239057e-03+j0.000000000000e+00
-1.157015806029e-02+j0.000000000000e+00
-2.145552228429e-02+j0.000000000000e+00
-3.761544870751e-02+j0.000000000000e+00
-6.291313864787e-02+j0.000000000000e+00
-1.018213894706e-01+j0.000000000000e+00
-1.611956677736e-01+j0.000000000000e+00
-2.514360313678e-01+j0.000000000000e+00
-3.881870842003e-01+j0.000000000000e+00
-5.947228440479e-01+j0.000000000000e+00
-9.050275715023e-01+j0.000000000000e+00
-1.367083856286e+00+j0.000000000000e+00
-2.044649068904e+00+j0.000000000000e+00
-3.013803597558e+00+j0.000000000000e+00
-4.349609250997e+00+j0.000000000000e+00
-6.102925958689e+00+j0.000000000000e+00
</dep>
