<Qucs Dataset 0.0.21>
<indep frequency 106>
1.000000000000e+01
1.115883992508e+01
1.245197084735e+01
1.389495494373e+01
1.550515779833e+01
1.730195738846e+01
1.930697728883e+01
2.154434690032e+01
2.404099183510e+01
2.682695795280e+01
2.993577294720e+01
3.340484983513e+01
3.727593720315e+01
4.159562163072e+01
4.641588833613e+01
5.179474679231e+01
5.779692884153e+01
6.449466771038e+01
7.196856730012e+01
8.030857221392e+01
8.961505019466e+01
1.000000000000e+02
1.115883992508e+02
1.245197084735e+02
1.389495494373e+02
1.550515779833e+02
1.730195738846e+02
1.930697728883e+02
2.154434690032e+02
2.404099183510e+02
2.682695795280e+02
2.993577294720e+02
3.340484983513e+02
3.727593720315e+02
4.159562163072e+02
4.641588833613e+02
5.179474679231e+02
5.779692884153e+02
6.449466771038e+02
7.196856730011e+02
8.030857221391e+02
8.961505019466e+02
1.000000000000e+03
1.115883992508e+03
1.245197084735e+03
1.389495494373e+03
1.550515779833e+03
1.730195738846e+03
1.930697728883e+03
2.154434690032e+03
2.404099183510e+03
2.682695795280e+03
2.993577294720e+03
3.340484983513e+03
3.727593720315e+03
4.159562163072e+03
4.641588833613e+03
5.179474679231e+03
5.779692884153e+03
6.449466771038e+03
7.196856730011e+03
8.030857221391e+03
8.961505019466e+03
1.000000000000e+04
1.115883992508e+04
1.245197084735e+04
1.389495494373e+04
1.550515779833e+04
1.730195738846e+04
1.930697728883e+04
2.154434690032e+04
2.404099183510e+04
2.682695795280e+04
2.993577294720e+04
3.340484983513e+04
3.727593720315e+04
4.159562163072e+04
4.641588833613e+04
5.179474679231e+04
5.779692884153e+04
6.449466771038e+04
7.196856730011e+04
8.030857221391e+04
8.961505019466e+04
1.000000000000e+05
1.115883992508e+05
1.245197084735e+05
1.389495494373e+05
1.550515779833e+05
1.730195738846e+05
1.930697728883e+05
2.154434690032e+05
2.404099183510e+05
2.682695795280e+05
2.993577294720e+05
3.340484983513e+05
3.727593720315e+05
4.159562163072e+05
4.641588833613e+05
5.179474679231e+05
5.779692884153e+05
6.449466771038e+05
7.196856730011e+05
8.030857221391e+05
8.961505019466e+05
1.000000000000e+06
</indep>
<dep ac.v(vcc) frequency>
0.000000000000e+00+j0.000000000000e+00
0.000000000000e+00+j0.000000000000e+00
0.000000000000e+00+j0.000000000000e+00
0.000000000000e+00+j0.000000000000e+00
0.000000000000e+00+j0.000000000000e+00
0.000000000000e+00+j0.000000000000e+00
0.000000000000e+00+j0.000000000000e+00
0.000000000000e+00+j0.000000000000e+00
0.000000000000e+00+j0.000000000000e+00
0.000000000000e+00+j0.000000000000e+00
0.000000000000e+00+j0.000000000000e+00
0.000000000000e+00+j0.000000000000e+00
0.000000000000e+00+j0.000000000000e+00
0.000000000000e+00+j0.000000000000e+00
0.000000000000e+00+j0.000000000000e+00
0.000000000000e+00+j0.000000000000e+00
0.000000000000e+00+j0.000000000000e+00
0.000000000000e+00+j0.000000000000e+00
0.000000000000e+00+j0.000000000000e+00
0.000000000000e+00+j0.000000000000e+00
0.000000000000e+00+j0.000000000000e+00
0.000000000000e+00+j0.000000000000e+00
0.000000000000e+00+j0.000000000000e+00
0.000000000000e+00+j0.000000000000e+00
0.000000000000e+00+j0.000000000000e+00
0.000000000000e+00+j0.000000000000e+00
0.000000000000e+00+j0.000000000000e+00
0.000000000000e+00+j0.000000000000e+00
0.000000000000e+00+j0.000000000000e+00
0.000000000000e+00+j0.000000000000e+00
0.000000000000e+00+j0.000000000000e+00
0.000000000000e+00+j0.000000000000e+00
0.000000000000e+00+j0.000000000000e+00
0.000000000000e+00+j0.000000000000e+00
0.000000000000e+00+j0.000000000000e+00
0.000000000000e+00+j0.000000000000e+00
0.000000000000e+00+j0.000000000000e+00
0.000000000000e+00+j0.000000000000e+00
0.000000000000e+00+j0.000000000000e+00
0.000000000000e+00+j0.000000000000e+00
0.000000000000e+00+j0.000000000000e+00
0.000000000000e+00+j0.000000000000e+00
0.000000000000e+00+j0.000000000000e+00
0.000000000000e+00+j0.000000000000e+00
0.000000000000e+00+j0.000000000000e+00
0.000000000000e+00+j0.000000000000e+00
0.000000000000e+00+j0.000000000000e+00
0.000000000000e+00+j0.000000000000e+00
0.000000000000e+00+j0.000000000000e+00
0.000000000000e+00+j0.000000000000e+00
0.000000000000e+00+j0.000000000000e+00
0.000000000000e+00+j0.000000000000e+00
0.000000000000e+00+j0.000000000000e+00
0.000000000000e+00+j0.000000000000e+00
0.000000000000e+00+j0.000000000000e+00
0.000000000000e+00+j0.000000000000e+00
0.000000000000e+00+j0.000000000000e+00
0.000000000000e+00+j0.000000000000e+00
0.000000000000e+00+j0.000000000000e+00
0.000000000000e+00+j0.000000000000e+00
0.000000000000e+00+j0.000000000000e+00
0.000000000000e+00+j0.000000000000e+00
0.000000000000e+00+j0.000000000000e+00
0.000000000000e+00+j0.000000000000e+00
0.000000000000e+00+j0.000000000000e+00
0.000000000000e+00+j0.000000000000e+00
0.000000000000e+00+j0.000000000000e+00
0.000000000000e+00+j0.000000000000e+00
0.000000000000e+00+j0.000000000000e+00
0.000000000000e+00+j0.000000000000e+00
0.000000000000e+00+j0.000000000000e+00
0.000000000000e+00+j0.000000000000e+00
0.000000000000e+00+j0.000000000000e+00
0.000000000000e+00+j0.000000000000e+00
0.000000000000e+00+j0.000000000000e+00
0.000000000000e+00+j0.000000000000e+00
0.000000000000e+00+j0.000000000000e+00
0.000000000000e+00+j0.000000000000e+00
0.000000000000e+00+j0.000000000000e+00
0.000000000000e+00+j0.000000000000e+00
0.000000000000e+00+j0.000000000000e+00
0.000000000000e+00+j0.000000000000e+00
0.000000000000e+00+j0.000000000000e+00
0.000000000000e+00+j0.000000000000e+00
0.000000000000e+00+j0.000000000000e+00
0.000000000000e+00+j0.000000000000e+00
0.000000000000e+00+j0.000000000000e+00
0.000000000000e+00+j0.000000000000e+00
0.000000000000e+00+j0.000000000000e+00
0.000000000000e+00+j0.000000000000e+00
0.000000000000e+00+j0.000000000000e+00
0.000000000000e+00+j0.000000000000e+00
0.000000000000e+00+j0.000000000000e+00
0.000000000000e+00+j0.000000000000e+00
0.000000000000e+00+j0.000000000000e+00
0.000000000000e+00+j0.000000000000e+00
0.000000000000e+00+j0.000000000000e+00
0.000000000000e+00+j0.000000000000e+00
0.000000000000e+00+j0.000000000000e+00
0.000000000000e+00+j0.000000000000e+00
0.000000000000e+00+j0.000000000000e+00
0.000000000000e+00+j0.000000000000e+00
0.000000000000e+00+j0.000000000000e+00
0.000000000000e+00+j0.000000000000e+00
0.000000000000e+00+j0.000000000000e+00
0.000000000000e+00+j0.000000000000e+00
</dep>
<dep ac.v(vee) frequency>
0.000000000000e+00+j0.000000000000e+00
0.000000000000e+00+j0.000000000000e+00
0.000000000000e+00+j0.000000000000e+00
0.000000000000e+00+j0.000000000000e+00
0.000000000000e+00+j0.000000000000e+00
0.000000000000e+00+j0.000000000000e+00
0.000000000000e+00+j0.000000000000e+00
0.000000000000e+00+j0.000000000000e+00
0.000000000000e+00+j0.000000000000e+00
0.000000000000e+00+j0.000000000000e+00
0.000000000000e+00+j0.000000000000e+00
0.000000000000e+00+j0.000000000000e+00
0.000000000000e+00+j0.000000000000e+00
0.000000000000e+00+j0.000000000000e+00
0.000000000000e+00+j0.000000000000e+00
0.000000000000e+00+j0.000000000000e+00
0.000000000000e+00+j0.000000000000e+00
0.000000000000e+00+j0.000000000000e+00
0.000000000000e+00+j0.000000000000e+00
0.000000000000e+00+j0.000000000000e+00
0.000000000000e+00+j0.000000000000e+00
0.000000000000e+00+j0.000000000000e+00
0.000000000000e+00+j0.000000000000e+00
0.000000000000e+00+j0.000000000000e+00
0.000000000000e+00+j0.000000000000e+00
0.000000000000e+00+j0.000000000000e+00
0.000000000000e+00+j0.000000000000e+00
0.000000000000e+00+j0.000000000000e+00
0.000000000000e+00+j0.000000000000e+00
0.000000000000e+00+j0.000000000000e+00
0.000000000000e+00+j0.000000000000e+00
0.000000000000e+00+j0.000000000000e+00
0.000000000000e+00+j0.000000000000e+00
0.000000000000e+00+j0.000000000000e+00
0.000000000000e+00+j0.000000000000e+00
0.000000000000e+00+j0.000000000000e+00
0.000000000000e+00+j0.000000000000e+00
0.000000000000e+00+j0.000000000000e+00
0.000000000000e+00+j0.000000000000e+00
0.000000000000e+00+j0.000000000000e+00
0.000000000000e+00+j0.000000000000e+00
0.000000000000e+00+j0.000000000000e+00
0.000000000000e+00+j0.000000000000e+00
0.000000000000e+00+j0.000000000000e+00
0.000000000000e+00+j0.000000000000e+00
0.000000000000e+00+j0.000000000000e+00
0.000000000000e+00+j0.000000000000e+00
0.000000000000e+00+j0.000000000000e+00
0.000000000000e+00+j0.000000000000e+00
0.000000000000e+00+j0.000000000000e+00
0.000000000000e+00+j0.000000000000e+00
0.000000000000e+00+j0.000000000000e+00
0.000000000000e+00+j0.000000000000e+00
0.000000000000e+00+j0.000000000000e+00
0.000000000000e+00+j0.000000000000e+00
0.000000000000e+00+j0.000000000000e+00
0.000000000000e+00+j0.000000000000e+00
0.000000000000e+00+j0.000000000000e+00
0.000000000000e+00+j0.000000000000e+00
0.000000000000e+00+j0.000000000000e+00
0.000000000000e+00+j0.000000000000e+00
0.000000000000e+00+j0.000000000000e+00
0.000000000000e+00+j0.000000000000e+00
0.000000000000e+00+j0.000000000000e+00
0.000000000000e+00+j0.000000000000e+00
0.000000000000e+00+j0.000000000000e+00
0.000000000000e+00+j0.000000000000e+00
0.000000000000e+00+j0.000000000000e+00
0.000000000000e+00+j0.000000000000e+00
0.000000000000e+00+j0.000000000000e+00
0.000000000000e+00+j0.000000000000e+00
0.000000000000e+00+j0.000000000000e+00
0.000000000000e+00+j0.000000000000e+00
0.000000000000e+00+j0.000000000000e+00
0.000000000000e+00+j0.000000000000e+00
0.000000000000e+00+j0.000000000000e+00
0.000000000000e+00+j0.000000000000e+00
0.000000000000e+00+j0.000000000000e+00
0.000000000000e+00+j0.000000000000e+00
0.000000000000e+00+j0.000000000000e+00
0.000000000000e+00+j0.000000000000e+00
0.000000000000e+00+j0.000000000000e+00
0.000000000000e+00+j0.000000000000e+00
0.000000000000e+00+j0.000000000000e+00
0.000000000000e+00+j0.000000000000e+00
0.000000000000e+00+j0.000000000000e+00
0.000000000000e+00+j0.000000000000e+00
0.000000000000e+00+j0.000000000000e+00
0.000000000000e+00+j0.000000000000e+00
0.000000000000e+00+j0.000000000000e+00
0.000000000000e+00+j0.000000000000e+00
0.000000000000e+00+j0.000000000000e+00
0.000000000000e+00+j0.000000000000e+00
0.000000000000e+00+j0.000000000000e+00
0.000000000000e+00+j0.000000000000e+00
0.000000000000e+00+j0.000000000000e+00
0.000000000000e+00+j0.000000000000e+00
0.000000000000e+00+j0.000000000000e+00
0.000000000000e+00+j0.000000000000e+00
0.000000000000e+00+j0.000000000000e+00
0.000000000000e+00+j0.000000000000e+00
0.000000000000e+00+j0.000000000000e+00
0.000000000000e+00+j0.000000000000e+00
0.000000000000e+00+j0.000000000000e+00
0.000000000000e+00+j0.000000000000e+00
0.000000000000e+00+j0.000000000000e+00
</dep>
<dep ac.v(vout) frequency>
9.999609812012e-01-j1.267041302359e-03
9.999607874823e-01-j1.413871113700e-03
9.999605462639e-01-j1.577716152349e-03
9.999602458993e-01-j1.760548211775e-03
9.999598718859e-01-j1.964567585131e-03
9.999594061651e-01-j2.192229544864e-03
9.999588262502e-01-j2.446273890941e-03
9.999581041409e-01-j2.729757923327e-03
9.999572049710e-01-j3.046093235554e-03
9.999560853248e-01-j3.399086772232e-03
9.999546911409e-01-j3.792986644698e-03
9.999529551014e-01-j4.232533256249e-03
9.999507933812e-01-j4.723016352409e-03
9.999481015995e-01-j5.270338682975e-03
9.999447497792e-01-j5.881087042302e-03
9.999405760690e-01-j6.562611543115e-03
9.999353789254e-01-j7.323114078463e-03
9.999289073769e-01-j8.171747037122e-03
9.999208488991e-01-j9.118723461512e-03
9.999108143130e-01-j1.017543997525e-02
9.998983189761e-01-j1.135461396168e-02
9.998827593547e-01-j1.267043664697e-02
9.998633838398e-01-j1.413874393380e-02
9.998392563890e-01-j1.577720704643e-02
9.998092112274e-01-j1.760554528849e-02
9.997717963972e-01-j1.964576348287e-02
9.997252034006e-01-j2.192241696332e-02
9.996671794895e-01-j2.446290732274e-02
9.995949182888e-01-j2.729781249749e-02
9.995049233573e-01-j3.046125518553e-02
9.993928379116e-01-j3.399131406187e-02
9.992532322112e-01-j3.793048277319e-02
9.990793378969e-01-j4.232618226531e-02
9.988627157788e-01-j4.723133262493e-02
9.985928399805e-01-j5.270499129304e-02
9.982565767376e-01-j5.881306521760e-02
9.978375301765e-01-j6.562910522141e-02
9.973152196179e-01-j7.323519149842e-02
9.966640427200e-01-j8.172291958519e-02
9.958519652340e-01-j9.119449614180e-02
9.948388600409e-01-j1.017639529807e-01
9.935743937459e-01-j1.135584852248e-01
9.919953259685e-01-j1.267199138834e-01
9.900220411252e-01-j1.414062620979e-01
9.875540701711e-01-j1.577934136112e-01
9.844642738749e-01-j1.760767843366e-01
9.805912411461e-01-j1.964728705353e-01
9.757292951244e-01-j2.192204181595e-01
9.696152849900e-01-j2.445807498628e-01
9.619110655332e-01-j2.728364253387e-01
9.521802379889e-01-j3.042867906356e-01
9.398573971069e-01-j3.392379194704e-01
9.242079598117e-01-j3.779826935650e-01
9.042770362689e-01-j4.207639197964e-01
8.788276352597e-01-j4.677089704928e-01
8.462736154718e-01-j5.187181680055e-01
8.046246653294e-01-j5.732817613013e-01
7.514847785708e-01-j6.301959100942e-01
6.841883447656e-01-j6.871587816019e-01
6.002171186423e-01-j7.402811370864e-01
4.980813640004e-01-j7.836850141240e-01
3.787568770260e-01-j8.096099870714e-01
2.473584749372e-01-j8.096664360636e-01
1.139732046862e-01-j7.776223626851e-01
-7.860378375379e-03-j7.128959400694e-01
-1.053895935524e-01-j6.223802156447e-01
-1.713768784435e-01-j5.185458871398e-01
-2.060303202330e-01-j4.147284862413e-01
-2.152091622275e-01-j3.208857959451e-01
-2.069470233223e-01-j2.420635841978e-01
-1.886710483363e-01-j1.792187950650e-01
-1.659528554963e-01-j1.308876858171e-01
-1.424076327106e-01-j9.461845226693e-02
-1.201009090106e-01-j6.784648841355e-02
-1.000418765668e-01-j4.830381124574e-02
-8.258884053208e-02-j3.414684533520e-02
-6.773241934000e-02-j2.394681890953e-02
-5.527583269605e-02-j1.662758876939e-02
-4.494244903110e-02-j1.139272913836e-02
-3.643631293125e-02-j7.659276396185e-03
-2.947390774424e-02-j5.003478808019e-03
-2.379902877530e-02-j3.118681432023e-03
-1.918811941032e-02-j1.783599775130e-03
-1.545047669731e-02-j8.388414497872e-04
-1.242589992640e-02-j1.697187481704e-04
-9.981245940860e-03+j3.062498890190e-04
-8.006695431164e-03+j6.483914617591e-04
-6.412148730195e-03+j8.994174023087e-04
-5.123947845991e-03+j1.090140638516e-03
-4.081996809544e-03+j1.242875802827e-03
-3.237284657437e-03+j1.373889327769e-03
-2.549780445806e-03+j1.495164203848e-03
-1.986653247446e-03+j1.615669209268e-03
-1.520763588743e-03+j1.742266827743e-03
-1.129371255958e-03+j1.880351645033e-03
-7.930051803008e-04+j2.034276432172e-03
-4.944434505076e-04+j2.207591320862e-03
-2.177570435554e-04+j2.403087068046e-03
5.261457248783e-05+j2.622590510597e-03
3.327503844774e-04+j2.866404033429e-03
6.400032249494e-04+j3.132213926602e-03
9.933413265932e-04+j3.413244941496e-03
1.412648648710e-03+j3.695513179547e-03
1.915872105122e-03+j3.954473549545e-03
2.512631135922e-03+j4.152560653652e-03
3.193946744794e-03+j4.241168118288e-03
</dep>
<dep ac.vout_db frequency>
-3.319469173385e-04+j0.000000000000e+00
-3.319199234185e-04+j0.000000000000e+00
-3.318863111358e-04+j0.000000000000e+00
-3.318444579426e-04+j0.000000000000e+00
-3.317923435933e-04+j0.000000000000e+00
-3.317274527221e-04+j0.000000000000e+00
-3.316466535043e-04+j0.000000000000e+00
-3.315460467782e-04+j0.000000000000e+00
-3.314207780931e-04+j0.000000000000e+00
-3.312648040281e-04+j0.000000000000e+00
-3.310706012564e-04+j0.000000000000e+00
-3.308288048882e-04+j0.000000000000e+00
-3.305277584879e-04+j0.000000000000e+00
-3.301529549067e-04+j0.000000000000e+00
-3.296863413195e-04+j0.000000000000e+00
-3.291054561082e-04+j0.000000000000e+00
-3.283823576726e-04+j0.000000000000e+00
-3.274822958015e-04+j0.000000000000e+00
-3.263620658023e-04+j0.000000000000e+00
-3.249679717470e-04+j0.000000000000e+00
-3.232333106154e-04+j0.000000000000e+00
-3.210752703704e-04+j0.000000000000e+00
-3.183911158439e-04+j0.000000000000e+00
-3.150535138731e-04+j0.000000000000e+00
-3.109048281967e-04+j0.000000000000e+00
-3.057501948539e-04+j0.000000000000e+00
-2.993491781650e-04+j0.000000000000e+00
-2.914058124892e-04+j0.000000000000e+00
-2.815568715211e-04+j0.000000000000e+00
-2.693582990421e-04+j0.000000000000e+00
-2.542699218796e-04+j0.000000000000e+00
-2.356389095784e-04+j0.000000000000e+00
-2.126830475496e-04+j0.000000000000e+00
-1.844759079817e-04+j0.000000000000e+00
-1.499376873242e-04+j0.000000000000e+00
-1.078382218812e-04+j0.000000000000e+00
-5.682311062877e-05+j0.000000000000e+00
4.519071581325e-06+j0.000000000000e+00
7.751929428539e-05+j0.000000000000e+00
1.631734753231e-04+j0.000000000000e+00
2.616961186362e-04+j0.000000000000e+00
3.717639380543e-04+j0.000000000000e+00
4.892630123161e-04+j0.000000000000e+00
6.052465253778e-04+j0.000000000000e+00
7.026441823424e-04+j0.000000000000e+00
7.510061901620e-04+j0.000000000000e+00
6.981637599921e-04+j0.000000000000e+00
4.570669892172e-04+j0.000000000000e+00
-1.148980784708e-04+j0.000000000000e+00
-1.248285319344e-03+j0.000000000000e+00
-3.312078072413e-03+j0.000000000000e+00
-6.892104295660e-03+j0.000000000000e+00
-1.291220817939e-02+j0.000000000000e+00
-2.282020530419e-02+j0.000000000000e+00
-3.887040103730e-02+j0.000000000000e+00
-6.454627570883e-02+j0.000000000000e+00
-1.051777614230e-01+j0.000000000000e+00
-1.688079504282e-01+j0.000000000000e+00
-2.673315641056e-01+j0.000000000000e+00
-4.178180201967e-01+j0.000000000000e+00
-6.436818382053e-01+j0.000000000000e+00
-9.749393264129e-01+j0.000000000000e+00
-1.446347506685e+00+j0.000000000000e+00
-2.092319393708e+00+j0.000000000000e+00
-2.938949221912e+00+j0.000000000000e+00
-3.996108014894e+00+j0.000000000000e+00
-5.254051735350e+00+j0.000000000000e+00
-6.686775741529e+00+j0.000000000000e+00
-8.259905839874e+00+j0.000000000000e+00
-9.938684750873e+00+j0.000000000000e+00
-1.169307799481e+01+j0.000000000000e+00
-1.349965220284e+01+j0.000000000000e+00
-1.534132773438e+01+j0.000000000000e+00
-1.720621137641e+01+j0.000000000000e+00
-1.908627293133e+01+j0.000000000000e+00
-2.097620468394e+01+j0.000000000000e+00
-2.287255137243e+01+j0.000000000000e+00
-2.477308772934e+01+j0.000000000000e+00
-2.667638709529e+01+j0.000000000000e+00
-2.858152358433e+01+j0.000000000000e+00
-3.048785870475e+01+j0.000000000000e+00
-3.239487089804e+01+j0.000000000000e+00
-3.430198848705e+01+j0.000000000000e+00
-3.620837967920e+01+j0.000000000000e+00
-3.811263285013e+01+j0.000000000000e+00
-4.001221826081e+01+j0.000000000000e+00
-4.190254600444e+01+j0.000000000000e+00
-4.377531041184e+01+j0.000000000000e+00
-4.561564487503e+01+j0.000000000000e+00
-4.739751155118e+01+j0.000000000000e+00
-4.907715136928e+01+j0.000000000000e+00
-5.058642818078e+01+j0.000000000000e+00
-5.183283018986e+01+j0.000000000000e+00
-5.271791094214e+01+j0.000000000000e+00
-5.317746431929e+01+j0.000000000000e+00
-5.321742292391e+01+j0.000000000000e+00
-5.290905338882e+01+j0.000000000000e+00
-5.234909479648e+01+j0.000000000000e+00
-5.162364266672e+01+j0.000000000000e+00
-5.079511701268e+01+j0.000000000000e+00
-4.990533457561e+01+j0.000000000000e+00
-4.898357113504e+01+j0.000000000000e+00
-4.805419232379e+01+j0.000000000000e+00
-4.714253105969e+01+j0.000000000000e+00
-4.627878631547e+01+j0.000000000000e+00
-4.549923368306e+01+j0.000000000000e+00
</dep>
