<Qucs Dataset 0.0.19>
<indep acfrequency 51>
  +1.00000000000000000000e+01
  +1.25892541179416710406e+01
  +1.58489319246111328710e+01
  +1.99526231496887938022e+01
  +2.51188643150957986450e+01
  +3.16227766016837890106e+01
  +3.98107170553497198284e+01
  +5.01187233627272235026e+01
  +6.30957344480193071945e+01
  +7.94328234724281401213e+01
  +9.99999999999999857891e+01
  +1.25892541179416696195e+02
  +1.58489319246111278972e+02
  +1.99526231496887874073e+02
  +2.51188643150957886974e+02
  +3.16227766016837733787e+02
  +3.98107170553496985121e+02
  +5.01187233627271950809e+02
  +6.30957344480193114578e+02
  +7.94328234724281287527e+02
  +9.99999999999999545253e+02
  +1.25892541179416662089e+03
  +1.58489319246111244865e+03
  +1.99526231496887817229e+03
  +2.51188643150957841499e+03
  +3.16227766016837676943e+03
  +3.98107170553496916909e+03
  +5.01187233627271871228e+03
  +6.30957344480192659830e+03
  +7.94328234724280628143e+03
  +9.99999999999998908606e+03
  +1.25892541179416566592e+04
  +1.58489319246111153916e+04
  +1.99526231496887703543e+04
  +2.51188643150957650505e+04
  +3.16227766016837449570e+04
  +3.98107170553496980574e+04
  +5.01187233627271489240e+04
  +6.30957344480192768970e+04
  +7.94328234724280191585e+04
  +9.99999999999999126885e+04
  +1.25892541179416497471e+05
  +1.58489319246111204848e+05
  +1.99526231496887572575e+05
  +2.51188643150957708713e+05
  +3.16227766016837267671e+05
  +3.98107170553496747743e+05
  +5.01187233627271139994e+05
  +6.30957344480192288756e+05
  +7.94328234724279609509e+05
  +9.99999999999998370185e+05
</indep>
<dep Vout_dB acfrequency>
  -8.95001976206929832081e-05
  -9.05354020133778683230e-05
  -9.21760899016715222823e-05
  -9.47764036993984699707e-05
  -9.88976201402996655436e-05
  -1.05429300010098994655e-04
  -1.15781294840300552325e-04
  -1.32188050410711021698e-04
  -1.58190878622138777826e-04
  -1.99402265004022685810e-04
  -2.64717109385196572476e-04
  -3.68232148783936689453e-04
  -5.32287374295601668772e-04
  -7.92284685972727384558e-04
  -1.20432076239562497327e-03
  -1.85727383989586943003e-03
  -2.89193360254033334303e-03
  -4.53125387200971688206e-03
  -7.12813406926586339007e-03
  -1.12407324843537999304e-02
  -1.77507917907666276647e-02
  -2.80485851291783633288e-02
  -4.43196161215851994197e-02
  -6.99831915563547540815e-02
  -1.10348984739263827892e-01
  -1.73565433137681662812e-01
  -2.71908439791949285702e-01
  -4.23347050186471729472e-01
  -6.53037804149232625761e-01
  -9.93872422557260382092e-01
  -1.48458441070856372868e+00
  -2.16391466394242337756e+00
  -3.06108707827016957026e+00
  -4.18629925840613115184e+00
  -5.52692225077589149862e+00
  -7.05206533814866975973e+00
  -8.72230446299389683418e+00
  -1.04988740853600059921e+01
  -1.23489686407732168760e+01
  -1.42471645604400158902e+01
  -1.61744973127775253374e+01
  -1.81165959227122392861e+01
  -2.00616339063156488010e+01
  -2.19983448398888903341e+01
  -2.39141055072815511551e+01
  -2.57930825856714207589e+01
  -2.76146899763497408742e+01
  -2.93532349567080927955e+01
  -3.09807624160683978687e+01
  -3.24763448778787946480e+01
  -3.38440225781363182023e+01
</dep>
<dep V1.i acfrequency>
  -1.77245315108053040455e-16-j2.73308291531498010729e-13
  -2.80914423570380321468e-16-j3.44074670136019003947e-13
  -4.45218786583072049035e-16-j4.33164179529744917532e-13
  -7.05623398665853385815e-16-j5.45321061358604199408e-13
  -1.11833625675004022043e-15-j6.86517879842846805868e-13
  -1.77244045115137343574e-15-j8.64273483948139062948e-13
  -2.80912170491859415722e-15-j1.08805321667504775966e-12
  -4.45214064117927416757e-15-j1.36977258635855154916e-12
  -7.05612473432787068850e-15-j1.72443102736052258777e-12
  -1.11830975107076479499e-14-j2.17090911128216595395e-12
  -1.77237480996628910040e-14-j2.73297088717598665288e-12
  -2.80895776299459302975e-14-j3.44052318121825167717e-12
  -4.45172979172980218209e-14-j4.33119583099997151244e-12
  -7.05509373203537140284e-14-j5.45232085164100922704e-12
  -1.11805089571859860535e-13-j6.86340366009097228718e-12
  -1.77172479594202401687e-13-j8.63919351075295867460e-12
  -2.80732552317537038679e-13-j1.08734679873225675001e-11
  -4.44763158677342140245e-13-j1.36836363461882115422e-11
  -7.04480637101482624493e-13-j1.72162149667540754291e-11
  -1.11546952809801517328e-12-j2.16530872065466040077e-11
  -1.76525139071528917795e-12-j2.72181354742104928526e-11
  -2.79110745642281789612e-12-j3.41831462480403288150e-11
  -4.40706134390978497318e-12-j4.28705134056241968754e-11
  -6.94355964670240869335e-12-j5.36476530683899933377e-11
  -1.09029668501304773802e-11-j6.69034031831191142271e-11
  -1.70302734390503447351e-11-j8.29892880867086569385e-11
  -2.63866988676422805511e-11-j1.02099126336241850288e-10
  -4.03866302702414073475e-11-j1.24055322278931748830e-10
  -6.07103682763261673711e-11-j1.47989040696061175612e-10
  -8.89550094370095892449e-11-j1.71982696179680808342e-10
  -1.25917170113749016061e-10-j1.92913836701213568431e-10
  -1.70659054366076165140e-10-j2.06900161614022049578e-10
  -2.19976498569696484602e-10-j2.10564251114110779749e-10
  -2.69028517325844063575e-10-j2.02589233977915808179e-10
  -3.13073340707420240380e-10-j1.84390490564199301348e-10
  -3.49131689988292234512e-10-j1.59295334578706817017e-10
  -3.76477960590238125510e-10-j1.30957467899720834387e-10
  -3.96027070476226286562e-10-j1.02157400461002668138e-10
  -4.09400943668649933821e-10-j7.44246487467562920318e-11
  -4.18246403338785159399e-10-j4.82168347199568124259e-11
  -4.23915772348518266443e-10-j2.32628635477751872002e-11
  -4.27391623688799626055e-10+j1.14966922397071978122e-12
  -4.29319566944690606268e-10+j2.60006109897588105139e-11
  -4.30063474235774328565e-10+j5.24625523725994085744e-11
  -4.29739813483195146815e-10+j8.18966561036173915753e-11
  -4.28205188478453830508e-10+j1.15896012841387549624e-10
  -4.24965845134361667005e-10+j1.56356673294605495503e-10
  -4.18952342519505878364e-10+j2.05537162772824169060e-10
  -4.08068809269375499238e-10+j2.65983992585633300675e-10
  -3.88471182103501104435e-10+j3.39970200754727787467e-10
  -3.54011745445105648423e-10+j4.27705925940713848483e-10
</dep>
<dep V2.i acfrequency>
  +1.77221363338294824152e-16+j2.73271359005201528945e-13
  +2.80876462851047428202e-16+j3.44028174851402693736e-13
  +4.45158623188607798441e-16+j4.33105645456879740957e-13
  +7.05528046437089116845e-16+j5.45247371371645472944e-13
  +1.11818513406367754339e-15+j6.86425109735111684586e-13
  +1.77220093846328427603e-15+j8.64156693480515658690e-13
  +2.80874210406321424108e-15+j1.08790618654357340277e-12
  +4.45153901690949612964e-15+j1.36958748710019185059e-12
  +7.05517123009698137065e-15+j1.72419800261799586243e-12
  +1.11815863229548498977e-14+j2.17061575334051545255e-12
  +1.77213530647771982251e-14+j2.73260157705153836676e-12
  +2.80857818462224613144e-14+j3.44005825857667426855e-12
  +4.45112822330800622002e-14+j4.33061055053508788773e-12
  +7.05414036745457602108e-14+j5.45158407200618174601e-12
  +1.11789981195573215126e-13+j6.86247619889050995940e-12
  +1.77148538032367612329e-13+j8.63802608462135841895e-12
  +2.80694616540277293809e-13+j1.08719986406001317155e-11
  +4.44703057218064971063e-13+j1.36817872575405324549e-11
  +7.04385439661224407327e-13+j1.72138885158863625407e-11
  +1.11531879316220804957e-12+j2.16501611950151771822e-11
  +1.76501284986041003857e-12+j2.72144574500330727664e-11
  +2.79073029022323683208e-12+j3.41785270323530512772e-11
  +4.40646581163316713383e-12+j4.28647202540339890811e-11
  +6.94262135391258462196e-12+j5.36404035870566804396e-11
  +1.09014935171856694291e-11+j6.68943624339945890218e-11
  +1.70279721147172949924e-11+j8.29780736297764665296e-11
  +2.63831331966395976596e-11+j1.02085329540516639346e-10
  +4.03811727692039224966e-11+j1.24038558512173640159e-10
  +6.07021644005477260732e-11+j1.47969042732931379004e-10
  +8.89429888239248923744e-11+j1.71959455920800935656e-10
  +1.25900154752925330681e-10+j1.92887767988453278993e-10
  +1.70635992972739408599e-10+j2.06872202909890760763e-10
  +2.19946772842121146954e-10+j2.10535797276512908956e-10
  +2.68992163131337005362e-10+j2.02561857815380262802e-10
  +3.13031034675196637107e-10+j1.84365573622955279434e-10
  +3.49084511341609848512e-10+j1.59273808780494575041e-10
  +3.76427086604301756933e-10+j1.30939771436507674046e-10
  +3.95973554792115030767e-10+j1.02143595790614650726e-10
  +4.09345620754613109513e-10+j7.44145916413478176392e-11
  +4.18189885125586112190e-10+j4.82103191125954541314e-11
  +4.23858488025667598727e-10+j2.32597200049471044784e-11
  +4.27333869669364364747e-10-j1.14951386758316645453e-12
  +4.29261552399625006533e-10-j2.59970974913437347601e-11
  +4.30005359165490625506e-10-j5.24554630355571700989e-11
  +4.29681742149635105474e-10-j8.18855892955516014428e-11
  +4.28147324520887001403e-10-j1.15880351653364433582e-10
  +4.24908418913727473842e-10-j1.56335544601744569072e-10
  +4.18895728911771861455e-10-j2.05509388252605506272e-10
  +4.08013666368496921788e-10-j2.65948049801952484097e-10
  +3.88418687457004427819e-10-j3.39924260112718200242e-10
  +3.53963907349800307102e-10-j4.27648129449181939948e-10
</dep>
<dep V3.i acfrequency>
  -9.99994956025198955063e-05+j1.00715260637945592155e-09
  -9.99994952257230351918e-05+j1.26792970687830012395e-09
  -9.99994946285406432216e-05+j1.59622832409794285527e-09
  -9.99994936820712592351e-05+j2.00953119457672654796e-09
  -9.99994921820206600924e-05+j2.52984748104989387326e-09
  -9.99994898046065443676e-05+j3.18488448207423393548e-09
  -9.99994860366737469987e-05+j4.00952243132337182474e-09
  -9.99994800649395043689e-05+j5.04767056986371998682e-09
  -9.99994706004709888207e-05+j6.35460262549143706617e-09
  -9.99994556005314523713e-05+j7.99989465833708639522e-09
  -9.99994318278126057432e-05+j1.00711189036742514140e-08
  -9.99993941520572950533e-05+j1.26784846970994251005e-08
  -9.99993344436885255337e-05+j1.59606624082257500667e-08
  -9.99992398215424695444e-05+j2.00920781548300794340e-08
  -9.99990898787554959850e-05+j2.52920231676744995334e-08
  -9.99988522937316165560e-05+j3.18359740559136569653e-08
  -9.99984758931627814443e-05+j4.00695499409572272432e-08
  -9.99978797057166090851e-05+j5.04254981212299591937e-08
  -9.99969357336705168184e-05+j6.34439154047048825869e-08
  -9.99954419487539134448e-05+j7.97954034608186666791e-08
  -9.99930802439101659631e-05+j1.00305681649022974229e-07
  -9.99893516546541207034e-05+j1.25977689180936218277e-07
  -9.99834782868271981478e-05+j1.58002216812426016917e-07
  -9.99742590916761483333e-05+j1.97738623337425054308e-07
  -9.99598681599344815723e-05+j2.46630339517289311831e-07
  -9.99375977169667575320e-05+j3.05993006713481104681e-07
  -9.99035905849076608402e-05+j3.76578944186766670687e-07
  -9.98527058803338313751e-05+j4.57802988113438486533e-07
  -9.97788360545197560965e-05+j5.46583314732145969957e-07
  -9.96761756147310082820e-05+j6.36046129480797468486e-07
  -9.95418278229229100884e-05+j7.14963358020393796648e-07
  -9.93791987007298997488e-05+j7.69376443067462560132e-07
  -9.91999298853236591679e-05+j7.87200992590918619132e-07
  -9.90216097767156248855e-05+j7.63890908634642352080e-07
  -9.88614627334193318787e-05+j7.04892410720260611245e-07
  -9.87303019698350403134e-05+j6.22678673127979920353e-07
  -9.86307411756232586299e-05+j5.31007398996095948706e-07
  -9.85594178958715559430e-05+j4.40586297932736763987e-07
  -9.85103782645273571639e-05+j3.57731652799177728103e-07
  -9.84775432259297193354e-05+j2.85058770487464573831e-07
  -9.84558488682263669919e-05+j2.22778306401575735884e-07
  -9.84414871023028034257e-05+j1.69801147244093246556e-07
  -9.84317337501991565822e-05+j1.24443165636298443393e-07
  -9.84246624777815944541e-05+j8.47816518964387138006e-08
  -9.84188808758916435383e-05+j4.87620561897983267798e-08
  -9.84133475899990142494e-05+j1.41195572604396169107e-08
  -9.84073284549801278673e-05-j2.18674366591877606787e-08
  -9.84006271255736050677e-05-j6.27961278862821638046e-08
  -9.83944069803657696965e-05-j1.13646231227642395726e-07
  -9.83931619168231208191e-05-j1.80838338196770732910e-07
  -9.84080929577009955091e-05-j2.70008925473026064119e-07
</dep>
<dep _net0.v acfrequency>
  +5.04397480109582978702e-06+j1.00715260637945603570e-05
  +5.04774276962777550487e-06+j1.26792970687829996315e-05
  +5.05371459362330983364e-06+j1.59622832409794248535e-05
  +5.06317928757627548452e-06+j2.00953119457672688413e-05
  +5.07817979337091552066e-06+j2.52984748104989362973e-05
  +5.10195393456211350865e-06+j3.18488448207423382563e-05
  +5.13963326258456332425e-06+j4.00952243132336996127e-05
  +5.19935060505500463019e-06+j5.04767056986371907097e-05
  +5.29399529022306455006e-06+j6.35460262549143441125e-05
  +5.44399468554260843967e-06+j7.99989465833708793046e-05
  +5.68172187387182326838e-06+j1.00711189036742509322e-04
  +6.05847942723743234544e-06+j1.26784846970994245817e-04
  +6.65556311476977177833e-06+j1.59606624082257486956e-04
  +7.60178457533576836625e-06+j2.00920781548300788569e-04
  +9.10121244516715891730e-06+j2.52920231676744965317e-04
  +1.14770626839390876758e-05+j3.18359740559136575582e-04
  +1.52410683723671113923e-05+j4.00695499409572301972e-04
  +2.12029428340350756894e-05+j5.04254981212299657582e-04
  +3.06426632949120805933e-05+j6.34439154047048868221e-04
  +4.55805124609759648681e-05+j7.97954034608186566629e-04
  +6.91975608984226600237e-05+j1.00305681649022959342e-03
  +1.06483453458928030389e-04+j1.25977689180936246356e-03
  +1.65217131728059504758e-04+j1.58002216812425989347e-03
  +2.57409083238617172364e-04+j1.97738623337425029405e-03
  +4.01318400655226344143e-04+j2.46630339517289265752e-03
  +6.24022830332399310038e-04+j3.05993006713481093331e-03
  +9.64094150923379780184e-04+j3.76578944186766687713e-03
  +1.47294119666175260183e-03+j4.57802988113438415890e-03
  +2.21163945480257802950e-03+j5.46583314732145952169e-03
  +3.23824385268995122364e-03+j6.36046129480797532013e-03
  +4.58172177077086420494e-03+j7.14963358020393683484e-03
  +6.20801299270102441286e-03+j7.69376443067462580799e-03
  +8.00070114676355338690e-03+j7.87200992590918538494e-03
  +9.78390223284386975622e-03+j7.63890908634642408492e-03
  +1.13853726658066402300e-02+j7.04892410720260511464e-03
  +1.26969803016496584486e-02+j6.22678673127979864788e-03
  +1.36925882437673538533e-02+j5.31007398996095978522e-03
  +1.44058210412844923953e-02+j4.40586297932736743743e-03
  +1.48962173547264702111e-02+j3.57731652799177669150e-03
  +1.52245677407027296679e-02+j2.85058770487464510981e-03
  +1.54415113177364220209e-02+j2.22778306401575764556e-03
  +1.55851289769720693923e-02+j1.69801147244093221696e-03
  +1.56826624980084608496e-02+j1.24443165636298441572e-03
  +1.57533752221841460983e-02+j8.47816518964387131653e-04
  +1.58111912410836344400e-02+j4.87620561897983244293e-04
  +1.58665241000098544699e-02+j1.41195572604396155396e-04
  +1.59267154501987889814e-02-j2.18674366591877595775e-04
  +1.59937287442639963775e-02-j6.27961278862821520308e-04
  +1.60559301963423134429e-02-j1.13646231227642409596e-03
  +1.60683808317688865686e-02-j1.80838338196770724228e-03
  +1.59190704229900704958e-02-j2.70008925473026045738e-03
</dep>
<dep VOUT.v acfrequency>
  -9.99989485678187572937e-01+j6.48508546499246144382e-04
  -9.99989243503615177211e-01+j8.16423694304575136085e-04
  -9.99988859683020869795e-01+j1.02781614717527714636e-03
  -9.99988251368967406840e-01+j1.29394309142083800343e-03
  -9.99987287257658286066e-01+j1.62897629305788684689e-03
  -9.99985759247956296214e-01+j2.05075656557894602308e-03
  -9.99983337525198079376e-01+j2.58174339852679712512e-03
  -9.99979499376937752686e-01+j3.25021008980616588069e-03
  -9.99973416381300550526e-01+j4.09174757148908236487e-03
  -9.99963775632161655516e-01+j5.15115610476946789165e-03
  -9.99948496449333257274e-01+j6.48482377118885216366e-03
  -9.99924281518021706994e-01+j8.16371480783357160449e-03
  -9.99885905803090446753e-01+j1.02771197147949050477e-02
  -9.99825090333277932686e-01+j1.29373524615109033314e-02
  -9.99728719225748574395e-01+j1.62856162696810267965e-02
  -9.99576018770779284317e-01+j2.04992932360833941818e-02
  -9.99334098902221690253e-01+j2.58009323098843876276e-02
  -9.98950917793854586968e-01+j3.24691882795824018904e-02
  -9.98344208861227766505e-01+j4.08518460634814048471e-02
  -9.97384124679576933303e-01+j5.13807378869082925776e-02
  -9.95866211795415456898e-01+j6.45876061686185137800e-02
  -9.93469776302865703599e-01+j8.11183639903952369288e-02
  -9.89694851062170477540e-01+j1.01739997336463189326e-01
  -9.83769499902553579140e-01+j1.27328257804575184498e-01
  -9.74520178159200223256e-01+j1.58813463756094480628e-01
  -9.60206552649654154763e-01+j1.97044468339629547105e-01
  -9.38349554483364101110e-01+j2.42508903010103665787e-01
  -9.05645070597574486371e-01+j2.94835819614632732577e-01
  -8.58167733378955355228e-01+j3.52050928167754795250e-01
  -7.92186394729636811363e-01+j4.09744409082146765488e-01
  -7.05839575016413478536e-01+j4.60709938486800696378e-01
  -6.01316964167675549469e-01+j4.95988904398043162214e-01
  -4.86101841547023960644e-01+j5.07830652571250151794e-01
  -3.71500145853603969126e-01+j4.93333882865474138146e-01
  -2.68584623750257489583e-01+j4.56025064864553131283e-01
  -1.84308635000217019284e-01+j4.03953985137784354897e-01
  -1.20357427207851877538e-01+j3.46004847709065255223e-01
  -7.45782965639925216061e-02+j2.89112919631881348792e-01
  -4.31578121070044368190e-02+j2.37405876961050338325e-01
  -2.22096299863873310187e-02+j1.92652585247805679947e-01
  -8.51149404368854896330e-03+j1.55103715582706219722e-01
  +3.34130047124936088720e-04+j1.24213452354017581114e-01
  +6.00241722730321045076e-03+j9.91113311017565029593e-02
  +9.62037590820090209032e-03+j7.88633434598250970815e-02
  +1.19291306718915836316e-02+j6.25962357177573813782e-02
  +1.34094548250350900642e-02+j4.95443975161391908513e-02
  +1.43700754346366057351e-02+j3.90567995791245708981e-02
  +1.50048957892319929919e-02+j3.05849129926385257527e-02
  +1.54240394395627235247e-02+j2.36633390868453315214e-02
  +1.56597014486604263483e-02+j1.78937528043472647565e-02
  +1.56490469610567582703e-02+j1.29526997248205731628e-02
</dep>
<dep _net1.v acfrequency>
  +1.00000000000000000000e+00
  +1.00000000000000000000e+00
  +1.00000000000000000000e+00
  +1.00000000000000000000e+00
  +1.00000000000000000000e+00
  +1.00000000000000000000e+00
  +1.00000000000000000000e+00
  +1.00000000000000000000e+00
  +1.00000000000000000000e+00
  +1.00000000000000000000e+00
  +1.00000000000000000000e+00
  +1.00000000000000000000e+00
  +1.00000000000000000000e+00
  +1.00000000000000000000e+00
  +1.00000000000000000000e+00
  +1.00000000000000000000e+00
  +1.00000000000000000000e+00
  +1.00000000000000000000e+00
  +1.00000000000000000000e+00
  +1.00000000000000000000e+00
  +1.00000000000000000000e+00
  +1.00000000000000000000e+00
  +1.00000000000000000000e+00
  +1.00000000000000000000e+00
  +1.00000000000000000000e+00
  +1.00000000000000000000e+00
  +1.00000000000000000000e+00
  +1.00000000000000000000e+00
  +1.00000000000000000000e+00
  +1.00000000000000000000e+00
  +1.00000000000000000000e+00
  +1.00000000000000000000e+00
  +1.00000000000000000000e+00
  +1.00000000000000000000e+00
  +1.00000000000000000000e+00
  +1.00000000000000000000e+00
  +1.00000000000000000000e+00
  +1.00000000000000000000e+00
  +1.00000000000000000000e+00
  +1.00000000000000000000e+00
  +1.00000000000000000000e+00
  +1.00000000000000000000e+00
  +1.00000000000000000000e+00
  +1.00000000000000000000e+00
  +1.00000000000000000000e+00
  +1.00000000000000000000e+00
  +1.00000000000000000000e+00
  +1.00000000000000000000e+00
  +1.00000000000000000000e+00
  +1.00000000000000000000e+00
  +1.00000000000000000000e+00
</dep>
<dep VEE.v acfrequency>
  -0.00000000000000000000e+00
  -0.00000000000000000000e+00
  -0.00000000000000000000e+00
  +0.00000000000000000000e+00
  +0.00000000000000000000e+00
  +0.00000000000000000000e+00
  +0.00000000000000000000e+00
  +0.00000000000000000000e+00
  +0.00000000000000000000e+00
  +0.00000000000000000000e+00
