<Qucs Dataset 0.0.21>
<indep frequency 56>
1.000000000000e+01
1.232846739442e+01
1.519911082953e+01
1.873817422860e+01
2.310129700083e+01
2.848035868436e+01
3.511191734215e+01
4.328761281083e+01
5.336699231206e+01
6.579332246576e+01
8.111308307897e+01
1.000000000000e+02
1.232846739442e+02
1.519911082953e+02
1.873817422860e+02
2.310129700083e+02
2.848035868436e+02
3.511191734215e+02
4.328761281083e+02
5.336699231206e+02
6.579332246576e+02
8.111308307897e+02
1.000000000000e+03
1.232846739442e+03
1.519911082953e+03
1.873817422860e+03
2.310129700083e+03
2.848035868436e+03
3.511191734215e+03
4.328761281083e+03
5.336699231206e+03
6.579332246576e+03
8.111308307897e+03
1.000000000000e+04
1.232846739442e+04
1.519911082953e+04
1.873817422860e+04
2.310129700083e+04
2.848035868436e+04
3.511191734215e+04
4.328761281083e+04
5.336699231206e+04
6.579332246576e+04
8.111308307897e+04
1.000000000000e+05
1.232846739442e+05
1.519911082953e+05
1.873817422860e+05
2.310129700083e+05
2.848035868436e+05
3.511191734215e+05
4.328761281083e+05
5.336699231206e+05
6.579332246576e+05
8.111308307897e+05
1.000000000000e+06
</indep>
<dep ac.v(vcc) frequency>
0.000000000000e+00+j0.000000000000e+00
0.000000000000e+00+j0.000000000000e+00
0.000000000000e+00+j0.000000000000e+00
0.000000000000e+00+j0.000000000000e+00
0.000000000000e+00+j0.000000000000e+00
0.000000000000e+00+j0.000000000000e+00
0.000000000000e+00+j0.000000000000e+00
0.000000000000e+00+j0.000000000000e+00
0.000000000000e+00+j0.000000000000e+00
0.000000000000e+00+j0.000000000000e+00
0.000000000000e+00+j0.000000000000e+00
0.000000000000e+00+j0.000000000000e+00
0.000000000000e+00+j0.000000000000e+00
0.000000000000e+00+j0.000000000000e+00
0.000000000000e+00+j0.000000000000e+00
0.000000000000e+00+j0.000000000000e+00
0.000000000000e+00+j0.000000000000e+00
0.000000000000e+00+j0.000000000000e+00
0.000000000000e+00+j0.000000000000e+00
0.000000000000e+00+j0.000000000000e+00
0.000000000000e+00+j0.000000000000e+00
0.000000000000e+00+j0.000000000000e+00
0.000000000000e+00+j0.000000000000e+00
0.000000000000e+00+j0.000000000000e+00
0.000000000000e+00+j0.000000000000e+00
0.000000000000e+00+j0.000000000000e+00
0.000000000000e+00+j0.000000000000e+00
0.000000000000e+00+j0.000000000000e+00
0.000000000000e+00+j0.000000000000e+00
0.000000000000e+00+j0.000000000000e+00
0.000000000000e+00+j0.000000000000e+00
0.000000000000e+00+j0.000000000000e+00
0.000000000000e+00+j0.000000000000e+00
0.000000000000e+00+j0.000000000000e+00
0.000000000000e+00+j0.000000000000e+00
0.000000000000e+00+j0.000000000000e+00
0.000000000000e+00+j0.000000000000e+00
0.000000000000e+00+j0.000000000000e+00
0.000000000000e+00+j0.000000000000e+00
0.000000000000e+00+j0.000000000000e+00
0.000000000000e+00+j0.000000000000e+00
0.000000000000e+00+j0.000000000000e+00
0.000000000000e+00+j0.000000000000e+00
0.000000000000e+00+j0.000000000000e+00
0.000000000000e+00+j0.000000000000e+00
0.000000000000e+00+j0.000000000000e+00
0.000000000000e+00+j0.000000000000e+00
0.000000000000e+00+j0.000000000000e+00
0.000000000000e+00+j0.000000000000e+00
0.000000000000e+00+j0.000000000000e+00
0.000000000000e+00+j0.000000000000e+00
0.000000000000e+00+j0.000000000000e+00
0.000000000000e+00+j0.000000000000e+00
0.000000000000e+00+j0.000000000000e+00
0.000000000000e+00+j0.000000000000e+00
0.000000000000e+00+j0.000000000000e+00
</dep>
<dep ac.v(vee) frequency>
0.000000000000e+00+j0.000000000000e+00
0.000000000000e+00+j0.000000000000e+00
0.000000000000e+00+j0.000000000000e+00
0.000000000000e+00+j0.000000000000e+00
0.000000000000e+00+j0.000000000000e+00
0.000000000000e+00+j0.000000000000e+00
0.000000000000e+00+j0.000000000000e+00
0.000000000000e+00+j0.000000000000e+00
0.000000000000e+00+j0.000000000000e+00
0.000000000000e+00+j0.000000000000e+00
0.000000000000e+00+j0.000000000000e+00
0.000000000000e+00+j0.000000000000e+00
0.000000000000e+00+j0.000000000000e+00
0.000000000000e+00+j0.000000000000e+00
0.000000000000e+00+j0.000000000000e+00
0.000000000000e+00+j0.000000000000e+00
0.000000000000e+00+j0.000000000000e+00
0.000000000000e+00+j0.000000000000e+00
0.000000000000e+00+j0.000000000000e+00
0.000000000000e+00+j0.000000000000e+00
0.000000000000e+00+j0.000000000000e+00
0.000000000000e+00+j0.000000000000e+00
0.000000000000e+00+j0.000000000000e+00
0.000000000000e+00+j0.000000000000e+00
0.000000000000e+00+j0.000000000000e+00
0.000000000000e+00+j0.000000000000e+00
0.000000000000e+00+j0.000000000000e+00
0.000000000000e+00+j0.000000000000e+00
0.000000000000e+00+j0.000000000000e+00
0.000000000000e+00+j0.000000000000e+00
0.000000000000e+00+j0.000000000000e+00
0.000000000000e+00+j0.000000000000e+00
0.000000000000e+00+j0.000000000000e+00
0.000000000000e+00+j0.000000000000e+00
0.000000000000e+00+j0.000000000000e+00
0.000000000000e+00+j0.000000000000e+00
0.000000000000e+00+j0.000000000000e+00
0.000000000000e+00+j0.000000000000e+00
0.000000000000e+00+j0.000000000000e+00
0.000000000000e+00+j0.000000000000e+00
0.000000000000e+00+j0.000000000000e+00
0.000000000000e+00+j0.000000000000e+00
0.000000000000e+00+j0.000000000000e+00
0.000000000000e+00+j0.000000000000e+00
0.000000000000e+00+j0.000000000000e+00
0.000000000000e+00+j0.000000000000e+00
0.000000000000e+00+j0.000000000000e+00
0.000000000000e+00+j0.000000000000e+00
0.000000000000e+00+j0.000000000000e+00
0.000000000000e+00+j0.000000000000e+00
0.000000000000e+00+j0.000000000000e+00
0.000000000000e+00+j0.000000000000e+00
0.000000000000e+00+j0.000000000000e+00
0.000000000000e+00+j0.000000000000e+00
0.000000000000e+00+j0.000000000000e+00
0.000000000000e+00+j0.000000000000e+00
</dep>
<dep ac.v(vout) frequency>
-9.999893444256e-01+j6.485471120844e-04
-9.999891291252e-01+j7.995590230288e-04
-9.999888018879e-01+j9.857334169600e-04
-9.999883045167e-01+j1.215257633986e-03
-9.999875485576e-01+j1.498225296586e-03
-9.999863995692e-01+j1.847080082438e-03
-9.999846532139e-01+j2.277162741966e-03
-9.999819989206e-01+j2.807385325355e-03
-9.999779646574e-01+j3.461062098007e-03
-9.999718329975e-01+j4.266933363959e-03
-9.999625135613e-01+j5.260426619040e-03
-9.999483491745e-01+j6.485209365528e-03
-9.999268213225e-01+j7.995099759117e-03
-9.998941026492e-01+j9.856415146076e-03
-9.998443772115e-01+j1.215085434272e-02
-9.997688082911e-01+j1.497902650011e-02
-9.996539717848e-01+j1.846475570714e-02
-9.994794802330e-01+j2.276030193964e-02
-9.992143834024e-01+j2.805263696856e-02
-9.988117248041e-01+j3.457088146497e-02
-9.982003309800e-01+j4.259491436589e-02
-9.972724765388e-01+j5.246494694178e-02
-9.958654676721e-01+j6.459140103804e-02
-9.937344081341e-01+j7.946354658238e-02
-9.905125259609e-01+j9.765370173588e-02
-9.856547448519e-01+j1.198108456967e-01
-9.783605122737e-01+j1.466324955907e-01
-9.674751893505e-01+j1.787959250839e-01
-9.513794944613e-01+j2.168194775315e-01
-9.279001302775e-01+j2.608156764973e-01
-8.943190354058e-01+j3.101030317638e-01
-8.476208126784e-01+j3.626919969274e-01
-7.851570975033e-01+j4.147931862697e-01
-7.058112665284e-01+j4.607140326409e-01
-6.113789724819e-01+j4.936551934604e-01
-5.073297300880e-01+j5.076252138720e-01
-4.019855680993e-01+j4.997871043582e-01
-3.040822774667e-01+j4.717524718019e-01
-2.200734817052e-01+j4.288326066390e-01
-1.527838041910e-01+j3.778320086513e-01
-1.017964850685e-01+j3.248915901460e-01
-6.476294377511e-02+j2.743643502606e-01
-3.868199326542e-02+j2.287121815145e-01
-2.070905331711e-02+j1.889339544615e-01
-8.504870300906e-03+j1.550965789113e-01
-2.956624566978e-04+j1.267644489338e-01
5.198822995342e-03+j1.032839105187e-01
8.875194921456e-03+j8.394794095972e-02
1.135070896326e-02+j6.807990736161e-02
1.304717237993e-02+j5.506812553896e-02
1.425236092934e-02+j4.437190448470e-02
1.516003980211e-02+j3.551068937389e-02
1.588661742596e-02+j2.804273538273e-02
1.645359483096e-02+j2.154290198089e-02
1.671753959824e-02+j1.561665878573e-02
1.628298002637e-02+j1.005636583302e-02
</dep>
<dep ac.vout_db frequency>
-9.072689686198e-05+j0.000000000000e+00
-9.164725099464e-05+j0.000000000000e+00
-9.304610707091e-05+j0.000000000000e+00
-9.517224306763e-05+j0.000000000000e+00
-9.840377872904e-05+j0.000000000000e+00
-1.033154209824e-04+j0.000000000000e+00
-1.107806698589e-04+j0.000000000000e+00
-1.221271597651e-04+j0.000000000000e+00
-1.393727587413e-04+j0.000000000000e+00
-1.655844045539e-04+j0.000000000000e+00
-2.054234724666e-04+j0.000000000000e+00
-2.659746132118e-04+j0.000000000000e+00
-3.580053458007e-04+j0.000000000000e+00
-4.978801402382e-04+j0.000000000000e+00
-7.104687604285e-04+j0.000000000000e+00
-1.033564625809e-03+j0.000000000000e+00
-1.524595568318e-03+j0.000000000000e+00
-2.270812597434e-03+j0.000000000000e+00
-3.404750554792e-03+j0.000000000000e+00
-5.127668426102e-03+j0.000000000000e+00
-7.745041656508e-03+j0.000000000000e+00
-1.172019674256e-02+j0.000000000000e+00
-1.775511710056e-02+j0.000000000000e+00
-2.691162377671e-02+j0.000000000000e+00
-4.079182030376e-02+j0.000000000000e+00
-6.180386289542e-02+j0.000000000000e+00
-9.354680213102e-02+j0.000000000000e+00
-1.413530958170e-01+j0.000000000000e+00
-2.130209576599e-01+j0.000000000000e+00
-3.197331477438e-01+j0.000000000000e+00
-4.770632452279e-01+j0.000000000000e+00
-7.057773957049e-01+j0.000000000000e+00
-1.031845025453e+00+j0.000000000000e+00
-1.484805635292e+00+j0.000000000000e+00
-2.093773169045e+00+j0.000000000000e+00
-2.881364320387e+00+j0.000000000000e+00
-3.857573047681e+00+j0.000000000000e+00
-5.016667999008e+00+j0.000000000000e+00
-6.338951901061e+00+j0.000000000000e+00
-7.796305830366e+00+j0.000000000000e+00
-9.358526059752e+00+j0.000000000000e+00
-1.099796592541e+01+j0.000000000000e+00
-1.269172855667e+01+j0.000000000000e+00
-1.442193297894e+01+j0.000000000000e+00
-1.617491606761e+01+j0.000000000000e+00
-1.794002691823e+01+j0.000000000000e+00
-1.970835700685e+01+j0.000000000000e+00
-2.147152604957e+01+j0.000000000000e+00
-2.322054467887e+01+j0.000000000000e+00
-2.494480057604e+01+j0.000000000000e+00
-2.663141038943e+01+j0.000000000000e+00
-2.826570167512e+01+j0.000000000000e+00
-2.983476579047e+01+j0.000000000000e+00
-3.133820563338e+01+j0.000000000000e+00
-3.281202658205e+01+j0.000000000000e+00
-3.436203474727e+01+j0.000000000000e+00
</dep>
<dep ac.vout_db frequency>
-9.072689686198e-05+j0.000000000000e+00
-9.164725099464e-05+j0.000000000000e+00
-9.304610707091e-05+j0.000000000000e+00
-9.517224306763e-05+j0.000000000000e+00
-9.840377872904e-05+j0.000000000000e+00
-1.033154209824e-04+j0.000000000000e+00
-1.107806698589e-04+j0.000000000000e+00
-1.221271597651e-04+j0.000000000000e+00
-1.393727587413e-04+j0.000000000000e+00
-1.655844045539e-04+j0.000000000000e+00
-2.054234724666e-04+j0.000000000000e+00
-2.659746132118e-04+j0.000000000000e+00
-3.580053458007e-04+j0.000000000000e+00
-4.978801402382e-04+j0.000000000000e+00
-7.104687604285e-04+j0.000000000000e+00
-1.033564625809e-03+j0.000000000000e+00
-1.524595568318e-03+j0.000000000000e+00
-2.270812597434e-03+j0.000000000000e+00
-3.404750554792e-03+j0.000000000000e+00
-5.127668426102e-03+j0.000000000000e+00
-7.745041656508e-03+j0.000000000000e+00
-1.172019674256e-02+j0.000000000000e+00
-1.775511710056e-02+j0.000000000000e+00
-2.691162377671e-02+j0.000000000000e+00
-4.079182030376e-02+j0.000000000000e+00
-6.180386289542e-02+j0.000000000000e+00
-9.354680213102e-02+j0.000000000000e+00
-1.413530958170e-01+j0.000000000000e+00
-2.130209576599e-01+j0.000000000000e+00
-3.197331477438e-01+j0.000000000000e+00
-4.770632452279e-01+j0.000000000000e+00
-7.057773957049e-01+j0.000000000000e+00
-1.031845025453e+00+j0.000000000000e+00
-1.484805635292e+00+j0.000000000000e+00
-2.093773169045e+00+j0.000000000000e+00
-2.881364320387e+00+j0.000000000000e+00
-3.857573047681e+00+j0.000000000000e+00
-5.016667999008e+00+j0.000000000000e+00
-6.338951901061e+00+j0.000000000000e+00
-7.796305830366e+00+j0.000000000000e+00
-9.358526059752e+00+j0.000000000000e+00
-1.099796592541e+01+j0.000000000000e+00
-1.269172855667e+01+j0.000000000000e+00
-1.442193297894e+01+j0.000000000000e+00
-1.617491606761e+01+j0.000000000000e+00
-1.794002691823e+01+j0.000000000000e+00
-1.970835700685e+01+j0.000000000000e+00
-2.147152604957e+01+j0.000000000000e+00
-2.322054467887e+01+j0.000000000000e+00
-2.494480057604e+01+j0.000000000000e+00
-2.663141038943e+01+j0.000000000000e+00
-2.826570167512e+01+j0.000000000000e+00
-2.983476579047e+01+j0.000000000000e+00
-3.133820563338e+01+j0.000000000000e+00
-3.281202658205e+01+j0.000000000000e+00
-3.436203474727e+01+j0.000000000000e+00
</dep>
