<Qucs Dataset 24.2.1>
<indep frequency 101>
1.000000000000e+01
1.122018454302e+01
1.258925411794e+01
1.412537544623e+01
1.584893192461e+01
1.778279410039e+01
1.995262314969e+01
2.238721138568e+01
2.511886431510e+01
2.818382931264e+01
3.162277660168e+01
3.548133892336e+01
3.981071705535e+01
4.466835921510e+01
5.011872336273e+01
5.623413251903e+01
6.309573444802e+01
7.079457843841e+01
7.943282347243e+01
8.912509381337e+01
1.000000000000e+02
1.122018454302e+02
1.258925411794e+02
1.412537544623e+02
1.584893192461e+02
1.778279410039e+02
1.995262314969e+02
2.238721138568e+02
2.511886431510e+02
2.818382931264e+02
3.162277660168e+02
3.548133892336e+02
3.981071705535e+02
4.466835921510e+02
5.011872336273e+02
5.623413251903e+02
6.309573444802e+02
7.079457843841e+02
7.943282347243e+02
8.912509381337e+02
1.000000000000e+03
1.122018454302e+03
1.258925411794e+03
1.412537544623e+03
1.584893192461e+03
1.778279410039e+03
1.995262314969e+03
2.238721138568e+03
2.511886431510e+03
2.818382931264e+03
3.162277660168e+03
3.548133892336e+03
3.981071705535e+03
4.466835921510e+03
5.011872336273e+03
5.623413251903e+03
6.309573444802e+03
7.079457843841e+03
7.943282347243e+03
8.912509381337e+03
1.000000000000e+04
1.122018454302e+04
1.258925411794e+04
1.412537544623e+04
1.584893192461e+04
1.778279410039e+04
1.995262314969e+04
2.238721138568e+04
2.511886431510e+04
2.818382931264e+04
3.162277660168e+04
3.548133892336e+04
3.981071705535e+04
4.466835921510e+04
5.011872336273e+04
5.623413251903e+04
6.309573444802e+04
7.079457843841e+04
7.943282347243e+04
8.912509381337e+04
1.000000000000e+05
1.122018454302e+05
1.258925411794e+05
1.412537544623e+05
1.584893192461e+05
1.778279410039e+05
1.995262314969e+05
2.238721138568e+05
2.511886431510e+05
2.818382931264e+05
3.162277660168e+05
3.548133892336e+05
3.981071705535e+05
4.466835921510e+05
5.011872336273e+05
5.623413251903e+05
6.309573444802e+05
7.079457843841e+05
7.943282347243e+05
8.912509381337e+05
1.000000000000e+06
</indep>
<dep ac.v(vcc) frequency>
0.000000000000e+00+j0.000000000000e+00
0.000000000000e+00+j0.000000000000e+00
0.000000000000e+00+j0.000000000000e+00
0.000000000000e+00+j0.000000000000e+00
0.000000000000e+00+j0.000000000000e+00
0.000000000000e+00+j0.000000000000e+00
0.000000000000e+00+j0.000000000000e+00
0.000000000000e+00+j0.000000000000e+00
0.000000000000e+00+j0.000000000000e+00
0.000000000000e+00+j0.000000000000e+00
0.000000000000e+00+j0.000000000000e+00
0.000000000000e+00+j0.000000000000e+00
0.000000000000e+00+j0.000000000000e+00
0.000000000000e+00+j0.000000000000e+00
0.000000000000e+00+j0.000000000000e+00
0.000000000000e+00+j0.000000000000e+00
0.000000000000e+00+j0.000000000000e+00
0.000000000000e+00+j0.000000000000e+00
0.000000000000e+00+j0.000000000000e+00
0.000000000000e+00+j0.000000000000e+00
0.000000000000e+00+j0.000000000000e+00
0.000000000000e+00+j0.000000000000e+00
0.000000000000e+00+j0.000000000000e+00
0.000000000000e+00+j0.000000000000e+00
0.000000000000e+00+j0.000000000000e+00
0.000000000000e+00+j0.000000000000e+00
0.000000000000e+00+j0.000000000000e+00
0.000000000000e+00+j0.000000000000e+00
0.000000000000e+00+j0.000000000000e+00
0.000000000000e+00+j0.000000000000e+00
0.000000000000e+00+j0.000000000000e+00
0.000000000000e+00+j0.000000000000e+00
0.000000000000e+00+j0.000000000000e+00
0.000000000000e+00+j0.000000000000e+00
0.000000000000e+00+j0.000000000000e+00
0.000000000000e+00+j0.000000000000e+00
0.000000000000e+00+j0.000000000000e+00
0.000000000000e+00+j0.000000000000e+00
0.000000000000e+00+j0.000000000000e+00
0.000000000000e+00+j0.000000000000e+00
0.000000000000e+00+j0.000000000000e+00
0.000000000000e+00+j0.000000000000e+00
0.000000000000e+00+j0.000000000000e+00
0.000000000000e+00+j0.000000000000e+00
0.000000000000e+00+j0.000000000000e+00
0.000000000000e+00+j0.000000000000e+00
0.000000000000e+00+j0.000000000000e+00
0.000000000000e+00+j0.000000000000e+00
0.000000000000e+00+j0.000000000000e+00
0.000000000000e+00+j0.000000000000e+00
0.000000000000e+00+j0.000000000000e+00
0.000000000000e+00+j0.000000000000e+00
0.000000000000e+00+j0.000000000000e+00
0.000000000000e+00+j0.000000000000e+00
0.000000000000e+00+j0.000000000000e+00
0.000000000000e+00+j0.000000000000e+00
0.000000000000e+00+j0.000000000000e+00
0.000000000000e+00+j0.000000000000e+00
0.000000000000e+00+j0.000000000000e+00
0.000000000000e+00+j0.000000000000e+00
0.000000000000e+00+j0.000000000000e+00
0.000000000000e+00+j0.000000000000e+00
0.000000000000e+00+j0.000000000000e+00
0.000000000000e+00+j0.000000000000e+00
0.000000000000e+00+j0.000000000000e+00
0.000000000000e+00+j0.000000000000e+00
0.000000000000e+00+j0.000000000000e+00
0.000000000000e+00+j0.000000000000e+00
0.000000000000e+00+j0.000000000000e+00
0.000000000000e+00+j0.000000000000e+00
0.000000000000e+00+j0.000000000000e+00
0.000000000000e+00+j0.000000000000e+00
0.000000000000e+00+j0.000000000000e+00
0.000000000000e+00+j0.000000000000e+00
0.000000000000e+00+j0.000000000000e+00
0.000000000000e+00+j0.000000000000e+00
0.000000000000e+00+j0.000000000000e+00
0.000000000000e+00+j0.000000000000e+00
0.000000000000e+00+j0.000000000000e+00
0.000000000000e+00+j0.000000000000e+00
0.000000000000e+00+j0.000000000000e+00
0.000000000000e+00+j0.000000000000e+00
0.000000000000e+00+j0.000000000000e+00
0.000000000000e+00+j0.000000000000e+00
0.000000000000e+00+j0.000000000000e+00
0.000000000000e+00+j0.000000000000e+00
0.000000000000e+00+j0.000000000000e+00
0.000000000000e+00+j0.000000000000e+00
0.000000000000e+00+j0.000000000000e+00
0.000000000000e+00+j0.000000000000e+00
0.000000000000e+00+j0.000000000000e+00
0.000000000000e+00+j0.000000000000e+00
0.000000000000e+00+j0.000000000000e+00
0.000000000000e+00+j0.000000000000e+00
0.000000000000e+00+j0.000000000000e+00
0.000000000000e+00+j0.000000000000e+00
0.000000000000e+00+j0.000000000000e+00
0.000000000000e+00+j0.000000000000e+00
0.000000000000e+00+j0.000000000000e+00
0.000000000000e+00+j0.000000000000e+00
0.000000000000e+00+j0.000000000000e+00
</dep>
<dep ac.v(vee) frequency>
0.000000000000e+00+j0.000000000000e+00
0.000000000000e+00+j0.000000000000e+00
0.000000000000e+00+j0.000000000000e+00
0.000000000000e+00+j0.000000000000e+00
0.000000000000e+00+j0.000000000000e+00
0.000000000000e+00+j0.000000000000e+00
0.000000000000e+00+j0.000000000000e+00
0.000000000000e+00+j0.000000000000e+00
0.000000000000e+00+j0.000000000000e+00
0.000000000000e+00+j0.000000000000e+00
0.000000000000e+00+j0.000000000000e+00
0.000000000000e+00+j0.000000000000e+00
0.000000000000e+00+j0.000000000000e+00
0.000000000000e+00+j0.000000000000e+00
0.000000000000e+00+j0.000000000000e+00
0.000000000000e+00+j0.000000000000e+00
0.000000000000e+00+j0.000000000000e+00
0.000000000000e+00+j0.000000000000e+00
0.000000000000e+00+j0.000000000000e+00
0.000000000000e+00+j0.000000000000e+00
0.000000000000e+00+j0.000000000000e+00
0.000000000000e+00+j0.000000000000e+00
0.000000000000e+00+j0.000000000000e+00
0.000000000000e+00+j0.000000000000e+00
0.000000000000e+00+j0.000000000000e+00
0.000000000000e+00+j0.000000000000e+00
0.000000000000e+00+j0.000000000000e+00
0.000000000000e+00+j0.000000000000e+00
0.000000000000e+00+j0.000000000000e+00
0.000000000000e+00+j0.000000000000e+00
0.000000000000e+00+j0.000000000000e+00
0.000000000000e+00+j0.000000000000e+00
0.000000000000e+00+j0.000000000000e+00
0.000000000000e+00+j0.000000000000e+00
0.000000000000e+00+j0.000000000000e+00
0.000000000000e+00+j0.000000000000e+00
0.000000000000e+00+j0.000000000000e+00
0.000000000000e+00+j0.000000000000e+00
0.000000000000e+00+j0.000000000000e+00
0.000000000000e+00+j0.000000000000e+00
0.000000000000e+00+j0.000000000000e+00
0.000000000000e+00+j0.000000000000e+00
0.000000000000e+00+j0.000000000000e+00
0.000000000000e+00+j0.000000000000e+00
0.000000000000e+00+j0.000000000000e+00
0.000000000000e+00+j0.000000000000e+00
0.000000000000e+00+j0.000000000000e+00
0.000000000000e+00+j0.000000000000e+00
0.000000000000e+00+j0.000000000000e+00
0.000000000000e+00+j0.000000000000e+00
0.000000000000e+00+j0.000000000000e+00
0.000000000000e+00+j0.000000000000e+00
0.000000000000e+00+j0.000000000000e+00
0.000000000000e+00+j0.000000000000e+00
0.000000000000e+00+j0.000000000000e+00
0.000000000000e+00+j0.000000000000e+00
0.000000000000e+00+j0.000000000000e+00
0.000000000000e+00+j0.000000000000e+00
0.000000000000e+00+j0.000000000000e+00
0.000000000000e+00+j0.000000000000e+00
0.000000000000e+00+j0.000000000000e+00
0.000000000000e+00+j0.000000000000e+00
0.000000000000e+00+j0.000000000000e+00
0.000000000000e+00+j0.000000000000e+00
0.000000000000e+00+j0.000000000000e+00
0.000000000000e+00+j0.000000000000e+00
0.000000000000e+00+j0.000000000000e+00
0.000000000000e+00+j0.000000000000e+00
0.000000000000e+00+j0.000000000000e+00
0.000000000000e+00+j0.000000000000e+00
0.000000000000e+00+j0.000000000000e+00
0.000000000000e+00+j0.000000000000e+00
0.000000000000e+00+j0.000000000000e+00
0.000000000000e+00+j0.000000000000e+00
0.000000000000e+00+j0.000000000000e+00
0.000000000000e+00+j0.000000000000e+00
0.000000000000e+00+j0.000000000000e+00
0.000000000000e+00+j0.000000000000e+00
0.000000000000e+00+j0.000000000000e+00
0.000000000000e+00+j0.000000000000e+00
0.000000000000e+00+j0.000000000000e+00
0.000000000000e+00+j0.000000000000e+00
0.000000000000e+00+j0.000000000000e+00
0.000000000000e+00+j0.000000000000e+00
0.000000000000e+00+j0.000000000000e+00
0.000000000000e+00+j0.000000000000e+00
0.000000000000e+00+j0.000000000000e+00
0.000000000000e+00+j0.000000000000e+00
0.000000000000e+00+j0.000000000000e+00
0.000000000000e+00+j0.000000000000e+00
0.000000000000e+00+j0.000000000000e+00
0.000000000000e+00+j0.000000000000e+00
0.000000000000e+00+j0.000000000000e+00
0.000000000000e+00+j0.000000000000e+00
0.000000000000e+00+j0.000000000000e+00
0.000000000000e+00+j0.000000000000e+00
0.000000000000e+00+j0.000000000000e+00
0.000000000000e+00+j0.000000000000e+00
0.000000000000e+00+j0.000000000000e+00
0.000000000000e+00+j0.000000000000e+00
0.000000000000e+00+j0.000000000000e+00
</dep>
<dep ac.v(vout) frequency>
9.999609805212e-01-j1.267041487096e-03
9.999607759561e-01-j1.421643937844e-03
9.999605184238e-01-j1.595110743532e-03
9.999601942097e-01-j1.789743704777e-03
9.999597860479e-01-j2.008125484833e-03
9.999592722022e-01-j2.253153880225e-03
9.999586253079e-01-j2.528080273104e-03
9.999578109151e-01-j2.836552775620e-03
9.999567856532e-01-j3.182664638869e-03
9.999554949218e-01-j3.571008568864e-03
9.999538699821e-01-j4.006737670375e-03
9.999518242964e-01-j4.495633827520e-03
9.999492489179e-01-j5.044184428693e-03
9.999460066885e-01-j5.659668454282e-03
9.999419249316e-01-j6.350253069975e-03
9.999367862537e-01-j7.125102008069e-03
9.999303169617e-01-j7.994497175874e-03
9.999221724790e-01-j8.969975106218e-03
9.999119189820e-01-j1.006448006252e-02
9.998990102761e-01-j1.129253583265e-02
9.998827586743e-01-j1.267043849477e-02
9.998622983209e-01-j1.421647271814e-02
9.998365389962e-01-j1.595115447587e-02
9.998041079215e-01-j1.789750339999e-02
9.997632764383e-01-j2.008134840562e-02
9.997118676082e-01-j2.253167065719e-02
9.996471397418e-01-j2.528098845071e-02
9.995656395348e-01-j2.836578914904e-02
9.994630168070e-01-j3.182701393868e-02
9.993337906855e-01-j3.571060188420e-02
9.991710543174e-01-j4.006810054539e-02
9.989661016535e-01-j4.495735129654e-02
9.987079552721e-01-j5.044325844422e-02
9.983827682655e-01-j5.659865226439e-02
9.979730654497e-01-j6.350525713461e-02
9.974567789335e-01-j7.125477693782e-02
9.968060195098e-01-j7.995011069804e-02
9.959855071585e-01-j8.970671165818e-02
9.949505593786e-01-j1.006541021384e-01
9.936445025283e-01-j1.129375534374e-01
9.919953251698e-01-j1.267199327914e-01
9.899113282993e-01-j1.421837044285e-01
9.872754378270e-01-j1.595330426540e-01
9.839377193615e-01-j1.789959602414e-01
9.797054603921e-01-j2.008262547927e-01
9.743299431851e-01-j2.253048930661e-01
9.674887053110e-01-j2.527401250349e-01
9.587616641506e-01-j2.834650351753e-01
9.475989899861e-01-j3.178302095605e-01
9.332781638333e-01-j3.561874114072e-01
9.148475909292e-01-j3.988571255853e-01
8.910553101847e-01-j4.460678694166e-01
8.602656704794e-01-j4.978475565534e-01
8.203783035845e-01-j5.538369703115e-01
7.687894872330e-01-j6.129857470311e-01
7.024861044147e-01-j6.730945522628e-01
6.184416104389e-01-j7.302159672131e-01
5.145602533756e-01-j7.780825290344e-01
3.913558123680e-01-j8.080487142378e-01
2.540782057180e-01-j8.103917329809e-01
1.139729220098e-01-j7.776224228488e-01
-1.340335063929e-02-j7.088950584361e-01
-1.134622152306e-01-j6.123655865042e-01
-1.784773098417e-01-j5.026760269399e-01
-2.096565284851e-01-j3.949298093336e-01
-2.144634434539e-01-j2.996769221254e-01
-2.022221966889e-01-j2.215669979869e-01
-1.810016546640e-01-j1.607676091267e-01
-1.564891614303e-01-j1.150796755986e-01
-1.321367209948e-01-j8.154059768009e-02
-1.097566884322e-01-j5.729685618315e-02
-9.011485167682e-02-j3.995126222000e-02
-7.337331496824e-02-j2.762783753551e-02
-5.937911223286e-02-j1.891650699545e-02
-4.783717883826e-02-j1.278246820385e-02
-3.840743996506e-02-j8.477291107299e-03
-3.075564085755e-02-j5.464503168328e-03
-2.457734386650e-02-j3.361705231087e-03
-1.960701193477e-02-j1.897274349166e-03
-1.561920322492e-02-j8.786930046859e-04
-1.242589516236e-02-j1.696862237914e-04
-9.872171428746e-03+j3.261529173241e-04
-7.831469088891e-03+j6.770351373107e-04
-6.200991842665e-03+j9.312713286038e-04
-4.897564415483e-03+j1.123160291240e-03
-3.854022352141e-03+j1.277163755427e-03
-3.016136396294e-03+j1.410865765577e-03
-2.340023570772e-03+j1.537069191180e-03
-1.789976142057e-03+j1.665277552028e-03
-1.336632212128e-03+j1.802733569142e-03
-9.554106260790e-04+j1.955127178053e-03
-6.251348138558e-04+j2.127036687094e-03
-3.267751251454e-04+j2.322118955442e-03
-4.225223018448e-05+j2.543008769601e-03
2.467200736831e-04+j2.790814744765e-03
5.596825010629e-04+j3.064005790894e-03
9.180864941055e-04+j3.356393390372e-03
1.344853796501e-03+j3.653943105469e-03
1.861467988210e-03+j3.930605920264e-03
2.480689093149e-03+j4.144821914931e-03
3.194030046721e-03+j4.241144117968e-03
</dep>
<dep ac.vout_db frequency>
-3.319528221576e-04+j0.000000000000e+00
-3.319243163632e-04+j0.000000000000e+00
-3.318884302300e-04+j0.000000000000e+00
-3.318432531035e-04+j0.000000000000e+00
-3.317863798169e-04+j0.000000000000e+00
-3.317147827082e-04+j0.000000000000e+00
-3.316246506671e-04+j0.000000000000e+00
-3.315111864582e-04+j0.000000000000e+00
-3.313683519384e-04+j0.000000000000e+00
-3.311885473240e-04+j0.000000000000e+00
-3.309622079527e-04+j0.000000000000e+00
-3.306772971929e-04+j0.000000000000e+00
-3.303186691029e-04+j0.000000000000e+00
-3.298672675624e-04+j0.000000000000e+00
-3.292991206060e-04+j0.000000000000e+00
-3.285840781663e-04+j0.000000000000e+00
-3.276842294035e-04+j0.000000000000e+00
-3.265519199801e-04+j0.000000000000e+00
-3.251272717147e-04+j0.000000000000e+00
-3.233350847825e-04+j0.000000000000e+00
-3.210809772437e-04+j0.000000000000e+00
-3.182465873319e-04+j0.000000000000e+00
-3.146836324241e-04+j0.000000000000e+00
-3.102065863621e-04+j0.000000000000e+00
-3.045837091599e-04+j0.000000000000e+00
-2.975261477683e-04+j0.000000000000e+00
-2.886748385303e-04+j0.000000000000e+00
-2.775850072206e-04+j0.000000000000e+00
-2.637082231018e-04+j0.000000000000e+00
-2.463722900225e-04+j0.000000000000e+00
-2.247598680240e-04+j0.000000000000e+00
-1.978877993684e-04+j0.000000000000e+00
-1.645909718166e-04+j0.000000000000e+00
-1.235176799530e-04+j0.000000000000e+00
-7.314863238535e-05+j0.000000000000e+00
-1.186026453421e-05+j0.000000000000e+00
6.193312860387e-05+j0.000000000000e+00
1.495015056050e-04+j0.000000000000e+00
2.512923894748e-04+j0.000000000000e+00
3.660443615823e-04+j0.000000000000e+00
4.892769406515e-04+j0.000000000000e+00
6.107648807361e-04+j0.000000000000e+00
7.103687819916e-04+j0.000000000000e+00
7.512182922150e-04+j0.000000000000e+00
6.686479642607e-04+j0.000000000000e+00
3.523419645382e-04+j0.000000000000e+00
-3.823449067467e-04+j0.000000000000e+00
-1.840257511165e-03+j0.000000000000e+00
-4.519500118389e-03+j0.000000000000e+00
-9.227247885789e-03+j0.000000000000e+00
-1.726219667754e-02+j0.000000000000e+00
-3.069947511248e-02+j0.000000000000e+00
-5.282964261951e-02+j0.000000000000e+00
-8.882090097460e-02+j0.000000000000e+00
-1.466838864227e-01+j0.000000000000e+00
-2.385965045852e-01+j0.000000000000e+00
-3.825371774570e-01+j0.000000000000e+00
-6.038856875472e-01+j0.000000000000e+00
-9.360994936212e-01+j0.000000000000e+00
-1.418897905010e+00+j0.000000000000e+00
-2.092319188865e+00+j0.000000000000e+00
-2.986808742137e+00+j0.000000000000e+00
-4.113190882823e+00+j0.000000000000e+00
-5.458607355776e+00+j0.000000000000e+00
-6.991319954707e+00+j0.000000000000e+00
-8.670975877345e+00+j0.000000000000e+00
-1.045826252393e+01+j0.000000000000e+00
-1.232044409276e+01+j0.000000000000e+00
-1.423287994467e+01+j0.000000000000e+00
-1.617821125392e+01+j0.000000000000e+00
-1.814473132578e+01+j0.000000000000e+00
-2.012477190070e+01+j0.000000000000e+00
-2.211340972552e+01+j0.000000000000e+00
-2.410752848137e+01+j0.000000000000e+00
-2.610517231455e+01+j0.000000000000e+00
-2.810510834730e+01+j0.000000000000e+00
-3.010652431813e+01+j0.000000000000e+00
-3.210879987476e+01+j0.000000000000e+00
-3.411129584782e+01+j0.000000000000e+00
-3.611309931344e+01+j0.000000000000e+00
-3.811263649008e+01+j0.000000000000e+00
-4.010700856840e+01+j0.000000000000e+00
-4.209079803989e+01+j0.000000000000e+00
-4.405391283124e+01+j0.000000000000e+00
-4.597779447555e+01+j0.000000000000e+00
-4.782920650026e+01+j0.000000000000e+00
-4.955161628841e+01+j0.000000000000e+00
-5.105778561211e+01+j0.000000000000e+00
-5.223504834152e+01+j0.000000000000e+00
-5.297876853599e+01+j0.000000000000e+00
-5.324649589892e+01+j0.000000000000e+00
-5.308469532380e+01+j0.000000000000e+00
-5.259714825119e+01+j0.000000000000e+00
-5.189184409492e+01+j0.000000000000e+00
-5.105157025005e+01+j0.000000000000e+00
-5.013166663477e+01+j0.000000000000e+00
-4.916918283497e+01+j0.000000000000e+00
-4.819302748107e+01+j0.000000000000e+00
-4.723199946198e+01+j0.000000000000e+00
-4.632022586529e+01+j0.000000000000e+00
-4.549918306448e+01+j0.000000000000e+00
</dep>
<indep v(vcc) 1>
5.000000000000e+00+j0.000000000000e+00
</indep>
<indep v(vee) 1>
-5.000000000000e+00+j0.000000000000e+00
</indep>
<indep v(vout) 1>
2.007739000000e-05+j0.000000000000e+00
</indep>
