<Qucs Dataset 24.2.1>
<indep v(vcc) 1>
5.000000000000e+00+j0.000000000000e+00
</indep>
<indep v(vee) 1>
-5.000000000000e+00+j0.000000000000e+00
</indep>
<indep v(vout) 1>
8.169662000000e-04+j0.000000000000e+00
</indep>
<indep frequency 51>
1.000000000000e+01
1.258925411794e+01
1.584893192461e+01
1.995262314969e+01
2.511886431510e+01
3.162277660168e+01
3.981071705535e+01
5.011872336273e+01
6.309573444802e+01
7.943282347243e+01
1.000000000000e+02
1.258925411794e+02
1.584893192461e+02
1.995262314969e+02
2.511886431510e+02
3.162277660168e+02
3.981071705535e+02
5.011872336273e+02
6.309573444802e+02
7.943282347243e+02
1.000000000000e+03
1.258925411794e+03
1.584893192461e+03
1.995262314969e+03
2.511886431510e+03
3.162277660168e+03
3.981071705535e+03
5.011872336273e+03
6.309573444802e+03
7.943282347243e+03
1.000000000000e+04
1.258925411794e+04
1.584893192461e+04
1.995262314969e+04
2.511886431510e+04
3.162277660168e+04
3.981071705535e+04
5.011872336273e+04
6.309573444802e+04
7.943282347243e+04
1.000000000000e+05
1.258925411794e+05
1.584893192461e+05
1.995262314969e+05
2.511886431510e+05
3.162277660168e+05
3.981071705535e+05
5.011872336273e+05
6.309573444802e+05
7.943282347243e+05
1.000000000000e+06
</indep>
<dep ac.v(vcc) frequency>
0.000000000000e+00+j0.000000000000e+00
0.000000000000e+00+j0.000000000000e+00
0.000000000000e+00+j0.000000000000e+00
0.000000000000e+00+j0.000000000000e+00
0.000000000000e+00+j0.000000000000e+00
0.000000000000e+00+j0.000000000000e+00
0.000000000000e+00+j0.000000000000e+00
0.000000000000e+00+j0.000000000000e+00
0.000000000000e+00+j0.000000000000e+00
0.000000000000e+00+j0.000000000000e+00
0.000000000000e+00+j0.000000000000e+00
0.000000000000e+00+j0.000000000000e+00
0.000000000000e+00+j0.000000000000e+00
0.000000000000e+00+j0.000000000000e+00
0.000000000000e+00+j0.000000000000e+00
0.000000000000e+00+j0.000000000000e+00
0.000000000000e+00+j0.000000000000e+00
0.000000000000e+00+j0.000000000000e+00
0.000000000000e+00+j0.000000000000e+00
0.000000000000e+00+j0.000000000000e+00
0.000000000000e+00+j0.000000000000e+00
0.000000000000e+00+j0.000000000000e+00
0.000000000000e+00+j0.000000000000e+00
0.000000000000e+00+j0.000000000000e+00
0.000000000000e+00+j0.000000000000e+00
0.000000000000e+00+j0.000000000000e+00
0.000000000000e+00+j0.000000000000e+00
0.000000000000e+00+j0.000000000000e+00
0.000000000000e+00+j0.000000000000e+00
0.000000000000e+00+j0.000000000000e+00
0.000000000000e+00+j0.000000000000e+00
0.000000000000e+00+j0.000000000000e+00
0.000000000000e+00+j0.000000000000e+00
0.000000000000e+00+j0.000000000000e+00
0.000000000000e+00+j0.000000000000e+00
0.000000000000e+00+j0.000000000000e+00
0.000000000000e+00+j0.000000000000e+00
0.000000000000e+00+j0.000000000000e+00
0.000000000000e+00+j0.000000000000e+00
0.000000000000e+00+j0.000000000000e+00
0.000000000000e+00+j0.000000000000e+00
0.000000000000e+00+j0.000000000000e+00
0.000000000000e+00+j0.000000000000e+00
0.000000000000e+00+j0.000000000000e+00
0.000000000000e+00+j0.000000000000e+00
0.000000000000e+00+j0.000000000000e+00
0.000000000000e+00+j0.000000000000e+00
0.000000000000e+00+j0.000000000000e+00
0.000000000000e+00+j0.000000000000e+00
0.000000000000e+00+j0.000000000000e+00
0.000000000000e+00+j0.000000000000e+00
</dep>
<dep ac.v(vee) frequency>
0.000000000000e+00+j0.000000000000e+00
0.000000000000e+00+j0.000000000000e+00
0.000000000000e+00+j0.000000000000e+00
0.000000000000e+00+j0.000000000000e+00
0.000000000000e+00+j0.000000000000e+00
0.000000000000e+00+j0.000000000000e+00
0.000000000000e+00+j0.000000000000e+00
0.000000000000e+00+j0.000000000000e+00
0.000000000000e+00+j0.000000000000e+00
0.000000000000e+00+j0.000000000000e+00
0.000000000000e+00+j0.000000000000e+00
0.000000000000e+00+j0.000000000000e+00
0.000000000000e+00+j0.000000000000e+00
0.000000000000e+00+j0.000000000000e+00
0.000000000000e+00+j0.000000000000e+00
0.000000000000e+00+j0.000000000000e+00
0.000000000000e+00+j0.000000000000e+00
0.000000000000e+00+j0.000000000000e+00
0.000000000000e+00+j0.000000000000e+00
0.000000000000e+00+j0.000000000000e+00
0.000000000000e+00+j0.000000000000e+00
0.000000000000e+00+j0.000000000000e+00
0.000000000000e+00+j0.000000000000e+00
0.000000000000e+00+j0.000000000000e+00
0.000000000000e+00+j0.000000000000e+00
0.000000000000e+00+j0.000000000000e+00
0.000000000000e+00+j0.000000000000e+00
0.000000000000e+00+j0.000000000000e+00
0.000000000000e+00+j0.000000000000e+00
0.000000000000e+00+j0.000000000000e+00
0.000000000000e+00+j0.000000000000e+00
0.000000000000e+00+j0.000000000000e+00
0.000000000000e+00+j0.000000000000e+00
0.000000000000e+00+j0.000000000000e+00
0.000000000000e+00+j0.000000000000e+00
0.000000000000e+00+j0.000000000000e+00
0.000000000000e+00+j0.000000000000e+00
0.000000000000e+00+j0.000000000000e+00
0.000000000000e+00+j0.000000000000e+00
0.000000000000e+00+j0.000000000000e+00
0.000000000000e+00+j0.000000000000e+00
0.000000000000e+00+j0.000000000000e+00
0.000000000000e+00+j0.000000000000e+00
0.000000000000e+00+j0.000000000000e+00
0.000000000000e+00+j0.000000000000e+00
0.000000000000e+00+j0.000000000000e+00
0.000000000000e+00+j0.000000000000e+00
0.000000000000e+00+j0.000000000000e+00
0.000000000000e+00+j0.000000000000e+00
0.000000000000e+00+j0.000000000000e+00
0.000000000000e+00+j0.000000000000e+00
</dep>
<dep ac.v(vout) frequency>
-3.954075973638e-05-j6.282904925277e-03
-6.266643859763e-05-j7.909526036304e-03
-9.931598916726e-05-j9.957138941262e-03
-1.573961360252e-04-j1.253456827461e-02
-2.494332119937e-04-j1.577863625302e-02
-3.952676103379e-04-j1.986123315093e-02
-6.263128434403e-04-j2.499804101197e-02
-9.922772107492e-04-j3.145916303234e-02
-1.571745573989e-03-j3.958180381569e-02
-2.488771913291e-03-j4.978484363498e-02
-3.938731723978e-03-j6.258444630143e-02
-6.228189896011e-03-j7.860834088328e-02
-9.835359347730e-03-j9.860340200856e-02
-1.549926072052e-02-j1.234253991559e-01
-2.434503498535e-02-j1.539894986092e-01
-3.804514774720e-02-j1.911435302975e-01
-5.899110891801e-02-j2.354044104461e-01
-9.039078469611e-02-j2.864844186400e-01
-1.360988800913e-01-j3.425707399689e-01
-1.998683744426e-01-j3.994948379889e-01
-2.837574764020e-01-j4.503088410427e-01
-3.859733382471e-01-j4.861799683255e-01
-4.995025068944e-01-j4.991882668011e-01
-6.133281280574e-01-j4.859652227414e-01
-7.163197046608e-01-j4.494954973441e-01
-8.012052294064e-01-j3.974693537817e-01
-8.659447194918e-01-j3.386626203505e-01
-9.124514250500e-01-j2.800480387347e-01
-9.444326904959e-01-j2.258050135021e-01
-9.657530983817e-01-j1.776938962423e-01
-9.796458189175e-01-j1.358744961616e-01
-9.885190063835e-01-j9.962797286073e-02
-9.940403521739e-01-j6.783100807966e-02
-9.972998375303e-01-j3.921383357438e-02
-9.989598406247e-01-j1.247493302460e-02
-9.993625825889e-01+j1.368705378361e-02
-9.985898527806e-01+j4.058480054316e-02
-9.964761057989e-01+j6.957327745214e-02
-9.925738765519e-01+j1.020841034905e-01
-9.860651180375e-01+j1.396472585607e-01
-9.756063684228e-01+j1.838759086240e-01
-9.590933828869e-01+j2.363703747087e-01
-9.333411970601e-01+j2.984607013616e-01
-8.937210448749e-01+j3.706498512659e-01
-8.339245346953e-01+j4.515547094779e-01
-7.463175531850e-01+j5.361516954284e-01
-6.238413461061e-01+j6.134836295376e-01
-4.647569882176e-01+j6.652155761334e-01
-2.801438360603e-01+j6.687229761734e-01
-9.863110547127e-02+j6.088154867905e-01
4.258991829891e-02+j4.934487468689e-01
</dep>
<dep ac.vout_db frequency>
-4.403661823561e+01+j0.000000000000e+00
-4.203671819155e+01+j0.000000000000e+00
-4.003687660634e+01+j0.000000000000e+00
-3.803712766501e+01+j0.000000000000e+00
-3.603752553648e+01+j0.000000000000e+00
-3.403815604560e+01+j0.000000000000e+00
-3.203915514774e+01+j0.000000000000e+00
-3.004073814727e+01+j0.000000000000e+00
-2.804324585114e+01+j0.000000000000e+00
-2.604721733027e+01+j0.000000000000e+00
-2.405350427069e+01+j0.000000000000e+00
-2.206344979474e+01+j0.000000000000e+00
-2.007916588306e+01+j0.000000000000e+00
-1.810395829055e+01+j0.000000000000e+00
-1.614296397969e+01+j0.000000000000e+00
-1.420407507089e+01+j0.000000000000e+00
-1.229920192070e+01+j0.000000000000e+00
-1.044582548245e+01+j0.000000000000e+00
-8.668520781790e+00+j0.000000000000e+00
-6.999624304374e+00+j0.000000000000e+00
-5.477590090506e+00+j0.000000000000e+00
-4.141487171171e+00+j0.000000000000e+00
-3.021678772485e+00+j0.000000000000e+00
-2.130119161044e+00+j0.000000000000e+00
-1.455967105586e+00+j0.000000000000e+00
-9.695794720234e-01+j0.000000000000e+00
-6.320856491486e-01+j0.000000000000e+00
-4.048424163754e-01+j0.000000000000e+00
-2.551547523562e-01+j0.000000000000e+00
-1.580847530689e-01+j0.000000000000e+00
-9.586633585809e-02+j0.000000000000e+00
-5.640802022164e-02+j0.000000000000e+00
-3.174423900263e-02+j0.000000000000e+00
-1.677575430978e-02+j0.000000000000e+00
-8.362189915020e-03+j0.000000000000e+00
-4.723753304745e-03+j0.000000000000e+00
-5.089350483685e-03+j0.000000000000e+00
-9.542935163519e-03+j0.000000000000e+00
-1.904614879697e-02+j0.000000000000e+00
-3.564610212693e-02+j0.000000000000e+00
-6.291313864788e-02+j0.000000000000e+00
-1.066986513542e-01+j0.000000000000e+00
-1.763622668182e-01+j0.000000000000e+00
-2.866911706601e-01+j0.000000000000e+00
-4.608005698016e-01+j0.000000000000e+00
-7.342681561686e-01+j0.000000000000e+00
-1.160320050630e+00+j0.000000000000e+00
-1.814370841994e+00+j0.000000000000e+00
-2.792859914237e+00+j0.000000000000e+00
-4.197773115060e+00+j0.000000000000e+00
-6.102925958689e+00+j0.000000000000e+00
</dep>
