<Qucs Dataset 0.0.19>
<indep acfrequency 101>
  +1.00000000000000000000e+01
  +1.12201845430196343045e+01
  +1.25892541179416710406e+01
  +1.41253754462275420423e+01
  +1.58489319246111328710e+01
  +1.77827941003892284755e+01
  +1.99526231496887938022e+01
  +2.23872113856833934165e+01
  +2.51188643150957986450e+01
  +2.81838293126445371684e+01
  +3.16227766016837890106e+01
  +3.54813389233575406934e+01
  +3.98107170553497198284e+01
  +4.46683592150963022505e+01
  +5.01187233627272235026e+01
  +5.62341325190348939600e+01
  +6.30957344480193071945e+01
  +7.07945784384137652978e+01
  +7.94328234724281401213e+01
  +8.91250938133745478353e+01
  +9.99999999999999857891e+01
  +1.12201845430196300413e+02
  +1.25892541179416696195e+02
  +1.41253754462275395554e+02
  +1.58489319246111278972e+02
  +1.77827941003892220806e+02
  +1.99526231496887874073e+02
  +2.23872113856833863110e+02
  +2.51188643150957886974e+02
  +2.81838293126445250891e+02
  +3.16227766016837733787e+02
  +3.54813389233575264825e+02
  +3.98107170553496985121e+02
  +4.46683592150962795131e+02
  +5.01187233627271950809e+02
  +5.62341325190348698015e+02
  +6.30957344480193114578e+02
  +7.07945784384137368761e+02
  +7.94328234724281287527e+02
  +8.91250938133744739389e+02
  +9.99999999999999545253e+02
  +1.12201845430196249254e+03
  +1.25892541179416662089e+03
  +1.41253754462275287551e+03
  +1.58489319246111244865e+03
  +1.77827941003892078697e+03
  +1.99526231496887817229e+03
  +2.23872113856833721002e+03
  +2.51188643150957841499e+03
  +2.81838293126445023518e+03
  +3.16227766016837676943e+03
  +3.54813389233574980608e+03
  +3.98107170553496916909e+03
  +4.46683592150962522282e+03
  +5.01187233627271871228e+03
  +5.62341325190348288743e+03
  +6.30957344480192659830e+03
  +7.07945784384136914014e+03
  +7.94328234724280628143e+03
  +8.91250938133744239167e+03
  +9.99999999999998908606e+03
  +1.12201845430196153757e+04
  +1.25892541179416566592e+04
  +1.41253754462275192054e+04
  +1.58489319246111153916e+04
  +1.77827941003892119625e+04
  +1.99526231496887703543e+04
  +2.23872113856833748287e+04
  +2.51188643150957650505e+04
  +2.81838293126445132657e+04
  +3.16227766016837449570e+04
  +3.54813389233574780519e+04
  +3.98107170553496980574e+04
  +4.46683592150962649612e+04
  +5.01187233627271489240e+04
  +5.62341325190347924945e+04
  +6.30957344480192768970e+04
  +7.07945784384137077723e+04
  +7.94328234724280191585e+04
  +8.91250938133743475191e+04
  +9.99999999999999126885e+04
  +1.12201845430196190136e+05
  +1.25892541179416497471e+05
  +1.41253754462275101105e+05
  +1.58489319246111204848e+05
  +1.77827941003892017761e+05
  +1.99526231496887572575e+05
  +2.23872113856833428144e+05
  +2.51188643150957708713e+05
  +2.81838293126444914378e+05
  +3.16227766016837267671e+05
  +3.54813389233574562240e+05
  +3.98107170553496747743e+05
  +4.46683592150962271262e+05
  +5.01187233627271139994e+05
  +5.62341325190347619355e+05
  +6.30957344480192288756e+05
  +7.07945784384136553854e+05
  +7.94328234724279609509e+05
  +8.91250938133744522929e+05
  +9.99999999999998370185e+05
</indep>
<dep Vout_dB acfrequency>
  +2.35741875691513962880e-04
  +2.35765984630171996023e-04
  +2.35796335449740715288e-04
  +2.35834544027341979928e-04
  +2.35882644450932210233e-04
  +2.35943197177155151566e-04
  +2.36019425209062558421e-04
  +2.36115385307815640490e-04
  +2.36236183519479634851e-04
  +2.36388246134944322429e-04
  +2.36579660524827595659e-04
  +2.36820603525343009082e-04
  +2.37123879780795984587e-04
  +2.37505597940750946048e-04
  +2.37986019500407834128e-04
  +2.38590623367084870470e-04
  +2.39351440084235389874e-04
  +2.40308721497424634343e-04
  +2.41513027273391746004e-04
  +2.43027826893579422442e-04
  +2.44932736329508276858e-04
  +2.47327530600391950859e-04
  +2.50337097102721803897e-04
  +2.54117515505761280923e-04
  +2.58863465062326883297e-04
  +2.64817158226481432545e-04
  +2.72278967202321797985e-04
  +2.81619818493355654129e-04
  +2.93295238358513106133e-04
  +3.07860564903848115455e-04
  +3.25986184086474802164e-04
  +3.48470505678344063052e-04
  +3.76246464365561251054e-04
  +4.10374116374952343199e-04
  +4.52006612308580055064e-04
  +5.02308198674374507646e-04
  +5.62288916754398069783e-04
  +6.32498114626806311883e-04
  +7.12482655786344240903e-04
  +7.99857666852022992227e-04
  +8.88744917731359995727e-04
  +9.67186003643969653513e-04
  +1.01290200164283299145e-03
  +9.86397016557159474551e-04
  +8.19809436772969257062e-04
  +3.98975656226271599685e-04
  -4.65309159936699206009e-04
  -2.08316884919165865725e-03
  -4.95860304472388237901e-03
  -9.90498444181602336056e-03
  -1.82268112728792563981e-02
  -3.20032546218953564687e-02
  -5.45246747147281815571e-02
  -9.09505754408554967227e-02
  -1.49267542568183086971e-01
  -2.41603989008534913996e-01
  -3.85850711534860835172e-01
  -6.07250760649328591434e-01
  -9.39077858960366440577e-01
  -1.42085417758349596973e+00
  -2.09248445864555110418e+00
  -2.98443980389725282976e+00
  -4.10777143487399865052e+00
  -5.44998008189206117891e+00
  -6.97967822753843503136e+00
  -8.65674770901447487859e+00
  -1.04419733578928592976e+01
  -1.23026186136363513413e+01
  -1.42139948333472254660e+01
  -1.61586848238888869389e+01
  -1.81249326212057901841e+01
  -2.01050372742364977796e+01
  -2.20940604645766356384e+01
  -2.40888862069457054815e+01
  -2.60875696416866347249e+01
  -2.80888908674003445753e+01
  -3.00920357889912857274e+01
  -3.20963336957880756017e+01
  -3.41009782775089718143e+01
  -3.61046351406857155553e+01
  -3.81047803679822223444e+01
  -4.00964979440916451381e+01
  -4.20702588601337552632e+01
  -4.40079105826922400979e+01
  -4.58759113589268849864e+01
  -4.76156140299046057862e+01
  -4.91344350209467819468e+01
  -5.03111532201588573798e+01
  -5.10339286854132723192e+01
  -5.12619027556654245359e+01
  -5.10525081558522870750e+01
  -5.05213617249086510697e+01
  -4.97823956904372622034e+01
  -4.89181706998799441521e+01
  -4.79795849809841001843e+01
  -4.69959361222435205718e+01
  -4.59846250006047867487e+01
  -4.49581792275968581407e+01
  -4.39293492728532513070e+01
  -4.29154069147265531114e+01
  -4.19422328475151218186e+01
</dep>
<dep V1.i acfrequency>
  +3.45634365754427482279e-16+j2.73192853364581930213e-13
  +4.35127709863079533275e-16+j3.06527360389719025097e-13
  +5.47793156008160881129e-16+j3.43929266583724907581e-13
  +6.89630550871662828165e-16+j3.85894859040741850539e-13
  +8.68193254271022431729e-16+j4.32980976639095033633e-13
  +1.09299038339946982154e-15+j4.85812396661246005382e-13
  +1.37599320844588437348e-15+j5.45090121968858768892e-13
  +1.73227266710544565352e-15+j6.11600678308383202149e-13
  +2.18080194810856073164e-15+j6.86226544565333834451e-13
  +2.74546688451333059450e-15+j7.69957853591466812619e-13
  +3.45633796427785468255e-15+j8.63905517767429732396e-13
  +4.35127169792980720763e-15+j9.69315951914850657139e-13
  +5.47792662297611982781e-15+j1.08758758672638259786e-12
  +6.89630130618200336934e-15+j1.22028938873535556498e-12
  +8.68192950403583323785e-15+j1.36918162819240841322e-12
  +1.09299026392038365006e-14+j1.53623916423672188456e-12
  +1.37599338106086728802e-14+j1.72367754759798622818e-12
  +1.73227330237543271069e-14+j1.93398227484297493245e-12
  +2.18080331607287099804e-14+j2.16994156490015303536e-12
  +2.74546941259366292189e-14+j2.43468306812814297925e-12
  +3.45634232877106188325e-14+j2.73171496019288615457e-12
  +4.35127896845770956546e-14+j3.06497191680884228337e-12
  +5.47793849031269513612e-14+j3.43886650981981311462e-12
  +6.89632044111979193099e-14+j3.85834660826657452048e-12
  +8.68196012173059913954e-14+j4.32895940709001041881e-12
  +1.09299513847809973324e-13+j4.85692273651479500639e-12
  +1.37600111451568772119e-13+j5.44920432032928904490e-12
  +1.73228553858649409254e-13+j6.11360964145002777465e-12
  +2.18082263222444051687e-13+j6.85887902402611457874e-12
  +2.74549983706631973777e-13+j7.69479443205942824319e-12
  +3.45639013401928240193e-13+j8.63229628483989676759e-12
  +4.35135387198071215373e-13+j9.68361025558206268118e-12
  +5.47805544701277614191e-13+j1.08623834879947994106e-11
  +6.89650226240981473620e-13+j1.21838288440378472767e-11
  +8.68224118438317966389e-13+j1.36648745510236738891e-11
  +1.09303826267760670606e-12+j1.53243147524868794096e-11
  +1.37606662230297143580e-12+j1.71829536993718610548e-11
  +1.73238369203686113729e-12+j1.92637322259332100024e-11
  +2.18096687868024605723e-12+j2.15918191161584302914e-11
  +2.74570586804551985622e-12+j2.41946410538868649396e-11
  +3.45667160229241047102e-12+j2.71018116699781785920e-11
  +4.35171003374924671476e-12+j3.03449006456296159203e-11
  +5.47844046324031947284e-12+j3.39569546948332438050e-11
  +6.89675437654891566207e-12+j3.79716386275732724161e-11
  +8.68192626931516954886e-12+j4.24217990854274383117e-11
  +1.09284581155235739320e-11+j4.73371545165640432373e-11
  +1.37547730379473759708e-11+j5.27406653690954981856e-11
  +1.73088284908237835638e-11+j5.86429133985361218722e-11
  +2.17745881867480837151e-11+j6.50334844759775366815e-11
  +2.73789825581832388177e-11+j7.18678656570843046643e-11
  +3.43983219415819649632e-11+j7.90477068098353669135e-11
  +4.31617778561850360915e-11+j8.63915016191282278406e-11
  +5.40469563095188592983e-11+j9.35920792249525186433e-11
  +6.74579245950918749910e-11+j1.00157628540313142286e-10
  +8.37684960189644819932e-11+j1.05336521127256150283e-10
  +1.03203664634334618057e-10+j1.08037720856014640563e-10
  +1.25625807072329706466e-10+j1.06785968314829037537e-10
  +1.50209439394727883822e-10+j9.98004652253456064191e-11
  +1.75069142626061034892e-10+j8.53404524438746440946e-11
  +1.97082010924064545540e-10+j6.24361507740438162922e-11
  +2.12323220389409976098e-10+j3.18635453490719744537e-11
  +2.17363533474882919643e-10-j3.27265926113859025155e-12
  +2.10898943130495270808e-10-j3.81588655355746486713e-11
  +1.94475751999002872895e-10-j6.80668811571079580728e-11
  +1.71648573674640074275e-10-j9.00888721732509411903e-11
  +1.46330317998207256970e-10-j1.03643056072996734349e-10
  +1.21554015104828502727e-10-j1.09821049121923947087e-10
  +9.91028427672834156451e-11-j1.10409890539926296936e-10
  +7.97214855863251940008e-11-j1.07188966846015144660e-10
  +6.34945039823881817259e-11-j1.01611544790019069264e-10
  +5.01658042075939713625e-11-j9.47423040660402512606e-11
  +3.93446097856758250014e-11-j8.73092427865818469519e-11
  +3.06178219768004301115e-11-j7.97852802249755674931e-11
  +2.36026331745543049329e-11-j7.24632541931085117753e-11
  +1.79659895431665288963e-11-j6.55140164442020571704e-11
  +1.34275009865760776781e-11-j5.90279872120439338845e-11
  +9.75499253305853818440e-12-j5.30436524157527373520e-11
  +6.75738598828446999529e-12-j4.75666424948369268221e-11
  +4.27711826254502607170e-12-j4.25823063191827966369e-11
  +2.18301831890404437597e-12-j3.80638814162053862269e-11
  +3.63932557792019714383e-13-j3.39776990759394566260e-11
  -1.27690708168309750098e-12-j3.02863786804774838747e-11
  -2.82690756561812832827e-12-j2.69506267253570742100e-11
  -4.36871906900948839181e-12-j2.39300198703863591175e-11
  -5.98462563565056796013e-12-j2.11829813317779852214e-11
  -7.76093683677900308388e-12-j1.86660272210634428154e-11
  -9.79260213345073049308e-12-j1.63322407733905928204e-11
  -1.21882787003606332778e-11-j1.41288065184151340886e-11
  -1.50760919332750111814e-11-j1.19932801168552772073e-11
  -1.86103253590833572134e-11-j9.84805307879852806437e-12
  -2.29792381915997198697e-11-j7.59215308373707368705e-12
  -2.84140794669119852183e-11-j5.08903994408348349882e-12
  -3.51990313240630443528e-11-j2.14833140781932136235e-12
  -4.36810302601611349744e-11+j1.50167614109110982559e-12
  -5.42767008184950872243e-11+j6.25530151241595420666e-12
  -6.74700600473296556137e-11+j1.26909202199172618399e-11
  -8.37875555590049675754e-11+j2.16599523789044396809e-11
  -1.03723908756607371034e-10+j3.44081778698432749704e-11
  -1.27571140243283916377e-10+j5.27197467543465214462e-11
  -1.55079008013312429959e-10+j7.90303115013864318338e-11
  -1.84879754438667591117e-10+j1.16355511306504808992e-10
</dep>
<dep V2.i acfrequency>
  -3.45905379723431261115e-16-j2.73407063829512256340e-13
  -4.35468895546364082578e-16-j3.06767708435336864516e-13
  -5.48222682646573780072e-16-j3.44198941456953493017e-13
  -6.90171292184706589540e-16-j3.86197439127121310563e-13
  -8.68874006566212058358e-16-j4.33320476941425650642e-13
  -1.09384739908132088036e-15-j4.86193322070077370762e-13
  -1.37707212658961696759e-15-j5.45517527030952836136e-13
  -1.73363094390569368819e-15-j6.12080234285190911803e-13
  -2.18251191663366712524e-15-j6.86764614669835031060e-13
  -2.74761960670884936403e-15-j7.70561577399623694710e-13
  -3.45904808035329098324e-15-j8.64582905921393816906e-13
  -4.35468353137745304891e-15-j9.70075992370399812736e-13
  -5.48222186633855558036e-15-j1.08844036394853821327e-12
  -6.90170869686672428097e-15-j1.22124621741550272190e-12
  -8.68873700545459036858e-15-j1.37025520324950503795e-12
  -1.09384727759349988909e-14-j1.53744372907640410842e-12
  -1.37707229742489564060e-14-j1.72502908283880074593e-12
  -1.73363157775874259247e-14-j1.93549870998086026530e-12
  -2.18251328375554770336e-14-j2.17164301567298359206e-12
  -2.74762213485639863589e-14-j2.43659210266385097180e-12
  -3.45905244635364676230e-14-j2.73385689737928588566e-12
  -4.35469080569112303005e-14-j3.06737516071223109815e-12
  -5.48223374106525463279e-14-j3.44156292440324512886e-12
  -6.90172784489315934901e-14-j3.86137193711628436561e-12
  -8.68876764524162964194e-14-j4.33235374334674920209e-12
  -1.09385215578185097468e-13-j4.86073104871881540064e-12
  -1.37708003675201208235e-13-j5.45347704041175795838e-12
  -1.73364382337271016776e-13-j6.11840332161980211881e-12
  -2.18253261486140257226e-13-j6.86425706977856496202e-12
  -2.74765258299337784044e-13-j7.70082791892606973959e-12
  -3.45910028889446256827e-13-j8.63906486673293818026e-12
  -4.35476576775445058375e-13-j9.69120317256179139910e-12
  -5.48235078927956580509e-13-j1.08709006808443129896e-11
  -6.90190980855770861088e-13-j1.21933821819424448238e-11
  -8.68904892808387614345e-13-j1.36755891765885105210e-11
  -1.09389531377588382101e-12-j1.53363305448015013053e-11
  -1.37714559588479071826e-12-j1.71964268501350823327e-11
  -1.73374205376602934651e-12-j1.92788369147476844971e-11
  -2.18267697440167782232e-12-j2.16087492574655735783e-11
  -2.74785877550227681687e-12-j2.42136120673857360646e-11
  -3.45938197784764567275e-12-j2.71230621954102359028e-11
  -4.35512220877021736498e-12-j3.03686940765173762476e-11
  -5.48273610737910001671e-12-j3.39835803366214868033e-11
  -6.90216212036031744886e-12-j3.80014121822779645508e-11
  -8.68873376607187254028e-12-j4.24550620101099506748e-11
  -1.09370271174783144684e-11-j4.73742715705154547926e-11
  -1.37655581529011173943e-11-j5.27820193148898488921e-11
  -1.73224003399895014051e-11-j5.86888952959000261619e-11
  -2.17916616372512704644e-11-j6.50844772189210934792e-11
  -2.74004504132589380839e-11-j7.19242172370262200664e-11
  -3.44252936593476578166e-11-j7.91096881018744652319e-11
  -4.31956209980848012665e-11-j8.64592411792957784643e-11
  -5.40893345177962200528e-11-j9.36654647566661957843e-11
  -6.75108183410792290427e-11-j1.00236162118009788760e-10
  -8.38341788809369522178e-11-j1.05419115473655906081e-10
  -1.03284586608362261947e-10-j1.08122433212613579814e-10
  -1.25724310244025027274e-10-j1.06869699172495736582e-10
  -1.50327218587902486475e-10-j9.98787187513537461294e-11
  -1.75206414307862761777e-10-j8.54073678765808122286e-11
  -1.97236542891757713937e-10-j6.24851069481191754248e-11
  -2.12489702986577467141e-10-j3.18885295489847765326e-11
  -2.17533968180592488584e-10+j3.27522535265109256920e-12
  -2.11064308952131567246e-10+j3.81887858948643455123e-11
  -1.94628240399562198223e-10+j6.81202523858202728734e-11
  -1.71783163288969159545e-10+j9.01595108409761662224e-11
  -1.46445055573023079014e-10+j1.03724322573767917616e-10
  -1.21649325585206352650e-10+j1.09907159785882541058e-10
  -9.91805492876546305646e-11+j1.10496462914329756999e-10
  -7.97839951881766427951e-11+j1.07273013694756256173e-10
  -6.35442900110166265075e-11+j1.01691218383175009451e-10
  -5.02051392052362073833e-11+j9.48165914888366051596e-11
  -3.93754598868073839182e-11+j8.73777019474271317257e-11
  -3.06418294052526935846e-11+j7.98478398481916728069e-11
  -2.36211399947864200027e-11+j7.25200726170902835956e-11
  -1.79800766721876686764e-11+j6.55653859721723114308e-11
  -1.34380294875736315454e-11+j5.90742710457129856913e-11
  -9.76264142086864411336e-12+j5.30852439336339314356e-11
  -6.76268445336667735944e-12+j4.76039394902692655068e-11
  -4.28047195017008795380e-12+j4.26156950975577268796e-11
  -2.18473002315726629908e-12+j3.80937272984638714247e-11
  -3.64217917242100883898e-13+j3.40043409833930606250e-11
  +1.27790830428562354370e-12+j3.03101262243035600256e-11
  +2.82912414330862859688e-12+j2.69717587067026726048e-11
  +4.37214458080964709603e-12+j2.39487833944653030254e-11
  +5.98931817948574061064e-12+j2.11995909034554935501e-11
  +7.76702218589279756985e-12+j1.86806632494968548203e-11
  +9.80028051094161051988e-12+j1.63450468803083426467e-11
  +1.21978355273968276132e-11+j1.41398849129483433377e-11
  +1.50879130941239289002e-11+j1.20026840455397038237e-11
  +1.86249177116966970187e-11+j9.85577493536440842076e-12
  +2.29972562079433935341e-11+j7.59810608954053742780e-12
  +2.84363589412770872243e-11+j5.09303025934682012859e-12
  +3.52266308779031634474e-11+j2.15001591407173628658e-12
  +4.37152805477714104536e-11-j1.50285360507153668777e-12
  +5.43192591693969782699e-11-j6.26020629315497695695e-12
  +6.75229633087211247143e-11-j1.27008711680751396188e-11
  +8.38532533655569722657e-11-j2.16769359434904666344e-11
  +1.03805238653951833653e-10-j3.44351573156402136041e-11
  +1.27671168750351494823e-10-j5.27610842978605066825e-11
  +1.55200605434323250414e-10-j7.90922791537699538230e-11
  +1.85024718619345946316e-10-j1.16446745641032298591e-10
</dep>
<dep V3.i acfrequency>
  -7.54264835027336633413e-10-j6.28298522930311340619e-08
  -7.53986756733166947913e-10-j7.04962687551019245087e-08
  -7.53636689127864018043e-10-j7.90981356924809843428e-08
  -7.53195999455189908938e-10-j8.87495978792521924788e-08
  -7.52641234694173769706e-10-j9.95787289116068485843e-08
  -7.51942875824332916167e-10-j1.11729231215670653840e-07
  -7.51063771118196433528e-10-j1.25362343666894325939e-07
  -7.49957165922181633085e-10-j1.40658982227392165440e-07
  -7.48564225984445587036e-10-j1.57822142138153384105e-07
  -7.46810925132690641479e-10-j1.77079593728175617242e-07
  -7.44604136067408449787e-10-j1.98686907875570722497e-07
  -7.41826723387521309303e-10-j2.22930851638595438618e-07
  -7.38331388676638366111e-10-j2.50133199639887586799e-07
  -7.33932957583720355625e-10-j2.80655012520662031851e-07
  -7.28398727015928999327e-10-j3.14901440285369347086e-07
  -7.21436403063187050671e-10-j3.53327115754529767754e-07
  -7.12679058310543377153e-10-j3.96442211784230425599e-07
  -7.01666421001749216294e-10-j4.44819245580614558945e-07
  -6.87821678131747804639e-10-j4.99100724568536767733e-07
  -6.70422841073305600802e-10-j5.60007741159427013794e-07
  -6.48567598276812203917e-10-j6.28349638781785836016e-07
  -6.21130496317823348319e-10-j7.05034889179215714910e-07
  -5.86711297913132227655e-10-j7.91083341890330581524e-07
  -5.43573557396823686355e-10-j8.87640031859136762950e-07
  -4.89572979058034464829e-10-j9.95990761431635199683e-07
  -4.22076240215336832270e-10-j1.11757971012613187402e-06
  -3.37873082245134613428e-10-j1.25402937163062207232e-06
  -2.33088284128921511844e-10-j1.40716317536504323335e-06
  -1.03106732733145577068e-10-j1.57903122360715863096e-06
  +5.74640249759725921229e-11-j1.77193967006681844964e-06
  +2.54750768064869574655e-10-j1.98848438941388074765e-06
  +4.95417551495254974110e-10-j2.23158974997520801373e-06
  +7.86191140188936388614e-10-j2.50455351788120645498e-06
  +1.13290456667027747644e-09-j2.81109920996210539909e-06
  +1.53872401270966678723e-09-j3.15543760148360183807e-06
