<Qucs Dataset 0.0.21>
<indep frequency 56>
1.000000000000e+01
1.232846739442e+01
1.519911082953e+01
1.873817422860e+01
2.310129700083e+01
2.848035868436e+01
3.511191734215e+01
4.328761281083e+01
5.336699231206e+01
6.579332246576e+01
8.111308307897e+01
1.000000000000e+02
1.232846739442e+02
1.519911082953e+02
1.873817422860e+02
2.310129700083e+02
2.848035868436e+02
3.511191734215e+02
4.328761281083e+02
5.336699231206e+02
6.579332246576e+02
8.111308307897e+02
1.000000000000e+03
1.232846739442e+03
1.519911082953e+03
1.873817422860e+03
2.310129700083e+03
2.848035868436e+03
3.511191734215e+03
4.328761281083e+03
5.336699231206e+03
6.579332246576e+03
8.111308307897e+03
1.000000000000e+04
1.232846739442e+04
1.519911082953e+04
1.873817422860e+04
2.310129700083e+04
2.848035868436e+04
3.511191734215e+04
4.328761281083e+04
5.336699231206e+04
6.579332246576e+04
8.111308307897e+04
1.000000000000e+05
1.232846739442e+05
1.519911082953e+05
1.873817422860e+05
2.310129700083e+05
2.848035868436e+05
3.511191734215e+05
4.328761281083e+05
5.336699231206e+05
6.579332246576e+05
8.111308307897e+05
1.000000000000e+06
</indep>
<dep ac.v(vcc) frequency>
0.000000000000e+00+j0.000000000000e+00
0.000000000000e+00+j0.000000000000e+00
0.000000000000e+00+j0.000000000000e+00
0.000000000000e+00+j0.000000000000e+00
0.000000000000e+00+j0.000000000000e+00
0.000000000000e+00+j0.000000000000e+00
0.000000000000e+00+j0.000000000000e+00
0.000000000000e+00+j0.000000000000e+00
0.000000000000e+00+j0.000000000000e+00
0.000000000000e+00+j0.000000000000e+00
0.000000000000e+00+j0.000000000000e+00
0.000000000000e+00+j0.000000000000e+00
0.000000000000e+00+j0.000000000000e+00
0.000000000000e+00+j0.000000000000e+00
0.000000000000e+00+j0.000000000000e+00
0.000000000000e+00+j0.000000000000e+00
0.000000000000e+00+j0.000000000000e+00
0.000000000000e+00+j0.000000000000e+00
0.000000000000e+00+j0.000000000000e+00
0.000000000000e+00+j0.000000000000e+00
0.000000000000e+00+j0.000000000000e+00
0.000000000000e+00+j0.000000000000e+00
0.000000000000e+00+j0.000000000000e+00
0.000000000000e+00+j0.000000000000e+00
0.000000000000e+00+j0.000000000000e+00
0.000000000000e+00+j0.000000000000e+00
0.000000000000e+00+j0.000000000000e+00
0.000000000000e+00+j0.000000000000e+00
0.000000000000e+00+j0.000000000000e+00
0.000000000000e+00+j0.000000000000e+00
0.000000000000e+00+j0.000000000000e+00
0.000000000000e+00+j0.000000000000e+00
0.000000000000e+00+j0.000000000000e+00
0.000000000000e+00+j0.000000000000e+00
0.000000000000e+00+j0.000000000000e+00
0.000000000000e+00+j0.000000000000e+00
0.000000000000e+00+j0.000000000000e+00
0.000000000000e+00+j0.000000000000e+00
0.000000000000e+00+j0.000000000000e+00
0.000000000000e+00+j0.000000000000e+00
0.000000000000e+00+j0.000000000000e+00
0.000000000000e+00+j0.000000000000e+00
0.000000000000e+00+j0.000000000000e+00
0.000000000000e+00+j0.000000000000e+00
0.000000000000e+00+j0.000000000000e+00
0.000000000000e+00+j0.000000000000e+00
0.000000000000e+00+j0.000000000000e+00
0.000000000000e+00+j0.000000000000e+00
0.000000000000e+00+j0.000000000000e+00
0.000000000000e+00+j0.000000000000e+00
0.000000000000e+00+j0.000000000000e+00
0.000000000000e+00+j0.000000000000e+00
0.000000000000e+00+j0.000000000000e+00
0.000000000000e+00+j0.000000000000e+00
0.000000000000e+00+j0.000000000000e+00
0.000000000000e+00+j0.000000000000e+00
</dep>
<dep ac.v(vee) frequency>
0.000000000000e+00+j0.000000000000e+00
0.000000000000e+00+j0.000000000000e+00
0.000000000000e+00+j0.000000000000e+00
0.000000000000e+00+j0.000000000000e+00
0.000000000000e+00+j0.000000000000e+00
0.000000000000e+00+j0.000000000000e+00
0.000000000000e+00+j0.000000000000e+00
0.000000000000e+00+j0.000000000000e+00
0.000000000000e+00+j0.000000000000e+00
0.000000000000e+00+j0.000000000000e+00
0.000000000000e+00+j0.000000000000e+00
0.000000000000e+00+j0.000000000000e+00
0.000000000000e+00+j0.000000000000e+00
0.000000000000e+00+j0.000000000000e+00
0.000000000000e+00+j0.000000000000e+00
0.000000000000e+00+j0.000000000000e+00
0.000000000000e+00+j0.000000000000e+00
0.000000000000e+00+j0.000000000000e+00
0.000000000000e+00+j0.000000000000e+00
0.000000000000e+00+j0.000000000000e+00
0.000000000000e+00+j0.000000000000e+00
0.000000000000e+00+j0.000000000000e+00
0.000000000000e+00+j0.000000000000e+00
0.000000000000e+00+j0.000000000000e+00
0.000000000000e+00+j0.000000000000e+00
0.000000000000e+00+j0.000000000000e+00
0.000000000000e+00+j0.000000000000e+00
0.000000000000e+00+j0.000000000000e+00
0.000000000000e+00+j0.000000000000e+00
0.000000000000e+00+j0.000000000000e+00
0.000000000000e+00+j0.000000000000e+00
0.000000000000e+00+j0.000000000000e+00
0.000000000000e+00+j0.000000000000e+00
0.000000000000e+00+j0.000000000000e+00
0.000000000000e+00+j0.000000000000e+00
0.000000000000e+00+j0.000000000000e+00
0.000000000000e+00+j0.000000000000e+00
0.000000000000e+00+j0.000000000000e+00
0.000000000000e+00+j0.000000000000e+00
0.000000000000e+00+j0.000000000000e+00
0.000000000000e+00+j0.000000000000e+00
0.000000000000e+00+j0.000000000000e+00
0.000000000000e+00+j0.000000000000e+00
0.000000000000e+00+j0.000000000000e+00
0.000000000000e+00+j0.000000000000e+00
0.000000000000e+00+j0.000000000000e+00
0.000000000000e+00+j0.000000000000e+00
0.000000000000e+00+j0.000000000000e+00
0.000000000000e+00+j0.000000000000e+00
0.000000000000e+00+j0.000000000000e+00
0.000000000000e+00+j0.000000000000e+00
0.000000000000e+00+j0.000000000000e+00
0.000000000000e+00+j0.000000000000e+00
0.000000000000e+00+j0.000000000000e+00
0.000000000000e+00+j0.000000000000e+00
0.000000000000e+00+j0.000000000000e+00
</dep>
<dep ac.v(vout) frequency>
-3.954075856974e-05-j6.282904925868e-03
-6.009720765330e-05-j7.745699871391e-03
-9.133957175046e-05-j9.548962945713e-03
-1.388214666617e-04-j1.177184969350e-02
-2.109811313431e-04-j1.451184078547e-02
-3.206375575562e-04-j1.788891644999e-02
-4.872597398032e-04-j2.205062224578e-02
-7.404048116449e-04-j2.717816356780e-02
-1.124918527528e-03-j3.349363757609e-02
-1.708781543545e-03-j4.126842393427e-02
-2.594901730570e-03-j5.083255287503e-02
-3.938731606865e-03-j6.258444630743e-02
-5.974346373497e-03-j7.699959897220e-02
-9.052492106629e-03-j9.463521366145e-02
-1.369483801169e-02-j1.161250170147e-01
-2.066848123324e-02-j1.421537390657e-01
-3.108185915862e-02-j1.733932961107e-01
-4.649393751424e-02-j2.103726456456e-01
-6.900658471703e-02-j2.532439008946e-01
-1.012680935684e-01-j3.014103838516e-01
-1.462550774022e-01-j3.530251627556e-01
-2.066560838619e-01-j4.044915876756e-01
-2.837574633127e-01-j4.503088441131e-01
-3.760709425172e-01-j4.837671933485e-01
-4.784872219617e-01-j4.987588473252e-01
-5.829349015616e-01-j4.921140556409e-01
-6.806939209783e-01-j4.650236950853e-01
-7.651111016529e-01-j4.224679619353e-01
-8.330815254167e-01-j3.710983899852e-01
-8.847887797303e-01-j3.170461147151e-01
-9.224448528229e-01-j2.647095423671e-01
-9.489965584055e-01-j2.165804858753e-01
-9.672808439498e-01-j1.736387182992e-01
-9.796457459552e-01-j1.358748531709e-01
-9.878712050820e-01-j1.027212437944e-01
-9.932301221904e-01-j7.333831131455e-02
-9.965908150022e-01-j4.677813042532e-02
-9.985136500931e-01-j2.206383462165e-02
-9.993244997791e-01+j1.782451841358e-03
-9.991611829252e-01+j2.574074237229e-02
-9.979933569925e-01+j5.080923772370e-02
-9.956161887057e-01+j7.802606828387e-02
-9.916160388692e-01+j1.084891619142e-01
-9.853036100937e-01+j1.433651068865e-01
-9.756075282505e-01+j1.838724309177e-01
-9.609209834276e-01+j2.312138158343e-01
-9.389001483044e-01+j2.864131201398e-01
-9.062353258655e-01+j3.499851972728e-01
-8.584736626360e-01+j4.213344368640e-01
-7.900976834004e-01+j4.977700087447e-01
-6.952842615164e-01+j5.731308859639e-01
-5.700150984738e-01+j6.364289478185e-01
-4.160634198564e-01+j6.718693453965e-01
-2.458349850300e-01+j6.627033645049e-01
-8.361520337931e-02+j6.002800651508e-01
4.258622806827e-02+j4.934585319065e-01
</dep>
<dep ac.vout_db frequency>
-4.403661823480e+01+j0.000000000000e+00
-4.221852526750e+01+j0.000000000000e+00
-4.040047849127e+01+j0.000000000000e+00
-3.858250191680e+01+j0.000000000000e+00
-3.676463203225e+01+j0.000000000000e+00
-3.494692428254e+01+j0.000000000000e+00
-3.312946290721e+01+j0.000000000000e+00
-3.131237586929e+01+j0.000000000000e+00
-2.949585749144e+01+j0.000000000000e+00
-2.768020273516e+01+j0.000000000000e+00
-2.586585901269e+01+j0.000000000000e+00
-2.405350427088e+01+j0.000000000000e+00
-2.224416414541e+01+j0.000000000000e+00
-2.043938653702e+01+j0.000000000000e+00
-1.864149902765e+01+j0.000000000000e+00
-1.685398228179e+01+j0.000000000000e+00
-1.508199790667e+01+j0.000000000000e+00
-1.333310429701e+01+j0.000000000000e+00
-1.161816190770e+01+j0.000000000000e+00
-9.952340405525e+00+j0.000000000000e+00
-8.355956470689e+00+j0.000000000000e+00
-6.854582888262e+00+j0.000000000000e+00
-5.477590161991e+00+j0.000000000000e+00
-4.254362650010e+00+j0.000000000000e+00
-3.208352952859e+00+j0.000000000000e+00
-2.350849676250e+00+j0.000000000000e+00
-1.677522208068e+00+j0.000000000000e+00
-1.169781713329e+00+j0.000000000000e+00
-8.001301605409e-01+j0.000000000000e+00
-5.385763722030e-01+j0.000000000000e+00
-3.575185290868e-01+j0.000000000000e+00
-2.342005957109e-01+j0.000000000000e+00
-1.512060732886e-01+j0.000000000000e+00
-9.586653981460e-02+j0.000000000000e+00
-5.928809593964e-02+j0.000000000000e+00
-3.538859752019e-02+j0.000000000000e+00
-2.010458790572e-02+j0.000000000000e+00
-1.079989283080e-02+j0.000000000000e+00
-5.855486191540e-03+j0.000000000000e+00
-4.407478866093e-03+j0.000000000000e+00
-6.204769032622e-03+j0.000000000000e+00
-1.156909444860e-02+j0.000000000000e+00
-2.145377615241e-02+j0.000000000000e+00
-3.761267010809e-02+j0.000000000000e+00
-6.290880216937e-02+j0.000000000000e+00
-1.018147113152e-01+j0.000000000000e+00
-1.611854902514e-01+j0.000000000000e+00
-2.514206707388e-01+j0.000000000000e+00
-3.881641502543e-01+j0.000000000000e+00
-5.946890722035e-01+j0.000000000000e+00
-9.049787755969e-01+j0.000000000000e+00
-1.367015216721e+00+j0.000000000000e+00
-2.044556054017e+00+j0.000000000000e+00
-3.013683653771e+00+j0.000000000000e+00
-4.349463691357e+00+j0.000000000000e+00
-6.102760558259e+00+j0.000000000000e+00
</dep>
