<Qucs Dataset 0.0.19>
<indep acfrequency 51>
  +1.00000000000000000000e+01
  +1.25892541179416710406e+01
  +1.58489319246111328710e+01
  +1.99526231496887938022e+01
  +2.51188643150957986450e+01
  +3.16227766016837890106e+01
  +3.98107170553497198284e+01
  +5.01187233627272235026e+01
  +6.30957344480193071945e+01
  +7.94328234724281401213e+01
  +9.99999999999999857891e+01
  +1.25892541179416696195e+02
  +1.58489319246111278972e+02
  +1.99526231496887874073e+02
  +2.51188643150957886974e+02
  +3.16227766016837733787e+02
  +3.98107170553496985121e+02
  +5.01187233627271950809e+02
  +6.30957344480193114578e+02
  +7.94328234724281287527e+02
  +9.99999999999999545253e+02
  +1.25892541179416662089e+03
  +1.58489319246111244865e+03
  +1.99526231496887817229e+03
  +2.51188643150957841499e+03
  +3.16227766016837676943e+03
  +3.98107170553496916909e+03
  +5.01187233627271871228e+03
  +6.30957344480192659830e+03
  +7.94328234724280628143e+03
  +9.99999999999998908606e+03
  +1.25892541179416566592e+04
  +1.58489319246111153916e+04
  +1.99526231496887703543e+04
  +2.51188643150957650505e+04
  +3.16227766016837449570e+04
  +3.98107170553496980574e+04
  +5.01187233627271489240e+04
  +6.30957344480192768970e+04
  +7.94328234724280191585e+04
  +9.99999999999999126885e+04
  +1.25892541179416497471e+05
  +1.58489319246111204848e+05
  +1.99526231496887572575e+05
  +2.51188643150957708713e+05
  +3.16227766016837267671e+05
  +3.98107170553496747743e+05
  +5.01187233627271139994e+05
  +6.30957344480192288756e+05
  +7.94328234724279609509e+05
  +9.99999999999998370185e+05
</indep>
<dep Vout_dB acfrequency>
  -4.40366175086903410829e+01
  -4.20367174644760410729e+01
  -4.00368758790081358256e+01
  -3.80371269372860041358e+01
  -3.60375248081154282431e+01
  -3.40381553162305934279e+01
  -3.20391544167864381620e+01
  -3.00407374138006559861e+01
  -2.80432451136828433391e+01
  -2.60472165865101317195e+01
  -2.40535035169943292033e+01
  -2.20634490253956272454e+01
  -2.00791650891675743651e+01
  -1.81039574583900986227e+01
  -1.61429630884660362256e+01
  -1.42040740899096213923e+01
  -1.22992008066986340253e+01
  -1.04458241792909856116e+01
  -8.66851922774138650141e+00
  -6.99962245720667564086e+00
  -5.47758798581237105196e+00
  -4.14148502878942892380e+00
  -3.02167715454159724331e+00
  -2.13011917095161962266e+00
  -1.45597062833380519464e+00
  -9.69589506275502333033e-01
  -6.32106844160693515100e-01
  -4.04881974967415514399e-01
  -2.55223915330406891933e-01
  -1.58201182667105477719e-01
  -9.60579000229127843991e-02
  -5.67187783965220695959e-02
  -3.22438977027947396015e-02
  -1.75745846832815674765e-02
  -9.63451075907009041321e-03
  -6.74475943486090370738e-03
  -8.29251455208761950599e-03
  -1.46085747922720006475e-02
  -2.70358103806686636550e-02
  -4.82007516818166448225e-02
  -8.25310532321436168823e-02
  -1.37088495845280239349e-01
  -2.22797081512430938943e-01
  -3.56104232119256403077e-01
  -5.60951665264583065884e-01
  -8.70558221742632087903e-01
  -1.32791469478663870518e+00
  -1.98340016455774348358e+00
  -2.88849070323042234065e+00
  -4.08697440277424028920e+00
  -5.60796427198364888511e+00
</dep>
<dep V1.i acfrequency>
  +1.71702577343095288668e-15-j1.08058364543855431686e-17
  +2.72123962561853408890e-15-j2.15599788512324769779e-17
  +4.31271633528477194897e-15-j4.30162402001113131012e-17
  +6.83479836620514837411e-15-j8.58237164786980153907e-17
  +1.08314298529834792389e-14-j1.71225133640317432681e-16
  +1.71641593235111742860e-14-j3.41589452906222143235e-16
  +2.71970816169468198415e-14-j6.81403776209297931921e-16
  +4.30887101401164591201e-14-j1.35908378776130021201e-15
  +6.82514548956097550050e-14-j2.71016329262968206994e-15
  +1.08072073050280352843e-13-j5.40254395415527167090e-15
  +1.71034118690103352971e-13-j1.07638989831097021350e-14
  +2.70448749661609831391e-13-j2.14276754347652124805e-14
  +4.27079041832043906965e-13-j4.25993967343564837024e-14
  +6.73009075750847400253e-13-j8.45131337765899105476e-14
  +1.05707917453423744103e-12-j1.67118155318458334996e-13
  +1.65187075498388833504e-12-j3.28785395355266987605e-13
  +2.56112711740197041901e-12-j6.41800162081462205065e-13
  +3.92389761084683199357e-12-j1.23804789899097269625e-12
  +5.90700192682662166184e-12-j2.34675570834977227102e-12
  +8.67218041670317989344e-12-j4.33867845688058139404e-12
  +1.23063153107545141398e-11-j7.75462431572542358091e-12
  +1.67268928363199525887e-11-j1.32791666353162002988e-11
  +2.16213872077074668194e-11-j2.16347176466169136732e-11
  +2.64987777278056805202e-11-j3.34430927424110377285e-11
  +3.08566120298279128336e-11-j4.91722795134279240766e-11
  +3.43502605684818965582e-11-j6.92399833587795947483e-11
  +3.68467498430192452970e-11-j9.42112671703850841166e-11
  +3.83595385718919010886e-11-j1.24974545703279803031e-10
  +3.89393824171699840637e-11-j1.62847615887596086236e-10
  +3.85791494364104720006e-11-j2.09640033043993496473e-10
  +3.71416589910275930149e-11-j2.67715524713411491784e-10
  +3.42914244030340728621e-11-j3.40082048562736059539e-10
  +2.94037542806589298145e-11-j4.30520202132029067012e-10
  +2.14225194580900759669e-11-j5.43751880938269736941e-10
  +8.63148269755611086991e-12-j6.85646326998935791524e-10
  -1.17101690446653359589e-11-j8.63453821687389212075e-10
  -4.39412090585426663621e-11-j1.08604165472798882630e-09
  -9.48880898030289000511e-11-j1.36407307875923703749e-09
  -1.75221542927686819823e-10-j1.71000104986032767158e-09
  -3.01470850227389475273e-10-j2.13761563981610360781e-09
  -4.98884453316468696566e-10-j2.66064151920433928532e-09
  -8.05175559781584692251e-10-j3.28947475816498368968e-09
  -1.27465363995207007424e-09-j4.02456353997887179947e-09
  -1.98086932825144535984e-09-j4.84438403074572952042e-09
  -3.01313250942541359724e-09-j5.68630822328096548792e-09
  -4.45826062150061579054e-09-j6.42207015464775206438e-09
  -6.35697221356013856029e-09-j6.83913528444440553752e-09
  -8.63370736335676487740e-09-j6.65431605019960303936e-09
  -1.10287120750048682675e-08-j5.59098104609100331725e-09
  -1.30961094145115640703e-08-j3.51741254375494616774e-09
  -1.43175130275800311814e-08-j5.75444001366876943465e-10
</dep>
<dep V2.i acfrequency>
  -1.71711858125067254644e-15+j1.08064205269811720262e-17
  -2.72138671270394581860e-15+j2.15611442016009895053e-17
  -4.31294944407459999600e-15+j4.30185652939039169900e-17
  -6.83516779731352767434e-15+j8.58283553812000908964e-17
  -1.08320153080212888546e-14+j1.71234388618050265957e-16
  -1.71650870720801192781e-14+j3.41607916331667686829e-16
  -2.71985516600216959098e-14+j6.81440607109615491117e-16
  -4.30910391495608947174e-14+j1.35915724828415464378e-15
  -6.82551439891688840271e-14+j2.71030978102847552851e-15
  -1.08077914508007795095e-13+j5.40283596977066076428e-15
  -1.71043363340882021872e-13+j1.07644807880118535757e-14
  -2.70463367822353865833e-13+j2.14288336332032076703e-14
  -4.27102126095179843234e-13+j4.26016992956916359027e-14
  -6.73045452901230928384e-13+j8.45177018383140713171e-14
  -1.05713631124999879650e-12+j1.67127188305563282058e-13
  -1.65196004107721544448e-12+j3.28803166698481800943e-13
  -2.56126555016605197080e-12+j6.41834852343381142872e-13
  -3.92410970340055338828e-12+j1.23811481733949914926e-12
  -5.90732120914476137193e-12+j2.34688255401754156493e-12
  -8.67264916106875916170e-12+j4.33891296896211612407e-12
  -1.23069804855655424243e-11+j7.75504346481011715961e-12
  -1.67277969499799179756e-11+j1.32798843941971142117e-11
  -2.16225558761314230826e-11+j2.16358870355688306565e-11
  -2.65002100265073167875e-11+j3.34449003917605456271e-11
  -3.08582798760088311564e-11+j4.91749373489265701513e-11
  -3.43521172516173211321e-11+j6.92437258837858579613e-11
  -3.68487414651423517218e-11+j9.42163594307547923536e-11
  -3.83616119625100522599e-11+j1.24981300765032638249e-10
  -3.89414871492236496701e-11+j1.62856418045613744503e-10
  -3.85812346973309299645e-11+j2.09651364402377983021e-10
  -3.71436665534334318661e-11+j2.67729995139245767935e-10
  -3.42932779059822677922e-11+j3.40100430507808345997e-10
  -2.94053435977016710424e-11+j4.30543472395071730523e-10
  -2.14236773774133248312e-11+j5.43781271543474282313e-10
  -8.63194924214868693843e-12+j6.85683387211832193161e-10
  +1.17108019968769812985e-11+j8.63500492662096213231e-10
  +4.39435841468332375960e-11+j1.08610035690920629927e-09
  +9.48932186466809667318e-11+j1.36414680895615384539e-09
  +1.75231013915036766234e-10+j1.71009347798320238122e-09
  +3.01487145179243069648e-10+j2.13773118114969471786e-09
  +4.98911418769813378789e-10+j2.66078533087138219853e-09
  +8.05219080728885885391e-10+j3.28965255921246939839e-09
  +1.27472253689413145801e-09+j4.02478107367770853301e-09
  +1.98097639721124866791e-09+j4.84464587697236558308e-09
  +3.01329537375923580244e-09+j5.68661557677365079187e-09
  +4.45850159717754182807e-09+j6.42241727717695552775e-09
  +6.35731581744793575773e-09+j6.83950494996974476662e-09
  +8.63417402819601187025e-09+j6.65467572596798443479e-09
  +1.10293081934428711275e-08+j5.59128324700670835151e-09
  +1.30968172788782253683e-08+j3.51760266518137559684e-09
  +1.43182869106448897283e-08+j5.75475104978695831926e-10
</dep>
<dep V3.i acfrequency>
  -3.94770629717818983613e-09-j6.28293766194844285157e-07
  -6.25654883612948674425e-09-j7.90956754439518157723e-07
  -9.91559996829270380135e-09-j9.95719178554855874946e-07
  -1.57142584493885495369e-08-j1.25346359761170742229e-06
  -2.49031396850277078976e-08-j1.57787238272314965888e-06
  -3.94630869050875349567e-08-j1.98613480742505900476e-06
  -6.25303909520720505144e-08-j2.49981950140570643147e-06
  -9.90678743198575645334e-08-j3.14593754986318075158e-06
  -1.56921364159218665387e-07-j3.95821083501619959459e-06
  -2.48476275267062817192e-07-j4.97853008457167453289e-06
  -3.93238685900623067942e-07-j6.25851688468523115915e-06
  -6.21815705178033119919e-07-j7.86095426245663725482e-06
  -9.81951601606512819049e-07-j9.86054943086829159462e-06
  -1.54742942076564578045e-06-j1.23429178504584025565e-05
  -2.43058208592568312289e-06-j1.53996508319202269320e-05
  -3.79838692299126923048e-06-j1.91156745356151037355e-05
  -5.88961010897516969929e-06-j2.35429497092801605373e-05
  -9.02452250329537621835e-06-j2.86531946286163392336e-05
  -1.35879758190480706248e-05-j3.42659791491111610936e-05
  -1.99546678178212680786e-05-j3.99658255266262867566e-05
  -2.83300959252467105909e-05-j4.50599522232478873120e-05
  -3.85352775962177033510e-05-j4.86676184033565107354e-05
  -4.98700172896318389033e-05-j4.99995050205828683865e-05
  -6.12344324197121287574e-05-j4.87210644857895413683e-05
  -7.15173069938891854680e-05-j4.51324996867713922727e-05
  -7.99926746707603963851e-05-j4.00043923131782934118e-05
  -8.64569669436419230681e-05-j3.42164315522984732363e-05
  -9.11013636287221113558e-05-j2.84692004372584330277e-05
  -9.42962625050882839641e-05-j2.31855444210273628372e-05
  -9.64279133441890473535e-05-j1.85482343072003670918e-05
  -9.78197688357823581188e-05-j1.45820558441261037498e-05
  -9.87132967544813956159e-05-j1.12263465422240453430e-05
  -9.92766458693665368278e-05-j8.38291503824417455709e-06
  -9.96212503364169203127e-05-j5.94251993378500435966e-06
  -9.98173789987838233411e-05-j3.79720347341781682879e-06
  -9.99057534851077895782e-05-j1.84454427040609147365e-06
  -9.99049199995566774603e-05+j1.22299000497692262669e-08
  -9.98147821253462217989e-05+j1.86592455207728531480e-06
  -9.96166539334374594823e-05+j3.80738068681942622872e-06
  -9.92699076558780708250e-05+j5.92655291085174393446e-06
  -9.87050688600272157569e-05+j8.31106756917046063935e-06
  -9.78133933501860346801e-05+j1.10396953915747765004e-05
  -9.64341889107807955124e-05+j1.41666029201329880132e-05
  -9.43446116351298488768e-05+j1.76906304723211958208e-05
  -9.12638804105380763241e-05+j2.15044402531377950053e-05
  -8.68944860978080138060e-05+j2.53268515896987125738e-05
  -8.10285163735196514896e-05+j2.86462364095637424559e-05
  -7.37236460306094591862e-05+j3.07415208741580644461e-05
  -6.54767154673924656628e-05+j3.08595878408997472504e-05
  -5.72363700292300407605e-05+j2.85394563417776753547e-05
  -5.01419630856064901651e-05+j2.39007316663567889313e-05
</dep>
<dep _net1.v acfrequency>
  +1.00000000000000000000e+00
  +1.00000000000000000000e+00
  +1.00000000000000000000e+00
  +1.00000000000000000000e+00
  +1.00000000000000000000e+00
  +1.00000000000000000000e+00
  +1.00000000000000000000e+00
  +1.00000000000000000000e+00
  +1.00000000000000000000e+00
  +1.00000000000000000000e+00
  +1.00000000000000000000e+00
  +1.00000000000000000000e+00
  +1.00000000000000000000e+00
  +1.00000000000000000000e+00
  +1.00000000000000000000e+00
  +1.00000000000000000000e+00
  +1.00000000000000000000e+00
  +1.00000000000000000000e+00
  +1.00000000000000000000e+00
  +1.00000000000000000000e+00
  +1.00000000000000000000e+00
  +1.00000000000000000000e+00
  +1.00000000000000000000e+00
  +1.00000000000000000000e+00
  +1.00000000000000000000e+00
  +1.00000000000000000000e+00
  +1.00000000000000000000e+00
  +1.00000000000000000000e+00
  +1.00000000000000000000e+00
  +1.00000000000000000000e+00
  +1.00000000000000000000e+00
  +1.00000000000000000000e+00
  +1.00000000000000000000e+00
  +1.00000000000000000000e+00
  +1.00000000000000000000e+00
  +1.00000000000000000000e+00
  +1.00000000000000000000e+00
  +1.00000000000000000000e+00
  +1.00000000000000000000e+00
  +1.00000000000000000000e+00
  +1.00000000000000000000e+00
  +1.00000000000000000000e+00
  +1.00000000000000000000e+00
  +1.00000000000000000000e+00
  +1.00000000000000000000e+00
  +1.00000000000000000000e+00
  +1.00000000000000000000e+00
  +1.00000000000000000000e+00
  +1.00000000000000000000e+00
  +1.00000000000000000000e+00
  +1.00000000000000000000e+00
</dep>
<dep _net2.v acfrequency>
  +3.94139626696742110265e-05+j6.28296971070911678542e-03
  +6.24654834296494939662e-05+j7.90960818359156409008e-03
  +9.89975083436525328745e-05+j9.95724353024088348896e-03
  +1.56891407206984697265e-04+j1.25347022819041146319e-02
  +2.48633344240192072881e-04+j1.57788096215726106331e-02
  +3.94000089996820307674e-04+j1.98614607114395505527e-02
  +6.24304422641638705194e-04+j2.49983460475089597219e-02
  +9.89095242018262149966e-04+j3.14595840470626025853e-02
  +1.56670541378779726305e-03+j3.95824075924470705767e-02
  +2.48079112241511969342e-03+j4.97857506771647861932e-02
  +3.92610137825576306636e-03+j6.25858806760453828533e-02
  +6.20821808160215964784e-03+j7.86107280416365877818e-02
  +9.80382085705139988407e-03+j9.86075604438654551576e-02
  +1.54495610226134325038e-02+j1.23432913834451055135e-01
  +2.42669728040304441552e-02+j1.54003440885343706457e-01
  +3.79231617766850187534e-02+j1.91169821102137593716e-01
  +5.88019763657271557489e-02+j2.35454327643524197189e-01
  +9.01010132453048673273e-02+j2.86579000635851122158e-01
  +1.35662654666815263305e-01+j3.42747974507892128049e-01
  +1.99227925025388968860e-01+j3.99820109890138608577e-01
  +2.82848586818545633115e-01+j4.50887480477057844830e-01
  +3.84737811721072964222e-01+j4.87167854060219007728e-01
  +4.97905069311536330190e-01+j5.00794615149937838439e-01
  +6.11369483228407117892e-01+j4.88445180060237127417e-01
  +7.14037214058031555197e-01+j4.53138835494945324545e-01
  +7.98661045415893777744e-01+j4.02596829030993141885e-01
  +8.63209843496601569868e-01+j3.45636920698572380761e-01
  +9.09594385661600890458e-01+j2.89297718918081536721e-01
  +9.41515951352888014192e-01+j2.37856273868080475564e-01
  +9.62835978295014216499e-01+j1.93207019338695856758e-01
  +9.76791937319652636695e-01+j1.55684997423213150602e-01
  +9.85807510688729404791e-01+j1.24794598474127577115e-01
  +9.91581878373872349641e-01+j9.96935881790089184484e-02
  +9.95259864255498838403e-01+j7.94643105775453412187e-02
  +9.97594064384682566171e-01+j6.32450140852358205779e-02
  +9.99071655401786218320e-01+j5.02817785761059191096e-02
  +1.00000488925894948089e+00+j3.99399032050168426022e-02
  +1.00059253527618863266e+00+j3.16967689977189215345e-02
  +1.00096038735715042733e+00+j2.51276619988357735602e-02
  +1.00118746904619992932e+00+j1.98901358569900030271e-02
  +1.00132274748600424985e+00+j1.57093996172992522720e-02
  +1.00139565225654947334e+00+j1.23656929206694930767e-02
  +1.00142260998550836071e+00+j9.68391934624641265161e-03
  +1.00141111836020724191e+00+j7.52553244912576059511e-03
  +1.00136253690524323900e+00+j5.78254554460709904729e-03
  +1.00127468048559675751e+00+j4.37333102152698879189e-03
  +1.00114521678150691919e+00+j3.23935107582175177768e-03
  +1.00097621501048128501e+00+j2.34113758317610687679e-03
  +1.00077841330949302012e+00+j1.65160814993638854764e-03
  +1.00057182854031689878e+00+j1.14681196217968593698e-03
  +1.00038039195882144661e+00+j7.98034128140563138974e-04
</dep>
<dep _net0.v acfrequency>
  -6.31003021076865936237e-08+j3.20487606748215414498e-08
  -1.00004931645359381142e-07+j4.06391963826779319258e-08
  -1.58491339274463078486e-07+j5.17446923240854983025e-08
  -2.51177286900778780908e-07+j6.63057870394279475916e-08
  -3.98052610084970942931e-07+j8.57943411168233267131e-08
  -6.30779054055021563390e-07+j1.12637188963606980013e-07
  -9.99486879081674800743e-07+j1.51033451902546687279e-07
  -1.58350118031353115505e-06+j2.08548430792636379367e-07
  -2.50822780438910748966e-06+j2.99242285070430579736e-07
  -3.97163025550774836237e-06+j4.49831448044863851428e-07
  -6.28548075046720733302e-06+j7.11829193064291626760e-07
  -9.93897017817057387701e-06+j1.18541707022634668078e-06
  -1.56951590137306001838e-05+j2.06613518255460704154e-06
  -2.47331850430285160591e-05+j3.73532986702729274953e-06
  -3.88480552263870126950e-05+j6.93256614142656601985e-06
  -6.07074532276777323325e-05+j1.30757459865515901498e-05
  -9.41247240245426941563e-05+j2.48305507225543564687e-05
  -1.44211787648881872848e-04+j4.70543496877695588410e-05
  -2.17103523665440611978e-04+j8.81830167805408571269e-05
  -3.18753152823703089780e-04+j1.61854623875690162293e-04
  -4.52372433921433003690e-04+j2.87958244579056277246e-04
  -6.14964241104021258622e-04+j4.91670026653956426799e-04
  -7.95103584782019812138e-04+j7.99564944109154573937e-04
  -9.74840968714030253750e-04+j1.23453520234173552694e-03
  -1.13585588086018152154e-03+j1.81383862723127897709e-03
  -1.26570129171021950043e-03+j2.55290589921042254673e-03
  -1.35982593981742727607e-03+j3.47260517558733994292e-03
  -1.41925062562042736403e-03+j4.60571454549718595217e-03
  -1.44667369799478251480e-03+j6.00082965780712740411e-03
  -1.44315514687620716217e-03+j7.72467626669204321388e-03
  -1.40575103817086599634e-03+j9.86443898195243917826e-03
  -1.32545685608431718094e-03+j1.25311330518869112893e-02
  -1.18458031979307154558e-03+j1.58644377965693195165e-02
  -9.52639108670383372157e-04+j2.00391112396953730013e-02
  -5.79725603155778479447e-04+j2.52729793510582112503e-02
  +1.41205507084851689115e-05+j3.18363358720468170304e-02
  +9.55689263382630826982e-04+j4.00622022055188153900e-02
  +2.44471402272650184528e-03+j5.03560145184884788705e-02
  +4.79384802277593724540e-03+j6.32014688670352597910e-02
  +8.48839248741939389475e-03+j7.91556649655049682224e-02
  +1.42720588857322416843e-02+j9.88200753090069383688e-02
  +2.32617187546890757943e-02+j1.22762646836420685759e-01
  +3.70807208777002711431e-02+j1.51349948547577772828e-01
  +5.79650020089086601138e-02+j1.84431837172330553853e-01
  +8.87237327998623981351e-02+j2.20826948075995121989e-01
  +1.32329819507516738275e-01+j2.57641846918513217624e-01
  +1.90860053046310235159e-01+j2.89701715171474971644e-01
  +2.63739754704386653028e-01+j3.09756346324721321128e-01
  +3.46011258635568363928e-01+j3.10247486558898499798e-01
  +4.28208128248016683948e-01+j2.86541375379936791301e-01
  +4.98960761102756500396e-01+j2.39805350791719606995e-01
</dep>
<dep VOUT.v acfrequency>
  -3.95404790460986173945e-05-j6.28290545287630078364e-03
  -6.26659937469413544928e-05-j7.90952670195738116732e-03
  -9.93152841601509424069e-05-j9.95713978215486891776e-03
  -1.57395018748919551408e-04-j1.25345693389871185031e-02
  -2.49431441442775879164e-04-j1.57786376044684734099e-02
