<Qucs Dataset 0.0.24>
<indep frequency 56>
1.000000000000e+01
1.232846739442e+01
1.519911082953e+01
1.873817422860e+01
2.310129700083e+01
2.848035868436e+01
3.511191734215e+01
4.328761281083e+01
5.336699231206e+01
6.579332246576e+01
8.111308307897e+01
1.000000000000e+02
1.232846739442e+02
1.519911082953e+02
1.873817422860e+02
2.310129700083e+02
2.848035868436e+02
3.511191734215e+02
4.328761281083e+02
5.336699231206e+02
6.579332246576e+02
8.111308307897e+02
1.000000000000e+03
1.232846739442e+03
1.519911082953e+03
1.873817422860e+03
2.310129700083e+03
2.848035868436e+03
3.511191734215e+03
4.328761281083e+03
5.336699231206e+03
6.579332246576e+03
8.111308307897e+03
1.000000000000e+04
1.232846739442e+04
1.519911082953e+04
1.873817422860e+04
2.310129700083e+04
2.848035868436e+04
3.511191734215e+04
4.328761281083e+04
5.336699231206e+04
6.579332246576e+04
8.111308307897e+04
1.000000000000e+05
1.232846739442e+05
1.519911082953e+05
1.873817422860e+05
2.310129700083e+05
2.848035868436e+05
3.511191734215e+05
4.328761281083e+05
5.336699231206e+05
6.579332246576e+05
8.111308307897e+05
1.000000000000e+06
</indep>
<dep ac.v(vcc) frequency>
0.000000000000e+00+j0.000000000000e+00
0.000000000000e+00+j0.000000000000e+00
0.000000000000e+00+j0.000000000000e+00
0.000000000000e+00+j0.000000000000e+00
0.000000000000e+00+j0.000000000000e+00
0.000000000000e+00+j0.000000000000e+00
0.000000000000e+00+j0.000000000000e+00
0.000000000000e+00+j0.000000000000e+00
0.000000000000e+00+j0.000000000000e+00
0.000000000000e+00+j0.000000000000e+00
0.000000000000e+00+j0.000000000000e+00
0.000000000000e+00+j0.000000000000e+00
0.000000000000e+00+j0.000000000000e+00
0.000000000000e+00+j0.000000000000e+00
0.000000000000e+00+j0.000000000000e+00
0.000000000000e+00+j0.000000000000e+00
0.000000000000e+00+j0.000000000000e+00
0.000000000000e+00+j0.000000000000e+00
0.000000000000e+00+j0.000000000000e+00
0.000000000000e+00+j0.000000000000e+00
0.000000000000e+00+j0.000000000000e+00
0.000000000000e+00+j0.000000000000e+00
0.000000000000e+00+j0.000000000000e+00
0.000000000000e+00+j0.000000000000e+00
0.000000000000e+00+j0.000000000000e+00
0.000000000000e+00+j0.000000000000e+00
0.000000000000e+00+j0.000000000000e+00
0.000000000000e+00+j0.000000000000e+00
0.000000000000e+00+j0.000000000000e+00
0.000000000000e+00+j0.000000000000e+00
0.000000000000e+00+j0.000000000000e+00
0.000000000000e+00+j0.000000000000e+00
0.000000000000e+00+j0.000000000000e+00
0.000000000000e+00+j0.000000000000e+00
0.000000000000e+00+j0.000000000000e+00
0.000000000000e+00+j0.000000000000e+00
0.000000000000e+00+j0.000000000000e+00
0.000000000000e+00+j0.000000000000e+00
0.000000000000e+00+j0.000000000000e+00
0.000000000000e+00+j0.000000000000e+00
0.000000000000e+00+j0.000000000000e+00
0.000000000000e+00+j0.000000000000e+00
0.000000000000e+00+j0.000000000000e+00
0.000000000000e+00+j0.000000000000e+00
0.000000000000e+00+j0.000000000000e+00
0.000000000000e+00+j0.000000000000e+00
0.000000000000e+00+j0.000000000000e+00
0.000000000000e+00+j0.000000000000e+00
0.000000000000e+00+j0.000000000000e+00
0.000000000000e+00+j0.000000000000e+00
0.000000000000e+00+j0.000000000000e+00
0.000000000000e+00+j0.000000000000e+00
0.000000000000e+00+j0.000000000000e+00
0.000000000000e+00+j0.000000000000e+00
0.000000000000e+00+j0.000000000000e+00
0.000000000000e+00+j0.000000000000e+00
</dep>
<dep ac.v(vee) frequency>
0.000000000000e+00+j0.000000000000e+00
0.000000000000e+00+j0.000000000000e+00
0.000000000000e+00+j0.000000000000e+00
0.000000000000e+00+j0.000000000000e+00
0.000000000000e+00+j0.000000000000e+00
0.000000000000e+00+j0.000000000000e+00
0.000000000000e+00+j0.000000000000e+00
0.000000000000e+00+j0.000000000000e+00
0.000000000000e+00+j0.000000000000e+00
0.000000000000e+00+j0.000000000000e+00
0.000000000000e+00+j0.000000000000e+00
0.000000000000e+00+j0.000000000000e+00
0.000000000000e+00+j0.000000000000e+00
0.000000000000e+00+j0.000000000000e+00
0.000000000000e+00+j0.000000000000e+00
0.000000000000e+00+j0.000000000000e+00
0.000000000000e+00+j0.000000000000e+00
0.000000000000e+00+j0.000000000000e+00
0.000000000000e+00+j0.000000000000e+00
0.000000000000e+00+j0.000000000000e+00
0.000000000000e+00+j0.000000000000e+00
0.000000000000e+00+j0.000000000000e+00
0.000000000000e+00+j0.000000000000e+00
0.000000000000e+00+j0.000000000000e+00
0.000000000000e+00+j0.000000000000e+00
0.000000000000e+00+j0.000000000000e+00
0.000000000000e+00+j0.000000000000e+00
0.000000000000e+00+j0.000000000000e+00
0.000000000000e+00+j0.000000000000e+00
0.000000000000e+00+j0.000000000000e+00
0.000000000000e+00+j0.000000000000e+00
0.000000000000e+00+j0.000000000000e+00
0.000000000000e+00+j0.000000000000e+00
0.000000000000e+00+j0.000000000000e+00
0.000000000000e+00+j0.000000000000e+00
0.000000000000e+00+j0.000000000000e+00
0.000000000000e+00+j0.000000000000e+00
0.000000000000e+00+j0.000000000000e+00
0.000000000000e+00+j0.000000000000e+00
0.000000000000e+00+j0.000000000000e+00
0.000000000000e+00+j0.000000000000e+00
0.000000000000e+00+j0.000000000000e+00
0.000000000000e+00+j0.000000000000e+00
0.000000000000e+00+j0.000000000000e+00
0.000000000000e+00+j0.000000000000e+00
0.000000000000e+00+j0.000000000000e+00
0.000000000000e+00+j0.000000000000e+00
0.000000000000e+00+j0.000000000000e+00
0.000000000000e+00+j0.000000000000e+00
0.000000000000e+00+j0.000000000000e+00
0.000000000000e+00+j0.000000000000e+00
0.000000000000e+00+j0.000000000000e+00
0.000000000000e+00+j0.000000000000e+00
0.000000000000e+00+j0.000000000000e+00
0.000000000000e+00+j0.000000000000e+00
0.000000000000e+00+j0.000000000000e+00
</dep>
<dep ac.v(vout) frequency>
-9.999893442374e-01+j6.485474832364e-04
-9.999891289368e-01+j7.995594806021e-04
-9.999888016992e-01+j9.857339810774e-04
-9.999883043275e-01+j1.215258329455e-03
-9.999875483678e-01+j1.498226153992e-03
-9.999863993783e-01+j1.847081139486e-03
-9.999846530215e-01+j2.277164045139e-03
-9.999819987259e-01+j2.807386931960e-03
-9.999779644592e-01+j3.461064078688e-03
-9.999718327939e-01+j4.266935805805e-03
-9.999625133496e-01+j5.260429629406e-03
-9.999483489505e-01+j6.485213076742e-03
-9.999268210797e-01+j7.995104334277e-03
-9.998941023778e-01+j9.856420786176e-03
-9.998443768967e-01+j1.215086129540e-02
-9.997688079103e-01+j1.497903507040e-02
-9.996539713038e-01+j1.846476627055e-02
-9.994794795998e-01+j2.276031495814e-02
-9.992143825379e-01+j2.805265300982e-02
-9.988117235886e-01+j3.457090122536e-02
-9.982003292318e-01+j4.259493869745e-02
-9.972724739831e-01+j5.246497688282e-02
-9.958654638937e-01+j6.459143784611e-02
-9.937344025083e-01+j7.946359176604e-02
-9.905125175520e-01+j9.765375707782e-02
-9.856547322697e-01+j1.198109132535e-01
-9.783604934767e-01+j1.466325776430e-01
-9.674751613942e-01+j1.787960239906e-01
-9.513794532146e-01+j2.168195954212e-01
-9.279000701848e-01+j2.608158147084e-01
-8.943189494750e-01+j3.101031899673e-01
-8.476206930004e-01+j3.626921719875e-01
-7.851569366568e-01+j4.147933711996e-01
-7.058110599411e-01+j4.607142164369e-01
-6.113787210159e-01+j4.936553627324e-01
-5.073294412034e-01+j5.076253563684e-01
-4.019852541816e-01+j4.997872127883e-01
-3.040819518793e-01+j4.717525455268e-01
-2.200731550143e-01+j4.288326502938e-01
-1.527834825609e-01+j3.778320291179e-01
-1.017961708093e-01+j3.248915939266e-01
-6.476263680601e-02+j2.743643421768e-01
-3.868169244890e-02+j2.287121644998e-01
-2.070875729584e-02+j1.889339298643e-01
-8.504577899277e-03+j1.550965468862e-01
-2.953728252131e-04+j1.267644087368e-01
5.199110343857e-03+j1.032838606619e-01
8.875480085832e-03+j8.394787923362e-02
1.135099156521e-02+j6.807983073366e-02
1.304745132298e-02+j5.506802993112e-02
1.425263383951e-02+j4.437178443973e-02
1.516030181244e-02+j3.551053772429e-02
1.588685869028e-02+j2.804254346762e-02
1.645379615466e-02+j2.154266233507e-02
1.671766820014e-02+j1.561637512435e-02
1.628299870811e-02+j1.005607383324e-02
</dep>
<dep ac.vout_db frequency>
-9.072853008043e-05+j0.000000000000e+00
-9.164888476390e-05+j0.000000000000e+00
-9.304774166880e-05+j0.000000000000e+00
-9.517387891859e-05+j0.000000000000e+00
-9.840541649193e-05+j0.000000000000e+00
-1.033170616720e-04+j0.000000000000e+00
-1.107823149608e-04+j0.000000000000e+00
-1.221288115973e-04+j0.000000000000e+00
-1.393744207883e-04+j0.000000000000e+00
-1.655860821395e-04+j0.000000000000e+00
-2.054251736653e-04+j0.000000000000e+00
-2.659763502936e-04+j0.000000000000e+00
-3.580071374349e-04+j0.000000000000e+00
-4.978820147600e-04+j0.000000000000e+00
-7.104707609429e-04+j0.000000000000e+00
-1.033566817789e-03+j0.000000000000e+00
-1.524598051247e-03+j0.000000000000e+00
-2.270815522454e-03+j0.000000000000e+00
-3.404754151459e-03+j0.000000000000e+00
-5.127673042955e-03+j0.000000000000e+00
-7.745047822394e-03+j0.000000000000e+00
-1.172020525928e-02+j0.000000000000e+00
-1.775512918212e-02+j0.000000000000e+00
-2.691164125762e-02+j0.000000000000e+00
-4.079184594784e-02+j0.000000000000e+00
-6.180390084767e-02+j0.000000000000e+00
-9.354685856503e-02+j0.000000000000e+00
-1.413531798325e-01+j0.000000000000e+00
-2.130210824610e-01+j0.000000000000e+00
-3.197333320446e-01+j0.000000000000e+00
-4.770635146371e-01+j0.000000000000e+00
-7.057777834876e-01+j0.000000000000e+00
-1.031845571617e+00+j0.000000000000e+00
-1.484806382737e+00+j0.000000000000e+00
-2.093774156230e+00+j0.000000000000e+00
-2.881365572088e+00+j0.000000000000e+00
-3.857574567858e+00+j0.000000000000e+00
-5.016669769884e+00+j0.000000000000e+00
-6.338953889077e+00+j0.000000000000e+00
-7.796307995664e+00+j0.000000000000e+00
-9.358528364818e+00+j0.000000000000e+00
-1.099796834068e+01+j0.000000000000e+00
-1.269173106331e+01+j0.000000000000e+00
-1.442193557030e+01+j0.000000000000e+00
-1.617491875099e+01+j0.000000000000e+00
-1.794002971878e+01+j0.000000000000e+00
-1.970835997575e+01+j0.000000000000e+00
-2.147152928068e+01+j0.000000000000e+00
-2.322054834206e+01+j0.000000000000e+00
-2.494480498440e+01+j0.000000000000e+00
-2.663141613591e+01+j0.000000000000e+00
-2.826570990782e+01+j0.000000000000e+00
-2.983477874184e+01+j0.000000000000e+00
-3.133822750272e+01+j0.000000000000e+00
-3.281206442040e+01+j0.000000000000e+00
-3.436209717003e+01+j0.000000000000e+00
</dep>
