<Qucs Dataset 0.0.22>
<indep frequency 56>
1.000000000000e+01
1.232846739442e+01
1.519911082953e+01
1.873817422860e+01
2.310129700083e+01
2.848035868436e+01
3.511191734215e+01
4.328761281083e+01
5.336699231206e+01
6.579332246576e+01
8.111308307897e+01
1.000000000000e+02
1.232846739442e+02
1.519911082953e+02
1.873817422860e+02
2.310129700083e+02
2.848035868436e+02
3.511191734215e+02
4.328761281083e+02
5.336699231206e+02
6.579332246576e+02
8.111308307897e+02
1.000000000000e+03
1.232846739442e+03
1.519911082953e+03
1.873817422860e+03
2.310129700083e+03
2.848035868436e+03
3.511191734215e+03
4.328761281083e+03
5.336699231206e+03
6.579332246576e+03
8.111308307897e+03
1.000000000000e+04
1.232846739442e+04
1.519911082953e+04
1.873817422860e+04
2.310129700083e+04
2.848035868436e+04
3.511191734215e+04
4.328761281083e+04
5.336699231206e+04
6.579332246576e+04
8.111308307897e+04
1.000000000000e+05
1.232846739442e+05
1.519911082953e+05
1.873817422860e+05
2.310129700083e+05
2.848035868436e+05
3.511191734215e+05
4.328761281083e+05
5.336699231206e+05
6.579332246576e+05
8.111308307897e+05
1.000000000000e+06
</indep>
<dep ac.v(vcc) frequency>
0.000000000000e+00+j0.000000000000e+00
0.000000000000e+00+j0.000000000000e+00
0.000000000000e+00+j0.000000000000e+00
0.000000000000e+00+j0.000000000000e+00
0.000000000000e+00+j0.000000000000e+00
0.000000000000e+00+j0.000000000000e+00
0.000000000000e+00+j0.000000000000e+00
0.000000000000e+00+j0.000000000000e+00
0.000000000000e+00+j0.000000000000e+00
0.000000000000e+00+j0.000000000000e+00
0.000000000000e+00+j0.000000000000e+00
0.000000000000e+00+j0.000000000000e+00
0.000000000000e+00+j0.000000000000e+00
0.000000000000e+00+j0.000000000000e+00
0.000000000000e+00+j0.000000000000e+00
0.000000000000e+00+j0.000000000000e+00
0.000000000000e+00+j0.000000000000e+00
0.000000000000e+00+j0.000000000000e+00
0.000000000000e+00+j0.000000000000e+00
0.000000000000e+00+j0.000000000000e+00
0.000000000000e+00+j0.000000000000e+00
0.000000000000e+00+j0.000000000000e+00
0.000000000000e+00+j0.000000000000e+00
0.000000000000e+00+j0.000000000000e+00
0.000000000000e+00+j0.000000000000e+00
0.000000000000e+00+j0.000000000000e+00
0.000000000000e+00+j0.000000000000e+00
0.000000000000e+00+j0.000000000000e+00
0.000000000000e+00+j0.000000000000e+00
0.000000000000e+00+j0.000000000000e+00
0.000000000000e+00+j0.000000000000e+00
0.000000000000e+00+j0.000000000000e+00
0.000000000000e+00+j0.000000000000e+00
0.000000000000e+00+j0.000000000000e+00
0.000000000000e+00+j0.000000000000e+00
0.000000000000e+00+j0.000000000000e+00
0.000000000000e+00+j0.000000000000e+00
0.000000000000e+00+j0.000000000000e+00
0.000000000000e+00+j0.000000000000e+00
0.000000000000e+00+j0.000000000000e+00
0.000000000000e+00+j0.000000000000e+00
0.000000000000e+00+j0.000000000000e+00
0.000000000000e+00+j0.000000000000e+00
0.000000000000e+00+j0.000000000000e+00
0.000000000000e+00+j0.000000000000e+00
0.000000000000e+00+j0.000000000000e+00
0.000000000000e+00+j0.000000000000e+00
0.000000000000e+00+j0.000000000000e+00
0.000000000000e+00+j0.000000000000e+00
0.000000000000e+00+j0.000000000000e+00
0.000000000000e+00+j0.000000000000e+00
0.000000000000e+00+j0.000000000000e+00
0.000000000000e+00+j0.000000000000e+00
0.000000000000e+00+j0.000000000000e+00
0.000000000000e+00+j0.000000000000e+00
0.000000000000e+00+j0.000000000000e+00
</dep>
<dep ac.v(vee) frequency>
0.000000000000e+00+j0.000000000000e+00
0.000000000000e+00+j0.000000000000e+00
0.000000000000e+00+j0.000000000000e+00
0.000000000000e+00+j0.000000000000e+00
0.000000000000e+00+j0.000000000000e+00
0.000000000000e+00+j0.000000000000e+00
0.000000000000e+00+j0.000000000000e+00
0.000000000000e+00+j0.000000000000e+00
0.000000000000e+00+j0.000000000000e+00
0.000000000000e+00+j0.000000000000e+00
0.000000000000e+00+j0.000000000000e+00
0.000000000000e+00+j0.000000000000e+00
0.000000000000e+00+j0.000000000000e+00
0.000000000000e+00+j0.000000000000e+00
0.000000000000e+00+j0.000000000000e+00
0.000000000000e+00+j0.000000000000e+00
0.000000000000e+00+j0.000000000000e+00
0.000000000000e+00+j0.000000000000e+00
0.000000000000e+00+j0.000000000000e+00
0.000000000000e+00+j0.000000000000e+00
0.000000000000e+00+j0.000000000000e+00
0.000000000000e+00+j0.000000000000e+00
0.000000000000e+00+j0.000000000000e+00
0.000000000000e+00+j0.000000000000e+00
0.000000000000e+00+j0.000000000000e+00
0.000000000000e+00+j0.000000000000e+00
0.000000000000e+00+j0.000000000000e+00
0.000000000000e+00+j0.000000000000e+00
0.000000000000e+00+j0.000000000000e+00
0.000000000000e+00+j0.000000000000e+00
0.000000000000e+00+j0.000000000000e+00
0.000000000000e+00+j0.000000000000e+00
0.000000000000e+00+j0.000000000000e+00
0.000000000000e+00+j0.000000000000e+00
0.000000000000e+00+j0.000000000000e+00
0.000000000000e+00+j0.000000000000e+00
0.000000000000e+00+j0.000000000000e+00
0.000000000000e+00+j0.000000000000e+00
0.000000000000e+00+j0.000000000000e+00
0.000000000000e+00+j0.000000000000e+00
0.000000000000e+00+j0.000000000000e+00
0.000000000000e+00+j0.000000000000e+00
0.000000000000e+00+j0.000000000000e+00
0.000000000000e+00+j0.000000000000e+00
0.000000000000e+00+j0.000000000000e+00
0.000000000000e+00+j0.000000000000e+00
0.000000000000e+00+j0.000000000000e+00
0.000000000000e+00+j0.000000000000e+00
0.000000000000e+00+j0.000000000000e+00
0.000000000000e+00+j0.000000000000e+00
0.000000000000e+00+j0.000000000000e+00
0.000000000000e+00+j0.000000000000e+00
0.000000000000e+00+j0.000000000000e+00
0.000000000000e+00+j0.000000000000e+00
0.000000000000e+00+j0.000000000000e+00
0.000000000000e+00+j0.000000000000e+00
</dep>
<dep ac.v(vout) frequency>
-3.954306517202e-05-j6.282904138787e-03
-6.010071345427e-05-j7.745698894435e-03
-9.134490018833e-05-j9.548961728896e-03
-1.388295652566e-04-j1.177184817016e-02
-2.109934401249e-04-j1.451183886395e-02
-3.206562649729e-04-j1.788891399960e-02
-4.872881714789e-04-j2.205061907222e-02
-7.404480207946e-04-j2.717815936934e-02
-1.124984191266e-03-j3.349363186427e-02
-1.708881322719e-03-j4.126841588871e-02
-2.595053330864e-03-j5.083254107563e-02
-3.938961898231e-03-j6.258442823818e-02
-5.974696100669e-03-j7.699957009882e-02
-9.053022977276e-03-j9.463516571428e-02
-1.369564330356e-02-j1.161249347910e-01
-2.066970152822e-02-j1.421535944811e-01
-3.108370534989e-02-j1.733930371659e-01
-4.649672365192e-02-j2.103721760872e-01
-6.901077298481e-02-j2.532430431526e-01
-1.012743513082e-01-j3.014088129499e-01
-1.462643387872e-01-j3.530222929974e-01
-2.066695926029e-01-j4.044863913902e-01
-2.837767472472e-01-j4.502995944628e-01
-3.760976522022e-01-j4.837511677973e-01
-4.785227964241e-01-j4.987321001775e-01
-5.829801378429e-01-j4.920713998656e-01
-6.807486497892e-01-j4.649589312861e-01
-7.651741488046e-01-j4.223741935514e-01
-8.331509405148e-01-j3.709681708330e-01
-8.848621366109e-01-j3.168712890630e-01
-9.225194237313e-01-j2.644808150137e-01
-9.490692694682e-01-j2.162868366146e-01
-9.673480005173e-01-j1.732667472190e-01
-9.797025267955e-01-j1.354080876773e-01
-9.879108860851e-01-j1.021394052618e-01
-9.932429295947e-01-j7.261653853373e-02
-9.965622332238e-01-j4.588618620485e-02
-9.984219149670e-01-j2.096538667342e-02
-9.991368858289e-01+j3.130261667326e-03
-9.988285400936e-01+j2.738699813676e-02
-9.974421853852e-01+j5.280735756878e-02
-9.947374310861e-01+j8.042870698487e-02
-9.902499239173e-01+j1.113369859565e-01
-9.832207971630e-01+j1.466643679230e-01
-9.724896083597e-01+j1.875530600211e-01
-9.563503405185e-01+j2.350559563602e-01
-9.323841587215e-01+j2.899283924954e-01
-8.973174710978e-01+j3.522485886813e-01
-8.470228312570e-01+j4.208055493809e-01
-7.768860592172e-01+j4.922565540839e-01
-6.828563287188e-01+j5.602548499442e-01
-5.634090536529e-01+j6.151220219730e-01
-4.221112426315e-01+j6.450042082980e-01
-2.694525974451e-01+j6.392063614424e-01
-1.219320947073e-01+j5.929495836982e-01
2.492182216960e-03+j5.108761261143e-01
</dep>
<dep ac.vout_db frequency>
-4.403661930280e+01+j0.000000000000e+00
-4.221852633247e+01+j0.000000000000e+00
-4.040047955164e+01+j0.000000000000e+00
-3.858250297019e+01+j0.000000000000e+00
-3.676463307502e+01+j0.000000000000e+00
-3.494692530918e+01+j0.000000000000e+00
-3.312946390933e+01+j0.000000000000e+00
-3.131237683415e+01+j0.000000000000e+00
-2.949585839972e+01+j0.000000000000e+00
-2.768020355753e+01+j0.000000000000e+00
-2.586585970468e+01+j0.000000000000e+00
-2.405350476515e+01+j0.000000000000e+00
-2.224416434023e+01+j0.000000000000e+00
-2.043938627911e+01+j0.000000000000e+00
-1.864149808716e+01+j0.000000000000e+00
-1.685398031639e+01+j0.000000000000e+00
-1.508199441188e+01+j0.000000000000e+00
-1.333309854109e+01+j0.000000000000e+00
-1.161815285432e+01+j0.000000000000e+00
-9.952326638826e+00+j0.000000000000e+00
-8.355936157997e+00+j0.000000000000e+00
-6.854553843593e+00+j0.000000000000e+00
-5.477550089763e+00+j0.000000000000e+00
-4.254309613677e+00+j0.000000000000e+00
-3.208285996214e+00+j0.000000000000e+00
-2.350769379792e+00+j0.000000000000e+00
-1.677430946421e+00+j0.000000000000e+00
-1.169683580451e+00+j0.000000000000e+00
-8.000307939145e-01+j0.000000000000e+00
-5.384830067520e-01+j0.000000000000e+00
-3.574405322460e-01+j0.000000000000e+00
-2.341506386294e-01+j0.000000000000e+00
-1.512020970647e-01+j0.000000000000e+00
-9.593479047470e-02+j0.000000000000e+00
-5.946770446767e-02+j0.000000000000e+00
-3.573847247151e-02+j0.000000000000e+00
-2.071380287123e-02+j0.000000000000e+00
-1.180335188776e-02+j0.000000000000e+00
-7.457523789104e-03+j0.000000000000e+00
-6.917301833983e-03+j0.000000000000e+00
-1.008938288448e-02+j0.000000000000e+00
-1.753161365750e-02+j0.000000000000e+00
-3.054759339535e-02+j0.000000000000e+00
-5.140396114833e-02+j0.000000000000e+00
-8.369868944140e-02+j0.000000000000e+00
-1.329217152685e-01+j0.000000000000e+00
-2.072544813635e-01+j0.000000000000e+00
-3.186382588792e-01+j0.000000000000e+00
-4.840752363669e-01+j0.000000000000e+00
-7.269716625293e-01+j0.000000000000e+00
-1.078061542330e+00+j0.000000000000e+00
-1.575125398730e+00+j0.000000000000e+00
-2.260612643554e+00+j0.000000000000e+00
-3.176838806997e+00+j0.000000000000e+00
-4.359773993481e+00+j0.000000000000e+00
-5.833584490155e+00+j0.000000000000e+00
</dep>
<dep ac.vout_phase frequency>
-9.036059092706e+01+j0.000000000000e+00
-9.044455263781e+01+j0.000000000000e+00
-9.054806191897e+01+j0.000000000000e+00
-9.067566805184e+01+j0.000000000000e+00
-9.083297758801e+01+j0.000000000000e+00
-9.102689877159e+01+j0.000000000000e+00
-9.126594133879e+01+j0.000000000000e+00
-9.156058325117e+01+j0.000000000000e+00
-9.192371744753e+01+j0.000000000000e+00
-9.237119258104e+01+j0.000000000000e+00
-9.292246093941e+01+j0.000000000000e+00
-9.360134238766e+01+j0.000000000000e+00
-9.443690159462e+01+j0.000000000000e+00
-9.546441042634e+01+j0.000000000000e+00
-9.672631674044e+01+j0.000000000000e+00
-9.827304604049e+01+j0.000000000000e+00
-1.001632955534e+02+j0.000000000000e+00
-1.024632078713e+02+j0.000000000000e+00
-1.052434165646e+02+j0.000000000000e+00
-1.085725056667e+02+j0.000000000000e+00
-1.125052124504e+02+j0.000000000000e+00
-1.170644412966e+02+j0.000000000000e+00
-1.222189294340e+02+j0.000000000000e+00
-1.278636578835e+02+j0.000000000000e+00
-1.338152965835e+02+j0.000000000000e+00
-1.398335432069e+02+j0.000000000000e+00
-1.456664714795e+02+j0.000000000000e+00
-1.511013968824e+02+j0.000000000000e+00
-1.559985208466e+02+j0.000000000000e+00
-1.602974125731e+02+j0.000000000000e+00
-1.640027006538e+02+j0.000000000000e+00
-1.671618924912e+02+j0.000000000000e+00
-1.698451184852e+02+j0.000000000000e+00
-1.721307879754e+02+j0.000000000000e+00
-1.740971835564e+02+j0.000000000000e+00
-1.758184942023e+02+j0.000000000000e+00
-1.773636882867e+02+j0.000000000000e+00
-1.787970302642e+02+j0.000000000000e+00
1.798204750430e+02+j0.000000000000e+00
1.784293740746e+02+j0.000000000000e+00
1.769694122861e+02+j0.000000000000e+00
1.753774314524e+02+j0.000000000000e+00
1.735849726403e+02+j0.000000000000e+00
1.715158828566e+02+j0.000000000000e+00
1.690840141334e+02+j0.000000000000e+00
1.661912929677e+02+j0.000000000000e+00
1.627267021716e+02+j0.000000000000e+00
1.585671268834e+02+j0.000000000000e+00
1.535815468147e+02+j0.000000000000e+00
1.476405028240e+02+j0.000000000000e+00
1.406325488897e+02+j0.000000000000e+00
1.324875056677e+02+j0.000000000000e+00
1.232019962986e+02+j0.000000000000e+00
1.128574745112e+02+j0.000000000000e+00
1.016201102425e+02+j0.000000000000e+00
8.972048910296e+01+j0.000000000000e+00
</dep>
