<Qucs Dataset 0.0.22>
<indep frequency 106>
1.000000000000e+01
1.115883992508e+01
1.245197084735e+01
1.389495494373e+01
1.550515779833e+01
1.730195738846e+01
1.930697728883e+01
2.154434690032e+01
2.404099183510e+01
2.682695795280e+01
2.993577294720e+01
3.340484983513e+01
3.727593720315e+01
4.159562163072e+01
4.641588833613e+01
5.179474679231e+01
5.779692884153e+01
6.449466771038e+01
7.196856730012e+01
8.030857221392e+01
8.961505019466e+01
1.000000000000e+02
1.115883992508e+02
1.245197084735e+02
1.389495494373e+02
1.550515779833e+02
1.730195738846e+02
1.930697728883e+02
2.154434690032e+02
2.404099183510e+02
2.682695795280e+02
2.993577294720e+02
3.340484983513e+02
3.727593720315e+02
4.159562163072e+02
4.641588833613e+02
5.179474679231e+02
5.779692884153e+02
6.449466771038e+02
7.196856730011e+02
8.030857221391e+02
8.961505019466e+02
1.000000000000e+03
1.115883992508e+03
1.245197084735e+03
1.389495494373e+03
1.550515779833e+03
1.730195738846e+03
1.930697728883e+03
2.154434690032e+03
2.404099183510e+03
2.682695795280e+03
2.993577294720e+03
3.340484983513e+03
3.727593720315e+03
4.159562163072e+03
4.641588833613e+03
5.179474679231e+03
5.779692884153e+03
6.449466771038e+03
7.196856730011e+03
8.030857221391e+03
8.961505019466e+03
1.000000000000e+04
1.115883992508e+04
1.245197084735e+04
1.389495494373e+04
1.550515779833e+04
1.730195738846e+04
1.930697728883e+04
2.154434690032e+04
2.404099183510e+04
2.682695795280e+04
2.993577294720e+04
3.340484983513e+04
3.727593720315e+04
4.159562163072e+04
4.641588833613e+04
5.179474679231e+04
5.779692884153e+04
6.449466771038e+04
7.196856730011e+04
8.030857221391e+04
8.961505019466e+04
1.000000000000e+05
1.115883992508e+05
1.245197084735e+05
1.389495494373e+05
1.550515779833e+05
1.730195738846e+05
1.930697728883e+05
2.154434690032e+05
2.404099183510e+05
2.682695795280e+05
2.993577294720e+05
3.340484983513e+05
3.727593720315e+05
4.159562163072e+05
4.641588833613e+05
5.179474679231e+05
5.779692884153e+05
6.449466771038e+05
7.196856730011e+05
8.030857221391e+05
8.961505019466e+05
1.000000000000e+06
</indep>
<dep ac.v(vcc) frequency>
0.000000000000e+00+j0.000000000000e+00
0.000000000000e+00+j0.000000000000e+00
0.000000000000e+00+j0.000000000000e+00
0.000000000000e+00+j0.000000000000e+00
0.000000000000e+00+j0.000000000000e+00
0.000000000000e+00+j0.000000000000e+00
0.000000000000e+00+j0.000000000000e+00
0.000000000000e+00+j0.000000000000e+00
0.000000000000e+00+j0.000000000000e+00
0.000000000000e+00+j0.000000000000e+00
0.000000000000e+00+j0.000000000000e+00
0.000000000000e+00+j0.000000000000e+00
0.000000000000e+00+j0.000000000000e+00
0.000000000000e+00+j0.000000000000e+00
0.000000000000e+00+j0.000000000000e+00
0.000000000000e+00+j0.000000000000e+00
0.000000000000e+00+j0.000000000000e+00
0.000000000000e+00+j0.000000000000e+00
0.000000000000e+00+j0.000000000000e+00
0.000000000000e+00+j0.000000000000e+00
0.000000000000e+00+j0.000000000000e+00
0.000000000000e+00+j0.000000000000e+00
0.000000000000e+00+j0.000000000000e+00
0.000000000000e+00+j0.000000000000e+00
0.000000000000e+00+j0.000000000000e+00
0.000000000000e+00+j0.000000000000e+00
0.000000000000e+00+j0.000000000000e+00
0.000000000000e+00+j0.000000000000e+00
0.000000000000e+00+j0.000000000000e+00
0.000000000000e+00+j0.000000000000e+00
0.000000000000e+00+j0.000000000000e+00
0.000000000000e+00+j0.000000000000e+00
0.000000000000e+00+j0.000000000000e+00
0.000000000000e+00+j0.000000000000e+00
0.000000000000e+00+j0.000000000000e+00
0.000000000000e+00+j0.000000000000e+00
0.000000000000e+00+j0.000000000000e+00
0.000000000000e+00+j0.000000000000e+00
0.000000000000e+00+j0.000000000000e+00
0.000000000000e+00+j0.000000000000e+00
0.000000000000e+00+j0.000000000000e+00
0.000000000000e+00+j0.000000000000e+00
0.000000000000e+00+j0.000000000000e+00
0.000000000000e+00+j0.000000000000e+00
0.000000000000e+00+j0.000000000000e+00
0.000000000000e+00+j0.000000000000e+00
0.000000000000e+00+j0.000000000000e+00
0.000000000000e+00+j0.000000000000e+00
0.000000000000e+00+j0.000000000000e+00
0.000000000000e+00+j0.000000000000e+00
0.000000000000e+00+j0.000000000000e+00
0.000000000000e+00+j0.000000000000e+00
0.000000000000e+00+j0.000000000000e+00
0.000000000000e+00+j0.000000000000e+00
0.000000000000e+00+j0.000000000000e+00
0.000000000000e+00+j0.000000000000e+00
0.000000000000e+00+j0.000000000000e+00
0.000000000000e+00+j0.000000000000e+00
0.000000000000e+00+j0.000000000000e+00
0.000000000000e+00+j0.000000000000e+00
0.000000000000e+00+j0.000000000000e+00
0.000000000000e+00+j0.000000000000e+00
0.000000000000e+00+j0.000000000000e+00
0.000000000000e+00+j0.000000000000e+00
0.000000000000e+00+j0.000000000000e+00
0.000000000000e+00+j0.000000000000e+00
0.000000000000e+00+j0.000000000000e+00
0.000000000000e+00+j0.000000000000e+00
0.000000000000e+00+j0.000000000000e+00
0.000000000000e+00+j0.000000000000e+00
0.000000000000e+00+j0.000000000000e+00
0.000000000000e+00+j0.000000000000e+00
0.000000000000e+00+j0.000000000000e+00
0.000000000000e+00+j0.000000000000e+00
0.000000000000e+00+j0.000000000000e+00
0.000000000000e+00+j0.000000000000e+00
0.000000000000e+00+j0.000000000000e+00
0.000000000000e+00+j0.000000000000e+00
0.000000000000e+00+j0.000000000000e+00
0.000000000000e+00+j0.000000000000e+00
0.000000000000e+00+j0.000000000000e+00
0.000000000000e+00+j0.000000000000e+00
0.000000000000e+00+j0.000000000000e+00
0.000000000000e+00+j0.000000000000e+00
0.000000000000e+00+j0.000000000000e+00
0.000000000000e+00+j0.000000000000e+00
0.000000000000e+00+j0.000000000000e+00
0.000000000000e+00+j0.000000000000e+00
0.000000000000e+00+j0.000000000000e+00
0.000000000000e+00+j0.000000000000e+00
0.000000000000e+00+j0.000000000000e+00
0.000000000000e+00+j0.000000000000e+00
0.000000000000e+00+j0.000000000000e+00
0.000000000000e+00+j0.000000000000e+00
0.000000000000e+00+j0.000000000000e+00
0.000000000000e+00+j0.000000000000e+00
0.000000000000e+00+j0.000000000000e+00
0.000000000000e+00+j0.000000000000e+00
0.000000000000e+00+j0.000000000000e+00
0.000000000000e+00+j0.000000000000e+00
0.000000000000e+00+j0.000000000000e+00
0.000000000000e+00+j0.000000000000e+00
0.000000000000e+00+j0.000000000000e+00
0.000000000000e+00+j0.000000000000e+00
0.000000000000e+00+j0.000000000000e+00
0.000000000000e+00+j0.000000000000e+00
</dep>
<dep ac.v(vee) frequency>
0.000000000000e+00+j0.000000000000e+00
0.000000000000e+00+j0.000000000000e+00
0.000000000000e+00+j0.000000000000e+00
0.000000000000e+00+j0.000000000000e+00
0.000000000000e+00+j0.000000000000e+00
0.000000000000e+00+j0.000000000000e+00
0.000000000000e+00+j0.000000000000e+00
0.000000000000e+00+j0.000000000000e+00
0.000000000000e+00+j0.000000000000e+00
0.000000000000e+00+j0.000000000000e+00
0.000000000000e+00+j0.000000000000e+00
0.000000000000e+00+j0.000000000000e+00
0.000000000000e+00+j0.000000000000e+00
0.000000000000e+00+j0.000000000000e+00
0.000000000000e+00+j0.000000000000e+00
0.000000000000e+00+j0.000000000000e+00
0.000000000000e+00+j0.000000000000e+00
0.000000000000e+00+j0.000000000000e+00
0.000000000000e+00+j0.000000000000e+00
0.000000000000e+00+j0.000000000000e+00
0.000000000000e+00+j0.000000000000e+00
0.000000000000e+00+j0.000000000000e+00
0.000000000000e+00+j0.000000000000e+00
0.000000000000e+00+j0.000000000000e+00
0.000000000000e+00+j0.000000000000e+00
0.000000000000e+00+j0.000000000000e+00
0.000000000000e+00+j0.000000000000e+00
0.000000000000e+00+j0.000000000000e+00
0.000000000000e+00+j0.000000000000e+00
0.000000000000e+00+j0.000000000000e+00
0.000000000000e+00+j0.000000000000e+00
0.000000000000e+00+j0.000000000000e+00
0.000000000000e+00+j0.000000000000e+00
0.000000000000e+00+j0.000000000000e+00
0.000000000000e+00+j0.000000000000e+00
0.000000000000e+00+j0.000000000000e+00
0.000000000000e+00+j0.000000000000e+00
0.000000000000e+00+j0.000000000000e+00
0.000000000000e+00+j0.000000000000e+00
0.000000000000e+00+j0.000000000000e+00
0.000000000000e+00+j0.000000000000e+00
0.000000000000e+00+j0.000000000000e+00
0.000000000000e+00+j0.000000000000e+00
0.000000000000e+00+j0.000000000000e+00
0.000000000000e+00+j0.000000000000e+00
0.000000000000e+00+j0.000000000000e+00
0.000000000000e+00+j0.000000000000e+00
0.000000000000e+00+j0.000000000000e+00
0.000000000000e+00+j0.000000000000e+00
0.000000000000e+00+j0.000000000000e+00
0.000000000000e+00+j0.000000000000e+00
0.000000000000e+00+j0.000000000000e+00
0.000000000000e+00+j0.000000000000e+00
0.000000000000e+00+j0.000000000000e+00
0.000000000000e+00+j0.000000000000e+00
0.000000000000e+00+j0.000000000000e+00
0.000000000000e+00+j0.000000000000e+00
0.000000000000e+00+j0.000000000000e+00
0.000000000000e+00+j0.000000000000e+00
0.000000000000e+00+j0.000000000000e+00
0.000000000000e+00+j0.000000000000e+00
0.000000000000e+00+j0.000000000000e+00
0.000000000000e+00+j0.000000000000e+00
0.000000000000e+00+j0.000000000000e+00
0.000000000000e+00+j0.000000000000e+00
0.000000000000e+00+j0.000000000000e+00
0.000000000000e+00+j0.000000000000e+00
0.000000000000e+00+j0.000000000000e+00
0.000000000000e+00+j0.000000000000e+00
0.000000000000e+00+j0.000000000000e+00
0.000000000000e+00+j0.000000000000e+00
0.000000000000e+00+j0.000000000000e+00
0.000000000000e+00+j0.000000000000e+00
0.000000000000e+00+j0.000000000000e+00
0.000000000000e+00+j0.000000000000e+00
0.000000000000e+00+j0.000000000000e+00
0.000000000000e+00+j0.000000000000e+00
0.000000000000e+00+j0.000000000000e+00
0.000000000000e+00+j0.000000000000e+00
0.000000000000e+00+j0.000000000000e+00
0.000000000000e+00+j0.000000000000e+00
0.000000000000e+00+j0.000000000000e+00
0.000000000000e+00+j0.000000000000e+00
0.000000000000e+00+j0.000000000000e+00
0.000000000000e+00+j0.000000000000e+00
0.000000000000e+00+j0.000000000000e+00
0.000000000000e+00+j0.000000000000e+00
0.000000000000e+00+j0.000000000000e+00
0.000000000000e+00+j0.000000000000e+00
0.000000000000e+00+j0.000000000000e+00
0.000000000000e+00+j0.000000000000e+00
0.000000000000e+00+j0.000000000000e+00
0.000000000000e+00+j0.000000000000e+00
0.000000000000e+00+j0.000000000000e+00
0.000000000000e+00+j0.000000000000e+00
0.000000000000e+00+j0.000000000000e+00
0.000000000000e+00+j0.000000000000e+00
0.000000000000e+00+j0.000000000000e+00
0.000000000000e+00+j0.000000000000e+00
0.000000000000e+00+j0.000000000000e+00
0.000000000000e+00+j0.000000000000e+00
0.000000000000e+00+j0.000000000000e+00
0.000000000000e+00+j0.000000000000e+00
0.000000000000e+00+j0.000000000000e+00
0.000000000000e+00+j0.000000000000e+00
0.000000000000e+00+j0.000000000000e+00
</dep>
<dep ac.v(vout) frequency>
1.000027655294e+00-j1.266912644309e-03
1.000027461382e+00-j1.413727545642e-03
1.000027219927e+00-j1.577555960986e-03
1.000026919262e+00-j1.760369440142e-03
1.000026544879e+00-j1.964368083221e-03
1.000026078713e+00-j2.192006931043e-03
1.000025498227e+00-j2.446025476378e-03
1.000024775420e+00-j2.729480710183e-03
1.000023875372e+00-j3.045783915485e-03
1.000022754634e+00-j3.398741594993e-03
1.000021359091e+00-j3.792601445341e-03
1.000019621359e+00-j4.232103408065e-03
1.000017457531e+00-j4.722536667985e-03
1.000014763125e+00-j5.269803394522e-03
1.000011408039e+00-j5.880489672457e-03
1.000007230261e+00-j6.561944905713e-03
1.000002028052e+00-j7.322370116889e-03
9.999955501969e-01-j8.170916768396e-03
9.999874838661e-01-j9.117796846849e-03
9.999774395021e-01-j1.017440578421e-02
9.999649319907e-01-j1.135345966036e-02
9.999493572116e-01-j1.266914821901e-02
9.999299628245e-01-j1.413730569129e-02
9.999058118781e-01-j1.577560143082e-02
9.998757374654e-01-j1.760375263387e-02
9.998382862206e-01-j1.964376172906e-02
9.997916478946e-01-j2.192018134904e-02
9.997335675606e-01-j2.446041001738e-02
9.996612361355e-01-j2.729502215417e-02
9.995711538120e-01-j3.045813642630e-02
9.994589596257e-01-j3.398782686149e-02
9.993192186452e-01-j3.792658169897e-02
9.991451560719e-01-j4.232181555583e-02
9.989283247350e-01-j4.722644104500e-02
9.986581888784e-01-j5.269950669107e-02
9.983216025256e-01-j5.880690869754e-02
9.979021547368e-01-j6.562218479478e-02
9.973793462889e-01-j7.322739903950e-02
9.967275520871e-01-j8.171412684259e-02
9.959147100736e-01-j9.118454947894e-02
9.949006593152e-01-j1.017526663852e-01
9.936350255756e-01-j1.135456309740e-01
9.920545195829e-01-j1.267052100153e-01
9.900794679310e-01-j1.413893555628e-01
9.876093343304e-01-j1.577738575643e-01
9.845169032233e-01-j1.760540075499e-01
9.806406800163e-01-j1.964461362790e-01
9.757749018513e-01-j2.191887691655e-01
9.696563388376e-01-j2.445429352227e-01
9.619467909116e-01-j2.727908046021e-01
9.522098587230e-01-j3.042312104165e-01
9.398802409759e-01-j3.391695596197e-01
9.242236444888e-01-j3.778978854434e-01
9.042857826375e-01-j4.206579523865e-01
8.788307714586e-01-j4.675759281722e-01
8.462743478489e-01-j5.185508983532e-01
8.046291796708e-01-j5.730721675780e-01
7.515036463889e-01-j6.299359099467e-01
6.842379488675e-01-j6.868424377736e-01
6.003202534118e-01-j7.399084837632e-01
4.982653106058e-01-j7.832675510201e-01
3.790466937725e-01-j8.091760654261e-01
2.477646993700e-01-j8.092618800335e-01
1.144784452907e-01-j7.773004241400e-01
-7.305125423959e-03-j7.126963663597e-01
-1.048504878431e-01-j6.223092175513e-01
-1.709114373054e-01-j5.185729895052e-01
-2.056686225443e-01-j4.148024634185e-01
-2.149524351830e-01-j3.209557780842e-01
-2.067782249422e-01-j2.420919077512e-01
-1.885668830372e-01-j1.791832638946e-01
-1.658915015325e-01-j1.307779149855e-01
-1.423718752960e-01-j9.443098918667e-02
-1.200784526669e-01-j6.758095049983e-02
-1.000244703781e-01-j4.796045718665e-02
-8.257114877206e-02-j3.372526783836e-02
-6.771102597242e-02-j2.344533698726e-02
-5.524847970452e-02-j1.604301714955e-02
-4.490749007359e-02-j1.072032391970e-02
-3.639232974711e-02-j6.892745680046e-03
-2.941943654703e-02-j4.135002179457e-03
-2.373235376961e-02-j2.138912885182e-03
-1.910710115827e-02-j6.816446459955e-04
-1.535239138353e-02+j3.977942472919e-04
-1.230727119948e-02+j1.215767009491e-03
-9.837654318163e-03+j1.856528562828e-03
-7.832551749813e-03+j2.381293813040e-03
-6.200418244330e-03+j2.834787123975e-03
-4.865810632791e-03+j3.249961858838e-03
-3.766428398863e-03+j3.651392252489e-03
-2.850538466522e-03+j4.057700061719e-03
-2.074750969653e-03+j4.483274380353e-03
-1.402096505631e-03+j4.939465124619e-03
-8.003499331804e-04+j5.435371102249e-03
-2.405468955722e-04+j5.978295805735e-03
3.043544842375e-04+j6.573902677573e-03
8.607016276172e-04+j7.226061922520e-03
1.455276512217e-03+j7.936339298133e-03
2.116293019558e-03+j8.703032252300e-03
2.874149611367e-03+j9.519614747301e-03
3.761683555044e-03+j1.037242785351e-02
4.813444933212e-03+j1.123749798713e-02
6.063188195118e-03+j1.207658289666e-02
7.538451272993e-03+j1.283311440329e-02
9.251072094844e-03+j1.342982506151e-02
1.118348223548e-02+j1.377146686415e-02
</dep>
<dep ac.vout_db frequency>
2.471778432077e-04+j0.000000000000e+00
2.472026915067e-04+j0.000000000000e+00
2.472336714732e-04+j0.000000000000e+00
2.472721967593e-04+j0.000000000000e+00
2.473202130292e-04+j0.000000000000e+00
2.473801181112e-04+j0.000000000000e+00
2.474545751527e-04+j0.000000000000e+00
2.475473961104e-04+j0.000000000000e+00
2.476628899464e-04+j0.000000000000e+00
2.478067067615e-04+j0.000000000000e+00
2.479857710705e-04+j0.000000000000e+00
2.482087166051e-04+j0.000000000000e+00
2.484862896278e-04+j0.000000000000e+00
2.488318679847e-04+j0.000000000000e+00
2.492620991714e-04+j0.000000000000e+00
2.497976790459e-04+j0.000000000000e+00
2.504643554907e-04+j0.000000000000e+00
2.512941676220e-04+j0.000000000000e+00
2.523269192504e-04+j0.000000000000e+00
2.536120867731e-04+j0.000000000000e+00
2.552111147408e-04+j0.000000000000e+00
2.572002700950e-04+j0.000000000000e+00
2.596741331425e-04+j0.000000000000e+00
2.627498899823e-04+j0.000000000000e+00
2.665725371656e-04+j0.000000000000e+00
2.713212036253e-04+j0.000000000000e+00
2.772167378291e-04+j0.000000000000e+00
2.845307199164e-04+j0.000000000000e+00
2.935960168191e-04+j0.000000000000e+00
3.048188951745e-04+j0.000000000000e+00
3.186924930539e-04+j0.000000000000e+00
3.358111006207e-04+j0.000000000000e+00
3.568840844922e-04+j0.000000000000e+00
3.827472360162e-04+j0.000000000000e+00
4.143676070188e-04+j0.000000000000e+00
4.528351373790e-04+j0.000000000000e+00
4.993298882431e-04+j0.000000000000e+00
5.550466164899e-04+j0.000000000000e+00
6.210471457137e-04+j0.000000000000e+00
6.979932648362e-04+j0.000000000000e+00
7.856850001793e-04+j0.000000000000e+00
8.822854248802e-04+j0.000000000000e+00
9.830448852049e-04+j0.000000000000e+00
1.078231001350e-03+j0.000000000000e+00
1.149804791375e-03+j0.000000000000e+00
1.166125219066e-03+j0.000000000000e+00
1.073563825031e-03+j0.000000000000e+00
7.832906845178e-04+j0.000000000000e+00
1.505352166986e-04+j0.000000000000e+00
-1.057845996257e-03+j0.000000000000e+00
-3.213906472324e-03+j0.000000000000e+00
-6.907047567813e-03+j0.000000000000e+00
-1.306515770575e-02+j0.000000000000e+00
-2.314042828646e-02+j0.000000000000e+00
-3.939153898631e-02+j0.000000000000e+00
-6.530567741502e-02+j0.000000000000e+00
-1.062146141103e-01+j0.000000000000e+00
-1.701594162650e-01+j0.000000000000e+00
-2.690259197392e-01+j0.000000000000e+00
-4.198639433831e-01+j0.000000000000e+00
-6.460541534373e-01+j0.000000000000e+00
-9.775646249128e-01+j0.000000000000e+00
-1.449098163883e+00+j0.000000000000e+00
-2.095028338984e+00+j0.000000000000e+00
-2.941452853311e+00+j0.000000000000e+00
-3.998307075698e+00+j0.000000000000e+00
-5.255962648731e+00+j0.000000000000e+00
-6.688549023976e+00+j0.000000000000e+00
-8.261812274968e+00+j0.000000000000e+00
-9.941088643121e+00+j0.000000000000e+00
-1.169641616942e+01+j0.000000000000e+00
-1.350442662979e+01+j0.000000000000e+00
-1.534811098478e+01+j0.000000000000e+00
-1.721566073629e+01+j0.000000000000e+00
-1.909914848044e+01+j0.000000000000e+00
-2.099338617706e+01+j0.000000000000e+00
-2.289504644520e+01+j0.000000000000e+00
-2.480201803138e+01+j0.000000000000e+00
-2.671292656539e+01+j0.000000000000e+00
-2.862673869417e+01+j0.000000000000e+00
-3.054235343830e+01+j0.000000000000e+00
-3.245804945466e+01+j0.000000000000e+00
-3.437058018554e+01+j0.000000000000e+00
-3.627356456575e+01+j0.000000000000e+00
-3.815458997943e+01+j0.000000000000e+00
-3.999018991847e+01+j0.000000000000e+00
-4.173799288707e+01+j0.000000000000e+00
-4.332722626829e+01+j0.000000000000e+00
-4.465486980046e+01+j0.000000000000e+00
-4.560372902753e+01+j0.000000000000e+00
-4.609232652294e+01+j0.000000000000e+00
-4.612532919623e+01+j0.000000000000e+00
-4.578985561761e+01+j0.000000000000e+00
-4.520225811586e+01+j0.000000000000e+00
-4.446142649049e+01+j0.000000000000e+00
-4.363423568088e+01+j0.000000000000e+00
-4.276078444501e+01+j0.000000000000e+00
-4.186396922468e+01+j0.000000000000e+00
-4.095709402941e+01+j0.000000000000e+00
-4.004874848391e+01+j0.000000000000e+00
-3.914575540018e+01+j0.000000000000e+00
-3.825502298885e+01+j0.000000000000e+00
-3.738484705652e+01+j0.000000000000e+00
-3.654592795972e+01+j0.000000000000e+00
-3.575212194032e+01+j0.000000000000e+00
-3.502070724857e+01+j0.000000000000e+00
</dep>
<dep ac.vout_phase frequency>
-7.258669328578e-02+j0.000000000000e+00
-8.099833452863e-02+j0.000000000000e+00
-9.038475329963e-02+j0.000000000000e+00
-1.008589089540e-01+j0.000000000000e+00
-1.125468558666e-01+j0.000000000000e+00
-1.255892556153e-01+j0.000000000000e+00
-1.401430680384e-01+j0.000000000000e+00
-1.563834449009e-01+j0.000000000000e+00
-1.745058384274e-01+j0.000000000000e+00
-1.947283468254e-01+j0.000000000000e+00
-2.172943492076e-01+j0.000000000000e+00
-2.424754317106e-01+j0.000000000000e+00
-2.705746548333e-01+j0.000000000000e+00
-3.019302077543e-01+j0.000000000000e+00
-3.369194754638e-01+j0.000000000000e+00
-3.759635926033e-01+j0.000000000000e+00
-4.195325087187e-01+j0.000000000000e+00
-4.681506587590e-01+j0.000000000000e+00
-5.224032822575e-01+j0.000000000000e+00
-5.829434826548e-01+j0.000000000000e+00
-6.505001113585e-01+j0.000000000000e+00
-7.258865668478e-01+j0.000000000000e+00
-8.100106266047e-01+j0.000000000000e+00
-9.038854315829e-01+j0.000000000000e+00
-1.008641760302e+00+j0.000000000000e+00
-1.125541750129e+00+j0.000000000000e+00
-1.255994245837e+00+j0.000000000000e+00
-1.401571973369e+00+j0.000000000000e+00
