<Qucs Dataset 24.2.1>
<indep frequency 51>
1.000000000000e+01
1.258925411794e+01
1.584893192461e+01
1.995262314969e+01
2.511886431510e+01
3.162277660168e+01
3.981071705535e+01
5.011872336273e+01
6.309573444802e+01
7.943282347243e+01
1.000000000000e+02
1.258925411794e+02
1.584893192461e+02
1.995262314969e+02
2.511886431510e+02
3.162277660168e+02
3.981071705535e+02
5.011872336273e+02
6.309573444802e+02
7.943282347243e+02
1.000000000000e+03
1.258925411794e+03
1.584893192461e+03
1.995262314969e+03
2.511886431510e+03
3.162277660168e+03
3.981071705535e+03
5.011872336273e+03
6.309573444802e+03
7.943282347243e+03
1.000000000000e+04
1.258925411794e+04
1.584893192461e+04
1.995262314969e+04
2.511886431510e+04
3.162277660168e+04
3.981071705535e+04
5.011872336273e+04
6.309573444802e+04
7.943282347243e+04
1.000000000000e+05
1.258925411794e+05
1.584893192461e+05
1.995262314969e+05
2.511886431510e+05
3.162277660168e+05
3.981071705535e+05
5.011872336273e+05
6.309573444802e+05
7.943282347243e+05
1.000000000000e+06
</indep>
<dep ac.v(vcc) frequency>
0.000000000000e+00+j0.000000000000e+00
0.000000000000e+00+j0.000000000000e+00
0.000000000000e+00+j0.000000000000e+00
0.000000000000e+00+j0.000000000000e+00
0.000000000000e+00+j0.000000000000e+00
0.000000000000e+00+j0.000000000000e+00
0.000000000000e+00+j0.000000000000e+00
0.000000000000e+00+j0.000000000000e+00
0.000000000000e+00+j0.000000000000e+00
0.000000000000e+00+j0.000000000000e+00
0.000000000000e+00+j0.000000000000e+00
0.000000000000e+00+j0.000000000000e+00
0.000000000000e+00+j0.000000000000e+00
0.000000000000e+00+j0.000000000000e+00
0.000000000000e+00+j0.000000000000e+00
0.000000000000e+00+j0.000000000000e+00
0.000000000000e+00+j0.000000000000e+00
0.000000000000e+00+j0.000000000000e+00
0.000000000000e+00+j0.000000000000e+00
0.000000000000e+00+j0.000000000000e+00
0.000000000000e+00+j0.000000000000e+00
0.000000000000e+00+j0.000000000000e+00
0.000000000000e+00+j0.000000000000e+00
0.000000000000e+00+j0.000000000000e+00
0.000000000000e+00+j0.000000000000e+00
0.000000000000e+00+j0.000000000000e+00
0.000000000000e+00+j0.000000000000e+00
0.000000000000e+00+j0.000000000000e+00
0.000000000000e+00+j0.000000000000e+00
0.000000000000e+00+j0.000000000000e+00
0.000000000000e+00+j0.000000000000e+00
0.000000000000e+00+j0.000000000000e+00
0.000000000000e+00+j0.000000000000e+00
0.000000000000e+00+j0.000000000000e+00
0.000000000000e+00+j0.000000000000e+00
0.000000000000e+00+j0.000000000000e+00
0.000000000000e+00+j0.000000000000e+00
0.000000000000e+00+j0.000000000000e+00
0.000000000000e+00+j0.000000000000e+00
0.000000000000e+00+j0.000000000000e+00
0.000000000000e+00+j0.000000000000e+00
0.000000000000e+00+j0.000000000000e+00
0.000000000000e+00+j0.000000000000e+00
0.000000000000e+00+j0.000000000000e+00
0.000000000000e+00+j0.000000000000e+00
0.000000000000e+00+j0.000000000000e+00
0.000000000000e+00+j0.000000000000e+00
0.000000000000e+00+j0.000000000000e+00
0.000000000000e+00+j0.000000000000e+00
0.000000000000e+00+j0.000000000000e+00
0.000000000000e+00+j0.000000000000e+00
</dep>
<dep ac.v(vee) frequency>
0.000000000000e+00+j0.000000000000e+00
0.000000000000e+00+j0.000000000000e+00
0.000000000000e+00+j0.000000000000e+00
0.000000000000e+00+j0.000000000000e+00
0.000000000000e+00+j0.000000000000e+00
0.000000000000e+00+j0.000000000000e+00
0.000000000000e+00+j0.000000000000e+00
0.000000000000e+00+j0.000000000000e+00
0.000000000000e+00+j0.000000000000e+00
0.000000000000e+00+j0.000000000000e+00
0.000000000000e+00+j0.000000000000e+00
0.000000000000e+00+j0.000000000000e+00
0.000000000000e+00+j0.000000000000e+00
0.000000000000e+00+j0.000000000000e+00
0.000000000000e+00+j0.000000000000e+00
0.000000000000e+00+j0.000000000000e+00
0.000000000000e+00+j0.000000000000e+00
0.000000000000e+00+j0.000000000000e+00
0.000000000000e+00+j0.000000000000e+00
0.000000000000e+00+j0.000000000000e+00
0.000000000000e+00+j0.000000000000e+00
0.000000000000e+00+j0.000000000000e+00
0.000000000000e+00+j0.000000000000e+00
0.000000000000e+00+j0.000000000000e+00
0.000000000000e+00+j0.000000000000e+00
0.000000000000e+00+j0.000000000000e+00
0.000000000000e+00+j0.000000000000e+00
0.000000000000e+00+j0.000000000000e+00
0.000000000000e+00+j0.000000000000e+00
0.000000000000e+00+j0.000000000000e+00
0.000000000000e+00+j0.000000000000e+00
0.000000000000e+00+j0.000000000000e+00
0.000000000000e+00+j0.000000000000e+00
0.000000000000e+00+j0.000000000000e+00
0.000000000000e+00+j0.000000000000e+00
0.000000000000e+00+j0.000000000000e+00
0.000000000000e+00+j0.000000000000e+00
0.000000000000e+00+j0.000000000000e+00
0.000000000000e+00+j0.000000000000e+00
0.000000000000e+00+j0.000000000000e+00
0.000000000000e+00+j0.000000000000e+00
0.000000000000e+00+j0.000000000000e+00
0.000000000000e+00+j0.000000000000e+00
0.000000000000e+00+j0.000000000000e+00
0.000000000000e+00+j0.000000000000e+00
0.000000000000e+00+j0.000000000000e+00
0.000000000000e+00+j0.000000000000e+00
0.000000000000e+00+j0.000000000000e+00
0.000000000000e+00+j0.000000000000e+00
0.000000000000e+00+j0.000000000000e+00
0.000000000000e+00+j0.000000000000e+00
</dep>
<dep ac.v(vout) frequency>
-9.999893442374e-01+j6.485474832364e-04
-9.999891020270e-01+j8.164727127064e-04
-9.999887181497e-01+j1.027877857595e-03
-9.999881097457e-01+j1.294020780054e-03
-9.999871454919e-01+j1.629074096887e-03
-9.999856172564e-01+j2.050879692576e-03
-9.999831951757e-01+j2.581898404778e-03
-9.999793564601e-01+j3.250405228213e-03
-9.999732725654e-01+j4.091993230400e-03
-9.999636303914e-01+j5.151465359466e-03
-9.999483489505e-01+j6.485213076742e-03
-9.999241304405e-01+j8.164204868515e-03
-9.998857490547e-01+j1.027773657292e-02
-9.998249245990e-01+j1.293812885691e-02
-9.997285392546e-01+j1.628659332860e-02
-9.995758162480e-01+j2.050052255247e-02
-9.993338606681e-01+j2.580247847614e-02
-9.989506230378e-01+j3.247113189480e-02
-9.983438247162e-01+j4.085428716812e-02
-9.973835993445e-01+j5.138379959012e-02
-9.958654638937e-01+j6.459143784611e-02
-9.934686786601e-01+j8.112314264555e-02
-9.896932065723e-01+j1.017459242023e-01
-9.837670070988e-01+j1.273355444948e-01
-9.745163856993e-01+j1.588222976179e-01
-9.602008078902e-01+j1.970549399795e-01
-9.383409667221e-01+j2.425208726721e-01
-9.056325406112e-01+j2.948487032214e-01
-8.581501450467e-01+j3.520634232303e-01
-7.921630820356e-01+j4.097542901548e-01
-7.058110599411e-01+j4.607142164369e-01
-6.012856093418e-01+j4.959846687491e-01
-4.860717079010e-01+j5.078164672070e-01
-3.714756675320e-01+j4.933108279009e-01
-2.685688139552e-01+j4.559964614578e-01
-1.843020903549e-01+j4.039239821615e-01
-1.203585462922e-01+j3.459769991810e-01
-7.458406536514e-02+j2.890895276674e-01
-4.316438662113e-02+j2.373880226573e-01
-2.221239238921e-02+j1.926404026547e-01
-8.504577899277e-03+j1.550965468862e-01
3.588065040638e-04+j1.242096582692e-01
6.056657800486e-03+j9.910751854354e-02
9.721886134712e-03+j7.885255873581e-02
1.210447248594e-02+j6.256417429610e-02
1.369746178310e-02+j4.946169518666e-02
1.482375153434e-02+j3.886368284248e-02
1.568430572061e-02+j3.016212131369e-02
1.635682865041e-02+j2.278515645473e-02
1.671414450100e-02+j1.619201938678e-02
1.628299870811e-02+j1.005607383324e-02
</dep>
<dep ac.vout_db frequency>
-9.072853008043e-05+j0.000000000000e+00
-9.176391709078e-05+j0.000000000000e+00
-9.340489440413e-05+j0.000000000000e+00
-9.600566690622e-05+j0.000000000000e+00
-1.001276103484e-04+j0.000000000000e+00
-1.066604424349e-04+j0.000000000000e+00
-1.170142634024e-04+j0.000000000000e+00
-1.334239131772e-04+j0.000000000000e+00
-1.594313283480e-04+j0.000000000000e+00
-2.006499844634e-04+j0.000000000000e+00
-2.659763502936e-04+j0.000000000000e+00
-3.695096492542e-04+j0.000000000000e+00
-5.335938124244e-04+j0.000000000000e+00
-7.936369826565e-04+j0.000000000000e+00
-1.205745728608e-03+j0.000000000000e+00
-1.858813950977e-03+j0.000000000000e+00
-2.893656134186e-03+j0.000000000000e+00
-4.533265340673e-03+j0.000000000000e+00
-7.130603020420e-03+j0.000000000000e+00
-1.124392536363e-02+j0.000000000000e+00
-1.775512918212e-02+j0.000000000000e+00
-2.805472935872e-02+j0.000000000000e+00
-4.432860631958e-02+j0.000000000000e+00
-6.999664843851e-02+j0.000000000000e+00
-1.103694127069e-01+j0.000000000000e+00
-1.735966458830e-01+j0.000000000000e+00
-2.719561130991e-01+j0.000000000000e+00
-4.234193342629e-01+j0.000000000000e+00
-6.531457704844e-01+j0.000000000000e+00
-9.940298728544e-01+j0.000000000000e+00
-1.484806382737e+00+j0.000000000000e+00
-2.164214234089e+00+j0.000000000000e+00
-3.061471155081e+00+j0.000000000000e+00
-4.186765402560e+00+j0.000000000000e+00
-5.527458440385e+00+j0.000000000000e+00
-7.052652471134e+00+j0.000000000000e+00
-8.722919397255e+00+j0.000000000000e+00
-1.049949110788e+01+j0.000000000000e+00
-1.234955865779e+01+j0.000000000000e+00
-1.424769246234e+01+j0.000000000000e+00
-1.617491875099e+01+j0.000000000000e+00
-1.811685642095e+01+j0.000000000000e+00
-2.006167867464e+01+j0.000000000000e+00
-2.199816422075e+01+j0.000000000000e+00
-2.391389024214e+01+j0.000000000000e+00
-2.579371080370e+01+j0.000000000000e+00
-2.761921400400e+01+j0.000000000000e+00
-2.937135719086e+01+j0.000000000000e+00
-3.104185772051e+01+j0.000000000000e+00
-3.266366156730e+01+j0.000000000000e+00
-3.436209717003e+01+j0.000000000000e+00
</dep>
<indep v(vcc) 1>
5.000000000000e+00+j0.000000000000e+00
</indep>
<indep v(vee) 1>
-5.000000000000e+00+j0.000000000000e+00
</indep>
<indep v(vout) 1>
8.362140000000e-04+j0.000000000000e+00
</indep>
