<Qucs Dataset 0.0.22>
<indep frequency 78>
1.000000000000e+00
1.232846739442e+00
1.519911082953e+00
1.873817422860e+00
2.310129700083e+00
2.848035868436e+00
3.511191734215e+00
4.328761281083e+00
5.336699231206e+00
6.579332246576e+00
8.111308307897e+00
1.000000000000e+01
1.232846739442e+01
1.519911082953e+01
1.873817422860e+01
2.310129700083e+01
2.848035868436e+01
3.511191734215e+01
4.328761281083e+01
5.336699231206e+01
6.579332246576e+01
8.111308307897e+01
1.000000000000e+02
1.232846739442e+02
1.519911082953e+02
1.873817422860e+02
2.310129700083e+02
2.848035868436e+02
3.511191734215e+02
4.328761281083e+02
5.336699231206e+02
6.579332246576e+02
8.111308307897e+02
1.000000000000e+03
1.232846739442e+03
1.519911082953e+03
1.873817422860e+03
2.310129700083e+03
2.848035868436e+03
3.511191734215e+03
4.328761281083e+03
5.336699231206e+03
6.579332246576e+03
8.111308307897e+03
1.000000000000e+04
1.232846739442e+04
1.519911082953e+04
1.873817422860e+04
2.310129700083e+04
2.848035868436e+04
3.511191734215e+04
4.328761281083e+04
5.336699231206e+04
6.579332246576e+04
8.111308307897e+04
1.000000000000e+05
1.232846739442e+05
1.519911082953e+05
1.873817422860e+05
2.310129700083e+05
2.848035868436e+05
3.511191734215e+05
4.328761281083e+05
5.336699231206e+05
6.579332246576e+05
8.111308307897e+05
1.000000000000e+06
1.232846739442e+06
1.519911082953e+06
1.873817422860e+06
2.310129700083e+06
2.848035868436e+06
3.511191734215e+06
4.328761281083e+06
5.336699231206e+06
6.579332246576e+06
8.111308307897e+06
1.000000000000e+07
</indep>
<dep ac.v(vcc) frequency>
0.000000000000e+00+j0.000000000000e+00
0.000000000000e+00+j0.000000000000e+00
0.000000000000e+00+j0.000000000000e+00
0.000000000000e+00+j0.000000000000e+00
0.000000000000e+00+j0.000000000000e+00
0.000000000000e+00+j0.000000000000e+00
0.000000000000e+00+j0.000000000000e+00
0.000000000000e+00+j0.000000000000e+00
0.000000000000e+00+j0.000000000000e+00
0.000000000000e+00+j0.000000000000e+00
0.000000000000e+00+j0.000000000000e+00
0.000000000000e+00+j0.000000000000e+00
0.000000000000e+00+j0.000000000000e+00
0.000000000000e+00+j0.000000000000e+00
0.000000000000e+00+j0.000000000000e+00
0.000000000000e+00+j0.000000000000e+00
0.000000000000e+00+j0.000000000000e+00
0.000000000000e+00+j0.000000000000e+00
0.000000000000e+00+j0.000000000000e+00
0.000000000000e+00+j0.000000000000e+00
0.000000000000e+00+j0.000000000000e+00
0.000000000000e+00+j0.000000000000e+00
0.000000000000e+00+j0.000000000000e+00
0.000000000000e+00+j0.000000000000e+00
0.000000000000e+00+j0.000000000000e+00
0.000000000000e+00+j0.000000000000e+00
0.000000000000e+00+j0.000000000000e+00
0.000000000000e+00+j0.000000000000e+00
0.000000000000e+00+j0.000000000000e+00
0.000000000000e+00+j0.000000000000e+00
0.000000000000e+00+j0.000000000000e+00
0.000000000000e+00+j0.000000000000e+00
0.000000000000e+00+j0.000000000000e+00
0.000000000000e+00+j0.000000000000e+00
0.000000000000e+00+j0.000000000000e+00
0.000000000000e+00+j0.000000000000e+00
0.000000000000e+00+j0.000000000000e+00
0.000000000000e+00+j0.000000000000e+00
0.000000000000e+00+j0.000000000000e+00
0.000000000000e+00+j0.000000000000e+00
0.000000000000e+00+j0.000000000000e+00
0.000000000000e+00+j0.000000000000e+00
0.000000000000e+00+j0.000000000000e+00
0.000000000000e+00+j0.000000000000e+00
0.000000000000e+00+j0.000000000000e+00
0.000000000000e+00+j0.000000000000e+00
0.000000000000e+00+j0.000000000000e+00
0.000000000000e+00+j0.000000000000e+00
0.000000000000e+00+j0.000000000000e+00
0.000000000000e+00+j0.000000000000e+00
0.000000000000e+00+j0.000000000000e+00
0.000000000000e+00+j0.000000000000e+00
0.000000000000e+00+j0.000000000000e+00
0.000000000000e+00+j0.000000000000e+00
0.000000000000e+00+j0.000000000000e+00
0.000000000000e+00+j0.000000000000e+00
0.000000000000e+00+j0.000000000000e+00
0.000000000000e+00+j0.000000000000e+00
0.000000000000e+00+j0.000000000000e+00
0.000000000000e+00+j0.000000000000e+00
0.000000000000e+00+j0.000000000000e+00
0.000000000000e+00+j0.000000000000e+00
0.000000000000e+00+j0.000000000000e+00
0.000000000000e+00+j0.000000000000e+00
0.000000000000e+00+j0.000000000000e+00
0.000000000000e+00+j0.000000000000e+00
0.000000000000e+00+j0.000000000000e+00
0.000000000000e+00+j0.000000000000e+00
0.000000000000e+00+j0.000000000000e+00
0.000000000000e+00+j0.000000000000e+00
0.000000000000e+00+j0.000000000000e+00
0.000000000000e+00+j0.000000000000e+00
0.000000000000e+00+j0.000000000000e+00
0.000000000000e+00+j0.000000000000e+00
0.000000000000e+00+j0.000000000000e+00
0.000000000000e+00+j0.000000000000e+00
0.000000000000e+00+j0.000000000000e+00
0.000000000000e+00+j0.000000000000e+00
</dep>
<dep ac.v(vee) frequency>
0.000000000000e+00+j0.000000000000e+00
0.000000000000e+00+j0.000000000000e+00
0.000000000000e+00+j0.000000000000e+00
0.000000000000e+00+j0.000000000000e+00
0.000000000000e+00+j0.000000000000e+00
0.000000000000e+00+j0.000000000000e+00
0.000000000000e+00+j0.000000000000e+00
0.000000000000e+00+j0.000000000000e+00
0.000000000000e+00+j0.000000000000e+00
0.000000000000e+00+j0.000000000000e+00
0.000000000000e+00+j0.000000000000e+00
0.000000000000e+00+j0.000000000000e+00
0.000000000000e+00+j0.000000000000e+00
0.000000000000e+00+j0.000000000000e+00
0.000000000000e+00+j0.000000000000e+00
0.000000000000e+00+j0.000000000000e+00
0.000000000000e+00+j0.000000000000e+00
0.000000000000e+00+j0.000000000000e+00
0.000000000000e+00+j0.000000000000e+00
0.000000000000e+00+j0.000000000000e+00
0.000000000000e+00+j0.000000000000e+00
0.000000000000e+00+j0.000000000000e+00
0.000000000000e+00+j0.000000000000e+00
0.000000000000e+00+j0.000000000000e+00
0.000000000000e+00+j0.000000000000e+00
0.000000000000e+00+j0.000000000000e+00
0.000000000000e+00+j0.000000000000e+00
0.000000000000e+00+j0.000000000000e+00
0.000000000000e+00+j0.000000000000e+00
0.000000000000e+00+j0.000000000000e+00
0.000000000000e+00+j0.000000000000e+00
0.000000000000e+00+j0.000000000000e+00
0.000000000000e+00+j0.000000000000e+00
0.000000000000e+00+j0.000000000000e+00
0.000000000000e+00+j0.000000000000e+00
0.000000000000e+00+j0.000000000000e+00
0.000000000000e+00+j0.000000000000e+00
0.000000000000e+00+j0.000000000000e+00
0.000000000000e+00+j0.000000000000e+00
0.000000000000e+00+j0.000000000000e+00
0.000000000000e+00+j0.000000000000e+00
0.000000000000e+00+j0.000000000000e+00
0.000000000000e+00+j0.000000000000e+00
0.000000000000e+00+j0.000000000000e+00
0.000000000000e+00+j0.000000000000e+00
0.000000000000e+00+j0.000000000000e+00
0.000000000000e+00+j0.000000000000e+00
0.000000000000e+00+j0.000000000000e+00
0.000000000000e+00+j0.000000000000e+00
0.000000000000e+00+j0.000000000000e+00
0.000000000000e+00+j0.000000000000e+00
0.000000000000e+00+j0.000000000000e+00
0.000000000000e+00+j0.000000000000e+00
0.000000000000e+00+j0.000000000000e+00
0.000000000000e+00+j0.000000000000e+00
0.000000000000e+00+j0.000000000000e+00
0.000000000000e+00+j0.000000000000e+00
0.000000000000e+00+j0.000000000000e+00
0.000000000000e+00+j0.000000000000e+00
0.000000000000e+00+j0.000000000000e+00
0.000000000000e+00+j0.000000000000e+00
0.000000000000e+00+j0.000000000000e+00
0.000000000000e+00+j0.000000000000e+00
0.000000000000e+00+j0.000000000000e+00
0.000000000000e+00+j0.000000000000e+00
0.000000000000e+00+j0.000000000000e+00
0.000000000000e+00+j0.000000000000e+00
0.000000000000e+00+j0.000000000000e+00
0.000000000000e+00+j0.000000000000e+00
0.000000000000e+00+j0.000000000000e+00
0.000000000000e+00+j0.000000000000e+00
0.000000000000e+00+j0.000000000000e+00
0.000000000000e+00+j0.000000000000e+00
0.000000000000e+00+j0.000000000000e+00
0.000000000000e+00+j0.000000000000e+00
0.000000000000e+00+j0.000000000000e+00
0.000000000000e+00+j0.000000000000e+00
0.000000000000e+00+j0.000000000000e+00
</dep>
<dep ac.v(vin) frequency>
1.000000000000e+00+j0.000000000000e+00
1.000000000000e+00+j0.000000000000e+00
1.000000000000e+00+j0.000000000000e+00
1.000000000000e+00+j0.000000000000e+00
1.000000000000e+00+j0.000000000000e+00
1.000000000000e+00+j0.000000000000e+00
1.000000000000e+00+j0.000000000000e+00
1.000000000000e+00+j0.000000000000e+00
1.000000000000e+00+j0.000000000000e+00
1.000000000000e+00+j0.000000000000e+00
1.000000000000e+00+j0.000000000000e+00
1.000000000000e+00+j0.000000000000e+00
1.000000000000e+00+j0.000000000000e+00
1.000000000000e+00+j0.000000000000e+00
1.000000000000e+00+j0.000000000000e+00
1.000000000000e+00+j0.000000000000e+00
1.000000000000e+00+j0.000000000000e+00
1.000000000000e+00+j0.000000000000e+00
1.000000000000e+00+j0.000000000000e+00
1.000000000000e+00+j0.000000000000e+00
1.000000000000e+00+j0.000000000000e+00
1.000000000000e+00+j0.000000000000e+00
1.000000000000e+00+j0.000000000000e+00
1.000000000000e+00+j0.000000000000e+00
1.000000000000e+00+j0.000000000000e+00
1.000000000000e+00+j0.000000000000e+00
1.000000000000e+00+j0.000000000000e+00
1.000000000000e+00+j0.000000000000e+00
1.000000000000e+00+j0.000000000000e+00
1.000000000000e+00+j0.000000000000e+00
1.000000000000e+00+j0.000000000000e+00
1.000000000000e+00+j0.000000000000e+00
1.000000000000e+00+j0.000000000000e+00
1.000000000000e+00+j0.000000000000e+00
1.000000000000e+00+j0.000000000000e+00
1.000000000000e+00+j0.000000000000e+00
1.000000000000e+00+j0.000000000000e+00
1.000000000000e+00+j0.000000000000e+00
1.000000000000e+00+j0.000000000000e+00
1.000000000000e+00+j0.000000000000e+00
1.000000000000e+00+j0.000000000000e+00
1.000000000000e+00+j0.000000000000e+00
1.000000000000e+00+j0.000000000000e+00
1.000000000000e+00+j0.000000000000e+00
1.000000000000e+00+j0.000000000000e+00
1.000000000000e+00+j0.000000000000e+00
1.000000000000e+00+j0.000000000000e+00
1.000000000000e+00+j0.000000000000e+00
1.000000000000e+00+j0.000000000000e+00
1.000000000000e+00+j0.000000000000e+00
1.000000000000e+00+j0.000000000000e+00
1.000000000000e+00+j0.000000000000e+00
1.000000000000e+00+j0.000000000000e+00
1.000000000000e+00+j0.000000000000e+00
1.000000000000e+00+j0.000000000000e+00
1.000000000000e+00+j0.000000000000e+00
1.000000000000e+00+j0.000000000000e+00
1.000000000000e+00+j0.000000000000e+00
1.000000000000e+00+j0.000000000000e+00
1.000000000000e+00+j0.000000000000e+00
1.000000000000e+00+j0.000000000000e+00
1.000000000000e+00+j0.000000000000e+00
1.000000000000e+00+j0.000000000000e+00
1.000000000000e+00+j0.000000000000e+00
1.000000000000e+00+j0.000000000000e+00
1.000000000000e+00+j0.000000000000e+00
1.000000000000e+00+j0.000000000000e+00
1.000000000000e+00+j0.000000000000e+00
1.000000000000e+00+j0.000000000000e+00
1.000000000000e+00+j0.000000000000e+00
1.000000000000e+00+j0.000000000000e+00
1.000000000000e+00+j0.000000000000e+00
1.000000000000e+00+j0.000000000000e+00
1.000000000000e+00+j0.000000000000e+00
1.000000000000e+00+j0.000000000000e+00
1.000000000000e+00+j0.000000000000e+00
1.000000000000e+00+j0.000000000000e+00
1.000000000000e+00+j0.000000000000e+00
</dep>
<dep ac.v(vout) frequency>
-9.999896363709e-01+j6.490234732393e-05
-9.999896342158e-01+j8.001464711071e-05
-9.999896309403e-01+j9.864579647999e-05
-9.999896259618e-01+j1.216151479541e-04
-9.999896183950e-01+j1.499328375054e-04
-9.999896068941e-01+j1.848442077618e-04
-9.999895894137e-01+j2.278845749234e-04
-9.999895628451e-01+j2.809467478171e-04
-9.999895224632e-01+j3.463642682377e-04
-9.999894610863e-01+j4.270140329622e-04
-9.999893677989e-01+j5.264428099002e-04
-9.999892260103e-01+j6.490232111205e-04
-9.999890105043e-01+j8.001459799450e-04
-9.999886829547e-01+j9.864570444530e-04
-9.999881851087e-01+j1.216149754980e-03
-9.999874284280e-01+j1.499325143544e-03
-9.999862783427e-01+j1.848436022363e-03
-9.999845303204e-01+j2.278834402812e-03
-9.999818734934e-01+j2.809446217105e-03
-9.999778353792e-01+j3.463602843180e-03
-9.999716978662e-01+j4.270065678695e-03
-9.999623695342e-01+j5.264288218093e-03
-9.999481916270e-01+j6.489970003616e-03
-9.999266432266e-01+j8.000968668205e-03
-9.998938933245e-01+j9.863650184210e-03
-9.998441204289e-01+j1.215977323532e-02
-9.997684793929e-01+j1.499002062792e-02
-9.996535333147e-01+j1.847830697217e-02
-9.994788753098e-01+j2.277700331026e-02
-9.992135256847e-01+j2.807321734505e-02
-9.988104833213e-01+j3.459623546997e-02
-9.981985072694e-01+j4.262613746029e-02
-9.972697703380e-01+j5.250337572547e-02
-9.958614257873e-01+j6.463865740580e-02
-9.937283490347e-01+j7.952158201868e-02
-9.905034304012e-01+j9.772483352545e-02
-9.856411013550e-01+j1.198977687748e-01
-9.783401081620e-01+j1.467382403013e-01
-9.674448488748e-01+j1.789237108412e-01
-9.513347964098e-01+j2.169723874503e-01
-9.278352048742e-01+j2.609960621929e-01
-8.942266574785e-01+j3.103115907830e-01
-8.474931487961e-01+j3.629266262047e-01
-7.849874890743e-01+j4.150480847209e-01
-7.055970419096e-01+j4.609800159768e-01
-6.111242721592e-01+j4.939222624150e-01
-5.070462881593e-01+j5.078872831755e-01
-4.016898986316e-01+j5.000467015215e-01
-3.037903362093e-01+j4.720224122384e-01
-2.197960906771e-01+j4.291338395125e-01
-1.525252026882e-01+j3.781898283529e-01
-1.015556190234e-01+j3.253329406772e-01
-6.453564901393e-02+j2.749172687638e-01
-3.846267072411e-02+j2.294069063207e-01
-2.049140108410e-02+j1.898048705414e-01
-8.281778959302e-03+j1.561844949709e-01
-5.845510938620e-05+j1.281190839354e-01
5.461773360923e-03+j1.049667068137e-01
9.180669392019e-03+j8.603545024855e-02
1.172418932337e-02+j7.066808879307e-02
1.352880348366e-02+j5.827798394950e-02
1.490750343647e-02+j4.835689813881e-02
1.609892369793e-02+j4.046578835661e-02
1.730244377612e-02+j3.421205330731e-02
1.869653944269e-02+j2.921079042000e-02
2.042266083639e-02+j2.502728295269e-02
2.249091248730e-02+j2.112443452091e-02
2.457902036119e-02+j1.693612650026e-02
2.593603636505e-02+j1.226126259812e-02
2.589975200515e-02+j7.686775921513e-03
2.465714395805e-02+j4.115213361495e-03
2.298223381624e-02+j1.860319839197e-03
2.146037150653e-02+j6.393068156809e-04
2.029044984781e-02+j4.819556285101e-05
1.945900714909e-02-j2.048570591448e-04
1.889049270314e-02-j2.884668791059e-04
1.850977480131e-02-j2.915944108010e-04
1.825842931896e-02-j2.593279115672e-04
</dep>
<dep ac.vout_db frequency>
-8.999951118032e-05+j0.000000000000e+00
-9.000871862713e-05+j0.000000000000e+00
-9.002271312707e-05+j0.000000000000e+00
-9.004398352812e-05+j0.000000000000e+00
-9.007631264559e-05+j0.000000000000e+00
-9.012545002645e-05+j0.000000000000e+00
-9.020013447794e-05+j0.000000000000e+00
-9.031364819324e-05+j0.000000000000e+00
-9.048617895479e-05+j0.000000000000e+00
-9.074841034917e-05+j0.000000000000e+00
-9.114697872018e-05+j0.000000000000e+00
-9.175276714303e-05+j0.000000000000e+00
-9.267351151879e-05+j0.000000000000e+00
-9.407296071533e-05+j0.000000000000e+00
-9.619999820009e-05+j0.000000000000e+00
-9.943290405393e-05+j0.000000000000e+00
-1.043466288702e-04+j0.000000000000e+00
-1.118150430217e-04+j0.000000000000e+00
-1.231663438438e-04+j0.000000000000e+00
-1.404192548843e-04+j0.000000000000e+00
-1.666420141947e-04+j0.000000000000e+00
-2.064979731445e-04+j0.000000000000e+00
-2.670747856784e-04+j0.000000000000e+00
-3.591445345654e-04+j0.000000000000e+00
-4.990786244395e-04+j0.000000000000e+00
-7.117573549038e-04+j0.000000000000e+00
-1.034990148637e-03+j0.000000000000e+00
-1.526229137895e-03+j0.000000000000e+00
-2.272762212903e-03+j0.000000000000e+00
-3.407180147116e-03+j0.000000000000e+00
-5.130826652342e-03+j0.000000000000e+00
-7.749305292197e-03+j0.000000000000e+00
-1.172613577724e-02+j0.000000000000e+00
-1.776359170884e-02+j0.000000000000e+00
-2.692392719900e-02+j0.000000000000e+00
-4.080988574088e-02+j0.000000000000e+00
-6.183055472423e-02+j0.000000000000e+00
-9.358630647651e-02+j0.000000000000e+00
-1.414113995205e-01+j0.000000000000e+00
-2.131063298269e-01+j0.000000000000e+00
-3.198563616217e-01+j0.000000000000e+00
-4.772369192902e-01+j0.000000000000e+00
-7.060132143119e-01+j0.000000000000e+00
-1.032146771520e+00+j0.000000000000e+00
-1.485155340660e+00+j0.000000000000e+00
-2.094108114492e+00+j0.000000000000e+00
-2.881544613419e+00+j0.000000000000e+00
-3.857341520076e+00+j0.000000000000e+00
-5.015602441694e+00+j0.000000000000e+00
-6.336402326571e+00+j0.000000000000e+00
-7.791299917071e+00+j0.000000000000e+00
-9.349618439147e+00+j0.000000000000e+00
-1.098300052190e+01+j0.000000000000e+00
-1.266747302010e+01+j0.000000000000e+00
-1.438352674456e+01+j0.000000000000e+00
-1.611504765574e+01+j0.000000000000e+00
-1.784772260088e+01+j0.000000000000e+00
-1.956722604088e+01+j0.000000000000e+00
-2.125727935720e+01+j0.000000000000e+00
-2.289761135023e+01+j0.000000000000e+00
-2.446195597853e+01+j0.000000000000e+00
-2.591654314440e+01+j0.000000000000e+00
-2.722011574662e+01+j0.000000000000e+00
-2.832730188494e+01+j0.000000000000e+00
-2.919795436629e+01+j0.000000000000e+00
-2.981528370079e+01+j0.000000000000e+00
-3.021325244852e+01+j0.000000000000e+00
-3.050141489791e+01+j0.000000000000e+00
-3.084591435277e+01+j0.000000000000e+00
-3.136746348140e+01+j0.000000000000e+00
-3.204182713778e+01+j0.000000000000e+00
-3.274379196573e+01+j0.000000000000e+00
-3.336340284232e+01+j0.000000000000e+00
-3.385414198468e+01+j0.000000000000e+00
-3.421710514209e+01+j0.000000000000e+00
-3.447412169007e+01+j0.000000000000e+00
-3.465089962908e+01+j0.000000000000e+00
-3.476985569105e+01+j0.000000000000e+00
</dep>
<dep ac.vout_phase frequency>
1.799962614835e+02+j0.000000000000e+00
1.799953956036e+02+j0.000000000000e+00
1.799943281064e+02+j0.000000000000e+00
1.799930120460e+02+j0.000000000000e+00
1.799913895452e+02+j0.000000000000e+00
1.799893892504e+02+j0.000000000000e+00
1.799869231935e+02+j0.000000000000e+00
1.799838829234e+02+j0.000000000000e+00
1.799801347365e+02+j0.000000000000e+00
1.799755137966e+02+j0.000000000000e+00
1.799698168864e+02+j0.000000000000e+00
1.799627934700e+02+j0.000000000000e+00
1.799541346755e+02+j0.000000000000e+00
1.799434597118e+02+j0.000000000000e+00
1.799302991227e+02+j0.000000000000e+00
1.799140741432e+02+j0.000000000000e+00
1.798940712484e+02+j0.000000000000e+00
1.798694107792e+02+j0.000000000000e+00
1.798390082646e+02+j0.000000000000e+00
1.798015267442e+02+j0.000000000000e+00
1.797553180001e+02+j0.000000000000e+00
1.796983501243e+02+j0.000000000000e+00
1.796281182583e+02+j0.000000000000e+00
1.795415346190e+02+j0.000000000000e+00
1.794347930490e+02+j0.000000000000e+00
1.793032022752e+02+j0.000000000000e+00
1.791409808043e+02+j0.000000000000e+00
1.789410049263e+02+j0.000000000000e+00
1.786944996623e+02+j0.000000000000e+00
1.783906607848e+02+j0.000000000000e+00
1.780161944984e+02+j0.000000000000e+00
1.775547605326e+02+j0.000000000000e+00
1.769863053218e+02+j0.000000000000e+00
1.762862766768e+02+j0.000000000000e+00
1.754247237178e+02+j0.000000000000e+00
1.743653127436e+02+j0.000000000000e+00
1.730643431661e+02+j0.000000000000e+00
1.714699472325e+02+j0.000000000000e+00
1.695218317519e+02+j0.000000000000e+00
1.671522026569e+02+j0.000000000000e+00
1.642889171047e+02+j0.000000000000e+00
1.608623536745e+02+j0.000000000000e+00
1.568176563053e+02+j0.000000000000e+00
1.521331374729e+02+j0.000000000000e+00
1.468426319536e+02+j0.000000000000e+00
1.410541817018e+02+j0.000000000000e+00
1.349525086585e+02+j0.000000000000e+00
1.287750648735e+02+j0.000000000000e+00
1.227650368027e+02+j0.000000000000e+00
1.171208495872e+02+j0.000000000000e+00
1.119643702675e+02+j0.000000000000e+00
1.073362136378e+02+j0.000000000000e+00
1.032107317053e+02+j0.000000000000e+00
9.951775291400e+01+j0.000000000000e+00
9.616179649210e+01+j0.000000000000e+00
9.303529103723e+01+j0.000000000000e+00
9.002613161842e+01+j0.000000000000e+00
8.702138311887e+01+j0.000000000000e+00
8.390912196381e+01+j0.000000000000e+00
8.058013492116e+01+j0.000000000000e+00
7.693068688533e+01+j0.000000000000e+00
7.286646592164e+01+j0.000000000000e+00
6.830533340114e+01+j0.000000000000e+00
6.317239091303e+01+j0.000000000000e+00
5.737847754040e+01+j0.000000000000e+00
5.078500238324e+01+j0.000000000000e+00
4.320549344746e+01+j0.000000000000e+00
3.456870544855e+01+j0.000000000000e+00
2.530244269559e+01+j0.000000000000e+00
1.653033692008e+01+j0.000000000000e+00
9.475183753757e+00+j0.000000000000e+00
4.627773659060e+00+j0.000000000000e+00
1.706342708047e+00+j0.000000000000e+00
1.360934264944e-01+j0.000000000000e+00
