<Qucs Dataset 0.0.21>
<indep frequency 73>
1.000000000000e-01
1.136463666386e-01
1.291549665015e-01
1.467799267622e-01
1.668100537200e-01
1.895735652406e-01
2.154434690032e-01
2.448436746822e-01
2.782559402207e-01
3.162277660168e-01
3.593813663805e-01
4.084238652675e-01
4.641588833613e-01
5.274997063703e-01
5.994842503189e-01
6.812920690580e-01
7.742636826811e-01
8.799225435691e-01
1.000000000000e+00
1.136463666386e+00
1.291549665015e+00
1.467799267622e+00
1.668100537200e+00
1.895735652406e+00
2.154434690032e+00
2.448436746822e+00
2.782559402207e+00
3.162277660168e+00
3.593813663805e+00
4.084238652675e+00
4.641588833613e+00
5.274997063703e+00
5.994842503189e+00
6.812920690580e+00
7.742636826811e+00
8.799225435691e+00
1.000000000000e+01
1.136463666386e+01
1.291549665015e+01
1.467799267622e+01
1.668100537200e+01
1.895735652406e+01
2.154434690032e+01
2.448436746822e+01
2.782559402207e+01
3.162277660168e+01
3.593813663805e+01
4.084238652675e+01
4.641588833613e+01
5.274997063703e+01
5.994842503189e+01
6.812920690580e+01
7.742636826811e+01
8.799225435691e+01
1.000000000000e+02
1.136463666386e+02
1.291549665015e+02
1.467799267622e+02
1.668100537200e+02
1.895735652406e+02
2.154434690032e+02
2.448436746822e+02
2.782559402207e+02
3.162277660168e+02
3.593813663805e+02
4.084238652675e+02
4.641588833613e+02
5.274997063703e+02
5.994842503189e+02
6.812920690580e+02
7.742636826811e+02
8.799225435691e+02
1.000000000000e+03
</indep>
<dep ac.v(a) frequency>
3.158017790008e-12+j1.256636887753e-06
4.078736818788e-12+j1.428122164768e-06
5.267891171978e-12+j1.623008951415e-06
6.803743078482e-12+j1.844490703497e-06
8.787372093825e-12+j2.096196667502e-06
1.134932748408e-11+j2.382251350203e-06
1.465822011011e-11+j2.707342103686e-06
1.893181927277e-11+j3.076795933289e-06
2.445138483960e-11+j3.496666787027e-06
3.158017789829e-11+j3.973834756858e-06
4.078736818489e-11+j4.516118817306e-06
5.267891171478e-11+j5.132404948828e-06
6.803743077648e-11+j5.832791745342e-06
8.787372092436e-11+j6.628755891912e-06
1.134932748177e-10+j7.533340224113e-06
1.465822010625e-10+j8.561367450660e-06
1.893181926632e-10+j9.729683041421e-06
2.445138482884e-10+j1.105743126080e-05
3.158017788034e-10+j1.256636886967e-05
4.078736815495e-10+j1.428122163615e-05
5.267891166484e-10+j1.623008949723e-05
6.803743069318e-10+j1.844490701012e-05
8.787372078539e-10+j2.096196663855e-05
1.134932745858e-09+j2.382251344850e-05
1.465822006758e-09+j2.707342095829e-05
1.893181920182e-09+j3.076795921757e-05
2.445138472124e-09+j3.496666770101e-05
3.158017770085e-09+j3.973834732013e-05
4.078736785555e-09+j4.516118780839e-05
5.267891116541e-09+j5.132404895301e-05
6.803742986008e-09+j5.832791666775e-05
8.787371939570e-09+j6.628755776592e-05
1.134932722677e-08+j7.533340054846e-05
1.465821968089e-08+j8.561367202210e-05
1.893181855678e-08+j9.729682676746e-05
2.445138364525e-08+j1.105743072553e-04
3.158017590600e-08+j1.256636808400e-04
4.078736486155e-08+j1.428122048295e-04
5.267890617112e-08+j1.623008780456e-04
6.803742152909e-08+j1.844490452562e-04
8.787370549878e-08+j2.096196299180e-04
1.134932490862e-07+j2.382250809580e-04
1.465821581399e-07+j2.707341310161e-04
1.893181210640e-07+j3.076794768554e-04
2.445137288538e-07+j3.496665077430e-04
3.158015795745e-07+j3.973832247513e-04
4.078733492158e-07+j4.516115134092e-04
5.267885622824e-07+j5.132399542610e-04
6.803733821939e-07+j5.832783810101e-04
8.787356652987e-07+j6.628744244577e-04
1.134930172723e-06+j7.533323128171e-04
1.465817714512e-06+j8.561342357266e-04
1.893174760290e-06+j9.729646209387e-04
2.445126528717e-06+j1.105737719883e-03
3.157997847310e-06+j1.256628951766e-03
4.078703552425e-06+j1.428110516354e-03
5.267835680470e-06+j1.622991853923e-03
6.803650513353e-06+j1.844465607886e-03
8.787217686497e-06+j2.096159832330e-03
1.134906991845e-05+j2.382197283841e-03
1.465779046759e-05+j2.707262745644e-03
1.893110259198e-05+j3.076679452609e-03
2.445018935718e-05+j3.496495818658e-03
3.157818374184e-05+j3.973583813187e-03
4.078404179268e-05+j4.515750489151e-03
5.267336309008e-05+j5.131864329885e-03
6.802817539685e-05+j5.831998249620e-03
8.785828263289e-05+j6.627591245663e-03
1.134675235144e-04+j7.531630844756e-03
1.465392481409e-04+j8.558858590854e-03
1.892465489923e-04+j9.726000853408e-03
2.443943526261e-04+j1.105202714417e-02
3.156024764212e-04+j1.255843784124e-02
</dep>
<dep ac.v(gnd_earth) frequency>
-3.158277709245e-18-j1.256637061428e-12
-4.079072517392e-18-j1.428122362144e-12
-5.268324743396e-18-j1.623009175726e-12
-6.804303057502e-18-j1.844490958417e-12
-8.788095334542e-18-j2.096196957210e-12
-1.135026158539e-17-j2.382251679445e-12
-1.465942654834e-17-j2.707342477858e-12
-1.893337744766e-17-j3.076796358522e-12
-2.445339729986e-17-j3.496667270289e-12
-3.158277709065e-17-j3.973835306067e-12
-4.079072517092e-17-j4.516119441463e-12
-5.268324742897e-17-j5.132405658159e-12
-6.804303056669e-17-j5.832792551471e-12
-8.788095333152e-17-j6.628756808049e-12
-1.135026158307e-16-j7.533341265269e-12
-1.465942654448e-16-j8.561368633896e-12
-1.893337744121e-16-j9.729684386126e-12
-2.445339728909e-16-j1.105743278901e-11
-3.158277707270e-16-j1.256637060642e-11
-4.079072514098e-16-j1.428122360991e-11
-5.268324737902e-16-j1.623009174033e-11
-6.804303048337e-16-j1.844490955933e-11
-8.788095319253e-16-j2.096196953563e-11
-1.135026155989e-15-j2.382251674092e-11
-1.465942650580e-15-j2.707342470000e-11
-1.893337737670e-15-j3.076796346989e-11
-2.445339718148e-15-j3.496667253361e-11
-3.158277689319e-15-j3.973835281220e-11
-4.079072484154e-15-j4.516119404992e-11
-5.268324687952e-15-j5.132405604626e-11
-6.804302965016e-15-j5.832792472895e-11
-8.788095180266e-15-j6.628756692715e-11
-1.135026132804e-14-j7.533341095982e-11
-1.465942611906e-14-j8.561368385417e-11
-1.893337673157e-14-j9.729684021408e-11
-2.445339610535e-14-j1.105743225368e-10
-3.158277509810e-14-j1.256636982066e-10
-4.079072184714e-14-j1.428122245657e-10
-5.268324188457e-14-j1.623009004746e-10
-6.804302131807e-14-j1.844490707453e-10
-8.788093790390e-14-j2.096196588845e-10
-1.135025900959e-13-j2.382251138759e-10
-1.465942225165e-13-j2.707341684240e-10
-1.893337028034e-13-j3.076795193650e-10
-2.445338534405e-13-j3.496665560492e-10
-3.158275714718e-13-j3.973832796428e-10
-4.079069190320e-13-j4.516115757817e-10
-5.268319193508e-13-j5.132400251307e-10
-6.804293799733e-13-j5.832784615299e-10
-8.788079891658e-13-j6.628745159347e-10
-1.135023582512e-12-j7.533324167321e-10
-1.465938357765e-12-j8.561343537557e-10
-1.893330576829e-12-j9.729647549769e-10
-2.445327773159e-12-j1.105737872069e-09
-3.158257763905e-12-j1.256629124510e-09
-4.079039246621e-12-j1.428110712363e-09
-5.268269244538e-12-j1.622992076226e-09
-6.804210480111e-12-j1.844465859861e-09
-8.787940906758e-12-j2.096160117714e-09
-1.135000398564e-11-j2.382197606736e-09
-1.465899684890e-11-j2.707263110501e-09
-1.893266067192e-11-j3.076679864169e-09
-2.445220165906e-11-j3.496496281850e-09
-3.158078267002e-11-j3.973584332939e-09
-4.078739833804e-11-j4.515751070071e-09
-5.267769806920e-11-j5.131864975755e-09
-6.803377396093e-11-j5.831998962605e-09
-8.786551299484e-11-j6.627592025089e-09
-1.134768611160e-10-j7.531631685260e-09
-1.465513068330e-10-j8.558859479596e-09
-1.892621212501e-10-j9.726001765898e-09
-2.444144613986e-10-j1.105202803805e-08
-3.156284419427e-10-j1.255843864709e-08
</dep>
<dep ac.v(vcc) frequency>
0.000000000000e+00+j0.000000000000e+00
0.000000000000e+00+j0.000000000000e+00
0.000000000000e+00+j0.000000000000e+00
0.000000000000e+00+j0.000000000000e+00
0.000000000000e+00+j0.000000000000e+00
0.000000000000e+00+j0.000000000000e+00
0.000000000000e+00+j0.000000000000e+00
0.000000000000e+00+j0.000000000000e+00
0.000000000000e+00+j0.000000000000e+00
0.000000000000e+00+j0.000000000000e+00
0.000000000000e+00+j0.000000000000e+00
0.000000000000e+00+j0.000000000000e+00
0.000000000000e+00+j0.000000000000e+00
0.000000000000e+00+j0.000000000000e+00
0.000000000000e+00+j0.000000000000e+00
0.000000000000e+00+j0.000000000000e+00
0.000000000000e+00+j0.000000000000e+00
0.000000000000e+00+j0.000000000000e+00
0.000000000000e+00+j0.000000000000e+00
0.000000000000e+00+j0.000000000000e+00
0.000000000000e+00+j0.000000000000e+00
0.000000000000e+00+j0.000000000000e+00
0.000000000000e+00+j0.000000000000e+00
0.000000000000e+00+j0.000000000000e+00
0.000000000000e+00+j0.000000000000e+00
0.000000000000e+00+j0.000000000000e+00
0.000000000000e+00+j0.000000000000e+00
0.000000000000e+00+j0.000000000000e+00
0.000000000000e+00+j0.000000000000e+00
0.000000000000e+00+j0.000000000000e+00
0.000000000000e+00+j0.000000000000e+00
0.000000000000e+00+j0.000000000000e+00
0.000000000000e+00+j0.000000000000e+00
0.000000000000e+00+j0.000000000000e+00
0.000000000000e+00+j0.000000000000e+00
0.000000000000e+00+j0.000000000000e+00
0.000000000000e+00+j0.000000000000e+00
0.000000000000e+00+j0.000000000000e+00
0.000000000000e+00+j0.000000000000e+00
0.000000000000e+00+j0.000000000000e+00
0.000000000000e+00+j0.000000000000e+00
0.000000000000e+00+j0.000000000000e+00
0.000000000000e+00+j0.000000000000e+00
0.000000000000e+00+j0.000000000000e+00
0.000000000000e+00+j0.000000000000e+00
0.000000000000e+00+j0.000000000000e+00
0.000000000000e+00+j0.000000000000e+00
0.000000000000e+00+j0.000000000000e+00
0.000000000000e+00+j0.000000000000e+00
0.000000000000e+00+j0.000000000000e+00
0.000000000000e+00+j0.000000000000e+00
0.000000000000e+00+j0.000000000000e+00
0.000000000000e+00+j0.000000000000e+00
0.000000000000e+00+j0.000000000000e+00
0.000000000000e+00+j0.000000000000e+00
0.000000000000e+00+j0.000000000000e+00
0.000000000000e+00+j0.000000000000e+00
0.000000000000e+00+j0.000000000000e+00
0.000000000000e+00+j0.000000000000e+00
0.000000000000e+00+j0.000000000000e+00
0.000000000000e+00+j0.000000000000e+00
0.000000000000e+00+j0.000000000000e+00
0.000000000000e+00+j0.000000000000e+00
0.000000000000e+00+j0.000000000000e+00
0.000000000000e+00+j0.000000000000e+00
0.000000000000e+00+j0.000000000000e+00
0.000000000000e+00+j0.000000000000e+00
0.000000000000e+00+j0.000000000000e+00
0.000000000000e+00+j0.000000000000e+00
0.000000000000e+00+j0.000000000000e+00
0.000000000000e+00+j0.000000000000e+00
0.000000000000e+00+j0.000000000000e+00
0.000000000000e+00+j0.000000000000e+00
</dep>
<dep ac.v(vee) frequency>
0.000000000000e+00+j0.000000000000e+00
0.000000000000e+00+j0.000000000000e+00
0.000000000000e+00+j0.000000000000e+00
0.000000000000e+00+j0.000000000000e+00
0.000000000000e+00+j0.000000000000e+00
0.000000000000e+00+j0.000000000000e+00
0.000000000000e+00+j0.000000000000e+00
0.000000000000e+00+j0.000000000000e+00
0.000000000000e+00+j0.000000000000e+00
0.000000000000e+00+j0.000000000000e+00
0.000000000000e+00+j0.000000000000e+00
0.000000000000e+00+j0.000000000000e+00
0.000000000000e+00+j0.000000000000e+00
0.000000000000e+00+j0.000000000000e+00
0.000000000000e+00+j0.000000000000e+00
0.000000000000e+00+j0.000000000000e+00
0.000000000000e+00+j0.000000000000e+00
0.000000000000e+00+j0.000000000000e+00
0.000000000000e+00+j0.000000000000e+00
0.000000000000e+00+j0.000000000000e+00
0.000000000000e+00+j0.000000000000e+00
0.000000000000e+00+j0.000000000000e+00
0.000000000000e+00+j0.000000000000e+00
0.000000000000e+00+j0.000000000000e+00
0.000000000000e+00+j0.000000000000e+00
0.000000000000e+00+j0.000000000000e+00
0.000000000000e+00+j0.000000000000e+00
0.000000000000e+00+j0.000000000000e+00
0.000000000000e+00+j0.000000000000e+00
0.000000000000e+00+j0.000000000000e+00
0.000000000000e+00+j0.000000000000e+00
0.000000000000e+00+j0.000000000000e+00
0.000000000000e+00+j0.000000000000e+00
0.000000000000e+00+j0.000000000000e+00
0.000000000000e+00+j0.000000000000e+00
0.000000000000e+00+j0.000000000000e+00
0.000000000000e+00+j0.000000000000e+00
0.000000000000e+00+j0.000000000000e+00
0.000000000000e+00+j0.000000000000e+00
0.000000000000e+00+j0.000000000000e+00
0.000000000000e+00+j0.000000000000e+00
0.000000000000e+00+j0.000000000000e+00
0.000000000000e+00+j0.000000000000e+00
0.000000000000e+00+j0.000000000000e+00
0.000000000000e+00+j0.000000000000e+00
0.000000000000e+00+j0.000000000000e+00
0.000000000000e+00+j0.000000000000e+00
0.000000000000e+00+j0.000000000000e+00
0.000000000000e+00+j0.000000000000e+00
0.000000000000e+00+j0.000000000000e+00
0.000000000000e+00+j0.000000000000e+00
0.000000000000e+00+j0.000000000000e+00
0.000000000000e+00+j0.000000000000e+00
0.000000000000e+00+j0.000000000000e+00
0.000000000000e+00+j0.000000000000e+00
0.000000000000e+00+j0.000000000000e+00
0.000000000000e+00+j0.000000000000e+00
0.000000000000e+00+j0.000000000000e+00
0.000000000000e+00+j0.000000000000e+00
0.000000000000e+00+j0.000000000000e+00
0.000000000000e+00+j0.000000000000e+00
0.000000000000e+00+j0.000000000000e+00
0.000000000000e+00+j0.000000000000e+00
0.000000000000e+00+j0.000000000000e+00
0.000000000000e+00+j0.000000000000e+00
0.000000000000e+00+j0.000000000000e+00
0.000000000000e+00+j0.000000000000e+00
0.000000000000e+00+j0.000000000000e+00
0.000000000000e+00+j0.000000000000e+00
0.000000000000e+00+j0.000000000000e+00
0.000000000000e+00+j0.000000000000e+00
0.000000000000e+00+j0.000000000000e+00
0.000000000000e+00+j0.000000000000e+00
</dep>
<dep ac.i(pr1) frequency>
1.579138065054e-17+j1.256637061432e-11
2.039535238929e-17+j1.428122362150e-11
2.634161054619e-17+j1.623009175734e-11
3.402149827678e-17+j1.844490958430e-11
4.394045470250e-17+j2.096196957228e-11
5.675127955133e-17+j2.382251679472e-11
7.329709609320e-17+j2.707342477898e-11
9.466683990492e-17+j3.076796358580e-11
1.222669253659e-16+j3.496667270375e-11
1.579138064964e-16+j3.973835306193e-11
2.039535238779e-16+j4.516119441647e-11
2.634161054369e-16+j5.132405658430e-11
3.402149827261e-16+j5.832792551868e-11
4.394045469555e-16+j6.628756808632e-11
5.675127953973e-16+j7.533341266124e-11
7.329709607386e-16+j8.561368635151e-11
9.466683987267e-16+j9.729684387968e-11
1.222669253121e-15+j1.105743279172e-10
1.579138064067e-15+j1.256637061039e-10
2.039535237282e-15+j1.428122361573e-10
2.634161051872e-15+j1.623009174888e-10
3.402149823095e-15+j1.844490957187e-10
4.394045462606e-15+j2.096196955405e-10
5.675127942381e-15+j2.382251676796e-10
7.329709588049e-15+j2.707342473969e-10
9.466683955010e-15+j3.076796352813e-10
1.222669247740e-14+j3.496667261911e-10
1.579138055091e-14+j3.973835293769e-10
2.039535222310e-14+j4.516119423412e-10
2.634161026897e-14+j5.132405631663e-10
3.402149781435e-14+j5.832792512580e-10
4.394045393112e-14+j6.628756750965e-10
5.675127826459e-14+j7.533341181481e-10
7.329709394678e-14+j8.561368510911e-10
9.466683632449e-14+j9.729684205609e-10
1.222669193933e-13+j1.105743252405e-09
1.579137965337e-13+j1.256637021751e-09
2.039535072591e-13+j1.428122303906e-09
2.634160777149e-13+j1.623009090244e-09
3.402149364831e-13+j1.844490832948e-09
4.394044698175e-13+j2.096196773046e-09
5.675126667233e-13+j2.382251409130e-09
7.329707460974e-13+j2.707342081089e-09
9.466680406836e-13+j3.076795776145e-09
1.222668655869e-12+j3.496666415476e-09
1.579137067791e-12+j3.973834051374e-09
2.039533575394e-12+j4.516117599825e-09
2.634158279676e-12+j5.132402955005e-09
3.402145198795e-12+j5.832788583784e-09
4.394037748812e-12+j6.628750984284e-09
5.675115075004e-12+j7.533332717154e-09
7.329688123985e-12+j8.561356086988e-09
9.466648150825e-12+j9.729665969798e-09
1.222663275248e-11+j1.105740575757e-08
1.579128092389e-11+j1.256633092975e-08
2.039518603552e-11+j1.428116537262e-08
2.634133305203e-11+j1.623000625989e-08
3.402103539005e-11+j1.844478409158e-08
4.393968256397e-11+j2.096178537489e-08
5.674999155322e-11+j2.382224643131e-08
7.329494759708e-11+j2.707302794239e-08
9.466325602802e-11+j3.076738111433e-08
1.222609471649e-10+j3.496581776198e-08
1.579038343983e-10+j3.973709819692e-08
2.039368897219e-10+j4.515935256043e-08
2.633883586519e-10+j5.132135317363e-08
3.401686997205e-10+j5.832395757633e-08
4.393273453107e-10+j6.628174417443e-08
5.673840218880e-10+j7.532486476547e-08
7.327561677872e-10+j8.560114058628e-08
9.463101330961e-10+j9.727843078775e-08
1.222071695958e-09+j1.105473041759e-07
1.578141420644e-09+j1.256240463271e-07
</dep>
<dep ac.v(vout1) frequency>
9.420917041852e-24-j2.839130157294e-21
1.216758270449e-23-j3.226570404019e-21
1.571509222802e-23-j3.666879910514e-21
2.029685708419e-23-j4.167277965782e-21
2.621447389113e-23-j4.735962469461e-21
3.385748365610e-23-j5.382239097497e-21
4.372878098426e-23-j6.116724138599e-21
5.647803950337e-23-j6.951431689358e-21
7.294445085308e-23-j7.900049828872e-21
9.421172525241e-23-j8.978110854629e-21
1.216794406360e-22-j1.020329655354e-20
1.571553474335e-22-j1.159568623185e-20
2.029743289129e-22-j1.317807419990e-20
2.621519107323e-22-j1.497639708177e-20
3.385827820676e-22-j1.702011788652e-20
4.372966746084e-22-j1.934279920045e-20
5.647910170055e-22-j2.198235239784e-20
7.294562170742e-22-j2.498214036937e-20
9.421293186167e-22-j2.839133036543e-20
1.216807247303e-21-j3.226576028166e-20
1.571567682507e-21-j3.666887750250e-20
2.029758197679e-21-j4.167289291808e-20
2.621534085522e-21-j4.735971523435e-20
3.385842031534e-21-j5.382264280970e-20
4.372983664962e-21-j6.116758604413e-20
5.647926135213e-21-j6.951488080273e-20
7.294577580817e-21-j7.900144258314e-20
9.421309693927e-21-j8.978253001398e-20
1.216808992847e-20-j1.020350703685e-19
1.571569286411e-20-j1.159598977089e-19
2.029759839807e-20-j1.317851910013e-19
2.621535674497e-20-j1.497703171563e-19
3.385843533236e-20-j1.702108609978e-19
4.372985084722e-20-j1.934415545804e-19
5.647927388193e-20-j2.198441137807e-19
7.294578587211e-20-j2.498516791314e-19
9.421310299670e-20-j2.839572354903e-19
1.216808978175e-19-j3.227215394948e-19
1.571569155760e-19-j3.667829435148e-19
2.029759494065e-19-j4.168661188217e-19
2.621534988279e-19-j4.738008778129e-19
3.385842230195e-19-j5.385257218295e-19
4.372982780353e-19-j6.121146177912e-19
5.647923440805e-19-j6.957926985671e-19
7.294571934986e-19-j7.909575463982e-19
9.421299035264e-19-j8.992103231803e-19
1.216807079597e-18-j1.022383368521e-18
1.571565989022e-18-j1.162581285287e-18
2.029754194193e-18-j1.322231724215e-18
2.621526116295e-18-j1.504133166253e-18
3.385827497612e-18-j1.711542426114e-18
4.372958191690e-18-j1.948263154917e-18
5.647882396581e-18-j2.218765971071e-18
7.294503396097e-18-j2.528350783714e-18
9.421184638639e-18-j2.883362095567e-18
1.216788006733e-17-j3.291497186147e-18
1.571534165171e-17-j3.762176045825e-18
2.029701119803e-17-j4.307151100115e-18
2.621437578610e-17-j4.941270982281e-18
3.385679765417e-17-j5.683598678896e-18
4.372711743078e-17-j6.559061125463e-18
5.647471233606e-17-j7.600689657490e-18
7.293817518808e-17-j8.853030154144e-18
9.420040247399e-17-j1.037689827430e-17
1.216597048939e-16-j1.225642547741e-17
1.571215483628e-16-j1.460922584044e-17
2.029169289618e-16-j1.760128159869e-17
2.620549919045e-16-j2.146869984142e-17
3.384197958443e-16-j2.654931113058e-17
4.370237761811e-16-j3.332920099511e-17
5.643339913242e-16-j4.251075854316e-17
7.286917110805e-16-j5.511185467932e-17
9.408512656452e-16-j7.261177065929e-17
</dep>
<dep ac.v(vout2) frequency>
3.233450731274e-28-j1.629012873914e-28
3.940968484422e-28-j2.254210742628e-28
4.746297012255e-28-j3.080969744646e-28
5.639769445138e-28-j4.153064916256e-28
6.604083295219e-28-j5.514461864890e-28
7.616365769908e-28-j7.206598311483e-28
8.648474074014e-28-j9.265370530153e-28
9.673803005034e-28-j1.172109018875e-27
1.066864965602e-27-j1.459969612552e-27
1.161731371440e-27-j1.792441971998e-27
1.251392890854e-27-j2.172069186141e-27
1.336351196245e-27-j2.601957878534e-27
1.417979158938e-27-j3.086145275309e-27
1.498637379793e-27-j3.629959313452e-27
1.581559986448e-27-j4.239983189394e-27
1.670785469304e-27-j4.924371115231e-27
1.771113500066e-27-j5.692529489293e-27
1.888629997984e-27-j6.556124557739e-27
2.030649138116e-27-j7.527860774623e-27
2.206239311314e-27-j8.622782480015e-27
2.426841405108e-27-j9.857753057828e-27
2.706848646289e-27-j1.125185544047e-26
3.064532426655e-27-j1.282562376211e-26
3.523499592133e-27-j1.460365826597e-26
4.113747510088e-27-j1.661019408409e-26
4.874273136396e-27-j1.887445472978e-26
5.854685253905e-27-j2.142740507597e-26
7.119421695156e-27-j2.429708879320e-26
8.751445068031e-27-j2.751813112874e-26
1.085761197760e-26-j3.112336841173e-26
