<Qucs Dataset 0.0.20>
<indep frequency 45>
1.000000000000e-01
1.232846739442e-01
1.519911082953e-01
1.873817422860e-01
2.310129700083e-01
2.848035868436e-01
3.511191734215e-01
4.328761281083e-01
5.336699231206e-01
6.579332246576e-01
8.111308307897e-01
1.000000000000e+00
1.232846739442e+00
1.519911082953e+00
1.873817422860e+00
2.310129700083e+00
2.848035868436e+00
3.511191734215e+00
4.328761281083e+00
5.336699231206e+00
6.579332246576e+00
8.111308307897e+00
1.000000000000e+01
1.232846739442e+01
1.519911082953e+01
1.873817422860e+01
2.310129700083e+01
2.848035868436e+01
3.511191734215e+01
4.328761281083e+01
5.336699231206e+01
6.579332246576e+01
8.111308307897e+01
1.000000000000e+02
1.232846739442e+02
1.519911082953e+02
1.873817422860e+02
2.310129700083e+02
2.848035868436e+02
3.511191734215e+02
4.328761281083e+02
5.336699231206e+02
6.579332246576e+02
8.111308307897e+02
1.000000000000e+03
</indep>
<dep ac.v(vcc) frequency>
0.000000000000e+00+j0.000000000000e+00
0.000000000000e+00+j0.000000000000e+00
0.000000000000e+00+j0.000000000000e+00
0.000000000000e+00+j0.000000000000e+00
0.000000000000e+00+j0.000000000000e+00
0.000000000000e+00+j0.000000000000e+00
0.000000000000e+00+j0.000000000000e+00
0.000000000000e+00+j0.000000000000e+00
0.000000000000e+00+j0.000000000000e+00
0.000000000000e+00+j0.000000000000e+00
0.000000000000e+00+j0.000000000000e+00
0.000000000000e+00+j0.000000000000e+00
0.000000000000e+00+j0.000000000000e+00
0.000000000000e+00+j0.000000000000e+00
0.000000000000e+00+j0.000000000000e+00
0.000000000000e+00+j0.000000000000e+00
0.000000000000e+00+j0.000000000000e+00
0.000000000000e+00+j0.000000000000e+00
0.000000000000e+00+j0.000000000000e+00
0.000000000000e+00+j0.000000000000e+00
0.000000000000e+00+j0.000000000000e+00
0.000000000000e+00+j0.000000000000e+00
0.000000000000e+00+j0.000000000000e+00
0.000000000000e+00+j0.000000000000e+00
0.000000000000e+00+j0.000000000000e+00
0.000000000000e+00+j0.000000000000e+00
0.000000000000e+00+j0.000000000000e+00
0.000000000000e+00+j0.000000000000e+00
0.000000000000e+00+j0.000000000000e+00
0.000000000000e+00+j0.000000000000e+00
0.000000000000e+00+j0.000000000000e+00
0.000000000000e+00+j0.000000000000e+00
0.000000000000e+00+j0.000000000000e+00
0.000000000000e+00+j0.000000000000e+00
0.000000000000e+00+j0.000000000000e+00
0.000000000000e+00+j0.000000000000e+00
0.000000000000e+00+j0.000000000000e+00
0.000000000000e+00+j0.000000000000e+00
0.000000000000e+00+j0.000000000000e+00
0.000000000000e+00+j0.000000000000e+00
0.000000000000e+00+j0.000000000000e+00
0.000000000000e+00+j0.000000000000e+00
0.000000000000e+00+j0.000000000000e+00
0.000000000000e+00+j0.000000000000e+00
0.000000000000e+00+j0.000000000000e+00
</dep>
<dep ac.v(vee) frequency>
0.000000000000e+00+j0.000000000000e+00
0.000000000000e+00+j0.000000000000e+00
0.000000000000e+00+j0.000000000000e+00
0.000000000000e+00+j0.000000000000e+00
0.000000000000e+00+j0.000000000000e+00
0.000000000000e+00+j0.000000000000e+00
0.000000000000e+00+j0.000000000000e+00
0.000000000000e+00+j0.000000000000e+00
0.000000000000e+00+j0.000000000000e+00
0.000000000000e+00+j0.000000000000e+00
0.000000000000e+00+j0.000000000000e+00
0.000000000000e+00+j0.000000000000e+00
0.000000000000e+00+j0.000000000000e+00
0.000000000000e+00+j0.000000000000e+00
0.000000000000e+00+j0.000000000000e+00
0.000000000000e+00+j0.000000000000e+00
0.000000000000e+00+j0.000000000000e+00
0.000000000000e+00+j0.000000000000e+00
0.000000000000e+00+j0.000000000000e+00
0.000000000000e+00+j0.000000000000e+00
0.000000000000e+00+j0.000000000000e+00
0.000000000000e+00+j0.000000000000e+00
0.000000000000e+00+j0.000000000000e+00
0.000000000000e+00+j0.000000000000e+00
0.000000000000e+00+j0.000000000000e+00
0.000000000000e+00+j0.000000000000e+00
0.000000000000e+00+j0.000000000000e+00
0.000000000000e+00+j0.000000000000e+00
0.000000000000e+00+j0.000000000000e+00
0.000000000000e+00+j0.000000000000e+00
0.000000000000e+00+j0.000000000000e+00
0.000000000000e+00+j0.000000000000e+00
0.000000000000e+00+j0.000000000000e+00
0.000000000000e+00+j0.000000000000e+00
0.000000000000e+00+j0.000000000000e+00
0.000000000000e+00+j0.000000000000e+00
0.000000000000e+00+j0.000000000000e+00
0.000000000000e+00+j0.000000000000e+00
0.000000000000e+00+j0.000000000000e+00
0.000000000000e+00+j0.000000000000e+00
0.000000000000e+00+j0.000000000000e+00
0.000000000000e+00+j0.000000000000e+00
0.000000000000e+00+j0.000000000000e+00
0.000000000000e+00+j0.000000000000e+00
0.000000000000e+00+j0.000000000000e+00
</dep>
<dep ac.v(vp) frequency>
-2.152824432571e-21+j2.764543486607e-10
-3.272101714716e-21+j3.408258423509e-10
-4.973303660744e-21+j4.201860284599e-10
-7.558979352849e-21+j5.180249751459e-10
-1.148897649420e-20+j6.386454015581e-10
-1.746222270529e-20+j7.873519009706e-10
-2.654102582269e-20+j9.706842239051e-10
-4.033999930070e-20+j1.196704880469e-09
-6.131321202309e-20+j1.475353709961e-09
-9.319063048453e-20+j1.818885010849e-09
-1.416414720990e-19+j2.242406455045e-09
-2.152824432447e-19+j2.764543486607e-09
-3.272101714428e-19+j3.408258423509e-09
-4.973303660078e-19+j4.201860284599e-09
-7.558979351312e-19+j5.180249751459e-09
-1.148897649064e-18+j6.386454015581e-09
-1.746222269708e-18+j7.873519009706e-09
-2.654102580373e-18+j9.706842239052e-09
-4.033999925690e-18+j1.196704880469e-08
-6.131321192192e-18+j1.475353709961e-08
-9.319063025081e-18+j1.818885010849e-08
-1.416414715590e-17+j2.242406455046e-08
-2.152824419973e-17+j2.764543486607e-08
-3.272101685612e-17+j3.408258423509e-08
-4.973303593511e-17+j4.201860284600e-08
-7.558979197532e-17+j5.180249751460e-08
-1.148897613539e-16+j6.386454015584e-08
-1.746222187640e-16+j7.873519009711e-08
-2.654102390785e-16+j9.706842239061e-08
-4.033999487717e-16+j1.196704880471e-07
-6.131320180417e-16+j1.475353709964e-07
-9.319060687749e-16+j1.818885010855e-07
-1.416414175636e-15+j2.242406455057e-07
-2.152823172610e-15+j2.764543486628e-07
-3.272098804042e-15+j3.408258423548e-07
-4.973296936710e-15+j4.201860284673e-07
-7.558963819465e-15+j5.180249751598e-07
-1.148894061009e-14+j6.386454015842e-07
-1.746213980842e-14+j7.873519010195e-07
-2.654083432046e-14+j9.706842239967e-07
-4.033955690671e-14+j1.196704880641e-06
-6.131219003913e-14+j1.475353710283e-06
-9.318826958143e-14+j1.818885011452e-06
-1.416360181501e-13+j2.242406456175e-06
-2.152698440682e-13+j2.764543488722e-06
</dep>
<dep ac.i(pr1) frequency>
-1.042222930159e-20+j2.764601535159e-09
-1.584086182456e-20+j3.408329988477e-09
-2.407670145068e-20+j4.201948513237e-09
-3.659444537583e-20+j5.180358523848e-09
-5.562030310124e-20+j6.386588115266e-09
-8.453791512078e-20+j7.873684334066e-09
-1.284901141218e-19+j9.707046058649e-09
-1.952935485036e-19+j1.196730008302e-08
-2.968288287999e-19+j1.475384688727e-08
-4.511534266328e-19+j1.818923202920e-08
-6.857130932514e-19+j2.242453540016e-08
-1.042222930159e-18+j2.764601535159e-08
-1.584086182456e-18+j3.408329988477e-08
-2.407670145068e-18+j4.201948513237e-08
-3.659444537583e-18+j5.180358523848e-08
-5.562030310124e-18+j6.386588115266e-08
-8.453791512078e-18+j7.873684334066e-08
-1.284901141218e-17+j9.707046058649e-08
-1.952935485036e-17+j1.196730008302e-07
-2.968288287999e-17+j1.475384688727e-07
-4.511534266328e-17+j1.818923202920e-07
-6.857130932515e-17+j2.242453540016e-07
-1.042222930159e-16+j2.764601535159e-07
-1.584086182456e-16+j3.408329988477e-07
-2.407670145068e-16+j4.201948513237e-07
-3.659444537583e-16+j5.180358523848e-07
-5.562030310125e-16+j6.386588115266e-07
-8.453791512079e-16+j7.873684334066e-07
-1.284901141218e-15+j9.707046058649e-07
-1.952935485037e-15+j1.196730008302e-06
-2.968288288001e-15+j1.475384688727e-06
-4.511534266333e-15+j1.818923202920e-06
-6.857130932526e-15+j2.242453540016e-06
-1.042222930161e-14+j2.764601535159e-06
-1.584086182462e-14+j3.408329988477e-06
-2.407670145082e-14+j4.201948513237e-06
-3.659444537616e-14+j5.180358523848e-06
-5.562030310200e-14+j6.386588115266e-06
1.996791791815e-13+j7.873684334066e-06
1.557269801782e-13+j9.707046058649e-06
8.892354579109e-14+j1.196730008302e-05
-1.261173451738e-14+j1.475384688727e-05
4.014978562295e-13+j1.818923202920e-05
4.511552838496e-13+j2.242453540016e-05
6.630796353996e-13+j2.764601535159e-05
</dep>
<dep ac.v(vout1) frequency>
-1.215604083241e-19-j7.553542533493e-15
-1.847595023028e-19-j9.312360262830e-15
-2.808145421269e-19-j1.148071294366e-14
-4.268051634280e-19-j1.415395944389e-14
-6.486876712905e-19-j1.744966263281e-14
-9.859061710025e-19-j2.151275941825e-14
-1.498396233166e-18-j2.652193488019e-14
-2.277220649457e-18-j3.269748013261e-14
-3.460716211040e-18-j4.031098023093e-14
-5.259004226092e-18-j4.969725808670e-14
-7.991201512846e-18-j6.126909834365e-14
-1.214193939327e-17-j7.553540138388e-14
-1.844728638487e-17-j9.312356319674e-14
-2.802549905731e-17-j1.148070670338e-13
-4.257603103655e-17-j1.415394999459e-13
-6.468228111373e-17-j1.744964895190e-13
-9.827172421956e-17-j2.151274040482e-13
-1.493149067015e-16-j2.652190952947e-13
-2.268874201033e-16-j3.269744736419e-13
-3.447838013022e-16-j4.031093928867e-13
-5.239705356492e-16-j4.969720810897e-13
-7.963145997791e-16-j6.126903929025e-13
-1.210250660584e-15-j7.553533365573e-13
-1.839394804477e-15-j9.312348793108e-13
-2.795636698444e-15-j1.148069862313e-12
-4.249038503731e-15-j1.415394154083e-12
-6.458079444084e-15-j1.744964015054e-12
-9.815624868746e-15-j2.151273104500e-12
-1.491879509550e-14-j2.652189863146e-12
-2.267515986723e-14-j3.269743315895e-12
-3.446414442198e-14-j4.031091806358e-12
-5.238235234866e-14-j4.969717297831e-12
-7.961643456168e-14-j6.126897744790e-12
-1.210098166804e-13-j7.553522098685e-12
-1.839240743311e-13-j9.312327988276e-12
-2.795481463542e-13-j1.148065984329e-11
-4.248882219087e-13-j1.415386910071e-11
-6.457921891061e-13-j1.744950456799e-11
-9.815465235414e-13-j2.151247710027e-11
-1.491863136469e-12-j2.652142290222e-11
-2.267498735819e-12-j3.269654181061e-11
-3.446395244330e-12-j4.030924793000e-11
-5.238211647153e-12-j4.969404365615e-11
-7.961609874170e-12-j6.126311375720e-11
-1.210092521349e-11-j7.552423409341e-11
</dep>
<dep ac.v(vout2) frequency>
-4.445572852601e-15+j2.652826442425e-16
-6.744557759825e-15+j4.961942989668e-16
-1.022280164270e-14+j9.272345819355e-16
-1.547276083757e-14+j1.730275631699e-15
-2.336864463322e-14+j3.221947947394e-15
-3.518038852633e-14+j5.980505942022e-15
-5.270878433188e-14+j1.104829003482e-14
-7.841298231935e-14+j2.026791051146e-14
-1.154555242431e-13+j3.680413537615e-14
-1.675166806691e-13+j6.586881997405e-14
-2.381573755652e-13+j1.155436358962e-13
-3.295442965694e-13+j1.973508662827e-13
-4.406757855180e-13+j3.259617502080e-13
-5.659110839942e-13+j5.175395542088e-13
-6.950903912609e-13+j7.871099267438e-13
-8.158739088692e-13+j1.146606005436e-12
-9.171466820499e-13+j1.605334895918e-12
-9.912685369800e-13+j2.172915977009e-12
-1.033934532792e-12+j2.863006511936e-12
-1.042174340984e-12+j3.696167170800e-12
-1.011683875676e-12+j4.701453232160e-12
-9.341661024165e-13+j5.917213859417e-12
-7.946158786606e-13+j7.391661290292e-12
-5.680526466690e-13+j9.183423031729e-12
-2.150506340377e-13+j1.136186843962e-11
3.246206780519e-13+j1.400656069644e-11
1.140885660063e-12+j1.720460596291e-11
2.365130970265e-12+j2.104379964900e-11
4.184264351799e-12+j2.559823507849e-11
6.854148284255e-12+j3.090169426058e-11
1.070478234544e-11+j3.690382193425e-11
1.612210976006e-11+j4.340773847409e-11
2.348395070482e-11+j5.000045276886e-11
3.303121579798e-11+j5.601267255238e-11
4.468912909229e-11+j6.057149615266e-11
5.792158853864e-11+j6.279844401058e-11
7.175173986914e-11+j6.211341482699e-11
8.501432944543e-11+j5.847660236430e-11
9.672318654849e-11+j5.239083637047e-11
1.063290386882e-10+j4.466133098957e-11
1.137460827096e-10+j3.608768789864e-11
1.192090006855e-10+j2.725854037686e-11
1.230936027442e-10+j1.849159737630e-11
1.257862100796e-10+j9.867770106244e-12
1.276179452419e-10+j1.295261972535e-12
</dep>
<dep ac.i(id_mag) frequency>
2.764601535159e-09+j0.000000000000e+00
3.408329988477e-09+j0.000000000000e+00
4.201948513237e-09+j0.000000000000e+00
5.180358523848e-09+j0.000000000000e+00
6.386588115266e-09+j0.000000000000e+00
7.873684334066e-09+j0.000000000000e+00
9.707046058649e-09+j0.000000000000e+00
1.196730008302e-08+j0.000000000000e+00
1.475384688727e-08+j0.000000000000e+00
1.818923202920e-08+j0.000000000000e+00
2.242453540016e-08+j0.000000000000e+00
2.764601535159e-08+j0.000000000000e+00
3.408329988477e-08+j0.000000000000e+00
4.201948513237e-08+j0.000000000000e+00
5.180358523848e-08+j0.000000000000e+00
6.386588115266e-08+j0.000000000000e+00
7.873684334066e-08+j0.000000000000e+00
9.707046058649e-08+j0.000000000000e+00
1.196730008302e-07+j0.000000000000e+00
1.475384688727e-07+j0.000000000000e+00
1.818923202920e-07+j0.000000000000e+00
2.242453540016e-07+j0.000000000000e+00
2.764601535159e-07+j0.000000000000e+00
3.408329988477e-07+j0.000000000000e+00
4.201948513237e-07+j0.000000000000e+00
5.180358523848e-07+j0.000000000000e+00
6.386588115266e-07+j0.000000000000e+00
7.873684334066e-07+j0.000000000000e+00
9.707046058649e-07+j0.000000000000e+00
1.196730008302e-06+j0.000000000000e+00
1.475384688727e-06+j0.000000000000e+00
1.818923202920e-06+j0.000000000000e+00
2.242453540016e-06+j0.000000000000e+00
2.764601535159e-06+j0.000000000000e+00
3.408329988477e-06+j0.000000000000e+00
4.201948513237e-06+j0.000000000000e+00
5.180358523848e-06+j0.000000000000e+00
6.386588115266e-06+j0.000000000000e+00
7.873684334066e-06+j0.000000000000e+00
9.707046058649e-06+j0.000000000000e+00
1.196730008302e-05+j0.000000000000e+00
1.475384688727e-05+j0.000000000000e+00
1.818923202920e-05+j0.000000000000e+00
2.242453540016e-05+j0.000000000000e+00
2.764601535159e-05+j0.000000000000e+00
</dep>
<dep ac.vout1_mag frequency>
7.553542534471e-15+j0.000000000000e+00
9.312360264663e-15+j0.000000000000e+00
1.148071294710e-14+j0.000000000000e+00
1.415395945032e-14+j0.000000000000e+00
1.744966264486e-14+j0.000000000000e+00
2.151275944084e-14+j0.000000000000e+00
2.652193492252e-14+j0.000000000000e+00
3.269748021191e-14+j0.000000000000e+00
4.031098037948e-14+j0.000000000000e+00
4.969725836495e-14+j0.000000000000e+00
6.126909886479e-14+j0.000000000000e+00
7.553540235976e-14+j0.000000000000e+00
9.312356502390e-14+j0.000000000000e+00
1.148070704544e-13+j0.000000000000e+00
1.415395063495e-13+j0.000000000000e+00
1.744965015072e-13+j0.000000000000e+00
2.151274264938e-13+j0.000000000000e+00
2.652191373259e-13+j0.000000000000e+00
3.269745523604e-13+j0.000000000000e+00
4.031095403354e-13+j0.000000000000e+00
4.969723573075e-13+j0.000000000000e+00
6.126909103879e-13+j0.000000000000e+00
7.553543061073e-13+j0.000000000000e+00
9.312366959147e-13+j0.000000000000e+00
1.148073266101e-12+j0.000000000000e+00
1.415400531913e-12+j0.000000000000e+00
1.744975965629e-12+j0.000000000000e+00
2.151295497284e-12+j0.000000000000e+00
2.652231822564e-12+j0.000000000000e+00
3.269821939298e-12+j0.000000000000e+00
4.031239130657e-12+j0.000000000000e+00
4.969993353235e-12+j0.000000000000e+00
6.127415013835e-12+j0.000000000000e+00
7.554491344297e-12+j0.000000000000e+00
9.314144116684e-12+j0.000000000000e+00
1.148406276557e-11+j0.000000000000e+00
1.416024507278e-11+j0.000000000000e+00
1.746145060469e-11+j0.000000000000e+00
2.153485789522e-11+j0.000000000000e+00
2.656334934409e-11+j0.000000000000e+00
3.277507279763e-11+j0.000000000000e+00
4.045631111288e-11+j0.000000000000e+00
4.996935897287e-11+j0.000000000000e+00
6.177828371699e-11+j0.000000000000e+00
7.648753052896e-11+j0.000000000000e+00
</dep>
<dep ac.vout2_mag frequency>
4.453480983357e-15+j0.000000000000e+00
6.762785532452e-15+j0.000000000000e+00
1.026476679695e-14+j0.000000000000e+00
1.556920620000e-14+j0.000000000000e+00
2.358971175257e-14+j0.000000000000e+00
3.568509756448e-14+j0.000000000000e+00
5.385425385648e-14+j0.000000000000e+00
8.099002403207e-14+j0.000000000000e+00
1.211797114167e-13+j0.000000000000e+00
1.800014992914e-13+j0.000000000000e+00
2.647060016929e-13+j0.000000000000e+00
3.841182211559e-13+j0.000000000000e+00
5.481297387851e-13+j0.000000000000e+00
7.668784422307e-13+j0.000000000000e+00
1.050091752563e-12+j0.000000000000e+00
1.407251067463e-12+j0.000000000000e+00
1.848853202515e-12+j0.000000000000e+00
2.388341926012e-12+j0.000000000000e+00
3.043982080349e-12+j0.000000000000e+00
3.840283727995e-12+j0.000000000000e+00
4.809071298961e-12+j0.000000000000e+00
5.990499659042e-12+j0.000000000000e+00
7.434249862967e-12+j0.000000000000e+00
9.200975078168e-12+j0.000000000000e+00
1.136390343212e-11+j0.000000000000e+00
1.401032194947e-11+j0.000000000000e+00
1.724239213184e-11+j0.000000000000e+00
2.117629212525e-11+j0.000000000000e+00
2.593795881135e-11+j0.000000000000e+00
3.165271010320e-11+j0.000000000000e+00
3.842504962154e-11+j0.000000000000e+00
4.630501249919e-11+j0.000000000000e+00
5.524075685395e-11+j0.000000000000e+00
6.502676913051e-11+j0.000000000000e+00
7.527299917766e-11+j0.000000000000e+00
8.543158074734e-11+j0.000000000000e+00
9.490199405555e-11+j0.000000000000e+00
1.031840551400e-10+j0.000000000000e+00
1.100007934139e-10+j0.000000000000e+00
1.153277891669e-10+j0.000000000000e+00
1.193335348913e-10+j0.000000000000e+00
1.222857876776e-10+j0.000000000000e+00
1.244747934727e-10+j0.000000000000e+00
1.261726734799e-10+j0.000000000000e+00
1.276245182218e-10+j0.000000000000e+00
</dep>
<indep time 409>
0.000000000000e+00
9.975060000000e-07
1.995012000000e-06
3.990024000000e-06
7.980048000000e-06
1.596009600000e-05
3.091344535233e-05
6.082014405700e-05
1.206335414663e-04
2.203841414663e-04
3.201347414663e-04
4.198853414663e-04
5.196359414663e-04
6.193865414663e-04
7.191371414663e-04
8.188877414663e-04
9.186383414663e-04
1.018388941466e-03
1.118139541466e-03
1.217890141466e-03
1.317640741466e-03
1.417391341466e-03
1.517141941466e-03
1.616892541466e-03
1.716643141466e-03
1.816393741466e-03
1.916144341466e-03
2.015894941466e-03
2.115645541466e-03
2.215396141466e-03
2.315146741466e-03
2.414897341466e-03
2.514647941466e-03
2.614398541466e-03
2.714149141466e-03
2.813899741466e-03
2.913650341466e-03
3.013400941466e-03
3.113151541466e-03
3.212902141466e-03
3.312652741466e-03
3.412403341466e-03
3.512153941466e-03
3.611904541466e-03
3.711655141466e-03
3.811405741466e-03
3.911156341466e-03
4.010906941466e-03
4.110657541466e-03
4.210408141466e-03
4.310158741466e-03
4.409909341466e-03
4.509659941466e-03
4.609410541466e-03
4.709161141466e-03
4.808911741466e-03
4.908662341466e-03
5.008412941466e-03
5.108163541466e-03
5.207914141466e-03
5.307664741466e-03
5.407415341466e-03
5.507165941466e-03
5.606916541466e-03
5.706667141466e-03
5.806417741466e-03
5.906168341466e-03
6.005918941466e-03
6.105669541466e-03
6.205420141466e-03
6.305170741466e-03
6.404921341466e-03
6.504671941466e-03
6.604422541466e-03
6.704173141466e-03
6.803923741466e-03
6.903674341466e-03
7.003424941466e-03
7.103175541466e-03
7.202926141466e-03
7.302676741466e-03
7.402427341466e-03
7.502177941466e-03
7.601928541466e-03
7.701679141466e-03
7.801429741466e-03
7.901180341466e-03
8.000930941466e-03
8.100681541466e-03
8.200432141466e-03
8.300182741466e-03
8.399933341466e-03
8.499683941466e-03
8.599434541466e-03
8.699185141466e-03
8.798935741466e-03
8.898686341466e-03
8.998436941466e-03
9.098187541466e-03
9.197938141466e-03
9.297688741466e-03
9.397439341466e-03
9.497189941466e-03
9.596940541466e-03
9.696691141466e-03
9.796441741466e-03
9.896192341466e-03
9.995942941466e-03
1.009569354147e-02
1.019544414147e-02
1.029519474147e-02
1.039494534147e-02
1.049469594147e-02
1.059444654147e-02
1.069419714147e-02
1.079394774147e-02
1.089369834147e-02
1.099344894147e-02
1.109319954147e-02
1.119295014147e-02
1.129270074147e-02
1.139245134147e-02
1.149220194147e-02
1.159195254147e-02
1.169170314147e-02
1.179145374147e-02
1.189120434147e-02
1.199095494147e-02
1.209070554147e-02
1.219045614147e-02
1.229020674147e-02
1.238995734147e-02
1.248970794147e-02
1.258945854147e-02
1.268920914147e-02
1.278895974147e-02
1.288871034147e-02
1.298846094147e-02
1.308821154147e-02
1.318796214147e-02
1.328771274147e-02
1.338746334147e-02
1.348721394147e-02
1.358696454147e-02
1.368671514147e-02
1.378646574147e-02
1.388621634147e-02
1.398596694147e-02
