<Qucs Dataset 0.0.22>
<indep v-sweep 202>
0.000000000000e+00
4.975120000000e-03
9.950240000000e-03
1.492536000000e-02
1.990048000000e-02
2.487560000000e-02
2.985072000000e-02
3.482584000000e-02
3.980096000000e-02
4.477608000000e-02
4.975120000000e-02
5.472632000000e-02
5.970144000000e-02
6.467656000000e-02
6.965168000000e-02
7.462680000000e-02
7.960192000000e-02
8.457704000000e-02
8.955216000000e-02
9.452728000000e-02
9.950240000000e-02
1.044775200000e-01
1.094526400000e-01
1.144277600000e-01
1.194028800000e-01
1.243780000000e-01
1.293531200000e-01
1.343282400000e-01
1.393033600000e-01
1.442784800000e-01
1.492536000000e-01
1.542287200000e-01
1.592038400000e-01
1.641789600000e-01
1.691540800000e-01
1.741292000000e-01
1.791043200000e-01
1.840794400000e-01
1.890545600000e-01
1.940296800000e-01
1.990048000000e-01
2.039799200000e-01
2.089550400000e-01
2.139301600000e-01
2.189052800000e-01
2.238804000000e-01
2.288555200000e-01
2.338306400000e-01
2.388057600000e-01
2.437808800000e-01
2.487560000000e-01
2.537311200000e-01
2.587062400000e-01
2.636813600000e-01
2.686564800000e-01
2.736316000000e-01
2.786067200000e-01
2.835818400000e-01
2.885569600000e-01
2.935320800000e-01
2.985072000000e-01
3.034823200000e-01
3.084574400000e-01
3.134325600000e-01
3.184076800000e-01
3.233828000000e-01
3.283579200000e-01
3.333330400000e-01
3.383081600000e-01
3.432832800000e-01
3.482584000000e-01
3.532335200000e-01
3.582086400000e-01
3.631837600000e-01
3.681588800000e-01
3.731340000000e-01
3.781091200000e-01
3.830842400000e-01
3.880593600000e-01
3.930344800000e-01
3.980096000000e-01
4.029847200000e-01
4.079598400000e-01
4.129349600000e-01
4.179100800000e-01
4.228852000000e-01
4.278603200000e-01
4.328354400000e-01
4.378105600000e-01
4.427856800000e-01
4.477608000000e-01
4.527359200000e-01
4.577110400000e-01
4.626861600000e-01
4.676612800000e-01
4.726364000000e-01
4.776115200000e-01
4.825866400000e-01
4.875617600000e-01
4.925368800000e-01
4.975120000000e-01
5.024871200000e-01
5.074622400000e-01
5.124373600000e-01
5.174124800000e-01
5.223876000000e-01
5.273627200000e-01
5.323378400000e-01
5.373129600000e-01
5.422880800000e-01
5.472632000000e-01
5.522383200000e-01
5.572134400000e-01
5.621885600000e-01
5.671636800000e-01
5.721388000000e-01
5.771139200000e-01
5.820890400000e-01
5.870641600000e-01
5.920392800000e-01
5.970144000000e-01
6.019895200000e-01
6.069646400000e-01
6.119397600000e-01
6.169148800000e-01
6.218900000000e-01
6.268651200000e-01
6.318402400000e-01
6.368153600000e-01
6.417904800000e-01
6.467656000000e-01
6.517407200000e-01
6.567158400000e-01
6.616909600000e-01
6.666660800000e-01
6.716412000000e-01
6.766163200000e-01
6.815914400000e-01
6.865665600000e-01
6.915416800000e-01
6.965168000000e-01
7.014919200000e-01
7.064670400000e-01
7.114421600000e-01
7.164172800000e-01
7.213924000000e-01
7.263675200000e-01
7.313426400000e-01
7.363177600000e-01
7.412928800000e-01
7.462680000000e-01
7.512431200000e-01
7.562182400000e-01
7.611933600000e-01
7.661684800000e-01
7.711436000000e-01
7.761187200000e-01
7.810938400000e-01
7.860689600000e-01
7.910440800000e-01
7.960192000000e-01
8.009943200000e-01
8.059694400000e-01
8.109445600000e-01
8.159196800000e-01
8.208948000000e-01
8.258699200000e-01
8.308450400000e-01
8.358201600000e-01
8.407952800000e-01
8.457704000000e-01
8.507455200000e-01
8.557206400000e-01
8.606957600000e-01
8.656708800000e-01
8.706460000000e-01
8.756211200000e-01
8.805962400000e-01
8.855713600000e-01
8.905464800000e-01
8.955216000000e-01
9.004967200000e-01
9.054718400000e-01
9.104469600000e-01
9.154220800000e-01
9.203972000000e-01
9.253723200000e-01
9.303474400000e-01
9.353225600000e-01
9.402976800000e-01
9.452728000000e-01
9.502479200000e-01
9.552230400000e-01
9.601981600000e-01
9.651732800000e-01
9.701484000000e-01
9.751235200000e-01
9.800986400000e-01
9.850737600000e-01
9.900488800000e-01
9.950240000000e-01
9.999991200000e-01
</indep>
<dep i(pr1) v-sweep>
-1.648676870686e-36
2.746822214128e-11
5.833381000464e-11
9.301720504951e-11
1.319905296171e-10
1.757844980688e-10
2.249957442579e-10
2.802940102242e-10
3.424325267787e-10
4.122574503995e-10
4.907197981296e-10
5.788880486080e-10
6.779626859910e-10
7.892928532982e-10
9.143950041590e-10
1.054972997849e-09
1.212940636819e-09
1.390449755334e-09
1.589917530964e-09
1.814060457406e-09
2.065931425932e-09
2.348959471377e-09
2.667000842393e-09
3.024385186734e-09
3.425980610317e-09
3.877256071760e-09
4.384356877551e-09
4.954190169215e-09
5.594515517515e-09
6.314054612488e-09
7.122605172327e-09
8.031179721257e-09
9.052151472844e-09
1.019942619251e-08
1.148862605049e-08
1.293731033414e-08
1.456520903886e-08
1.639449065394e-08
1.845006947221e-08
2.075993910111e-08
2.335555837618e-08
2.627227591034e-08
2.954981503933e-08
3.323281205780e-08
3.737142550975e-08
4.202201830950e-08
4.724792690425e-08
5.312032325122e-08
5.971918204395e-08
6.713437317174e-08
7.546688429727e-08
8.483019353633e-08
9.535181977327e-08
1.071750577175e-07
1.204609247907e-07
1.353903633650e-07
1.521666934678e-07
1.710183914483e-07
1.922021981571e-07
2.160066117085e-07
2.427558261076e-07
2.728141339503e-07
3.065908957822e-07
3.445461169704e-07
3.871967049207e-07
4.351235114441e-07
4.889792499796e-07
5.494973729370e-07
6.175020716981e-07
6.939194907574e-07
7.797903487372e-07
8.762841074983e-07
9.847149007314e-07
1.106559429864e-06
1.243477069757e-06
1.397332471953e-06
1.570220961256e-06
1.764497058687e-06
1.982806562495e-06
2.228122559345e-06
2.503785928809e-06
2.813550828762e-06
3.161635822480e-06
3.552781322469e-06
3.992314146828e-06
4.486220047895e-06
5.041225230151e-06
5.664887927637e-06
6.365701329614e-06
7.153209220512e-06
8.038135923094e-06
9.032532322095e-06
1.014993992765e-05
1.140557523627e-05
1.281653689400e-05
1.440203845782e-05
1.618366993661e-05
1.818569168055e-05
2.043536457474e-05
2.296332105622e-05
2.580398199115e-05
2.899602504502e-05
3.258291093733e-05
3.661347469652e-05
4.114258995003e-05
4.623191523301e-05
5.195073245279e-05
5.837688881893e-05
6.559785502791e-05
7.371191395844e-05
8.282949596516e-05
9.307467872866e-05
1.045868719487e-04
1.175227094414e-04
1.320581741453e-04
1.483909844655e-04
1.667432739421e-04
1.873645999755e-04
2.105353217381e-04
2.365703920937e-04
2.658236137822e-04
2.986924159938e-04
3.356232141485e-04
3.771174229783e-04
4.237382011993e-04
4.761180151096e-04
5.349671182984e-04
6.010830558250e-04
6.753613131156e-04
7.588072431410e-04
8.525494199478e-04
9.578545821185e-04
1.076144346911e-03
1.209013893961e-03
1.358252836871e-03
1.525868521650e-03
1.714112012408e-03
1.925507046913e-03
2.162882267013e-03
2.429407051080e-03
2.728631296732e-03
3.064529521142e-03
3.441549662005e-03
3.864666973019e-03
4.339443411338e-03
4.872092908698e-03
5.469552898758e-03
6.139562437918e-03
6.890747199485e-03
7.732711537429e-03
8.676137698671e-03
9.732892105440e-03
1.091613842385e-02
1.224045687283e-02
1.372196890121e-02
1.537846596198e-02
1.722954063571e-02
1.929671779584e-02
2.160358286901e-02
2.417590352965e-02
2.704174039673e-02
3.023154149836e-02
3.377821447676e-02
3.771716977898e-02
4.208632748933e-02
4.692608009535e-02
5.227920344214e-02
5.819070852516e-02
6.470762770157e-02
7.187873044859e-02
7.975416601130e-02
8.838503315586e-02
9.782288069870e-02
1.081191463579e-01
1.193245455255e-01
1.314884254695e-01
1.446581038795e-01
1.588782132012e-01
1.741900735315e-01
1.906311167449e-01
2.082343828900e-01
2.270281068128e-01
2.470354086456e-01
2.682740966340e-01
2.907565851940e-01
3.144899255905e-01
3.394759416488e-01
3.657114588017e-01
3.931886117740e-01
4.218952144093e-01
4.518151745117e-01
4.829289369872e-01
5.152139398068e-01
5.486450691608e-01
5.831951023693e-01
6.188351294702e-01
6.555349467209e-01
6.932634174109e-01
7.319887972890e-01
7.716790235243e-01
8.123019674188e-01
8.538256520927e-01
</dep>
<dep v(vd) v-sweep>
0.000000000000e+00
4.975120000000e-03
9.950240000000e-03
1.492536000000e-02
1.990048000000e-02
2.487560000000e-02
2.985072000000e-02
3.482584000000e-02
3.980096000000e-02
4.477608000000e-02
4.975120000000e-02
5.472632000000e-02
5.970144000000e-02
6.467656000000e-02
6.965168000000e-02
7.462680000000e-02
7.960192000000e-02
8.457704000000e-02
8.955216000000e-02
9.452728000000e-02
9.950240000000e-02
1.044775200000e-01
1.094526400000e-01
1.144277600000e-01
1.194028800000e-01
1.243780000000e-01
1.293531200000e-01
1.343282400000e-01
1.393033600000e-01
1.442784800000e-01
1.492536000000e-01
1.542287200000e-01
1.592038400000e-01
1.641789600000e-01
1.691540800000e-01
1.741292000000e-01
1.791043200000e-01
1.840794400000e-01
1.890545600000e-01
1.940296800000e-01
1.990048000000e-01
2.039799200000e-01
2.089550400000e-01
2.139301600000e-01
2.189052800000e-01
2.238804000000e-01
2.288555200000e-01
2.338306400000e-01
2.388057600000e-01
2.437808800000e-01
2.487560000000e-01
2.537311200000e-01
2.587062400000e-01
2.636813600000e-01
2.686564800000e-01
2.736316000000e-01
2.786067200000e-01
2.835818400000e-01
2.885569600000e-01
2.935320800000e-01
2.985072000000e-01
3.034823200000e-01
3.084574400000e-01
3.134325600000e-01
3.184076800000e-01
3.233828000000e-01
3.283579200000e-01
3.333330400000e-01
3.383081600000e-01
3.432832800000e-01
3.482584000000e-01
3.532335200000e-01
3.582086400000e-01
3.631837600000e-01
3.681588800000e-01
3.731340000000e-01
3.781091200000e-01
3.830842400000e-01
3.880593600000e-01
3.930344800000e-01
3.980096000000e-01
4.029847200000e-01
4.079598400000e-01
4.129349600000e-01
4.179100800000e-01
4.228852000000e-01
4.278603200000e-01
4.328354400000e-01
4.378105600000e-01
4.427856800000e-01
4.477608000000e-01
4.527359200000e-01
4.577110400000e-01
4.626861600000e-01
4.676612800000e-01
4.726364000000e-01
4.776115200000e-01
4.825866400000e-01
4.875617600000e-01
4.925368800000e-01
4.975120000000e-01
5.024871200000e-01
5.074622400000e-01
5.124373600000e-01
5.174124800000e-01
5.223876000000e-01
5.273627200000e-01
5.323378400000e-01
5.373129600000e-01
5.422880800000e-01
5.472632000000e-01
5.522383200000e-01
5.572134400000e-01
5.621885600000e-01
5.671636800000e-01
5.721388000000e-01
5.771139200000e-01
5.820890400000e-01
5.870641600000e-01
5.920392800000e-01
5.970144000000e-01
6.019895200000e-01
6.069646400000e-01
6.119397600000e-01
6.169148800000e-01
6.218900000000e-01
6.268651200000e-01
6.318402400000e-01
6.368153600000e-01
6.417904800000e-01
6.467656000000e-01
6.517407200000e-01
6.567158400000e-01
6.616909600000e-01
6.666660800000e-01
6.716412000000e-01
6.766163200000e-01
6.815914400000e-01
6.865665600000e-01
6.915416800000e-01
6.965168000000e-01
7.014919200000e-01
7.064670400000e-01
7.114421600000e-01
7.164172800000e-01
7.213924000000e-01
7.263675200000e-01
7.313426400000e-01
7.363177600000e-01
7.412928800000e-01
7.462680000000e-01
7.512431200000e-01
7.562182400000e-01
7.611933600000e-01
7.661684800000e-01
7.711436000000e-01
7.761187200000e-01
7.810938400000e-01
7.860689600000e-01
7.910440800000e-01
7.960192000000e-01
8.009943200000e-01
8.059694400000e-01
8.109445600000e-01
8.159196800000e-01
8.208948000000e-01
8.258699200000e-01
8.308450400000e-01
8.358201600000e-01
8.407952800000e-01
8.457704000000e-01
8.507455200000e-01
8.557206400000e-01
8.606957600000e-01
8.656708800000e-01
8.706460000000e-01
8.756211200000e-01
8.805962400000e-01
8.855713600000e-01
8.905464800000e-01
8.955216000000e-01
9.004967200000e-01
9.054718400000e-01
9.104469600000e-01
9.154220800000e-01
9.203972000000e-01
9.253723200000e-01
9.303474400000e-01
9.353225600000e-01
9.402976800000e-01
9.452728000000e-01
9.502479200000e-01
9.552230400000e-01
9.601981600000e-01
9.651732800000e-01
9.701484000000e-01
9.751235200000e-01
9.800986400000e-01
9.850737600000e-01
9.900488800000e-01
9.950240000000e-01
9.999991200000e-01
</dep>
<dep i(g) v-sweep>
5.179681953448e-09
5.862553064513e-09
6.587678579434e-09
7.402506835258e-09
8.318120268381e-09
9.347032296793e-09
1.050321521445e-08
1.180240702945e-08
1.326233740847e-08
1.490288388531e-08
1.674638985677e-08
1.881792678984e-08
2.114570147959e-08
2.376146888598e-08
2.670087802416e-08
3.000386248571e-08
3.371544379681e-08
3.788621120147e-08
4.257291302236e-08
4.783943854297e-08
5.375739821058e-08
6.040752951301e-08
6.788034412812e-08
7.627753380050e-08
8.571359937312e-08
9.631689961598e-08
1.082319720383e-07
1.216210503429e-07
1.366664968155e-07
1.535731454530e-07
1.725712252939e-07
1.939195738511e-07
2.179089621212e-07
2.448659105358e-07
2.751575983719e-07
3.091968624245e-07
3.474469278931e-07
3.904288171286e-07
4.387279550216e-07
4.930020686910e-07
5.539903368394e-07
6.225233424671e-07
6.995344984101e-07
7.860725440206e-07
8.833160056131e-07
9.925892636259e-07
1.115380628178e-06
1.253362244499e-06
1.408413256416e-06
1.582645469187e-06
1.778431511661e-06
1.998437773963e-06
2.245660826390e-06
2.523467274901e-06
2.835640712933e-06
3.186432556116e-06
3.580619973320e-06
4.023571762011e-06
4.521320114914e-06
5.080644079990e-06
5.709161009362e-06
6.415430147883e-06
7.209070637505e-06
8.100890947202e-06
9.103036155280e-06
1.022915478007e-05
1.149458319526e-05
1.291655494928e-05
1.451443561365e-05
1.630998619522e-05
1.832766011080e-05
2.059493559896e-05
2.314269026335e-05
2.600562087199e-05
2.922271644590e-05
3.283778999289e-05
3.690007343886e-05
4.146488941366e-05
4.659440381914e-05
5.235847239003e-05
5.883559285176e-05
6.611397249418e-05
7.429272999516e-05
8.348324506227e-05
9.381067445867e-05
1.054156566398e-04
1.184562261556e-04
1.331099651327e-04
1.495764215612e-04
1.680798245550e-04
1.888721379166e-04
2.122364892260e-04
2.384910227464e-04
2.679932309522e-04
3.011448187732e-04
3.383971685717e-04
3.802574835113e-04
4.272956871528e-04
4.801521747892e-04
5.395465251493e-04
6.062872844073e-04
6.812829586204e-04
7.655543636634e-04
8.602484977949e-04
9.666541245724e-04
1.086219277400e-03
1.220570919488e-03
1.371537025752e-03
1.541171382751e-03
1.731781438162e-03
1.945959571851e-03
2.186618210569e-03
2.457029248820e-03
2.760868300323e-03
3.102264369912e-03
3.485855597128e-03
3.916851805582e-03
4.401104676473e-03
4.945186459643e-03
5.556478240138e-03
6.243268896037e-03
7.014866009889e-03
7.881720137858e-03
8.855563991507e-03
9.949568264816e-03
1.117851600555e-02
1.255899764381e-02
1.410962899561e-02
1.585129477441e-02
1.780742040717e-02
2.000427517100e-02
2.247130993452e-02
2.524153305271e-02
2.835192819072e-02
3.184391810542e-02
3.576387861367e-02
4.016370713296e-02
4.510145027712e-02
5.064199498377e-02
5.685782752157e-02
6.382986441147e-02
7.164835876056e-02
8.041388467789e-02
9.023840121771e-02
1.012463956326e-01
1.135761034327e-01
1.273807997817e-01
1.428301529136e-01
1.601116253991e-01
1.794319030684e-01
2.010183239812e-01
2.251202709866e-01
2.520104808923e-01
2.819862111220e-01
3.153701909852e-01
3.525112695270e-01
3.937846558332e-01
4.395916312880e-01
4.903585977631e-01
5.465353124863e-01
6.085921514174e-01
6.770162408179e-01
7.523063042316e-01
8.349660925336e-01
9.254963012318e-01
1.024384934716e+00
1.132096153440e+00
1.249057737244e+00
1.375647413875e+00
1.512178430844e+00
1.658884881899e+00
1.815907424082e+00
1.983280122092e+00
2.160919216707e+00
2.348614617495e+00
2.546024855073e+00
2.752676089390e+00
2.967965561842e+00
3.191169614371e+00
3.421456101408e+00
3.657900720777e+00
3.899506519999e+00
4.145225624836e+00
4.393982109826e+00
4.644694897456e+00
4.896299632451e+00
5.147768617760e+00
5.398128097932e+00
5.646472407456e+00
5.891974740079e+00
6.133894516907e+00
6.371581519150e+00
6.604477095389e+00
6.832112849785e+00
7.054107268707e+00
7.270160755083e+00
7.480049520488e+00
7.683618743675e+00
7.880775349477e+00
8.071480700953e+00
8.255743436181e+00
8.436792492145e+00
</dep>
<dep r v-sweep>
1.930620468568e+08
1.705741490091e+08
1.517985414653e+08
1.350893720539e+08
1.202194687905e+08
1.069858291110e+08
9.520894122249e+07
8.472847932668e+07
7.540148988828e+07
6.710110658419e+07
5.971436283001e+07
5.314081679497e+07
4.729093527426e+07
4.208494032075e+07
3.745195192066e+07
3.332904223502e+07
2.965999813102e+07
2.639482725476e+07
2.348911382866e+07
2.090325535702e+07
1.860209075005e+07
1.655422772727e+07
1.473180510270e+07
1.311002008292e+07
1.166676008607e+07
1.038239399303e+07
9.239414021263e+06
8.222260843668e+06
7.317082264501e+06
6.511555109785e+06
5.794708812530e+06
5.156777008842e+06
4.589072382639e+06
4.083867769964e+06
3.634280884544e+06
3.234185470573e+06
2.878137406665e+06
2.561286350108e+06
2.279316803395e+06
2.028389054543e+06
1.805085636882e+06
1.606365467417e+06
1.429522063991e+06
1.272147217972e+06
1.132097679251e+06
1.007466065417e+06
8.965549290857e+05
7.978539359943e+05
7.100188779427e+05
6.318534501058e+05
5.622932305477e+05
5.003908618165e+05
4.453032213273e+05
3.962801538765e+05
3.526539859014e+05
3.138305871500e+05
2.792812438771e+05
2.485353957003e+05
2.211743416931e+05
1.968254387152e+05
1.751570849657e+05
1.558741934600e+05
1.387141353280e+05
1.234432121748e+05
1.098534580048e+05
9.775978773417e+04
8.699749986691e+04
7.742002445133e+04
6.889692624764e+04
6.131213037403e+04
5.456233877943e+04
4.855562646433e+04
4.321018812509e+04
3.845322535933e+04
3.421995357109e+04
3.045271926693e+04
2.710021706751e+04
2.411678926776e+04
2.146180480990e+04
1.909910572927e+04
1.699651438067e+04
1.512539577149e+04
1.346026724371e+04
1.197845147555e+04
1.065976772655e+04
9.486256898415e+03
8.441937012976e+03
7.512585545363e+03
6.685545686696e+03
5.949554044618e+03
5.294587179616e+03
4.711725130993e+03
4.193029945045e+03
3.731437530892e+03
3.320661481323e+03
2.955107468011e+03
2.629797027967e+03
2.340299773825e+03
2.082673061804e+03
1.853408285269e+03
1.649383098934e+03
1.467818895727e+03
1.306242962570e+03
1.162454805284e+03
1.034496180774e+03
9.206244271352e+02
8.192887312271e+02
7.291090077947e+02
6.488571038834e+02
5.774400729583e+02
5.138852905607e+02
4.573272074505e+02
4.069955620106e+02
3.622048903539e+02
3.223451907254e+02
2.868736159995e+02
2.553070806955e+02
2.272156818595e+02
2.022168442304e+02
1.799701099837e+02
1.601725020421e+02
1.425543978446e+02
1.268758573648e+02
1.129233554135e+02
1.005068736034e+02
8.945731253628e+01
7.962418883746e+01
7.087358571308e+01
6.308632917575e+01
5.615636499476e+01
4.998931435665e+01
4.450118853390e+01
3.961724503467e+01
3.527096969465e+01
3.140317082494e+01
2.796117308199e+01
2.489810008547e+01
2.217223601138e+01
1.974645746718e+01
1.758772790995e+01
1.566664772392e+01
1.395705382927e+01
1.243566336841e+01
1.108175661920e+01
9.876894814399e+00
8.804669026111e+00
7.850476694401e+00
7.001322757141e+00
6.245642672775e+00
5.573144925176e+00
4.974670866788e+00
4.442069990487e+00
3.968088932093e+00
3.546272691920e+00
3.170876730220e+00
2.836788739667e+00
2.539459029667e+00
2.274838574770e+00
2.039323883708e+00
1.829707938634e+00
1.643136536794e+00
1.477069440449e+00
1.329245806363e+00
1.197653424423e+00
1.080501346865e+00
9.761955355948e-01
8.833171961243e-01
8.006035030906e-01
7.269304546455e-01
6.612976217640e-01
6.028145840085e-01
5.506888659291e-01
5.042152083615e-01
4.627660267301e-01
4.257829243465e-01
3.927691428492e-01
3.632828445942e-01
3.369311331832e-01
3.133647285612e-01
2.922732223829e-01
2.733808477414e-01
2.564427049606e-01
2.412413920267e-01
2.275839944282e-01
2.152993947025e-01
2.042358668927e-01
1.942589254206e-01
1.852494016181e-01
1.771017243757e-01
1.697223841097e-01
1.630285615841e-01
1.569469050964e-01
1.514124412208e-01
1.463676057446e-01
1.417613826821e-01
1.375485403539e-01
1.336889544997e-01
1.301470092882e-01
1.268910679032e-01
1.238930051436e-01
1.211277951804e-01
1.185284574595e-01
</dep>
