<Qucs Dataset 0.0.24>
<indep frequency 100>
1.000000000000e+00
1.232846739442e+00
1.519911082953e+00
1.873817422860e+00
2.310129700083e+00
2.848035868436e+00
3.511191734215e+00
4.328761281083e+00
5.336699231206e+00
6.579332246576e+00
8.111308307897e+00
1.000000000000e+01
1.232846739442e+01
1.519911082953e+01
1.873817422860e+01
2.310129700083e+01
2.848035868436e+01
3.511191734215e+01
4.328761281083e+01
5.336699231206e+01
6.579332246576e+01
8.111308307897e+01
1.000000000000e+02
1.232846739442e+02
1.519911082953e+02
1.873817422860e+02
2.310129700083e+02
2.848035868436e+02
3.511191734215e+02
4.328761281083e+02
5.336699231206e+02
6.579332246576e+02
8.111308307897e+02
1.000000000000e+03
1.232846739442e+03
1.519911082953e+03
1.873817422860e+03
2.310129700083e+03
2.848035868436e+03
3.511191734215e+03
4.328761281083e+03
5.336699231206e+03
6.579332246576e+03
8.111308307897e+03
1.000000000000e+04
1.232846739442e+04
1.519911082953e+04
1.873817422860e+04
2.310129700083e+04
2.848035868436e+04
3.511191734215e+04
4.328761281083e+04
5.336699231206e+04
6.579332246576e+04
8.111308307897e+04
1.000000000000e+05
1.232846739442e+05
1.519911082953e+05
1.873817422860e+05
2.310129700083e+05
2.848035868436e+05
3.511191734215e+05
4.328761281083e+05
5.336699231206e+05
6.579332246576e+05
8.111308307897e+05
1.000000000000e+06
1.232846739442e+06
1.519911082953e+06
1.873817422860e+06
2.310129700083e+06
2.848035868436e+06
3.511191734215e+06
4.328761281083e+06
5.336699231206e+06
6.579332246576e+06
8.111308307897e+06
1.000000000000e+07
1.232846739442e+07
1.519911082953e+07
1.873817422860e+07
2.310129700083e+07
2.848035868436e+07
3.511191734215e+07
4.328761281083e+07
5.336699231206e+07
6.579332246576e+07
8.111308307897e+07
1.000000000000e+08
1.232846739442e+08
1.519911082953e+08
1.873817422860e+08
2.310129700083e+08
2.848035868436e+08
3.511191734215e+08
4.328761281083e+08
5.336699231206e+08
6.579332246576e+08
8.111308307897e+08
1.000000000000e+09
</indep>
<dep ac.i(pr1) frequency>
4.396562509698e-03+j5.209422374417e-12
4.396562509698e-03+j6.422419388676e-12
4.396562509698e-03+j7.917858802659e-12
4.396562509698e-03+j9.761506408221e-12
4.396562509698e-03+j1.203444134742e-11
4.396562509698e-03+j1.483662177617e-11
4.396562509698e-03+j1.829128078109e-11
4.396562509698e-03+j2.255034587118e-11
4.396562509698e-03+j2.780112038058e-11
4.396562509698e-03+j3.427452061403e-11
4.396562509698e-03+j4.225523098495e-11
4.396562509698e-03+j5.209422374416e-11
4.396562509698e-03+j6.422419388675e-11
4.396562509698e-03+j7.917858802657e-11
4.396562509698e-03+j9.761506408217e-11
4.396562509698e-03+j1.203444134741e-10
4.396562509698e-03+j1.483662177616e-10
4.396562509698e-03+j1.829128078106e-10
4.396562509698e-03+j2.255034587113e-10
4.396562509698e-03+j2.780112038048e-10
4.396562509698e-03+j3.427452061385e-10
4.396562509699e-03+j4.225523098460e-10
4.396562509699e-03+j5.209422374352e-10
4.396562509700e-03+j6.422419388555e-10
4.396562509702e-03+j7.917858802431e-10
4.396562509704e-03+j9.761506407793e-10
4.396562509707e-03+j1.203444134662e-09
4.396562509713e-03+j1.483662177467e-09
4.396562509720e-03+j1.829128077827e-09
4.396562509732e-03+j2.255034586591e-09
4.396562509750e-03+j2.780112037070e-09
4.396562509777e-03+j3.427452059552e-09
4.396562509819e-03+j4.225523095026e-09
4.396562509882e-03+j5.209422367917e-09
4.396562509977e-03+j6.422419376496e-09
4.396562510123e-03+j7.917858779835e-09
4.396562510344e-03+j9.761506365454e-09
4.396562510680e-03+j1.203444126728e-08
4.396562511190e-03+j1.483662162601e-08
4.396562511966e-03+j1.829128049971e-08
4.396562513146e-03+j2.255034534393e-08
4.396562514939e-03+j2.780111939260e-08
4.396562517663e-03+j3.427451876273e-08
4.396562521805e-03+j4.225522751595e-08
4.396562528099e-03+j5.209421724390e-08
4.396562537667e-03+j6.422418170645e-08
4.396562552208e-03+j7.917856520292e-08
4.396562574310e-03+j9.761502131481e-08
4.396562607902e-03+j1.203443333359e-07
4.396562658960e-03+j1.483660675973e-07
4.396562736563e-03+j1.829125264303e-07
4.396562854513e-03+j2.255029314564e-07
4.396563033786e-03+j2.780102158266e-07
4.396563306263e-03+j3.427433548510e-07
4.396563720403e-03+j4.225488408811e-07
4.396564349855e-03+j5.209357372560e-07
4.396565306555e-03+j6.422297587854e-07
4.396566760630e-03+j7.917630572407e-07
4.396568970640e-03+j9.761078752807e-07
4.396572329532e-03+j1.203364001750e-06
4.396577434457e-03+j1.483512028220e-06
4.396585192811e-03+j1.828846740355e-06
4.396596983256e-03+j2.254507453687e-06
4.396614900074e-03+j2.779124406280e-06
4.396642123707e-03+j3.425601761517e-06
4.396683481960e-03+j4.222056947184e-06
4.396746298398e-03+j5.202930208461e-06
4.396841671303e-03+j6.410262132067e-06
4.396986393345e-03+j7.895100721019e-06
4.397205813820e-03+j9.718925549719e-06
4.397538062293e-03+j1.195483313748e-05
4.398040180851e-03+j1.468796180097e-05
4.398796799142e-03+j1.801416274947e-05
4.399931891049e-03+j2.203513548384e-05
4.401623552316e-03+j2.684704315731e-05
4.404120001593e-03+j3.251809276453e-05
4.407751123796e-03+j3.904941927881e-05
4.412922881365e-03+j4.631507367851e-05
4.420072813580e-03+j5.398565132928e-05
4.429561044135e-03+j6.146185503005e-05
4.441490693066e-03+j6.787670934787e-05
4.455512270584e-03+j7.223952437615e-05
4.470744272526e-03+j7.373622313443e-05
4.485938457834e-03+j7.206017463384e-05
4.499858685229e-03+j6.755380248609e-05
4.511652219728e-03+j6.105102535030e-05
4.520999634768e-03+j5.354233960882e-05
4.528024483850e-03+j4.588158732396e-05
4.533095638931e-03+j3.865157875749e-05
4.536651061341e-03+j3.216790281477e-05
4.539093045815e-03+j2.654721277010e-05
4.540746680818e-03+j2.178309101758e-05
4.541855750843e-03+j1.780484683491e-05
4.542594797899e-03+j1.451552103520e-05
4.543085155883e-03+j1.181352219703e-05
4.543409578753e-03+j9.603528734334e-06
4.543623812031e-03+j7.801082559386e-06
4.543765104475e-03+j6.333778055723e-06
4.543858213638e-03+j5.140772262394e-06
4.543919537519e-03+j4.171574912491e-06
</dep>
<dep ac.v(vd) frequency>
3.275624786653e-02-j1.146072922372e-09
3.275624786653e-02-j1.412932265509e-09
3.275624786653e-02-j1.741928936585e-09
3.275624786653e-02-j2.147531409809e-09
3.275624786653e-02-j2.647577096432e-09
3.275624786653e-02-j3.264056790758e-09
3.275624786653e-02-j4.024081771839e-09
3.275624786653e-02-j4.961076091660e-09
3.275624786653e-02-j6.116246483727e-09
3.275624786653e-02-j7.540394535087e-09
3.275624786652e-02-j9.296150816689e-09
3.275624786652e-02-j1.146072922372e-08
3.275624786652e-02-j1.412932265509e-08
3.275624786652e-02-j1.741928936585e-08
3.275624786651e-02-j2.147531409808e-08
3.275624786651e-02-j2.647577096430e-08
3.275624786649e-02-j3.264056790754e-08
3.275624786648e-02-j4.024081771833e-08
3.275624786645e-02-j4.961076091649e-08
3.275624786641e-02-j6.116246483706e-08
3.275624786635e-02-j7.540394535047e-08
3.275624786626e-02-j9.296150816613e-08
3.275624786612e-02-j1.146072922357e-07
3.275624786591e-02-j1.412932265482e-07
3.275624786559e-02-j1.741928936535e-07
3.275624786511e-02-j2.147531409715e-07
3.275624786437e-02-j2.647577096256e-07
3.275624786324e-02-j3.264056790427e-07
3.275624786154e-02-j4.024081771220e-07
3.275624785894e-02-j4.961076090500e-07
3.275624785500e-02-j6.116246481554e-07
3.275624784900e-02-j7.540394531015e-07
3.275624783989e-02-j9.296150809057e-07
3.275624782604e-02-j1.146072920942e-06
3.275624780499e-02-j1.412932262829e-06
3.275624777300e-02-j1.741928931564e-06
3.275624772438e-02-j2.147531400400e-06
3.275624765048e-02-j2.647577078802e-06
3.275624753815e-02-j3.264056757721e-06
3.275624736742e-02-j4.024081709935e-06
3.275624710793e-02-j4.961075975664e-06
3.275624671353e-02-j6.116246266371e-06
3.275624611407e-02-j7.540394127801e-06
3.275624520295e-02-j9.296150053510e-06
3.275624381813e-02-j1.146072779366e-05
3.275624171332e-02-j1.412931997542e-05
3.275623851421e-02-j1.741928434464e-05
3.275623365184e-02-j2.147530468926e-05
3.275622626147e-02-j2.647575333390e-05
3.275621502877e-02-j3.264053487140e-05
3.275619795608e-02-j4.024075581466e-05
3.275617200714e-02-j4.961064492041e-05
3.275613256715e-02-j6.116224748184e-05
3.275607262205e-02-j7.540353806723e-05
3.275598151125e-02-j9.296074499384e-05
3.275584303191e-02-j1.146058621963e-04
3.275563255790e-02-j1.412905469328e-04
3.275531266135e-02-j1.741878725930e-04
3.275482645911e-02-j2.147437325618e-04
3.275408750285e-02-j2.647400803851e-04
3.275296441950e-02-j3.263726462083e-04
3.275125758157e-02-j4.023462828780e-04
3.274866368361e-02-j4.959916398111e-04
3.274472198364e-02-j6.114073693816e-04
3.273873278438e-02-j7.536323875337e-04
3.272963396884e-02-j9.288525283804e-04
3.271581435245e-02-j1.144644645862e-03
3.269483231344e-02-j1.410257669055e-03
3.266299346404e-02-j1.736922158624e-03
3.261472095964e-02-j2.138163620938e-03
3.254162629556e-02-j2.630063290245e-03
3.243116021281e-02-j3.231351596213e-03
3.226470418871e-02-j3.963115804883e-03
3.201498396933e-02-j4.847729806444e-03
3.164281849041e-02-j5.906349494608e-03
3.109359964961e-02-j7.153980408197e-03
3.029475276489e-02-j8.590872241338e-03
2.915696609973e-02-j1.018931620927e-02
2.758398101247e-02-j1.187684329244e-02
2.549657029022e-02-j1.352160810661e-02
2.287204752547e-02-j1.493287605653e-02
1.978730047143e-02-j1.589269536275e-02
1.643626004423e-02-j1.622196908957e-02
1.309353927642e-02-j1.585323841945e-02
1.003108924961e-02-j1.486183654694e-02
7.436511659829e-03-j1.343122557707e-02
5.380080351137e-03-j1.177931471394e-02
3.834613553092e-03-j1.009394921127e-02
2.718959435283e-03-j8.503347326648e-03
1.936766504965e-03-j7.076938619249e-03
1.399529920692e-03-j5.840386809423e-03
1.035730220084e-03-j4.792280023868e-03
7.917348144648e-04-j3.917066303680e-03
6.291444621635e-04-j3.193414627744e-03
5.212657056796e-04-j2.598974883347e-03
4.498926743427e-04-j2.112776321553e-03
4.027613530749e-04-j1.716238163065e-03
3.716770155734e-04-j1.393431172259e-03
3.511929995659e-04-j1.130969897727e-03
3.377017457625e-04-j9.177464807479e-04
</dep>
<dep ac.r frequency>
7.450422413937e+00-j2.695026664537e-07
7.450422413937e+00-j3.322554836083e-07
7.450422413937e+00-j4.096200896283e-07
7.450422413937e+00-j5.049987919082e-07
7.450422413937e+00-j6.225861140262e-07
7.450422413937e+00-j7.675532606991e-07
7.450422413937e+00-j9.462755348010e-07
7.450422413937e+00-j1.166612707693e-06
7.450422413937e+00-j1.438254672871e-06
7.450422413937e+00-j1.773147583937e-06
7.450422413937e+00-j2.186019217406e-06
7.450422413936e+00-j2.695026664536e-06
7.450422413936e+00-j3.322554836083e-06
7.450422413935e+00-j4.096200896282e-06
7.450422413934e+00-j5.049987919080e-06
7.450422413932e+00-j6.225861140258e-06
7.450422413929e+00-j7.675532606983e-06
7.450422413925e+00-j9.462755347995e-06
7.450422413919e+00-j1.166612707690e-05
7.450422413909e+00-j1.438254672866e-05
7.450422413895e+00-j1.773147583927e-05
7.450422413872e+00-j2.186019217387e-05
7.450422413839e+00-j2.695026664501e-05
7.450422413788e+00-j3.322554836016e-05
7.450422413710e+00-j4.096200896157e-05
7.450422413592e+00-j5.049987918846e-05
7.450422413412e+00-j6.225861139819e-05
7.450422413139e+00-j7.675532606161e-05
7.450422412724e+00-j9.462755346456e-05
7.450422412093e+00-j1.166612707402e-04
7.450422411135e+00-j1.438254672325e-04
7.450422409678e+00-j1.773147582914e-04
7.450422407463e+00-j2.186019215489e-04
7.450422404098e+00-j2.695026660944e-04
7.450422398982e+00-j3.322554829352e-04
7.450422391207e+00-j4.096200883670e-04
7.450422379390e+00-j5.049987895448e-04
7.450422361428e+00-j6.225861095976e-04
7.450422334128e+00-j7.675532524007e-04
7.450422292634e+00-j9.462755192512e-04
7.450422229567e+00-j1.166612678556e-03
7.450422133711e+00-j1.438254618273e-03
7.450421988019e+00-j1.773147481629e-03
7.450421766579e+00-j2.186019025700e-03
7.450421430011e+00-j2.695026305316e-03
7.450420918457e+00-j3.322554162969e-03
7.450420140941e+00-j4.096199634989e-03
7.450418959185e+00-j5.049985555647e-03
7.450417163023e+00-j6.225856711618e-03
7.450414433017e+00-j7.675524308524e-03
7.450410283655e+00-j9.462739798206e-03
7.450403977002e+00-j1.166609793946e-02
7.450394391472e+00-j1.438249213049e-02
7.450379822365e+00-j1.773137353246e-02
7.450357678729e+00-j2.186000047017e-02
7.450324022625e+00-j2.694990742891e-02
7.450272868928e+00-j3.322487525944e-02
7.450195121215e+00-j4.096074770700e-02
7.450076954739e+00-j5.049751586551e-02
7.449897359449e+00-j6.225418307022e-02
7.449624407311e+00-j7.674702849035e-02
7.449209582989e+00-j9.461200620479e-02
7.448579176189e+00-j1.166321405023e-01
7.447621220111e+00-j1.437708895706e-01
7.446165688211e+00-j1.772125098903e-01
7.443954508449e+00-j2.184103841378e-01
7.440596248941e+00-j2.691439233793e-01
7.435497845691e+00-j3.315837294856e-01
7.427762216659e+00-j4.083626667970e-01
7.416035809503e+00-j5.026463655393e-01
7.398284106103e+00-j6.181887464595e-01
7.371466760353e+00-j7.593435441873e-01
7.331080495017e+00-j9.309770987486e-01
7.270545248630e+00-j1.138185176509e+00
7.180445448541e+00-j1.385653077998e+00
7.047738395774e+00-j1.676421036770e+00
6.855258285639e+00-j2.009770027299e+00
6.582219336264e+00-j2.378054741703e+00
6.206872330472e+00-j2.762833521747e+00
5.712548229961e+00-j3.131848004700e+00
5.097061184802e+00-j3.440026975843e+00
4.382098002608e+00-j3.638022982283e+00
3.615575445654e+00-j3.688103582377e+00
2.861289285835e+00-j3.579947334546e+00
2.179127776271e+00-j3.335448058313e+00
1.607711259680e+00-j2.998763499273e+00
1.159000897246e+00-j2.619192941872e+00
8.241895285971e-01-j2.237568363695e+00
5.837650927419e-01-j1.880814226791e+00
4.158334823438e-01-j1.562896289449e+00
3.007925331679e-01-j1.288445060229e+00
2.230287716962e-01-j1.056464633926e+00
1.709361459468e-01-j8.631075072891e-01
1.362511632564e-01-j7.034288829478e-01
1.132499206676e-01-j5.723671634090e-01
9.803757367749e-02-j4.652272245263e-01
8.799441388473e-02-j3.778756089371e-01
8.137170744464e-02-j3.067822676884e-01
7.700790670668e-02-j2.489879139366e-01
7.413399729810e-02-j2.020404914063e-01
</dep>
