<Qucs Dataset 0.0.21>
<indep frequency 100>
1.000000000000e+00
1.232846739442e+00
1.519911082953e+00
1.873817422860e+00
2.310129700083e+00
2.848035868436e+00
3.511191734215e+00
4.328761281083e+00
5.336699231206e+00
6.579332246576e+00
8.111308307897e+00
1.000000000000e+01
1.232846739442e+01
1.519911082953e+01
1.873817422860e+01
2.310129700083e+01
2.848035868436e+01
3.511191734215e+01
4.328761281083e+01
5.336699231206e+01
6.579332246576e+01
8.111308307897e+01
1.000000000000e+02
1.232846739442e+02
1.519911082953e+02
1.873817422860e+02
2.310129700083e+02
2.848035868436e+02
3.511191734215e+02
4.328761281083e+02
5.336699231206e+02
6.579332246576e+02
8.111308307897e+02
1.000000000000e+03
1.232846739442e+03
1.519911082953e+03
1.873817422860e+03
2.310129700083e+03
2.848035868436e+03
3.511191734215e+03
4.328761281083e+03
5.336699231206e+03
6.579332246576e+03
8.111308307897e+03
1.000000000000e+04
1.232846739442e+04
1.519911082953e+04
1.873817422860e+04
2.310129700083e+04
2.848035868436e+04
3.511191734215e+04
4.328761281083e+04
5.336699231206e+04
6.579332246576e+04
8.111308307897e+04
1.000000000000e+05
1.232846739442e+05
1.519911082953e+05
1.873817422860e+05
2.310129700083e+05
2.848035868436e+05
3.511191734215e+05
4.328761281083e+05
5.336699231206e+05
6.579332246576e+05
8.111308307897e+05
1.000000000000e+06
1.232846739442e+06
1.519911082953e+06
1.873817422860e+06
2.310129700083e+06
2.848035868436e+06
3.511191734215e+06
4.328761281083e+06
5.336699231206e+06
6.579332246576e+06
8.111308307897e+06
1.000000000000e+07
1.232846739442e+07
1.519911082953e+07
1.873817422860e+07
2.310129700083e+07
2.848035868436e+07
3.511191734215e+07
4.328761281083e+07
5.336699231206e+07
6.579332246576e+07
8.111308307897e+07
1.000000000000e+08
1.232846739442e+08
1.519911082953e+08
1.873817422860e+08
2.310129700083e+08
2.848035868436e+08
3.511191734215e+08
4.328761281083e+08
5.336699231206e+08
6.579332246576e+08
8.111308307897e+08
1.000000000000e+09
</indep>
<dep ac.i(pr1) frequency>
4.396568773811e-03+j5.209205900073e-12
4.396568773811e-03+j6.422152508987e-12
4.396568773811e-03+j7.917529780904e-12
4.396568773811e-03+j9.761100774823e-12
4.396568773811e-03+j1.203394126361e-11
4.396568773811e-03+j1.483600524947e-11
4.396568773811e-03+j1.829052069816e-11
4.396568773811e-03+j2.254940880542e-11
4.396568773811e-03+j2.779996512211e-11
4.396568773811e-03+j3.427309635740e-11
4.396568773811e-03+j4.225347509480e-11
4.396568773811e-03+j5.209205900072e-11
4.396568773811e-03+j6.422152508986e-11
4.396568773811e-03+j7.917529780902e-11
4.396568773811e-03+j9.761100774819e-11
4.396568773811e-03+j1.203394126360e-10
4.396568773812e-03+j1.483600524946e-10
4.396568773812e-03+j1.829052069813e-10
4.396568773812e-03+j2.254940880537e-10
4.396568773812e-03+j2.779996512201e-10
4.396568773812e-03+j3.427309635722e-10
4.396568773813e-03+j4.225347509446e-10
4.396568773813e-03+j5.209205900008e-10
4.396568773814e-03+j6.422152508865e-10
4.396568773816e-03+j7.917529780676e-10
4.396568773818e-03+j9.761100774396e-10
4.396568773821e-03+j1.203394126281e-09
4.396568773826e-03+j1.483600524797e-09
4.396568773834e-03+j1.829052069535e-09
4.396568773846e-03+j2.254940880015e-09
4.396568773864e-03+j2.779996511223e-09
4.396568773891e-03+j3.427309633889e-09
4.396568773932e-03+j4.225347506012e-09
4.396568773995e-03+j5.209205893573e-09
4.396568774091e-03+j6.422152496807e-09
4.396568774236e-03+j7.917529758082e-09
4.396568774457e-03+j9.761100732058e-09
4.396568774793e-03+j1.203394118347e-08
4.396568775304e-03+j1.483600509932e-08
4.396568776080e-03+j1.829052041679e-08
4.396568777259e-03+j2.254940827819e-08
4.396568779052e-03+j2.779996413417e-08
4.396568781777e-03+j3.427309450618e-08
4.396568785918e-03+j4.225347162594e-08
4.396568792212e-03+j5.209205250072e-08
4.396568801779e-03+j6.422151291004e-08
4.396568816320e-03+j7.917527498627e-08
4.396568838421e-03+j9.761096498254e-08
4.396568872012e-03+j1.203393325010e-07
4.396568923068e-03+j1.483599023363e-07
4.396569000668e-03+j1.829049256122e-07
4.396569118613e-03+j2.254935608197e-07
4.396569297878e-03+j2.779986632811e-07
4.396569570345e-03+j3.427291123582e-07
4.396569984468e-03+j4.225312821174e-07
4.396570613894e-03+j5.209140900797e-07
4.396571570555e-03+j6.422030713002e-07
4.396573024571e-03+j7.917301559715e-07
4.396575234492e-03+j9.760673136392e-07
4.396578593247e-03+j1.203313996551e-06
4.396583697964e-03+j1.483450381513e-06
4.396591456003e-03+j1.828770743234e-06
4.396603245969e-03+j2.254413768044e-06
4.396621162059e-03+j2.779008919655e-06
4.396648384586e-03+j3.425459409334e-06
4.396689741158e-03+j4.221881495821e-06
4.396752555043e-03+j5.202713991947e-06
4.396847924072e-03+j6.409995735205e-06
4.396992640233e-03+j7.894772603146e-06
4.397212051789e-03+j9.718521607621e-06
4.397544286755e-03+j1.195433621601e-05
4.398046384895e-03+j1.468735118055e-05
4.398802972408e-03+j1.801341367910e-05
4.399938018112e-03+j2.203421889964e-05
4.401629610465e-03+j2.684592584719e-05
4.404125957909e-03+j3.251673842448e-05
4.407756931718e-03+j3.904779114504e-05
4.412928477363e-03+j4.631313961627e-05
4.420078115492e-03+j5.398339212989e-05
4.429565953813e-03+j6.145927567879e-05
4.441495106390e-03+j6.787385066861e-05
4.455516095969e-03+j7.223646929734e-05
4.470747453651e-03+j7.373309072510e-05
4.485940990521e-03+j7.205709974455e-05
4.499860618783e-03+j6.755090813901e-05
4.511653641894e-03+j6.104840061869e-05
4.521000649144e-03+j5.354003144033e-05
4.528025190323e-03+j4.587960537727e-05
4.533096122366e-03+j3.864990667634e-05
4.536651388020e-03+j3.216650979071e-05
4.539093264646e-03+j2.654606233879e-05
4.540746826532e-03+j2.178214659081e-05
4.541855847481e-03+j1.780407464199e-05
4.542594861817e-03+j1.451489136569e-05
4.543085198084e-03+j1.181300966528e-05
4.543409606582e-03+j9.603112044613e-06
4.543623830369e-03+j7.800744055536e-06
4.543765116552e-03+j6.333503209832e-06
4.543858221589e-03+j5.140549179425e-06
4.543919542753e-03+j4.171393884484e-06
</dep>
<dep ac.v(vd) frequency>
3.275486976150e-02-j1.146025298016e-09
3.275486976150e-02-j1.412873551977e-09
3.275486976150e-02-j1.741856551799e-09
3.275486976150e-02-j2.147442170461e-09
3.275486976150e-02-j2.647467077993e-09
3.275486976150e-02-j3.263921154884e-09
3.275486976150e-02-j4.023914553595e-09
3.275486976150e-02-j4.960869937193e-09
3.275486976150e-02-j6.115992326865e-09
3.275486976150e-02-j7.540081198628e-09
3.275486976150e-02-j9.295764520856e-09
3.275486976150e-02-j1.146025298016e-08
3.275486976149e-02-j1.412873551977e-08
3.275486976149e-02-j1.741856551798e-08
3.275486976149e-02-j2.147442170460e-08
3.275486976148e-02-j2.647467077992e-08
3.275486976147e-02-j3.263921154881e-08
3.275486976145e-02-j4.023914553589e-08
3.275486976142e-02-j4.960869937182e-08
3.275486976138e-02-j6.115992326843e-08
3.275486976132e-02-j7.540081198587e-08
3.275486976123e-02-j9.295764520781e-08
3.275486976110e-02-j1.146025298002e-07
3.275486976088e-02-j1.412873551950e-07
3.275486976056e-02-j1.741856551749e-07
3.275486976008e-02-j2.147442170367e-07
3.275486975934e-02-j2.647467077817e-07
3.275486975822e-02-j3.263921154554e-07
3.275486975651e-02-j4.023914552976e-07
3.275486975391e-02-j4.960869936033e-07
3.275486974997e-02-j6.115992324691e-07
3.275486974398e-02-j7.540081194556e-07
3.275486973487e-02-j9.295764513226e-07
3.275486972102e-02-j1.146025296586e-06
3.275486969997e-02-j1.412873549298e-06
3.275486966798e-02-j1.741856546778e-06
3.275486961936e-02-j2.147442161053e-06
3.275486954546e-02-j2.647467060364e-06
3.275486943314e-02-j3.263921121849e-06
3.275486926241e-02-j4.023914491694e-06
3.275486900294e-02-j4.960869821201e-06
3.275486860855e-02-j6.115992109517e-06
3.275486800912e-02-j7.540080791359e-06
3.275486709803e-02-j9.295763757708e-06
3.275486571327e-02-j1.146025155016e-05
3.275486360855e-02-j1.412873284021e-05
3.275486040956e-02-j1.741856049698e-05
3.275485554739e-02-j2.147441229616e-05
3.275484815732e-02-j2.647465315021e-05
3.275483692507e-02-j3.263917851398e-05
3.275481985308e-02-j4.023908363468e-05
3.275479390520e-02-j4.960858338034e-05
3.275475446681e-02-j6.115970592185e-05
3.275469452414e-02-j7.540040471881e-05
3.275460341704e-02-j9.295688206583e-05
3.275446494334e-02-j1.146010998175e-04
3.275425447788e-02-j1.412846756860e-04
3.275393459432e-02-j1.741806343137e-04
3.275344841184e-02-j2.147348090006e-04
3.275270948561e-02-j2.647290792413e-04
3.275158644789e-02-j3.263590839328e-04
3.274987967932e-02-j4.023295635116e-04
3.274728588675e-02-j4.959710289698e-04
3.274334434695e-02-j6.113819623240e-04
3.273735539106e-02-j7.536010700534e-04
3.272825694526e-02-j9.288139290805e-04
3.271443789046e-02-j1.144597078228e-03
3.269345670413e-02-j1.410199061745e-03
3.266161914871e-02-j1.736849972692e-03
3.261334860642e-02-j2.138074753677e-03
3.254025691387e-02-j2.629953967522e-03
3.242979532309e-02-j3.231217259721e-03
3.226334607032e-02-j3.962951009403e-03
3.201363601531e-02-j4.847528157922e-03
3.164148569781e-02-j5.906103686382e-03
3.109228926003e-02-j7.153682453385e-03
3.029347502200e-02-j8.590514051909e-03
2.915573498023e-02-j1.018889071558e-02
2.758281459176e-02-j1.187634626858e-02
2.549549016123e-02-j1.352104064933e-02
2.287107659429e-02-j1.493224714709e-02
1.978645888674e-02-j1.589202324541e-02
1.643556019686e-02-j1.622127995952e-02
1.309298208528e-02-j1.585256194380e-02
1.003066386775e-02-j1.486119979058e-02
7.436198783410e-03-j1.343064813611e-02
5.379857188410e-03-j1.177880691687e-02
3.834458128920e-03-j1.009351318300e-02
2.718853079387e-03-j8.502979468794e-03
1.936694635493e-03-j7.076632153957e-03
1.399481777923e-03-j5.840133714534e-03
1.035698162908e-03-j4.792072249978e-03
7.917135540952e-04-j3.916896421238e-03
6.291304001780e-04-j3.193276100452e-03
5.212564214818e-04-j2.598862126362e-03
4.498865518755e-04-j2.112684649815e-03
4.027573187800e-04-j1.716163692218e-03
3.716743586207e-04-j1.393370706163e-03
3.511912503168e-04-j1.130920819473e-03
3.377005943743e-04-j9.177066545866e-04
</dep>
<dep ac.r frequency>
7.450098348650e+00-j2.694906995081e-07
7.450098348650e+00-j3.322407301985e-07
7.450098348650e+00-j4.096019009351e-07
7.450098348650e+00-j5.049763680371e-07
7.450098348650e+00-j6.225584688298e-07
7.450098348650e+00-j7.675191784089e-07
7.450098348650e+00-j9.462335165607e-07
7.450098348650e+00-j1.166560905643e-06
7.450098348650e+00-j1.438190808882e-06
7.450098348650e+00-j1.773068849426e-06
7.450098348650e+00-j2.185922149821e-06
7.450098348649e+00-j2.694906995081e-06
7.450098348649e+00-j3.322407301985e-06
7.450098348648e+00-j4.096019009350e-06
7.450098348647e+00-j5.049763680369e-06
7.450098348645e+00-j6.225584688294e-06
7.450098348642e+00-j7.675191784081e-06
7.450098348638e+00-j9.462335165592e-06
7.450098348632e+00-j1.166560905640e-05
7.450098348622e+00-j1.438190808877e-05
7.450098348608e+00-j1.773068849416e-05
7.450098348586e+00-j2.185922149802e-05
7.450098348552e+00-j2.694906995045e-05
7.450098348501e+00-j3.322407301918e-05
7.450098348423e+00-j4.096019009225e-05
7.450098348305e+00-j5.049763680135e-05
7.450098348125e+00-j6.225584687856e-05
7.450098347852e+00-j7.675191783259e-05
7.450098347437e+00-j9.462335164052e-05
7.450098346807e+00-j1.166560905351e-04
7.450098345848e+00-j1.438190808336e-04
7.450098344391e+00-j1.773068848403e-04
7.450098342177e+00-j2.185922147904e-04
7.450098338812e+00-j2.694906991489e-04
7.450098333696e+00-j3.322407295254e-04
7.450098325922e+00-j4.096018996739e-04
7.450098314104e+00-j5.049763656738e-04
7.450098296144e+00-j6.225584644014e-04
7.450098268845e+00-j7.675191701108e-04
7.450098227353e+00-j9.462335010116e-04
7.450098164289e+00-j1.166560876506e-03
7.450098068437e+00-j1.438190754286e-03
7.450097922751e+00-j1.773068747123e-03
7.450097701322e+00-j2.185921958124e-03
7.450097364769e+00-j2.694906635876e-03
7.450096853237e+00-j3.322406628901e-03
7.450096075756e+00-j4.096017748114e-03
7.450094894054e+00-j5.049761317044e-03
7.450093097972e+00-j6.225580259856e-03
7.450090368088e+00-j7.675183485999e-03
7.450086218913e+00-j9.462319616509e-03
7.450079912543e+00-j1.166557992028e-02
7.450070327443e+00-j1.438185349307e-02
7.450055758991e+00-j1.773058619200e-02
7.450033616349e+00-j2.185902980302e-02
7.449999961757e+00-j2.694871075067e-02
7.449948810357e+00-j3.322339994903e-02
7.449871066135e+00-j4.095892889496e-02
7.449752904966e+00-j5.049527358572e-02
7.449573317740e+00-j6.225141875168e-02
7.449300377861e+00-j7.674362063813e-02
7.448885572167e+00-j9.460780508676e-02
7.448255193676e+00-j1.166269616201e-01
7.447297280616e+00-j1.437645056501e-01
7.445841814079e+00-j1.772046410824e-01
7.443630733612e+00-j2.184006860770e-01
7.440272624906e+00-j2.691319727239e-01
7.435174450594e+00-j3.315690065791e-01
7.427439168907e+00-j4.083445352001e-01
7.415713288260e+00-j5.026240484821e-01
7.397962381830e+00-j6.181613009187e-01
7.371146239892e+00-j7.593098346164e-01
7.330761787097e+00-j9.309357749696e-01
7.270229256706e+00-j1.138134664670e+00
7.180133497217e+00-j1.385591600739e+00
7.047432391776e+00-j1.676346689353e+00
6.854960899185e+00-j2.009680948980e+00
6.581934156727e+00-j2.377949428584e+00
6.206603898610e+00-j2.762711309972e+00
5.712301795804e+00-j3.131709680996e+00
5.096842047012e+00-j3.439875329615e+00
4.381910443147e+00-j3.637862962557e+00
3.615421586911e+00-j3.687941745386e+00
2.861168433384e+00-j3.579790611807e+00
2.179036640421e+00-j3.335302349558e+00
1.607644918420e+00-j2.998632732247e+00
1.158953963752e+00-j2.619078887054e+00
8.241570406969e-01-j2.237471029191e+00
5.837429592048e-01-j1.880732472807e+00
4.158185717678e-01-j1.562828390305e+00
3.007825662159e-01-j1.288389104678e+00
2.230221444208e-01-j1.056418764198e+00
1.709317549415e-01-j8.630700388994e-01
1.362482608228e-01-j7.033983496998e-01
1.132480051949e-01-j5.723423208613e-01
9.803631087254e-02-j4.652070331564e-01
8.799358193506e-02-j3.778592092404e-01
8.137115959647e-02-j3.067689537001e-01
7.700754605072e-02-j2.489771083032e-01
7.413375992025e-02-j2.020317232869e-01
</dep>
