<Qucs Dataset 0.0.22>
<indep frequency 100>
1.000000000000e+00
1.232846739442e+00
1.519911082953e+00
1.873817422860e+00
2.310129700083e+00
2.848035868436e+00
3.511191734215e+00
4.328761281083e+00
5.336699231206e+00
6.579332246576e+00
8.111308307897e+00
1.000000000000e+01
1.232846739442e+01
1.519911082953e+01
1.873817422860e+01
2.310129700083e+01
2.848035868436e+01
3.511191734215e+01
4.328761281083e+01
5.336699231206e+01
6.579332246576e+01
8.111308307897e+01
1.000000000000e+02
1.232846739442e+02
1.519911082953e+02
1.873817422860e+02
2.310129700083e+02
2.848035868436e+02
3.511191734215e+02
4.328761281083e+02
5.336699231206e+02
6.579332246576e+02
8.111308307897e+02
1.000000000000e+03
1.232846739442e+03
1.519911082953e+03
1.873817422860e+03
2.310129700083e+03
2.848035868436e+03
3.511191734215e+03
4.328761281083e+03
5.336699231206e+03
6.579332246576e+03
8.111308307897e+03
1.000000000000e+04
1.232846739442e+04
1.519911082953e+04
1.873817422860e+04
2.310129700083e+04
2.848035868436e+04
3.511191734215e+04
4.328761281083e+04
5.336699231206e+04
6.579332246576e+04
8.111308307897e+04
1.000000000000e+05
1.232846739442e+05
1.519911082953e+05
1.873817422860e+05
2.310129700083e+05
2.848035868436e+05
3.511191734215e+05
4.328761281083e+05
5.336699231206e+05
6.579332246576e+05
8.111308307897e+05
1.000000000000e+06
1.232846739442e+06
1.519911082953e+06
1.873817422860e+06
2.310129700083e+06
2.848035868436e+06
3.511191734215e+06
4.328761281083e+06
5.336699231206e+06
6.579332246576e+06
8.111308307897e+06
1.000000000000e+07
1.232846739442e+07
1.519911082953e+07
1.873817422860e+07
2.310129700083e+07
2.848035868436e+07
3.511191734215e+07
4.328761281083e+07
5.336699231206e+07
6.579332246576e+07
8.111308307897e+07
1.000000000000e+08
1.232846739442e+08
1.519911082953e+08
1.873817422860e+08
2.310129700083e+08
2.848035868436e+08
3.511191734215e+08
4.328761281083e+08
5.336699231206e+08
6.579332246576e+08
8.111308307897e+08
1.000000000000e+09
</indep>
<dep ac.i(pr1) frequency>
4.396562509698e-03+j5.209422374379e-12
4.396562509698e-03+j6.422419388629e-12
4.396562509698e-03+j7.917858802601e-12
4.396562509698e-03+j9.761506408150e-12
4.396562509698e-03+j1.203444134733e-11
4.396562509698e-03+j1.483662177606e-11
4.396562509698e-03+j1.829128078095e-11
4.396562509698e-03+j2.255034587102e-11
4.396562509698e-03+j2.780112038038e-11
4.396562509698e-03+j3.427452061378e-11
4.396562509698e-03+j4.225523098464e-11
4.396562509698e-03+j5.209422374378e-11
4.396562509698e-03+j6.422419388628e-11
4.396562509698e-03+j7.917858802599e-11
4.396562509698e-03+j9.761506408145e-11
4.396562509698e-03+j1.203444134732e-10
4.396562509698e-03+j1.483662177605e-10
4.396562509698e-03+j1.829128078093e-10
4.396562509698e-03+j2.255034587097e-10
4.396562509698e-03+j2.780112038028e-10
4.396562509698e-03+j3.427452061360e-10
4.396562509699e-03+j4.225523098430e-10
4.396562509699e-03+j5.209422374314e-10
4.396562509700e-03+j6.422419388508e-10
4.396562509702e-03+j7.917858802373e-10
4.396562509704e-03+j9.761506407722e-10
4.396562509707e-03+j1.203444134653e-09
4.396562509713e-03+j1.483662177456e-09
4.396562509720e-03+j1.829128077814e-09
4.396562509732e-03+j2.255034586575e-09
4.396562509750e-03+j2.780112037050e-09
4.396562509777e-03+j3.427452059527e-09
4.396562509819e-03+j4.225523094995e-09
4.396562509882e-03+j5.209422367878e-09
4.396562509977e-03+j6.422419376449e-09
4.396562510123e-03+j7.917858779778e-09
4.396562510344e-03+j9.761506365382e-09
4.396562510680e-03+j1.203444126719e-08
4.396562511190e-03+j1.483662162590e-08
4.396562511966e-03+j1.829128049957e-08
4.396562513146e-03+j2.255034534376e-08
4.396562514939e-03+j2.780111939239e-08
4.396562517663e-03+j3.427451876248e-08
4.396562521805e-03+j4.225522751565e-08
4.396562528099e-03+j5.209421724352e-08
4.396562537667e-03+j6.422418170598e-08
4.396562552208e-03+j7.917856520234e-08
4.396562574310e-03+j9.761502131410e-08
4.396562607902e-03+j1.203443333350e-07
4.396562658960e-03+j1.483660675962e-07
4.396562736563e-03+j1.829125264289e-07
4.396562854513e-03+j2.255029314547e-07
4.396563033786e-03+j2.780102158245e-07
4.396563306263e-03+j3.427433548485e-07
4.396563720403e-03+j4.225488408780e-07
4.396564349855e-03+j5.209357372522e-07
4.396565306555e-03+j6.422297587807e-07
4.396566760630e-03+j7.917630572349e-07
4.396568970640e-03+j9.761078752735e-07
4.396572329532e-03+j1.203364001742e-06
4.396577434457e-03+j1.483512028209e-06
4.396585192811e-03+j1.828846740341e-06
4.396596983256e-03+j2.254507453670e-06
4.396614900074e-03+j2.779124406260e-06
4.396642123707e-03+j3.425601761492e-06
4.396683481960e-03+j4.222056947153e-06
4.396746298398e-03+j5.202930208423e-06
4.396841671303e-03+j6.410262132020e-06
4.396986393345e-03+j7.895100720961e-06
4.397205813820e-03+j9.718925549648e-06
4.397538062293e-03+j1.195483313739e-05
4.398040180851e-03+j1.468796180086e-05
4.398796799142e-03+j1.801416274934e-05
4.399931891048e-03+j2.203513548368e-05
4.401623552316e-03+j2.684704315713e-05
4.404120001593e-03+j3.251809276432e-05
4.407751123796e-03+j3.904941927857e-05
4.412922881365e-03+j4.631507367825e-05
4.420072813579e-03+j5.398565132901e-05
4.429561044135e-03+j6.146185502981e-05
4.441490693066e-03+j6.787670934768e-05
4.455512270584e-03+j7.223952437605e-05
4.470744272526e-03+j7.373622313443e-05
4.485938457834e-03+j7.206017463395e-05
4.499858685229e-03+j6.755380248629e-05
4.511652219728e-03+j6.105102535055e-05
4.520999634767e-03+j5.354233960909e-05
4.528024483849e-03+j4.588158732422e-05
4.533095638930e-03+j3.865157875773e-05
4.536651061341e-03+j3.216790281498e-05
4.539093045815e-03+j2.654721277029e-05
4.540746680818e-03+j2.178309101773e-05
4.541855750843e-03+j1.780484683504e-05
4.542594797899e-03+j1.451552103531e-05
4.543085155883e-03+j1.181352219712e-05
4.543409578753e-03+j9.603528734403e-06
4.543623812031e-03+j7.801082559443e-06
4.543765104475e-03+j6.333778055769e-06
4.543858213638e-03+j5.140772262431e-06
4.543919537519e-03+j4.171574912520e-06
</dep>
<dep ac.v(vd) frequency>
3.275624786653e-02-j1.146072922363e-09
3.275624786653e-02-j1.412932265498e-09
3.275624786653e-02-j1.741928936572e-09
3.275624786653e-02-j2.147531409793e-09
3.275624786653e-02-j2.647577096413e-09
3.275624786653e-02-j3.264056790734e-09
3.275624786653e-02-j4.024081771810e-09
3.275624786653e-02-j4.961076091624e-09
3.275624786653e-02-j6.116246483683e-09
3.275624786653e-02-j7.540394535032e-09
3.275624786652e-02-j9.296150816621e-09
3.275624786652e-02-j1.146072922363e-08
3.275624786652e-02-j1.412932265498e-08
3.275624786652e-02-j1.741928936572e-08
3.275624786651e-02-j2.147531409792e-08
3.275624786651e-02-j2.647577096411e-08
3.275624786649e-02-j3.264056790730e-08
3.275624786648e-02-j4.024081771804e-08
3.275624786645e-02-j4.961076091612e-08
3.275624786641e-02-j6.116246483661e-08
3.275624786635e-02-j7.540394534992e-08
3.275624786626e-02-j9.296150816545e-08
3.275624786612e-02-j1.146072922349e-07
3.275624786591e-02-j1.412932265472e-07
3.275624786559e-02-j1.741928936522e-07
3.275624786511e-02-j2.147531409699e-07
3.275624786437e-02-j2.647577096236e-07
3.275624786324e-02-j3.264056790403e-07
3.275624786154e-02-j4.024081771191e-07
3.275624785894e-02-j4.961076090464e-07
3.275624785500e-02-j6.116246481509e-07
3.275624784900e-02-j7.540394530959e-07
3.275624783989e-02-j9.296150808989e-07
3.275624782604e-02-j1.146072920933e-06
3.275624780499e-02-j1.412932262819e-06
3.275624777300e-02-j1.741928931551e-06
3.275624772438e-02-j2.147531400384e-06
3.275624765048e-02-j2.647577078782e-06
3.275624753815e-02-j3.264056757698e-06
3.275624736742e-02-j4.024081709906e-06
3.275624710793e-02-j4.961075975628e-06
3.275624671353e-02-j6.116246266326e-06
3.275624611407e-02-j7.540394127746e-06
3.275624520295e-02-j9.296150053442e-06
3.275624381813e-02-j1.146072779357e-05
3.275624171332e-02-j1.412931997532e-05
3.275623851421e-02-j1.741928434451e-05
3.275623365184e-02-j2.147530468910e-05
3.275622626147e-02-j2.647575333371e-05
3.275621502877e-02-j3.264053487116e-05
3.275619795608e-02-j4.024075581437e-05
3.275617200714e-02-j4.961064492004e-05
3.275613256715e-02-j6.116224748139e-05
3.275607262205e-02-j7.540353806667e-05
3.275598151125e-02-j9.296074499316e-05
3.275584303191e-02-j1.146058621955e-04
3.275563255790e-02-j1.412905469318e-04
3.275531266135e-02-j1.741878725917e-04
3.275482645911e-02-j2.147437325602e-04
3.275408750285e-02-j2.647400803832e-04
3.275296441950e-02-j3.263726462059e-04
3.275125758157e-02-j4.023462828751e-04
3.274866368361e-02-j4.959916398074e-04
3.274472198364e-02-j6.114073693771e-04
3.273873278438e-02-j7.536323875282e-04
3.272963396884e-02-j9.288525283736e-04
3.271581435246e-02-j1.144644645853e-03
3.269483231344e-02-j1.410257669044e-03
3.266299346404e-02-j1.736922158611e-03
3.261472095965e-02-j2.138163620923e-03
3.254162629556e-02-j2.630063290226e-03
3.243116021282e-02-j3.231351596189e-03
3.226470418872e-02-j3.963115804855e-03
3.201498396934e-02-j4.847729806410e-03
3.164281849042e-02-j5.906349494568e-03
3.109359964963e-02-j7.153980408150e-03
3.029475276492e-02-j8.590872241285e-03
2.915696609978e-02-j1.018931620921e-02
2.758398101253e-02-j1.187684329238e-02
2.549657029030e-02-j1.352160810656e-02
2.287204752557e-02-j1.493287605649e-02
1.978730047155e-02-j1.589269536273e-02
1.643626004435e-02-j1.622196908958e-02
1.309353927654e-02-j1.585323841947e-02
1.003108924971e-02-j1.486183654698e-02
7.436511659911e-03-j1.343122557712e-02
5.380080351200e-03-j1.177931471400e-02
3.834613553138e-03-j1.009394921133e-02
2.718959435316e-03-j8.503347326701e-03
1.936766504988e-03-j7.076938619296e-03
1.399529920707e-03-j5.840386809463e-03
1.035730220095e-03-j4.792280023901e-03
7.917348144718e-04-j3.917066303708e-03
6.291444621681e-04-j3.193414627767e-03
5.212657056827e-04-j2.598974883366e-03
4.498926743448e-04-j2.112776321569e-03
4.027613530763e-04-j1.716238163077e-03
3.716770155743e-04-j1.393431172269e-03
3.511929995665e-04-j1.130969897735e-03
3.377017457629e-04-j9.177464807546e-04
</dep>
<dep ac.r frequency>
7.450422413937e+00-j2.695026664517e-07
7.450422413937e+00-j3.322554836059e-07
7.450422413937e+00-j4.096200896253e-07
7.450422413937e+00-j5.049987919045e-07
7.450422413937e+00-j6.225861140217e-07
7.450422413937e+00-j7.675532606935e-07
7.450422413937e+00-j9.462755347941e-07
7.450422413937e+00-j1.166612707685e-06
7.450422413937e+00-j1.438254672861e-06
7.450422413937e+00-j1.773147583924e-06
7.450422413937e+00-j2.186019217390e-06
7.450422413936e+00-j2.695026664517e-06
7.450422413936e+00-j3.322554836059e-06
7.450422413935e+00-j4.096200896252e-06
7.450422413934e+00-j5.049987919043e-06
7.450422413932e+00-j6.225861140212e-06
7.450422413929e+00-j7.675532606927e-06
7.450422413925e+00-j9.462755347926e-06
7.450422413919e+00-j1.166612707682e-05
7.450422413909e+00-j1.438254672855e-05
7.450422413895e+00-j1.773147583914e-05
7.450422413872e+00-j2.186019217371e-05
7.450422413839e+00-j2.695026664481e-05
7.450422413788e+00-j3.322554835992e-05
7.450422413710e+00-j4.096200896127e-05
7.450422413592e+00-j5.049987918809e-05
7.450422413412e+00-j6.225861139774e-05
7.450422413139e+00-j7.675532606105e-05
7.450422412724e+00-j9.462755346386e-05
7.450422412093e+00-j1.166612707393e-04
7.450422411135e+00-j1.438254672315e-04
7.450422409678e+00-j1.773147582901e-04
7.450422407463e+00-j2.186019215473e-04
7.450422404098e+00-j2.695026660925e-04
7.450422398982e+00-j3.322554829328e-04
7.450422391207e+00-j4.096200883640e-04
7.450422379390e+00-j5.049987895411e-04
7.450422361428e+00-j6.225861095930e-04
7.450422334128e+00-j7.675532523950e-04
7.450422292634e+00-j9.462755192443e-04
7.450422229567e+00-j1.166612678547e-03
7.450422133711e+00-j1.438254618262e-03
7.450421988019e+00-j1.773147481616e-03
7.450421766579e+00-j2.186019025684e-03
7.450421430011e+00-j2.695026305296e-03
7.450420918457e+00-j3.322554162944e-03
7.450420140941e+00-j4.096199634959e-03
7.450418959185e+00-j5.049985555610e-03
7.450417163023e+00-j6.225856711573e-03
7.450414433017e+00-j7.675524308467e-03
7.450410283655e+00-j9.462739798137e-03
7.450403977002e+00-j1.166609793938e-02
7.450394391472e+00-j1.438249213038e-02
7.450379822365e+00-j1.773137353233e-02
7.450357678729e+00-j2.186000047001e-02
7.450324022625e+00-j2.694990742871e-02
7.450272868928e+00-j3.322487525920e-02
7.450195121215e+00-j4.096074770670e-02
7.450076954739e+00-j5.049751586514e-02
7.449897359449e+00-j6.225418306977e-02
7.449624407311e+00-j7.674702848979e-02
7.449209582989e+00-j9.461200620410e-02
7.448579176189e+00-j1.166321405015e-01
7.447621220111e+00-j1.437708895696e-01
7.446165688211e+00-j1.772125098890e-01
7.443954508450e+00-j2.184103841362e-01
7.440596248941e+00-j2.691439233773e-01
7.435497845691e+00-j3.315837294831e-01
7.427762216659e+00-j4.083626667940e-01
7.416035809503e+00-j5.026463655356e-01
7.398284106104e+00-j6.181887464551e-01
7.371466760355e+00-j7.593435441819e-01
7.331080495019e+00-j9.309770987420e-01
7.270545248632e+00-j1.138185176501e+00
7.180445448545e+00-j1.385653077988e+00
7.047738395780e+00-j1.676421036759e+00
6.855258285647e+00-j2.009770027287e+00
6.582219336275e+00-j2.378054741690e+00
6.206872330488e+00-j2.762833521734e+00
5.712548229981e+00-j3.131848004688e+00
5.097061184825e+00-j3.440026975833e+00
4.382098002634e+00-j3.638022982279e+00
3.615575445680e+00-j3.688103582378e+00
2.861289285860e+00-j3.579947334552e+00
2.179127776293e+00-j3.335448058323e+00
1.607711259698e+00-j2.998763499286e+00
1.159000897259e+00-j2.619192941885e+00
8.241895286071e-01-j2.237568363708e+00
5.837650927489e-01-j1.880814226803e+00
4.158334823487e-01-j1.562896289460e+00
3.007925331712e-01-j1.288445060238e+00
2.230287716985e-01-j1.056464633933e+00
1.709361459483e-01-j8.631075072953e-01
1.362511632574e-01-j7.034288829528e-01
1.132499206682e-01-j5.723671634131e-01
9.803757367792e-02-j4.652272245296e-01
8.799441388502e-02-j3.778756089398e-01
8.137170744482e-02-j3.067822676906e-01
7.700790670681e-02-j2.489879139384e-01
7.413399729818e-02-j2.020404914078e-01
</dep>
