<Qucs Dataset 0.0.21>
<indep time 409>
0.000000000000e+00
9.975060000000e-08
1.995012000000e-07
3.990024000000e-07
7.980048000000e-07
1.596009600000e-06
3.192019200000e-06
6.384038400000e-06
1.276807680000e-05
2.274313680000e-05
3.271819680000e-05
4.269325680000e-05
5.266831680000e-05
6.264337680000e-05
7.261843680000e-05
8.259349680000e-05
9.256855680000e-05
1.025436168000e-04
1.125186768000e-04
1.224937368000e-04
1.324687968000e-04
1.424438568000e-04
1.524189168000e-04
1.623939768000e-04
1.723690368000e-04
1.823440968000e-04
1.923191568000e-04
2.022942168000e-04
2.122692768000e-04
2.222443368000e-04
2.322193968000e-04
2.421944568000e-04
2.521695168000e-04
2.621445768000e-04
2.721196368000e-04
2.820946968000e-04
2.920697568000e-04
3.020448168000e-04
3.120198768000e-04
3.219949368000e-04
3.319699968000e-04
3.419450568000e-04
3.519201168000e-04
3.618951768000e-04
3.718702368000e-04
3.818452968000e-04
3.918203568000e-04
4.017954168000e-04
4.117704768000e-04
4.217455368000e-04
4.317205968000e-04
4.416956568000e-04
4.516707168000e-04
4.616457768000e-04
4.716208368000e-04
4.815958968000e-04
4.915709568000e-04
5.015460168000e-04
5.115210768000e-04
5.214961368000e-04
5.314711968000e-04
5.414462568000e-04
5.514213168000e-04
5.613963768000e-04
5.713714368000e-04
5.813464968000e-04
5.913215568000e-04
6.012966168000e-04
6.112716768000e-04
6.212467368000e-04
6.312217968000e-04
6.411968568000e-04
6.511719168000e-04
6.611469768000e-04
6.711220368000e-04
6.810970968000e-04
6.910721568000e-04
7.010472168000e-04
7.110222768000e-04
7.209973368000e-04
7.309723968000e-04
7.409474568000e-04
7.509225168000e-04
7.608975768000e-04
7.708726368000e-04
7.808476968000e-04
7.908227568000e-04
8.007978168000e-04
8.107728768000e-04
8.207479368000e-04
8.307229968000e-04
8.406980568000e-04
8.506731168000e-04
8.606481768000e-04
8.706232368000e-04
8.805982968000e-04
8.905733568000e-04
9.005484168000e-04
9.105234768000e-04
9.204985368000e-04
9.304735968000e-04
9.404486568000e-04
9.504237168000e-04
9.603987768000e-04
9.703738368000e-04
9.803488968000e-04
9.903239568000e-04
1.000299016800e-03
1.010274076800e-03
1.020249136800e-03
1.030224196800e-03
1.040199256800e-03
1.050174316800e-03
1.060149376800e-03
1.070124436800e-03
1.080099496800e-03
1.090074556800e-03
1.100049616800e-03
1.110024676800e-03
1.119999736800e-03
1.129974796800e-03
1.139949856800e-03
1.149924916800e-03
1.159899976800e-03
1.169875036800e-03
1.179850096800e-03
1.189825156800e-03
1.199800216800e-03
1.209775276800e-03
1.219750336800e-03
1.229725396800e-03
1.239700456800e-03
1.249675516800e-03
1.259650576800e-03
1.269625636800e-03
1.279600696800e-03
1.289575756800e-03
1.299550816800e-03
1.309525876800e-03
1.319500936800e-03
1.329475996800e-03
1.339451056800e-03
1.349426116800e-03
1.359401176800e-03
1.369376236800e-03
1.379351296800e-03
1.389326356800e-03
1.399301416800e-03
1.409276476800e-03
1.419251536800e-03
1.429226596800e-03
1.439201656800e-03
1.449176716800e-03
1.459151776800e-03
1.469126836800e-03
1.479101896800e-03
1.489076956800e-03
1.499052016800e-03
1.509027076800e-03
1.519002136800e-03
1.528977196800e-03
1.538952256800e-03
1.548927316800e-03
1.558902376800e-03
1.568877436800e-03
1.578852496800e-03
1.588827556800e-03
1.598802616800e-03
1.608777676800e-03
1.618752736800e-03
1.628727796800e-03
1.638702856800e-03
1.648677916800e-03
1.658652976800e-03
1.668628036800e-03
1.678603096800e-03
1.688578156800e-03
1.698553216800e-03
1.708528276800e-03
1.718503336800e-03
1.728478396800e-03
1.738453456800e-03
1.748428516800e-03
1.758403576800e-03
1.768378636800e-03
1.778353696800e-03
1.788328756800e-03
1.798303816800e-03
1.808278876800e-03
1.818253936800e-03
1.828228996800e-03
1.838204056800e-03
1.848179116800e-03
1.858154176800e-03
1.868129236800e-03
1.878104296800e-03
1.888079356800e-03
1.898054416800e-03
1.908029476800e-03
1.918004536800e-03
1.927979596800e-03
1.937954656800e-03
1.947929716800e-03
1.957904776800e-03
1.967879836800e-03
1.977854896800e-03
1.987829956800e-03
1.997805016800e-03
2.007780076800e-03
2.017755136800e-03
2.027730196800e-03
2.037705256800e-03
2.047680316800e-03
2.057655376800e-03
2.067630436800e-03
2.077605496800e-03
2.087580556800e-03
2.097555616800e-03
2.107530676800e-03
2.117505736800e-03
2.127480796800e-03
2.137455856800e-03
2.147430916800e-03
2.157405976800e-03
2.167381036800e-03
2.177356096800e-03
2.187331156800e-03
2.197306216800e-03
2.207281276800e-03
2.217256336800e-03
2.227231396800e-03
2.237206456800e-03
2.247181516800e-03
2.257156576800e-03
2.267131636800e-03
2.277106696800e-03
2.287081756800e-03
2.297056816800e-03
2.307031876800e-03
2.317006936800e-03
2.326981996800e-03
2.336957056800e-03
2.346932116800e-03
2.356907176800e-03
2.366882236800e-03
2.376857296800e-03
2.386832356800e-03
2.396807416800e-03
2.406782476800e-03
2.416757536800e-03
2.426732596800e-03
2.436707656800e-03
2.446682716800e-03
2.456657776800e-03
2.466632836800e-03
2.476607896800e-03
2.486582956800e-03
2.496558016800e-03
2.506533076800e-03
2.516508136800e-03
2.526483196800e-03
2.536458256800e-03
2.546433316800e-03
2.556408376800e-03
2.566383436800e-03
2.576358496800e-03
2.586333556800e-03
2.596308616800e-03
2.606283676800e-03
2.616258736800e-03
2.626233796800e-03
2.636208856800e-03
2.646183916800e-03
2.656158976800e-03
2.666134036800e-03
2.676109096800e-03
2.686084156800e-03
2.696059216800e-03
2.706034276800e-03
2.716009336800e-03
2.725984396800e-03
2.735959456800e-03
2.745934516800e-03
2.755909576800e-03
2.765884636800e-03
2.775859696800e-03
2.785834756800e-03
2.795809816800e-03
2.805784876800e-03
2.815759936800e-03
2.825734996800e-03
2.835710056800e-03
2.845685116800e-03
2.855660176800e-03
2.865635236800e-03
2.875610296800e-03
2.885585356800e-03
2.895560416800e-03
2.905535476800e-03
2.915510536800e-03
2.925485596800e-03
2.935460656800e-03
2.945435716800e-03
2.955410776800e-03
2.965385836800e-03
2.975360896800e-03
2.985335956800e-03
2.995311016800e-03
3.005286076800e-03
3.015261136800e-03
3.025236196800e-03
3.035211256800e-03
3.045186316800e-03
3.055161376800e-03
3.065136436800e-03
3.075111496800e-03
3.085086556800e-03
3.095061616800e-03
3.105036676800e-03
3.115011736800e-03
3.124986796800e-03
3.134961856800e-03
3.144936916800e-03
3.154911976800e-03
3.164887036800e-03
3.174862096800e-03
3.184837156800e-03
3.194812216800e-03
3.204787276800e-03
3.214762336800e-03
3.224737396800e-03
3.234712456800e-03
3.244687516800e-03
3.254662576800e-03
3.264637636800e-03
3.274612696800e-03
3.284587756800e-03
3.294562816800e-03
3.304537876800e-03
3.314512936800e-03
3.324487996800e-03
3.334463056800e-03
3.344438116800e-03
3.354413176800e-03
3.364388236800e-03
3.374363296800e-03
3.384338356800e-03
3.394313416800e-03
3.404288476800e-03
3.414263536800e-03
3.424238596800e-03
3.434213656800e-03
3.444188716800e-03
3.454163776800e-03
3.464138836800e-03
3.474113896800e-03
3.484088956800e-03
3.494064016800e-03
3.504039076800e-03
3.514014136800e-03
3.523989196800e-03
3.533964256800e-03
3.543939316800e-03
3.553914376800e-03
3.563889436800e-03
3.573864496800e-03
3.583839556800e-03
3.593814616800e-03
3.603789676800e-03
3.613764736800e-03
3.623739796800e-03
3.633714856800e-03
3.643689916800e-03
3.653664976800e-03
3.663640036800e-03
3.673615096800e-03
3.683590156800e-03
3.693565216800e-03
3.703540276800e-03
3.713515336800e-03
3.723490396800e-03
3.733465456800e-03
3.743440516800e-03
3.753415576800e-03
3.763390636800e-03
3.773365696800e-03
3.783340756800e-03
3.793315816800e-03
3.803290876800e-03
3.813265936800e-03
3.823240996800e-03
3.833216056800e-03
3.843191116800e-03
3.853166176800e-03
3.863141236800e-03
3.873116296800e-03
3.883091356800e-03
3.893066416800e-03
3.903041476800e-03
3.913016536800e-03
3.922991596800e-03
3.932966656800e-03
3.942941716800e-03
3.952916776800e-03
3.962891836800e-03
3.972866896800e-03
3.982841956800e-03
3.992817016800e-03
4.000000000000e-03
</indep>
<dep tran.i(pr1) time>
5.778579300325e-03
5.778855370053e-03
5.779130953761e-03
5.779682069424e-03
5.780784291205e-03
5.782988714712e-03
5.787397247756e-03
5.796211544090e-03
5.813816606466e-03
5.841203842317e-03
5.868349198822e-03
5.895145920887e-03
5.921488560418e-03
5.947273435131e-03
5.972398999404e-03
5.996766287912e-03
6.020279269253e-03
6.042845267993e-03
6.064375294493e-03
6.084784439082e-03
6.103992171952e-03
6.121922703619e-03
6.138505249253e-03
6.153674350134e-03
6.167370097372e-03
6.179538409716e-03
6.190131212287e-03
6.199106666823e-03
6.206429301805e-03
6.212070191997e-03
6.216007037151e-03
6.218224288538e-03
6.218713174285e-03
6.217471771453e-03
6.214504976939e-03
6.209824524569e-03
6.203448901388e-03
6.195403310136e-03
6.185719531657e-03
6.174435834031e-03
6.161596782726e-03
6.147253098516e-03
6.131461417888e-03
6.114284102723e-03
6.095788954269e-03
6.076048978385e-03
6.055142057167e-03
6.033150674266e-03
6.010161548968e-03
5.986265326767e-03
5.961556181319e-03
5.936131476014e-03
5.910091339757e-03
5.883538305765e-03
5.856576867535e-03
5.829313101458e-03
5.801854209650e-03
5.774308133190e-03
5.746783088689e-03
5.719387179065e-03
5.692227930765e-03
5.665411908979e-03
5.639044262335e-03
5.613228349298e-03
5.588065296956e-03
5.563653645042e-03
5.540088925103e-03
5.517463328192e-03
5.495865310237e-03
5.475379288961e-03
5.456085280737e-03
5.438058631674e-03
5.421369690666e-03
5.406083578939e-03
5.392259903317e-03
5.379952567873e-03
5.369209530766e-03
5.360072660930e-03
5.352577541172e-03
5.346753372167e-03
5.342622823840e-03
5.340201988278e-03
5.339500280779e-03
5.340520442671e-03
5.343258492798e-03
5.347703780615e-03
5.353838988287e-03
5.361640233830e-03
5.371077123393e-03
5.382112903625e-03
5.394704563090e-03
5.408803032419e-03
5.424353333187e-03
5.441294823769e-03
5.459561393341e-03
5.479081750704e-03
5.499779660400e-03
5.521574271081e-03
5.544380390050e-03
5.568108847089e-03
5.592666803044e-03
5.617958144378e-03
5.643883820791e-03
5.670342265151e-03
5.697229754554e-03
5.724440849764e-03
5.751868773617e-03
5.779405863662e-03
5.806943961418e-03
5.834374871586e-03
5.861590755392e-03
5.888484589526e-03
5.914950556674e-03
5.940884497266e-03
5.966184290275e-03
5.990750290934e-03
6.014485694992e-03
6.037296955751e-03
6.059094125224e-03
6.079791244157e-03
6.099306653905e-03
6.117563353535e-03
6.134489276716e-03
6.150017610542e-03
6.164087032318e-03
6.176641985355e-03
6.187632871209e-03
6.197016278425e-03
6.204755126513e-03
6.210818844396e-03
6.215183463218e-03
6.217831742074e-03
6.218753207591e-03
6.217944225394e-03
6.215407985287e-03
6.211154517784e-03
6.205200624630e-03
6.197569840637e-03
6.188292310168e-03
6.177404695434e-03
6.164950000458e-03
6.150977427859e-03
6.135542152692e-03
6.118705130594e-03
6.100532824731e-03
6.081096968981e-03
6.060474251993e-03
6.038746039831e-03
6.015998021868e-03
5.992319897986e-03
5.967804991647e-03
5.942549907339e-03
5.916654116717e-03
5.890219592450e-03
5.863350373767e-03
5.836152183244e-03
5.808731978404e-03
5.781197558233e-03
5.753657107688e-03
5.726218800846e-03
5.698990345243e-03
5.672078588567e-03
5.645589069662e-03
5.619625635539e-03
5.594290005695e-03
5.569681405937e-03
5.545896152336e-03
5.523027307968e-03
5.501164292409e-03
5.480392566989e-03
5.460793275189e-03
5.442442961449e-03
5.425413247222e-03
5.409770587732e-03
5.395575987787e-03
5.382884800216e-03
5.371746484877e-03
5.362204451797e-03
5.354295866146e-03
5.348051538435e-03
5.343495777549e-03
5.340646329710e-03
5.339514281020e-03
5.340104046264e-03
5.342413321797e-03
5.346433124643e-03
5.352147795970e-03
5.359535090340e-03
5.368566229401e-03
5.379206040553e-03
5.391413059889e-03
5.405139718911e-03
5.420332495118e-03
5.436932144788e-03
5.454873898951e-03
5.474087739588e-03
5.494498638058e-03
5.516026871387e-03
5.538588299532e-03
5.562094717769e-03
5.586454168492e-03
5.611571325040e-03
5.637347833101e-03
5.663682720712e-03
5.690472763733e-03
5.717612916212e-03
5.744996693897e-03
5.772516618701e-03
5.800064613807e-03
5.827532455630e-03
5.854812173784e-03
5.881796503723e-03
5.908379284661e-03
5.934455905988e-03
5.959923696224e-03
5.984682356343e-03
6.008634332931e-03
6.031685231738e-03
6.053744168455e-03
6.074724156096e-03
6.094542427173e-03
6.113120788939e-03
6.130385911194e-03
6.146269643946e-03
6.160709265657e-03
6.173647758496e-03
6.185034012492e-03
6.194823054255e-03
6.202976203237e-03
6.209461250564e-03
6.214252564401e-03
6.217331216366e-03
6.218685033839e-03
6.218308672292e-03
6.216203613262e-03
6.212378181812e-03
6.206847489798e-03
6.199633398582e-03
6.190764408112e-03
6.180275565919e-03
6.168208303431e-03
6.154610293160e-03
6.139535234543e-03
6.123042662092e-03
6.105197683885e-03
6.086070744260e-03
6.065737318877e-03
6.044277636272e-03
6.021776334139e-03
5.998322144759e-03
5.974007517775e-03
5.948928275100e-03
5.923183206031e-03
5.896873697739e-03
5.870103308999e-03
5.842977382760e-03
5.815602605116e-03
5.788086606714e-03
5.760537513796e-03
5.733063545359e-03
5.705772563173e-03
5.678771671614e-03
5.652166773522e-03
5.626062179486e-03
5.600560176238e-03
5.575760651921e-03
5.551760683383e-03
5.528654183597e-03
5.506531513805e-03
5.485479158764e-03
5.465579369174e-03
5.446909869857e-03
5.429543537307e-03
5.413548145285e-03
5.398986081671e-03
5.385914135291e-03
5.374383255583e-03
5.364438383784e-03
5.356118258251e-03
5.349455292450e-03
5.344475428103e-03
5.341198061778e-03
5.339635947381e-03
5.339795172502e-03
5.341675111163e-03
5.345268450457e-03
5.350561193861e-03
5.357532738105e-03
5.366155926750e-03
5.376397176634e-03
5.388216580811e-03
5.401568083302e-03
5.416399629863e-03
5.432653389142e-03
5.450265949090e-03
5.469168581968e-03
5.489287483550e-03
5.510544078738e-03
5.532855300029e-03
5.556133929825e-03
5.580288913944e-03
5.605225736059e-03
5.630846761390e-03
5.657051638075e-03
5.683737665583e-03
5.710800217282e-03
5.738133127584e-03
5.765629129499e-03
5.793180254120e-03
5.820678276592e-03
5.848015121231e-03
5.875083309111e-03
5.901776361929e-03
5.927989244305e-03
5.953618759470e-03
5.978563979391e-03
6.002726625447e-03
6.026011479663e-03
6.048326743748e-03
6.069584425004e-03
6.089700667452e-03
6.108596106382e-03
6.126196165742e-03
6.142431375815e-03
6.157237631605e-03
6.170556468723e-03
6.182335278163e-03
6.192527536176e-03
6.201092971540e-03
6.207997745963e-03
6.213214570752e-03
6.216722835098e-03
6.218508669884e-03
6.218565022071e-03
6.216891664256e-03
6.213495214264e-03
6.208389089972e-03
6.201593474112e-03
6.193135214773e-03
6.183047736322e-03
6.171370886911e-03
6.158150797304e-03
6.143439677573e-03
6.127295626500e-03
6.109782380489e-03
6.090969077019e-03
6.070929959597e-03
6.049744099491e-03
6.027495061292e-03
6.004270587847e-03
5.980162231638e-03
5.955265008453e-03
5.929677000355e-03
5.903498984134e-03
5.876834012105e-03
5.849787021799e-03
5.822464401164e-03
5.794973586227e-03
5.767422617532e-03
5.739919732652e-03
5.712572920772e-03
5.685489516983e-03
5.658775761883e-03
5.632536404462e-03
5.606874273439e-03
5.581889895307e-03
5.557681083819e-03
5.534342579420e-03
5.511965662881e-03
5.490637821862e-03
5.470442394194e-03
5.451458266762e-03
5.433759553350e-03
5.417415330397e-03
5.402489353677e-03
5.389039834834e-03
5.377119200483e-03
5.366773912747e-03
5.358044273691e-03
5.350964292403e-03
5.345561537006e-03
5.341857050159e-03
5.339865250254e-03
5.339593896567e-03
5.341044040622e-03
5.344210041614e-03
5.349079568314e-03
5.355633664788e-03
5.363846802603e-03
5.373686996276e-03
5.385115904953e-03
5.398088996389e-03
5.412555696647e-03
5.428459600794e-03
5.445738668514e-03
5.464325479053e-03
5.484147469973e-03
5.505127233192e-03
5.527182793431e-03
5.550227941532e-03
5.574172548453e-03
5.598922931379e-03
5.624382198481e-03
5.650450642703e-03
5.677026111893e-03
5.704004424587e-03
5.731279759594e-03
5.758745087619e-03
5.778579842915e-03
</dep>
<dep tran.v(vd) time>
7.287125539285e-01
7.287144937346e-01
7.287165404407e-01
7.287206450658e-01
7.287288550375e-01
7.287452683633e-01
7.287780758527e-01
7.288435943547e-01
7.289741633250e-01
7.291765046810e-01
7.293761352958e-01
7.295723060676e-01
7.297642951324e-01
7.299514008570e-01
7.301329525818e-01
7.303083033793e-01
7.304768402960e-01
7.306379768721e-01
7.307911629457e-01
7.309358769760e-01
7.310716354674e-01
7.311979851394e-01
7.313145120287e-01
7.314208335467e-01
7.315166073150e-01
7.316015231470e-01
7.316753116671e-01
7.317377362466e-01
7.317886014511e-01
7.318277449524e-01
7.318550458403e-01
7.318704165257e-01
7.318738109443e-01
7.318652164565e-01
7.318446619623e-01
7.318122097946e-01
7.317679637554e-01
7.317120609911e-01
7.316446799508e-01
7.315660322218e-01
7.314763704033e-01
7.313759798727e-01
7.312651865573e-01
7.311443485943e-01
7.310138639755e-01
7.308741620565e-01
7.307257110420e-01
7.305690092931e-01
7.304045926146e-01
7.302330253059e-01
7.300549072063e-01
7.298708644340e-01
7.296815561435e-01
7.294876648977e-01
7.292899030947e-01
7.290890029227e-01
7.288857224194e-01
7.286808349705e-01
7.284751349752e-01
7.282694268657e-01
7.280645303684e-01
7.278612690438e-01
7.276604751556e-01
7.274629777563e-01
7.272696072055e-01
7.270811828576e-01
7.268985172994e-01
7.267224037339e-01
7.265536200395e-01
7.263929159757e-01
7.262410171991e-01
7.260986124484e-01
7.259663576769e-01
7.258448633999e-01
7.257346991198e-01
7.256363810314e-01
7.255503769225e-01
7.254770944325e-01
7.254168866000e-01
7.253700408559e-01
7.253367853653e-01
7.253172789042e-01
7.253116181042e-01
7.253198283185e-01
7.253418718272e-01
7.253776397435e-01
7.254269611817e-01
7.254895961970e-01
7.255652458589e-01
7.256535461612e-01
7.257540788927e-01
7.258663664033e-01
7.259898831193e-01
7.261240510157e-01
7.262682515942e-01
7.264218218862e-01
7.265840666992e-01
7.267542549665e-01
7.269316320686e-01
7.271154163530e-01
7.273048113506e-01
7.274990023067e-01
7.276971681386e-01
7.278984778457e-01
7.281021020852e-01
7.283072093595e-01
7.285129771236e-01
7.287185876804e-01
7.289232387656e-01
7.291261391134e-01
7.293265184971e-01
7.295236229529e-01
7.297167242819e-01
7.299051149416e-01
7.300881170351e-01
7.302650768979e-01
7.304353736144e-01
7.305984133374e-01
7.307536373830e-01
7.309005163262e-01
7.310385577292e-01
7.311673000586e-01
7.312863201037e-01
7.313952267578e-01
7.314936681808e-01
7.315813254835e-01
7.316579196845e-01
7.317232053299e-01
7.317769772868e-01
7.318190643245e-01
7.318493357802e-01
7.318676951186e-01
7.318740864971e-01
7.318684883119e-01
7.318509196819e-01
7.318214339809e-01
7.317801252493e-01
7.317271217033e-01
7.316625920754e-01
7.315867390821e-01
7.314998056843e-01
7.314020684881e-01
7.312938439068e-01
7.311754814600e-01
7.310473698123e-01
7.309099299280e-01
7.307636209531e-01
7.306089331779e-01
7.304463937220e-01
7.302765592520e-01
7.301000214257e-01
7.299173993089e-01
7.297293445335e-01
7.295365333585e-01
7.293396714971e-01
7.291394857731e-01
7.289367285769e-01
7.287321690781e-01
7.285265972814e-01
7.283208147702e-01
7.281156383512e-01
7.279118903237e-01
7.277104017222e-01
7.275120021345e-01
7.273175225780e-01
7.271277849194e-01
7.269436044528e-01
7.267657790076e-01
7.265950913280e-01
7.264322979912e-01
7.262781317193e-01
7.261332902613e-01
7.259984387952e-01
7.258741989532e-01
7.257611514894e-01
7.256598256422e-01
7.255707022519e-01
7.254942036538e-01
7.254306974227e-01
7.253804869779e-01
7.253438161072e-01
7.253208604369e-01
7.253117328509e-01
7.253164759344e-01
7.253350683559e-01
7.253674183411e-01
7.254133710278e-01
7.254727029685e-01
7.255451304119e-01
7.256303047744e-01
7.257278217472e-01
7.258372176279e-01
7.259579791075e-01
7.260895403125e-01
7.262312930949e-01
7.263825846116e-01
7.265427279235e-01
7.267109999275e-01
7.268866520723e-01
7.270689084630e-01
7.272569765125e-01
7.274500450562e-01
7.276472947821e-01
7.278478962193e-01
7.280510198201e-01
7.282558337163e-01
7.284615133626e-01
7.286672389863e-01
7.288722047353e-01
7.290756157794e-01
7.292766969361e-01
7.294746894101e-01
7.296688588982e-01
7.298584919752e-01
7.300429037007e-01
7.302214336766e-01
7.303934531953e-01
7.305583610064e-01
7.307155900534e-01
7.308646029944e-01
7.310048985822e-01
7.311360069839e-01
7.312574958602e-01
7.313689655287e-01
7.314700547956e-01
7.315604360037e-01
7.316398206651e-01
7.317079544287e-01
7.317646225567e-01
