<Qucs Dataset 0.0.21>
<indep v-sweep 102>
0.000000000000e+00
9.900990000000e-03
1.980198000000e-02
2.970297000000e-02
3.960396000000e-02
4.950495000000e-02
5.940594000000e-02
6.930693000000e-02
7.920792000000e-02
8.910891000000e-02
9.900990000000e-02
1.089108900000e-01
1.188118800000e-01
1.287128700000e-01
1.386138600000e-01
1.485148500000e-01
1.584158400000e-01
1.683168300000e-01
1.782178200000e-01
1.881188100000e-01
1.980198000000e-01
2.079207900000e-01
2.178217800000e-01
2.277227700000e-01
2.376237600000e-01
2.475247500000e-01
2.574257400000e-01
2.673267300000e-01
2.772277200000e-01
2.871287100000e-01
2.970297000000e-01
3.069306900000e-01
3.168316800000e-01
3.267326700000e-01
3.366336600000e-01
3.465346500000e-01
3.564356400000e-01
3.663366300000e-01
3.762376200000e-01
3.861386100000e-01
3.960396000000e-01
4.059405900000e-01
4.158415800000e-01
4.257425700000e-01
4.356435600000e-01
4.455445500000e-01
4.554455400000e-01
4.653465300000e-01
4.752475200000e-01
4.851485100000e-01
4.950495000000e-01
5.049504900000e-01
5.148514800000e-01
5.247524700000e-01
5.346534600000e-01
5.445544500000e-01
5.544554400000e-01
5.643564300000e-01
5.742574200000e-01
5.841584100000e-01
5.940594000000e-01
6.039603900000e-01
6.138613800000e-01
6.237623700000e-01
6.336633600000e-01
6.435643500000e-01
6.534653400000e-01
6.633663300000e-01
6.732673200000e-01
6.831683100000e-01
6.930693000000e-01
7.029702900000e-01
7.128712800000e-01
7.227722700000e-01
7.326732600000e-01
7.425742500000e-01
7.524752400000e-01
7.623762300000e-01
7.722772200000e-01
7.821782100000e-01
7.920792000000e-01
8.019801900000e-01
8.118811800000e-01
8.217821700000e-01
8.316831600000e-01
8.415841500000e-01
8.514851400000e-01
8.613861300000e-01
8.712871200000e-01
8.811881100000e-01
8.910891000000e-01
9.009900900000e-01
9.108910800000e-01
9.207920700000e-01
9.306930600000e-01
9.405940500000e-01
9.504950400000e-01
9.603960300000e-01
9.702970200000e-01
9.801980100000e-01
9.900990000000e-01
9.999999900000e-01
</indep>
<dep i(pr1) v-sweep>
-8.471531714582e-37
5.801212288326e-11
1.311786790303e-10
2.234587515026e-10
3.398464842874e-10
4.866406166926e-10
6.717848499704e-10
9.052996130521e-10
1.199822463605e-09
1.571293095637e-09
2.039815649724e-09
2.630747397703e-09
3.376069868111e-09
4.316121238190e-09
5.501778588268e-09
6.997211698945e-09
8.883355828715e-09
1.126229243198e-08
1.426277496108e-08
1.804719484966e-08
2.282037181445e-08
2.884064187469e-08
3.643383195140e-08
4.601090219936e-08
5.809018377434e-08
7.332543150440e-08
9.254120980628e-08
1.167775147692e-07
1.473460669033e-07
1.859012996874e-07
2.345298986128e-07
2.958637432826e-07
3.732223428088e-07
4.707924974312e-07
5.938548905959e-07
7.490698861190e-07
9.448379989507e-07
1.191754527952e-06
1.503182986085e-06
1.895978326338e-06
2.391399116064e-06
3.016258030009e-06
3.804372870952e-06
4.798396675554e-06
6.052125872458e-06
7.633411353680e-06
9.627829929748e-06
1.214331466048e-05
1.531599441318e-05
1.931755826412e-05
2.436454258969e-05
3.073004240317e-05
3.875847898893e-05
4.888422027083e-05
6.165505721611e-05
7.776179973185e-05
9.807558252284e-05
1.236948819372e-04
1.560047598588e-04
1.967514954604e-04
2.481365717770e-04
3.129349889122e-04
3.946441248601e-04
4.976709110593e-04
6.275669939253e-04
7.913238821899e-04
9.977429022037e-04
1.257898162788e-03
1.585714711419e-03
1.998688643811e-03
2.518781024216e-03
3.173522850602e-03
3.997373479981e-03
5.033379050584e-03
6.335179053739e-03
7.969406036880e-03
1.001851204787e-02
1.258403105166e-02
1.579024287435e-02
1.978813388056e-02
2.475944546640e-02
3.092045971271e-02
3.852499684680e-02
4.786591211629e-02
5.927422479059e-02
7.311496129779e-02
8.977893866633e-02
1.096701330309e-01
1.331889881894e-01
1.607129217156e-01
1.925761473159e-01
2.290514427398e-01
2.703364022345e-01
3.165459736757e-01
3.677119019493e-01
4.237884594019e-01
4.846629082833e-01
5.501687104509e-01
6.200995660377e-01
6.942227660084e-01
7.722908810227e-01
8.540513182820e-01
</dep>
<dep v(vd) v-sweep>
0.000000000000e+00
9.900990000000e-03
1.980198000000e-02
2.970297000000e-02
3.960396000000e-02
4.950495000000e-02
5.940594000000e-02
6.930693000000e-02
7.920792000000e-02
8.910891000000e-02
9.900990000000e-02
1.089108900000e-01
1.188118800000e-01
1.287128700000e-01
1.386138600000e-01
1.485148500000e-01
1.584158400000e-01
1.683168300000e-01
1.782178200000e-01
1.881188100000e-01
1.980198000000e-01
2.079207900000e-01
2.178217800000e-01
2.277227700000e-01
2.376237600000e-01
2.475247500000e-01
2.574257400000e-01
2.673267300000e-01
2.772277200000e-01
2.871287100000e-01
2.970297000000e-01
3.069306900000e-01
3.168316800000e-01
3.267326700000e-01
3.366336600000e-01
3.465346500000e-01
3.564356400000e-01
3.663366300000e-01
3.762376200000e-01
3.861386100000e-01
3.960396000000e-01
4.059405900000e-01
4.158415800000e-01
4.257425700000e-01
4.356435600000e-01
4.455445500000e-01
4.554455400000e-01
4.653465300000e-01
4.752475200000e-01
4.851485100000e-01
4.950495000000e-01
5.049504900000e-01
5.148514800000e-01
5.247524700000e-01
5.346534600000e-01
5.445544500000e-01
5.544554400000e-01
5.643564300000e-01
5.742574200000e-01
5.841584100000e-01
5.940594000000e-01
6.039603900000e-01
6.138613800000e-01
6.237623700000e-01
6.336633600000e-01
6.435643500000e-01
6.534653400000e-01
6.633663300000e-01
6.732673200000e-01
6.831683100000e-01
6.930693000000e-01
7.029702900000e-01
7.128712800000e-01
7.227722700000e-01
7.326732600000e-01
7.425742500000e-01
7.524752400000e-01
7.623762300000e-01
7.722772200000e-01
7.821782100000e-01
7.920792000000e-01
8.019801900000e-01
8.118811800000e-01
8.217821700000e-01
8.316831600000e-01
8.415841500000e-01
8.514851400000e-01
8.613861300000e-01
8.712871200000e-01
8.811881100000e-01
8.910891000000e-01
9.009900900000e-01
9.108910800000e-01
9.207920700000e-01
9.306930600000e-01
9.405940500000e-01
9.504950400000e-01
9.603960300000e-01
9.702970200000e-01
9.801980100000e-01
9.900990000000e-01
9.999999900000e-01
</dep>
<dep i(g) v-sweep>
5.093925582325e-09
6.624523357277e-09
8.355054828830e-09
1.053772427086e-08
1.329068432500e-08
1.676288763462e-08
2.114227952758e-08
2.666589975518e-08
3.363267120686e-08
4.241965632321e-08
5.350244278935e-08
6.748083870335e-08
8.511137979574e-08
1.073482914414e-07
1.353950696220e-07
1.707696523503e-07
2.153865791721e-07
2.716606689012e-07
3.426375755191e-07
4.321586454165e-07
5.450690802151e-07
6.874797437909e-07
8.670981550664e-07
1.093645777995e-06
1.379383743699e-06
1.739776832011e-06
2.194330226818e-06
2.767645311073e-06
3.490751173276e-06
4.402783545362e-06
5.553103457088e-06
7.003968501935e-06
8.833902172843e-06
1.114194377467e-05
1.405300826926e-05
1.772464714916e-05
2.235557463610e-05
2.819642213222e-05
3.556330217416e-05
4.485491501251e-05
5.657412560109e-05
7.135517533542e-05
8.999800250001e-05
1.135115277111e-04
1.431682426771e-04
1.805730566989e-04
2.277501192711e-04
2.872523092858e-04
3.622993056066e-04
4.569516874836e-04
5.763304547854e-04
7.268937954304e-04
9.167859914846e-04
1.156277212035e-03
1.458317777365e-03
1.839236546382e-03
2.319620674566e-03
2.925423484719e-03
3.689359019815e-03
4.652656548398e-03
5.867266477987e-03
7.398631504683e-03
9.329164161725e-03
1.176260500542e-02
1.482947519039e-02
1.869388355500e-02
2.356200140580e-02
2.969257666232e-02
3.740991966577e-02
4.711984926744e-02
5.932912803626e-02
7.466891976282e-02
9.392273903830e-02
1.180591826554e-01
1.482693642906e-01
1.860083180637e-01
2.330385655768e-01
2.914724096521e-01
3.638071964975e-01
4.529447354276e-01
5.621824601452e-01
6.951603516623e-01
8.557453549385e-01
1.047836021639e+00
1.275076996416e+00
1.540488066130e+00
1.846036190982e+00
2.192207522839e+00
2.577660854353e+00
2.999051565876e+00
3.451095346232e+00
3.926892912659e+00
4.418473856450e+00
4.917462784770e+00
5.415745583331e+00
5.906025878928e+00
6.382202741797e+00
6.839551284995e+00
7.274729878399e+00
7.685661483598e+00
8.071341970531e+00
8.444266520999e+00
</dep>
<dep r v-sweep>
1.963122514922e+08
1.509542567921e+08
1.196880236560e+08
9.489714992499e+07
7.524067049875e+07
5.965559286663e+07
4.729858947781e+07
3.750107850030e+07
2.973299366707e+07
2.357397694080e+07
1.869073537328e+07
1.481902150618e+07
1.174931016745e+07
9.315471970464e+06
7.385793314273e+06
5.855841399437e+06
4.642814811599e+06
3.681062864363e+06
2.918535710758e+06
2.313965046415e+06
1.834629841057e+06
1.454588311920e+06
1.153271972910e+06
9.143728436765e+05
7.249614217713e+05
5.747863643201e+05
4.557199220877e+05
3.613179752474e+05
2.864712923842e+05
2.271290400032e+05
1.800794830724e+05
1.427761989112e+05
1.132002574213e+05
8.975094653353e+04
7.115914122012e+04
5.641861254469e+04
4.473157215941e+04
3.546549258309e+04
2.811887363841e+04
2.229410087436e+04
1.767592498117e+04
1.401440043135e+04
1.111135772152e+04
8.809677925795e+03
6.984789233291e+03
5.537924750687e+03
4.390777063917e+03
3.481260089732e+03
2.760148817635e+03
2.188415159395e+03
1.735115664454e+03
1.375716791485e+03
1.090767102997e+03
8.648445109799e+02
6.857216002723e+02
5.437038547147e+02
4.311049694308e+02
3.418308512335e+02
2.710497933731e+02
2.149309732188e+02
1.704371198669e+02
1.351601305413e+02
1.071907389199e+02
8.501518154690e+01
6.743326969845e+01
5.349343260099e+01
4.244121637960e+01
3.367845139789e+01
2.673087803808e+01
2.122247875464e+01
1.685512720478e+01
1.339245302030e+01
1.064704894937e+01
8.470327995741e+00
6.744481604708e+00
5.376103662513e+00
4.291135235600e+00
3.430856461486e+00
2.748708683136e+00
2.207774860339e+00
1.778781927386e+00
1.438517023603e+00
1.168571928821e+00
9.543477980796e-01
7.842663641572e-01
6.491449184103e-01
5.417011892209e-01
4.561611934919e-01
3.879486311441e-01
3.334387482291e-01
2.897630751036e-01
2.546542577661e-01
2.263224888250e-01
2.033569024858e-01
1.846467830908e-01
1.693185943475e-01
1.566857150198e-01
1.462084219171e-01
1.374621486592e-01
1.301124180572e-01
1.238951346196e-01
1.184235478017e-01
</dep>
