<Qucs Dataset 0.0.24>
<indep time 409>
0.000000000000e+00
9.975060000000e-08
1.995012000000e-07
3.990024000000e-07
7.980048000000e-07
1.596009600000e-06
3.192019200000e-06
6.384038400000e-06
1.276807680000e-05
2.274313680000e-05
3.271819680000e-05
4.269325680000e-05
5.266831680000e-05
6.264337680000e-05
7.261843680000e-05
8.259349680000e-05
9.256855680000e-05
1.025436168000e-04
1.125186768000e-04
1.224937368000e-04
1.324687968000e-04
1.424438568000e-04
1.524189168000e-04
1.623939768000e-04
1.723690368000e-04
1.823440968000e-04
1.923191568000e-04
2.022942168000e-04
2.122692768000e-04
2.222443368000e-04
2.322193968000e-04
2.421944568000e-04
2.521695168000e-04
2.621445768000e-04
2.721196368000e-04
2.820946968000e-04
2.920697568000e-04
3.020448168000e-04
3.120198768000e-04
3.219949368000e-04
3.319699968000e-04
3.419450568000e-04
3.519201168000e-04
3.618951768000e-04
3.718702368000e-04
3.818452968000e-04
3.918203568000e-04
4.017954168000e-04
4.117704768000e-04
4.217455368000e-04
4.317205968000e-04
4.416956568000e-04
4.516707168000e-04
4.616457768000e-04
4.716208368000e-04
4.815958968000e-04
4.915709568000e-04
5.015460168000e-04
5.115210768000e-04
5.214961368000e-04
5.314711968000e-04
5.414462568000e-04
5.514213168000e-04
5.613963768000e-04
5.713714368000e-04
5.813464968000e-04
5.913215568000e-04
6.012966168000e-04
6.112716768000e-04
6.212467368000e-04
6.312217968000e-04
6.411968568000e-04
6.511719168000e-04
6.611469768000e-04
6.711220368000e-04
6.810970968000e-04
6.910721568000e-04
7.010472168000e-04
7.110222768000e-04
7.209973368000e-04
7.309723968000e-04
7.409474568000e-04
7.509225168000e-04
7.608975768000e-04
7.708726368000e-04
7.808476968000e-04
7.908227568000e-04
8.007978168000e-04
8.107728768000e-04
8.207479368000e-04
8.307229968000e-04
8.406980568000e-04
8.506731168000e-04
8.606481768000e-04
8.706232368000e-04
8.805982968000e-04
8.905733568000e-04
9.005484168000e-04
9.105234768000e-04
9.204985368000e-04
9.304735968000e-04
9.404486568000e-04
9.504237168000e-04
9.603987768000e-04
9.703738368000e-04
9.803488968000e-04
9.903239568000e-04
1.000299016800e-03
1.010274076800e-03
1.020249136800e-03
1.030224196800e-03
1.040199256800e-03
1.050174316800e-03
1.060149376800e-03
1.070124436800e-03
1.080099496800e-03
1.090074556800e-03
1.100049616800e-03
1.110024676800e-03
1.119999736800e-03
1.129974796800e-03
1.139949856800e-03
1.149924916800e-03
1.159899976800e-03
1.169875036800e-03
1.179850096800e-03
1.189825156800e-03
1.199800216800e-03
1.209775276800e-03
1.219750336800e-03
1.229725396800e-03
1.239700456800e-03
1.249675516800e-03
1.259650576800e-03
1.269625636800e-03
1.279600696800e-03
1.289575756800e-03
1.299550816800e-03
1.309525876800e-03
1.319500936800e-03
1.329475996800e-03
1.339451056800e-03
1.349426116800e-03
1.359401176800e-03
1.369376236800e-03
1.379351296800e-03
1.389326356800e-03
1.399301416800e-03
1.409276476800e-03
1.419251536800e-03
1.429226596800e-03
1.439201656800e-03
1.449176716800e-03
1.459151776800e-03
1.469126836800e-03
1.479101896800e-03
1.489076956800e-03
1.499052016800e-03
1.509027076800e-03
1.519002136800e-03
1.528977196800e-03
1.538952256800e-03
1.548927316800e-03
1.558902376800e-03
1.568877436800e-03
1.578852496800e-03
1.588827556800e-03
1.598802616800e-03
1.608777676800e-03
1.618752736800e-03
1.628727796800e-03
1.638702856800e-03
1.648677916800e-03
1.658652976800e-03
1.668628036800e-03
1.678603096800e-03
1.688578156800e-03
1.698553216800e-03
1.708528276800e-03
1.718503336800e-03
1.728478396800e-03
1.738453456800e-03
1.748428516800e-03
1.758403576800e-03
1.768378636800e-03
1.778353696800e-03
1.788328756800e-03
1.798303816800e-03
1.808278876800e-03
1.818253936800e-03
1.828228996800e-03
1.838204056800e-03
1.848179116800e-03
1.858154176800e-03
1.868129236800e-03
1.878104296800e-03
1.888079356800e-03
1.898054416800e-03
1.908029476800e-03
1.918004536800e-03
1.927979596800e-03
1.937954656800e-03
1.947929716800e-03
1.957904776800e-03
1.967879836800e-03
1.977854896800e-03
1.987829956800e-03
1.997805016800e-03
2.007780076800e-03
2.017755136800e-03
2.027730196800e-03
2.037705256800e-03
2.047680316800e-03
2.057655376800e-03
2.067630436800e-03
2.077605496800e-03
2.087580556800e-03
2.097555616800e-03
2.107530676800e-03
2.117505736800e-03
2.127480796800e-03
2.137455856800e-03
2.147430916800e-03
2.157405976800e-03
2.167381036800e-03
2.177356096800e-03
2.187331156800e-03
2.197306216800e-03
2.207281276800e-03
2.217256336800e-03
2.227231396800e-03
2.237206456800e-03
2.247181516800e-03
2.257156576800e-03
2.267131636800e-03
2.277106696800e-03
2.287081756800e-03
2.297056816800e-03
2.307031876800e-03
2.317006936800e-03
2.326981996800e-03
2.336957056800e-03
2.346932116800e-03
2.356907176800e-03
2.366882236800e-03
2.376857296800e-03
2.386832356800e-03
2.396807416800e-03
2.406782476800e-03
2.416757536800e-03
2.426732596800e-03
2.436707656800e-03
2.446682716800e-03
2.456657776800e-03
2.466632836800e-03
2.476607896800e-03
2.486582956800e-03
2.496558016800e-03
2.506533076800e-03
2.516508136800e-03
2.526483196800e-03
2.536458256800e-03
2.546433316800e-03
2.556408376800e-03
2.566383436800e-03
2.576358496800e-03
2.586333556800e-03
2.596308616800e-03
2.606283676800e-03
2.616258736800e-03
2.626233796800e-03
2.636208856800e-03
2.646183916800e-03
2.656158976800e-03
2.666134036800e-03
2.676109096800e-03
2.686084156800e-03
2.696059216800e-03
2.706034276800e-03
2.716009336800e-03
2.725984396800e-03
2.735959456800e-03
2.745934516800e-03
2.755909576800e-03
2.765884636800e-03
2.775859696800e-03
2.785834756800e-03
2.795809816800e-03
2.805784876800e-03
2.815759936800e-03
2.825734996800e-03
2.835710056800e-03
2.845685116800e-03
2.855660176800e-03
2.865635236800e-03
2.875610296800e-03
2.885585356800e-03
2.895560416800e-03
2.905535476800e-03
2.915510536800e-03
2.925485596800e-03
2.935460656800e-03
2.945435716800e-03
2.955410776800e-03
2.965385836800e-03
2.975360896800e-03
2.985335956800e-03
2.995311016800e-03
3.005286076800e-03
3.015261136800e-03
3.025236196800e-03
3.035211256800e-03
3.045186316800e-03
3.055161376800e-03
3.065136436800e-03
3.075111496800e-03
3.085086556800e-03
3.095061616800e-03
3.105036676800e-03
3.115011736800e-03
3.124986796800e-03
3.134961856800e-03
3.144936916800e-03
3.154911976800e-03
3.164887036800e-03
3.174862096800e-03
3.184837156800e-03
3.194812216800e-03
3.204787276800e-03
3.214762336800e-03
3.224737396800e-03
3.234712456800e-03
3.244687516800e-03
3.254662576800e-03
3.264637636800e-03
3.274612696800e-03
3.284587756800e-03
3.294562816800e-03
3.304537876800e-03
3.314512936800e-03
3.324487996800e-03
3.334463056800e-03
3.344438116800e-03
3.354413176800e-03
3.364388236800e-03
3.374363296800e-03
3.384338356800e-03
3.394313416800e-03
3.404288476800e-03
3.414263536800e-03
3.424238596800e-03
3.434213656800e-03
3.444188716800e-03
3.454163776800e-03
3.464138836800e-03
3.474113896800e-03
3.484088956800e-03
3.494064016800e-03
3.504039076800e-03
3.514014136800e-03
3.523989196800e-03
3.533964256800e-03
3.543939316800e-03
3.553914376800e-03
3.563889436800e-03
3.573864496800e-03
3.583839556800e-03
3.593814616800e-03
3.603789676800e-03
3.613764736800e-03
3.623739796800e-03
3.633714856800e-03
3.643689916800e-03
3.653664976800e-03
3.663640036800e-03
3.673615096800e-03
3.683590156800e-03
3.693565216800e-03
3.703540276800e-03
3.713515336800e-03
3.723490396800e-03
3.733465456800e-03
3.743440516800e-03
3.753415576800e-03
3.763390636800e-03
3.773365696800e-03
3.783340756800e-03
3.793315816800e-03
3.803290876800e-03
3.813265936800e-03
3.823240996800e-03
3.833216056800e-03
3.843191116800e-03
3.853166176800e-03
3.863141236800e-03
3.873116296800e-03
3.883091356800e-03
3.893066416800e-03
3.903041476800e-03
3.913016536800e-03
3.922991596800e-03
3.932966656800e-03
3.942941716800e-03
3.952916776800e-03
3.962891836800e-03
3.972866896800e-03
3.982841956800e-03
3.992817016800e-03
4.000000000000e-03
</indep>
<dep tran.i(pr1) time>
5.778488846353e-03
5.778764915722e-03
5.779040499038e-03
5.779591613917e-03
5.780693834127e-03
5.782898254496e-03
5.787306781269e-03
5.796121065081e-03
5.813726102521e-03
5.841113299774e-03
5.868258618250e-03
5.895055302998e-03
5.921397906055e-03
5.947182745269e-03
5.972308275140e-03
5.996675530463e-03
6.020188479945e-03
6.042754448260e-03
6.064284445867e-03
6.084693563188e-03
6.103901270503e-03
6.121831778407e-03
6.138414302143e-03
6.153583383060e-03
6.167279112326e-03
6.179447408746e-03
6.190040197486e-03
6.199015640327e-03
6.206338265784e-03
6.211979148647e-03
6.215915988691e-03
6.218133237202e-03
6.218622122313e-03
6.217380721090e-03
6.214413930422e-03
6.209733484128e-03
6.203357869232e-03
6.195312288450e-03
6.185628522597e-03
6.174344839715e-03
6.161505805229e-03
6.147162139863e-03
6.131370480046e-03
6.114193187596e-03
6.095698063692e-03
6.075958114117e-03
6.055051220882e-03
6.033059867551e-03
6.010070773313e-03
5.986174583560e-03
5.961465471839e-03
5.936040801427e-03
5.910000701107e-03
5.883447703971e-03
5.856486303384e-03
5.829222575600e-03
5.801763722594e-03
5.774217685298e-03
5.746692680172e-03
5.719296809982e-03
5.692137601017e-03
5.665321618308e-03
5.638954010322e-03
5.613138135362e-03
5.587975120352e-03
5.563563504866e-03
5.539998820287e-03
5.517373257512e-03
5.495775272313e-03
5.475289282261e-03
5.455995303582e-03
5.437968682249e-03
5.421279767018e-03
5.405993678993e-03
5.392170024881e-03
5.379862708649e-03
5.369119688358e-03
5.359982832859e-03
5.352487724885e-03
5.346663565053e-03
5.342533023240e-03
5.340112191499e-03
5.339410485109e-03
5.340430645393e-03
5.343168691201e-03
5.347613972013e-03
5.353749170028e-03
5.361550403312e-03
5.370987278077e-03
5.382023041045e-03
5.394614680868e-03
5.408713128276e-03
5.424263404951e-03
5.441204869387e-03
5.459471410886e-03
5.478991738384e-03
5.499689616563e-03
5.521484194224e-03
5.544290278820e-03
5.568018700290e-03
5.592576619639e-03
5.617867923492e-03
5.643793561709e-03
5.670251967322e-03
5.697139417588e-03
5.724350473433e-03
5.751778357851e-03
5.779315408548e-03
5.806853467196e-03
5.834284338645e-03
5.861500184267e-03
5.888393980893e-03
5.914859911344e-03
5.940793816182e-03
5.966093574503e-03
5.990659541662e-03
6.014394913519e-03
6.037206143485e-03
6.059003283673e-03
6.079700374924e-03
6.099215758681e-03
6.117472434092e-03
6.134398334903e-03
6.149926648275e-03
6.163996051576e-03
6.176550988172e-03
6.187541859667e-03
6.196925254651e-03
6.204664092668e-03
6.210727802671e-03
6.215092415827e-03
6.217740691247e-03
6.218662155568e-03
6.217853174419e-03
6.215316937600e-03
6.211063475616e-03
6.205109590195e-03
6.197478816129e-03
6.188201297751e-03
6.177313697236e-03
6.164859018565e-03
6.150886464308e-03
6.135451209465e-03
6.118614209613e-03
6.100441927849e-03
6.081006097975e-03
6.060383408560e-03
6.038655225580e-03
6.015907238313e-03
5.992229146541e-03
5.967714273621e-03
5.942459223925e-03
5.916563468991e-03
5.890128981362e-03
5.863259800138e-03
5.836061647758e-03
5.808641481607e-03
5.781107100523e-03
5.753566689314e-03
5.726128421907e-03
5.698900005678e-03
5.671988288159e-03
5.645498808031e-03
5.619535412146e-03
5.594199819837e-03
5.569591256747e-03
5.545806038788e-03
5.522937228877e-03
5.501074246432e-03
5.480302552633e-03
5.460703290812e-03
5.442353005269e-03
5.425323317319e-03
5.409680682061e-03
5.395486104185e-03
5.382794936409e-03
5.371656638494e-03
5.362114620378e-03
5.354206047156e-03
5.347961729276e-03
5.343405975572e-03
5.340556532229e-03
5.339424485328e-03
5.340014249642e-03
5.342323521533e-03
5.346343318043e-03
5.352057980372e-03
5.359445263127e-03
5.368476388018e-03
5.379116182516e-03
5.391323182796e-03
5.405049820457e-03
5.420242573104e-03
5.436842197129e-03
5.454783923689e-03
5.473997734896e-03
5.494408602248e-03
5.515936802918e-03
5.538498197015e-03
5.562004579967e-03
5.586363994329e-03
5.611481113599e-03
5.637257583627e-03
5.663592432613e-03
5.690382436580e-03
5.717522549736e-03
5.744906287989e-03
5.772426173409e-03
5.799974129332e-03
5.827441932325e-03
5.854721612148e-03
5.881705904397e-03
5.908288648422e-03
5.934365233747e-03
5.959832989018e-03
5.984591615329e-03
6.008543559382e-03
6.031594427034e-03
6.053653334079e-03
6.074633293628e-03
6.094451538283e-03
6.113029875381e-03
6.130294974797e-03
6.146178686610e-03
6.160618289345e-03
6.173556765230e-03
6.184943004342e-03
6.194732033338e-03
6.202885171706e-03
6.209370210603e-03
6.214161518218e-03
6.217240166188e-03
6.218593981904e-03
6.218217620844e-03
6.216112564543e-03
6.212287138056e-03
6.206756453224e-03
6.199542371389e-03
6.190673392471e-03
6.180184563969e-03
6.168117317268e-03
6.154519324835e-03
6.139444286052e-03
6.122951735372e-03
6.105106780808e-03
6.085979866622e-03
6.065646468395e-03
6.044186814578e-03
6.021685542773e-03
5.998231385160e-03
5.973916791277e-03
5.948837582927e-03
5.923092549288e-03
5.896783077409e-03
5.870012725934e-03
5.842886837682e-03
5.815512098602e-03
5.787996139202e-03
5.760447085572e-03
5.732973156559e-03
5.705682213778e-03
5.678681361445e-03
5.652076502240e-03
5.625971946592e-03
5.600469981070e-03
5.575670493652e-03
5.551670561029e-03
5.528564096010e-03
5.506441459683e-03
5.485389136651e-03
5.465489377463e-03
5.446819906802e-03
5.429453601021e-03
5.413458233754e-03
5.398896192760e-03
5.385824266754e-03
5.374293405070e-03
5.364348548859e-03
5.356028436394e-03
5.349365481079e-03
5.344385624581e-03
5.341108263427e-03
5.339546151497e-03
5.339705376368e-03
5.341585312063e-03
5.345178645692e-03
5.350471380760e-03
5.357442914039e-03
5.366066089146e-03
5.376307322989e-03
5.388126708702e-03
5.401478190399e-03
5.416309713939e-03
5.432563448083e-03
5.450175980906e-03
5.469078584797e-03
5.489197455670e-03
5.510454018571e-03
5.532765206146e-03
5.556043800952e-03
5.580198748964e-03
5.605135534015e-03
5.630756521487e-03
5.656961359680e-03
5.683647348226e-03
5.710709860654e-03
5.738042731536e-03
5.765538694041e-03
5.793089779415e-03
5.820587762954e-03
5.847924569124e-03
5.874992719140e-03
5.901685734840e-03
5.927898580974e-03
5.953528060903e-03
5.978473246715e-03
6.002635859907e-03
6.025920682612e-03
6.048235916646e-03
6.069493569407e-03
6.089609785007e-03
6.108505198823e-03
6.126105234880e-03
6.142340423533e-03
6.157146659850e-03
6.170465479503e-03
6.182244273538e-03
6.192436518251e-03
6.201001942459e-03
6.207906707903e-03
6.213123525916e-03
6.216631785710e-03
6.218417618179e-03
6.218473970291e-03
6.216800614644e-03
6.213404169058e-03
6.208298051395e-03
6.201502444369e-03
6.193044196041e-03
6.182956730751e-03
6.171279896606e-03
6.158059824329e-03
6.143348723939e-03
6.127204694159e-03
6.109691471329e-03
6.090878192856e-03
6.070839102169e-03
6.049653270452e-03
6.027404262204e-03
6.004179820176e-03
5.980071496745e-03
5.955174307590e-03
5.929586334656e-03
5.903408354614e-03
5.876743419651e-03
5.849696467163e-03
5.822373884961e-03
5.794883108931e-03
5.767332179467e-03
5.739829333992e-03
5.712482561536e-03
5.685399197032e-03
5.658685480919e-03
5.632446162027e-03
5.606784068909e-03
5.581799727899e-03
5.557590952587e-03
5.534252483257e-03
5.511875600523e-03
5.490547791890e-03
5.470352395040e-03
5.451368296714e-03
5.433669610555e-03
5.417325412873e-03
5.402399459317e-03
5.388949961419e-03
5.377029345689e-03
5.366684074157e-03
5.357954448807e-03
5.350874478656e-03
5.345471731771e-03
5.341767250767e-03
5.339775454007e-03
5.339504100750e-03
5.340954242517e-03
5.344120238518e-03
5.348989757546e-03
5.355543843707e-03
5.363756968621e-03
5.373597146872e-03
5.385026037683e-03
5.397999108899e-03
5.412465786682e-03
5.428369666211e-03
5.445648707291e-03
5.464235489297e-03
5.484057449925e-03
5.505037181238e-03
5.527092708104e-03
5.550137821519e-03
5.574082392596e-03
5.598832738683e-03
5.624291968109e-03
5.650360373983e-03
5.676935804312e-03
5.703914077799e-03
5.731189373407e-03
5.758654662005e-03
5.778489388978e-03
</dep>
<dep tran.v(vd) time>
7.287324538022e-01
7.287343936876e-01
7.287364404796e-01
7.287405452774e-01
7.287487555945e-01
7.287651696107e-01
7.287979784800e-01
7.288634997366e-01
7.289940741929e-01
7.291964240405e-01
7.293960630216e-01
7.295922420033e-01
7.297842390922e-01
7.299713526267e-01
7.301529119198e-01
7.303282700181e-01
7.304968139438e-01
7.306579572134e-01
7.308111496435e-01
7.309558696725e-01
7.310916337862e-01
7.312179886860e-01
7.313345203928e-01
7.314408463030e-01
7.315366240252e-01
7.316215433605e-01
7.316953349232e-01
7.317577620757e-01
7.318086293758e-01
7.318477744894e-01
7.318750765014e-01
7.318904478197e-01
7.318938423780e-01
7.318852475364e-01
7.318646921959e-01
7.318322386917e-01
7.317879908299e-01
7.317320857621e-01
7.316647019440e-01
7.315860509712e-01
7.314963854526e-01
7.313959907764e-01
7.312851928826e-01
7.311643499221e-01
7.310338599023e-01
7.308941521955e-01
7.307456950245e-01
7.305889867704e-01
7.304245632587e-01
7.302529888115e-01
7.300748632919e-01
7.298908128432e-01
7.297014966465e-01
7.295075972924e-01
7.293098272079e-01
7.291089186115e-01
7.289056295718e-01
7.287007335069e-01
7.284950248490e-01
7.282893080640e-01
7.280844029130e-01
7.278811329914e-01
7.276803305984e-01
7.274828248223e-01
7.272894460583e-01
7.271010136963e-01
7.269183403589e-01
7.267422192835e-01
7.265734283830e-01
7.264127174498e-01
7.262608121731e-01
7.261184013220e-01
7.259861408794e-01
7.258646413879e-01
7.257544723757e-01
7.256561500608e-01
7.255701422524e-01
7.254968566082e-01
7.254366461831e-01
7.253897984209e-01
7.253565414973e-01
7.253370341955e-01
7.253313731515e-01
7.253395837197e-01
7.253616281784e-01
7.253973976359e-01
7.254467211988e-01
7.255093589110e-01
7.255850118286e-01
7.256733159288e-01
7.257738529814e-01
7.258861453146e-01
7.260096673311e-01
7.261438409796e-01
7.262880477343e-01
7.264416245967e-01
7.266038763433e-01
7.267740718751e-01
7.269514565392e-01
7.271352486487e-01
7.273246516995e-01
7.275188509016e-01
7.277170251366e-01
7.279183433681e-01
7.281219762176e-01
7.283270921523e-01
7.285328685921e-01
7.287384878054e-01
7.289431474945e-01
7.291460563604e-01
7.293464441446e-01
7.295435568523e-01
7.297366662545e-01
7.299250647801e-01
7.301080745049e-01
7.302850417378e-01
7.304553455384e-01
7.306183920359e-01
7.307736225243e-01
7.309205075575e-01
7.310585546786e-01
7.311873023360e-01
7.313063273027e-01
7.314152384566e-01
7.315136839441e-01
7.316013448639e-01
7.316779422237e-01
7.317432305602e-01
7.317970047326e-01
7.318390935039e-01
7.318693662063e-01
7.318877263006e-01
7.318941179422e-01
7.318885195265e-01
7.318709501731e-01
7.318414632579e-01
7.318001528248e-01
7.317471470949e-01
7.316826148071e-01
7.316067586857e-01
7.315198217009e-01
7.314220804694e-01
7.313138514166e-01
7.311954840758e-01
7.310673671264e-01
7.309299215493e-01
7.307836065084e-01
7.306289123132e-01
7.304663661041e-01
7.302965245697e-01
7.301199793915e-01
7.299373496600e-01
7.297492870333e-01
7.295564677978e-01
7.293595976955e-01
7.291594035799e-01
7.289566378724e-01
7.287520697744e-01
7.285464893235e-01
7.283406981369e-01
7.281355130555e-01
7.279317564134e-01
7.277302592809e-01
7.275318512809e-01
7.273373634669e-01
7.271476177412e-01
7.269634294333e-01
7.267855964077e-01
7.266149014428e-01
7.264521011495e-01
7.262979282821e-01
7.261530806210e-01
7.260182233739e-01
7.258939782007e-01
7.257809258819e-01
7.256795956797e-01
7.255904684562e-01
7.255139665661e-01
7.254504576005e-01
7.254002449929e-01
7.253635725422e-01
7.253406158826e-01
7.253314879031e-01
7.253362311910e-01
7.253548244139e-01
7.253871757931e-01
7.254331304594e-01
7.254924649552e-01
7.255648955161e-01
7.256500735426e-01
7.257475947076e-01
7.258569952877e-01
7.259777619506e-01
7.261093287973e-01
7.262510876526e-01
7.264023856440e-01
7.265625358017e-01
7.267308149906e-01
7.269064746262e-01
7.270887387795e-01
7.272768148285e-01
7.274698915733e-01
7.276671496664e-01
7.278677596010e-01
7.280708917938e-01
7.282757143410e-01
7.284814026623e-01
7.286871369506e-01
7.288921113198e-01
7.290955309065e-01
7.292966204960e-01
7.294946212618e-01
7.296887988707e-01
7.298784398681e-01
7.300628592860e-01
7.302413966996e-01
7.304134233763e-01
7.305783380414e-01
7.307355736161e-01
7.308845927372e-01
7.310248941378e-01
7.311560079667e-01
7.312775018676e-01
7.313889761427e-01
7.314900695842e-01
7.315804545223e-01
7.316598424579e-01
7.317279790304e-01
7.317846494936e-01
