<Qucs Dataset 0.0.19>
<indep Vin 1>
  +1.00000000000000005551e-01
</indep>
<indep acfrequency 91>
  +1.00000000000000000000e+00
  +1.25892541179416728170e+00
  +1.58489319246111337591e+00
  +1.99526231496887973549e+00
  +2.51188643150958013095e+00
  +3.16227766016837907870e+00
  +3.98107170553497269339e+00
  +5.01187233627272288317e+00
  +6.30957344480193160763e+00
  +7.94328234724281401213e+00
  +9.99999999999999822364e+00
  +1.25892541179416692643e+01
  +1.58489319246111364237e+01
  +1.99526231496887973549e+01
  +2.51188643150957986450e+01
  +3.16227766016837890106e+01
  +3.98107170553497198284e+01
  +5.01187233627272163972e+01
  +6.30957344480193071945e+01
  +7.94328234724281259105e+01
  +9.99999999999999573674e+01
  +1.25892541179416653563e+02
  +1.58489319246111250550e+02
  +1.99526231496887817229e+02
  +2.51188643150958057504e+02
  +3.16227766016837961160e+02
  +3.98107170553497269339e+02
  +5.01187233627272291869e+02
  +6.30957344480193228264e+02
  +7.94328234724281401213e+02
  +9.99999999999999772626e+02
  +1.25892541179416684827e+03
  +1.58489319246111290340e+03
  +1.99526231496887862704e+03
  +2.51188643150957886974e+03
  +3.16227766016838040741e+03
  +3.98107170553497007859e+03
  +5.01187233627272416925e+03
  +6.30957344480192750780e+03
  +7.94328234724281537638e+03
  +9.99999999999999090505e+03
  +1.25892541179416712112e+04
  +1.58489319246111190296e+04
  +1.99526231496887921821e+04
  +2.51188643150957723265e+04
  +3.16227766016837813368e+04
  +3.98107170553496762295e+04
  +5.01187233627272071317e+04
  +6.30957344480193423806e+04
  +7.94328234724281064700e+04
  +1.00000000000000014552e+05
  +1.25892541179416628438e+05
  +1.58489319246111350367e+05
  +1.99526231496887776302e+05
  +2.51188643150957999751e+05
  +3.16227766016837616917e+05
  +3.98107170553497155197e+05
  +5.01187233627271722071e+05
  +6.30957344480192987248e+05
  +7.94328234724280424416e+05
  +9.99999999999999534339e+05
  +1.25892541179416538216e+06
  +1.58489319246111251414e+06
  +1.99526231496887654066e+06
  +2.51188643150957813486e+06
  +3.16227766016837954521e+06
  +3.98107170553496899083e+06
  +5.01187233627272211015e+06
  +6.30957344480192568153e+06
  +7.94328234724281355739e+06
  +1.00000000000000055879e+07
  +1.25892541179416682571e+07
  +1.58489319246111139655e+07
  +1.99526231496887505054e+07
  +2.51188643150958120823e+07
  +3.16227766016837731004e+07
  +3.98107170553496629000e+07
  +5.01187233627271056175e+07
  +6.30957344480193331838e+07
  +7.94328234724280834198e+07
  +9.99999999999998211861e+07
  +1.25892541179416820407e+08
  +1.58489319246111333370e+08
  +1.99526231496887743473e+08
  +2.51188643150957494974e+08
  +3.16227766016838073730e+08
  +3.98107170553497076035e+08
  +5.01187233627271592617e+08
  +6.30957344480191707611e+08
  +7.94328234724281668663e+08
  +9.99999999999999284744e+08
</indep>
<dep H acfrequency>
  +3.27563213995615484797e-02-j1.14607546347930412902e-09
  +3.27563213995615346019e-02-j1.44282352480787269686e-09
  +3.27563213995614929686e-02-j1.81640720011506027870e-09
  +3.27563213995614305185e-02-j2.28672118239073935014e-09
  +3.27563213995613403129e-02-j2.87881140619969836319e-09
  +3.27563213995611876572e-02-j3.62420883502768379105e-09
  +3.27563213995609586737e-02-j4.56260860006525399689e-09
  +3.27563213995605909123e-02-j5.74398391069269231105e-09
  +3.27563213995600011064e-02-j7.23124731010773658867e-09
  +3.27563213995590712946e-02-j9.10360099766259126603e-09
  +3.27563213995575794324e-02-j1.14607546347916470773e-08
  +3.27563213995552340863e-02-j1.44282352480759530184e-08
  +3.27563213995515148391e-02-j1.81640720011450788749e-08
  +3.27563213995456375960e-02-j2.28672118238963613936e-08
  +3.27563213995362978448e-02-j2.87881140619749715286e-08
  +3.27563213995214971841e-02-j3.62420883502328931132e-08
  +3.27563213994975580001e-02-j4.56260860005635436068e-08
  +3.27563213994600394008e-02-j5.74398391067491090573e-08
  +3.27563213994007049190e-02-j7.23124731007228991419e-08
  +3.27563213993060792228e-02-j9.10360099759157218562e-08
  +3.27563213991568305539e-02-j1.14607546346500979457e-07
  +3.27563213989202003940e-02-j1.44282352477936144378e-07
  +3.27563213985447229670e-02-j1.81640720005813711693e-07
  +3.27563213979501430262e-02-j2.28672118227718854514e-07
  +3.27563213970072167336e-02-j2.87881140597307001631e-07
  +3.27563213955131340982e-02-j3.62420883457549210887e-07
  +3.27563213931455696204e-02-j4.56260859916310848696e-07
  +3.27563213893927937526e-02-j5.74398390889264360277e-07
  +3.27563213834445102202e-02-j7.23124730651589450080e-07
  +3.27563213740180089739e-02-j9.10360099049607644814e-07
  +3.27563213590774532369e-02-j1.14607546204923681311e-06
  +3.27563213353991855570e-02-j1.44282352195457062155e-06
  +3.27563212978706150280e-02-j1.81640719442192800513e-06
  +3.27563212383918112014e-02-j2.28672117103138330266e-06
  +3.27563211441245297206e-02-j2.87881138353477654960e-06
  +3.27563209947213940243e-02-j3.62420878980528266686e-06
  +3.27563207579324583429e-02-j4.56260850983450999080e-06
  +3.27563203826480436875e-02-j5.74398373065873036177e-06
  +3.27563197878625658732e-02-j7.23124695089289613929e-06
  +3.27563188451907016940e-02-j9.10360028093469802590e-06
  +3.27563173511566871343e-02-j1.14607532047315058065e-05
  +3.27563149832730202138e-02-j1.44282323947313712015e-05
  +3.27563112304297757160e-02-j1.81640663079737848000e-05
  +3.27563052825773012855e-02-j2.28672004645291077952e-05
  +3.27562958558703792855e-02-j2.87880913970642293969e-05
  +3.27562809155578435472e-02-j3.62420431278113634255e-05
  +3.27562572367866775003e-02-j4.56259957700377806380e-05
  +3.27562197085335196634e-02-j5.74396590733881401902e-05
  +3.27561602304387786133e-02-j7.23121138875999205572e-05
  +3.27560659644581461669e-02-j9.10352932535934717285e-05
  +3.27559165640695995614e-02-j1.14606116304047603457e-04
  +3.27556797832280685578e-02-j1.44279499188935473241e-04
  +3.27553045179645105356e-02-j1.81635027011651438390e-04
  +3.27547097803850689735e-02-j2.28660759419237289303e-04
  +3.27537672295073328810e-02-j2.87858477453252601004e-04
  +3.27522734992156949740e-02-j3.62375666622282127226e-04
  +3.27499063779848817446e-02-j4.56170647052027346691e-04
  +3.27461554511907504406e-02-j5.74218413374612247045e-04
  +3.27402124094245960961e-02-j7.22765694098358754509e-04
  +3.27307977829144475246e-02-j9.09643934922326532350e-04
  +3.27158877978236256601e-02-j1.14464718394265878645e-03
  +3.26922851363785904599e-02-j1.43997580821496285949e-03
  +3.26549477886920735958e-02-j1.81073181024086950902e-03
  +3.25959481370614798101e-02-j2.27541794759287619235e-03
  +3.25028796380891008000e-02-j2.85632350299444559560e-03
  +3.23564701602325130447e-02-j3.57954364033886973662e-03
  +3.21271352520409100850e-02-j4.47412761738307050013e-03
  +3.17703124796558239451e-02-j5.56942113911398570258e-03
  +3.12208951144583614357e-02-j6.88903174724181822236e-03
  +3.03883789308804636020e-02-j8.43918216856518431379e-03
  +2.91570317901080240663e-02-j1.01893389125453544264e-02
  +2.73994196674389629831e-02-j1.20460009965823282296e-02
  +2.50138996002283349462e-02-j1.38294861158429985976e-02
  +2.19883595836719812622e-02-j1.52778668918309174646e-02
  +1.84645532048396503189e-02-j1.61070192839319718814e-02
  +1.47457195113939783931e-02-j1.61234301925938135203e-02
  +1.12078943396320285936e-02-j1.53230348442797911779e-02
  +8.15937194471950608121e-03-j1.38934615586024188399e-02
  +5.74856567280195972919e-03-j1.21176306820147249715e-02
  +3.96826476905039280535e-03-j1.02598630413153167618e-02
  +2.71896511037156155335e-03-j8.50336695506668550915e-03
  +1.87334876400382607277e-03-j6.94461720129305702665e-03
  +1.31486006896876662237e-03-j5.61606257322077011968e-03
  +9.51964294741456848979e-04-j4.51248567496481678418e-03
  +7.18650658730159218150e-04-j3.61068954802534888490e-03
  +5.69670204409647830748e-04-j2.88140966582208467306e-03
  +4.74954875559909926903e-04-j2.29552023770713316958e-03
  +4.14906191030456415313e-04-j1.82678835753785000044e-03
  +3.76902950417770719969e-04-j1.45277467122668858986e-03
  +3.52878538381317817443e-04-j1.15483615337355497235e-03
  +3.37701807200019808990e-04-j9.17748605824450741468e-04
</dep>
<dep r acfrequency>
  +7.45043970546376854713e+00-j2.69503304980185989459e-07
  +7.45043970546376321806e+00-j3.39284559202069316866e-07
  +7.45043970546375344810e+00-j4.27133953408866913055e-07
  +7.45043970546373923725e+00-j5.37729788186527570615e-07
  +7.45043970546371614461e+00-j6.76961695026712562980e-07
  +7.45043970546368061747e+00-j8.52244280680377283858e-07
  +7.45043970546362377405e+00-j1.07291198200475988177e-06
  +7.45043970546353317985e+00-j1.35071615876422192458e-06
  +7.45043970546339107131e+00-j1.70045089638925063352e-06
  +7.45043970546316280945e+00-j2.14074084497253319494e-06
  +7.45043970546280309719e+00-j2.69503304980150954059e-06
  +7.45043970546223199847e+00-j3.39284559201999606055e-06
  +7.45043970546132872101e+00-j4.27133953408728137295e-06
  +7.45043970545989697740e+00-j5.37729788186250273204e-06
  +7.45043970545762768154e+00-j6.76961695026159281059e-06
  +7.45043970545402967076e+00-j8.52244280679272752895e-06
  +7.45043970544821299029e+00-j1.07291198200252379949e-05
  +7.45043970543909228610e+00-j1.35071615875975433401e-05
  +7.45043970542467359763e+00-j1.70045089638034539498e-05
  +7.45043970540167599381e+00-j2.14074084495469408815e-05
  +7.45043970536540278715e+00-j2.69503304976595245272e-05
  +7.45043970530789234630e+00-j3.39284559194907433068e-05
  +7.45043970521663467821e+00-j4.27133953394568118109e-05
  +7.45043970507212627297e+00-j5.37729788158004113046e-05
  +7.45043970484295936529e+00-j6.76961694969785020195e-05
  +7.45043970447983650018e+00-j8.52244280566789792937e-05
  +7.45043970390441767648e+00-j1.07291198177814599149e-04
  +7.45043970299233926369e+00-j1.35071615831206052463e-04
  +7.45043970154666546080e+00-j1.70045089548700339467e-04
  +7.45043969925563764889e+00-j2.14074084317235157184e-04
  +7.45043969562447205846e+00-j2.69503304620962553465e-04
  +7.45043968986967453105e+00-j3.39284558485338134676e-04
  +7.45043968074869589202e+00-j4.27133951978789152149e-04
  +7.45043966629290732584e+00-j5.37729785333131778298e-04
  +7.45043964338209185883e+00-j6.76961689333433012244e-04
  +7.45043960707099905960e+00-j8.52244269320806481678e-04
  +7.45043954952157871929e+00-j1.07291195933938957215e-03
  +7.45043945831207121699e+00-j1.35071611354087338722e-03
  +7.45043931375480195101e+00-j1.70045080615684185421e-03
  +7.45043908464687199000e+00-j2.14074066493519449619e-03
  +7.45043872153532316105e+00-j2.69503269057979645551e-03
  +7.45043814604247067734e+00-j3.39284487527858344760e-03
  +7.45043723394765322610e+00-j4.27133810400007456892e-03
  +7.45043578837559294925e+00-j5.37729502846414665618e-03
  +7.45043349729932113945e+00-j6.76961125698517015431e-03
  +7.45042986619101288426e+00-j8.52243144721839991640e-03
  +7.45042411127955972461e+00-j1.07290971547127911290e-02
  +7.45041499037778187642e+00-j1.35071163644092696876e-02
  +7.45040053476890484774e+00-j1.70044187318565964695e-02
  +7.45037762428880245835e+00-j2.14072284137031901285e-02
  +7.45034131391625376040e+00-j2.69499712806924515696e-02
  +7.45028376658540913979e+00-j3.39277391929989485808e-02
  +7.45019256205066682242e+00-j4.27119652997680343542e-02
  +7.45004801722097642624e+00-j5.37701255673739345053e-02
  +7.44981894069970707051e+00-j6.76904766945970182146e-02
  +7.44945590800369927820e+00-j8.52130699812726627451e-02
  +7.44888061309822102629e+00-j1.07268537604383248918e-01
  +7.44796901579943515515e+00-j1.35026407627723610272e-01
  +7.44652469264786631697e+00-j1.69954904978769666402e-01
  +7.44423675247441085645e+00-j2.13894198244609007320e-01
  +7.44061351692399064461e+00-j2.69144561036605778348e-01
  +7.43487836171743055047e+00-j3.38569327787651752626e-01
  +7.42580700952723038455e+00-j4.25708636520628347366e-01
  +7.41147556157971987290e+00-j5.34891446841603945828e-01
  +7.38887576466555273669e+00-j6.71315889729099835037e-01
  +7.35334107815716819800e+00-j8.41034100957480101890e-01
  +7.29772367576730207617e+00-j1.05071550190724649632e+00
  +7.21129483722061959128e+00-j1.30695784773206313822e+00
  +7.07846889130680434477e+00-j1.61476519613013280718e+00
  +6.87778345508492261473e+00-j1.97466996369802982869e+00
  +6.58223455296206072518e+00-j2.37806036096543982339e+00
  +6.16299259298431056919e+00-j2.80110837815209956503e+00
  +5.59885326760848922589e+00-j3.19995967915362022893e+00
  +4.89131839359451792149e+00-j3.51310708948525229900e+00
  +4.07827768136291624046e+00-j3.67712969664884381515e+00
  +3.23282739474818203718e+00-j3.65314719303692525543e+00
  +2.44026705886606176676e+00-j3.44709463536579940879e+00
  +1.76631452310180292464e+00-j3.10644843401990833343e+00
  +1.23913377698716176134e+00-j2.69639451647612604646e+00
  +8.53062754906910747366e-01-j2.27494977918044272158e+00
  +5.83766273773895116861e-01-j1.88081858907920729251e+00
  +4.02240820370978524601e-01-j1.53348193930029341736e+00
  +2.82684006898035800059e-01-j1.23875012024830266633e+00
  +2.05139224362917899080e-01-j9.94619378438702517187e-01
  +1.55342535198280423669e-01-j7.95484269528086929135e-01
  +1.23569216257303243767e-01-j6.34627708511412147452e-01
  +1.03378806128108013951e-01-j5.05491846254120580362e-01
  +9.05821637203740176458e-02-j4.02225799074640177899e-01
  +8.24850667978336005159e-02-j3.19850812600632528060e-01
  +7.73669705598123702561e-02-j2.54243016821031009300e-01
  +7.41340099644615391217e-02-j2.02040959262739683311e-01
</dep>
<dep V3.i acfrequency>
  -4.39656217545653820507e-04-j5.20943392490592717992e-13
  -4.39656217545653820507e-04-j6.55828874912669437773e-13
  -4.39656217545653874718e-04-j8.25639636415936586887e-13
  -4.39656217545653874718e-04-j1.03941871926851794004e-12
  -4.39656217545653928928e-04-j1.30855063918168128567e-12
  -4.39656217545653983138e-04-j1.64736765228531073994e-12
  -4.39656217545654091558e-04-j2.07391300002966107952e-12
  -4.39656217545654254188e-04-j2.61090177758758769170e-12
  -4.39656217545654525239e-04-j3.28693059550351682508e-12
  -4.39656217545654958920e-04-j4.13800045348299481979e-12
  -4.39656217545655663651e-04-j5.20943392490529366782e-12
  -4.39656217545656693643e-04-j6.55828874912543381587e-12
  -4.39656217545658374157e-04-j8.25639636415685504451e-12
  -4.39656217545661084662e-04-j1.03941871926801650218e-11
  -4.39656217545665313051e-04-j1.30855063918068042944e-11
  -4.39656217545672035104e-04-j1.64736765228331367230e-11
  -4.39656217545682931336e-04-j2.07391300002561540700e-11
  -4.39656217545699953310e-04-j2.61090177757950466693e-11
  -4.39656217545726949944e-04-j3.28693059548740392836e-11
  -4.39656217545769938560e-04-j4.13800045345071474262e-11
  -4.39656217545837809616e-04-j5.20943392484095387956e-11
  -4.39656217545945362472e-04-j6.55828874899709884409e-11
  -4.39656217546116015894e-04-j8.25639636390062421755e-11
  -4.39656217546386307495e-04-j1.03941871921690371966e-10
  -4.39656217546814892614e-04-j1.30855063907866808959e-10
  -4.39656217547494036855e-04-j1.64736765207976888660e-10
  -4.39656217548570215931e-04-j2.07391299961959483730e-10
  -4.39656217550275991209e-04-j2.61090177676938368516e-10
  -4.39656217552979774587e-04-j3.28693059387086114237e-10
  -4.39656217557264541573e-04-j4.13800045022548842043e-10
  -4.39656217564055712931e-04-j5.20943391840562235527e-10
  -4.39656217574818533687e-04-j6.55828873615713815490e-10
  -4.39656217591876991198e-04-j8.25639633828149130841e-10
  -4.39656217618912819201e-04-j1.03941871410517408560e-09
  -4.39656217661761573260e-04-j1.30855062887944376586e-09
  -4.39656217729672094217e-04-j1.64736763172967401242e-09
  -4.39656217837303445965e-04-j2.07391295901568679260e-09
  -4.39656218007887262134e-04-j2.61090169575396846206e-09
  -4.39656218278244295336e-04-j3.28693043222404464266e-09
  -4.39656218706731510663e-04-j4.13800012769758985235e-09
  -4.39656219385837858642e-04-j5.20943327487795702837e-09
  -4.39656220462148611405e-04-j6.55828745215062380581e-09
  -4.39656222167986447842e-04-j8.25639377635171964773e-09
  -4.39656224871555749868e-04-j1.03941820293314129951e-08
  -4.39656229156422536340e-04-j1.30854960895746493589e-08
  -4.39656235947473710435e-04-j1.64736559671869845543e-08
  -4.39656246710551530926e-04-j2.07390889863808085748e-08
  -4.39656263768848417500e-04-j2.61089359424491588671e-08
  -4.39656290804346010313e-04-j3.28691426761817897477e-08
  -4.39656333652519045168e-04-j4.13796787516333938098e-08
  -4.39656401561786555707e-04-j5.20936892291125389404e-08
  -4.39656509189441770460e-04-j6.55815905404252112596e-08
  -4.39656679764561608790e-04-j8.25613759143870130704e-08
  -4.39656950099824952484e-04-j1.03936708826926065041e-07
  -4.39657378532042118855e-04-j1.30844762478751215771e-07
  -4.39658057500356524560e-04-j1.64716212101037324686e-07
  -4.39659133464552303022e-04-j2.07350294114557892367e-07
  -4.39660838431276909145e-04-j2.61008369715732827053e-07
  -4.39663539813897922496e-04-j3.28529860953799451193e-07
  -4.39667819189584361747e-04-j4.13474515873784817848e-07
  -4.39674596455534734928e-04-j5.20294174519390289331e-07
  -4.39685324938009756447e-04-j6.54534458279528598678e-07
  -4.39702296459685399409e-04-j8.23059913745849741406e-07
  -4.39729114483153890949e-04-j1.03428088526948903973e-06
  -4.39771418346323120230e-04-j1.29832886499747554255e-06
  -4.39837968108985227257e-04-j1.62706529106312241890e-06
  -4.39942211249072295462e-04-j2.03369437153775932286e-06
  -4.40104403418338258492e-04-j2.53155506323363008658e-06
  -4.40354138584337099962e-04-j3.13137806692809913346e-06
  -4.40732555031417955714e-04-j3.83599189480235685124e-06
  -4.41292258277223639618e-04-j4.63151768752061602721e-06
  -4.42091172878436859846e-04-j5.47545499844651336143e-06
  -4.43175500181714377042e-04-j6.28613005265590843803e-06
  -4.44550745643785476073e-04-j6.94448495083223528201e-06
  -4.46152475815981999600e-04-j7.32137240178726042658e-06
  -4.47842854767548190654e-04-j7.32883190572446054626e-06
  -4.49450957118349096048e-04-j6.96501583830899622095e-06
  -4.50836649116036561336e-04-j6.31520979936473554373e-06
  -4.51932470148726369522e-04-j5.50801394637032874709e-06
  -4.52741697832249824409e-04-j4.66357410968877978259e-06
  -4.53309561313467487397e-04-j3.86516679775758500613e-06
  -4.53693932379998262749e-04-j3.15664418240593498593e-06
  -4.53947790877741452764e-04-j2.55275571510034959854e-06
  -4.54112743502390248020e-04-j2.05112985225673527922e-06
  -4.54218795155122674959e-04-j1.64122252182970425574e-06
  -4.54286513543450149333e-04-j1.30973166628276566808e-06
  -4.54329565965654611284e-04-j1.04341828986687892520e-06
  -4.54356860822258904614e-04-j8.30358344335386408114e-07
  -4.54374135022537377956e-04-j6.60352123284858376782e-07
  -4.54385055209826694590e-04-j5.24925524260706886467e-07
  -4.54391953724000009600e-04-j4.17158457192932108048e-07
</dep>
<dep V4.i acfrequency>
  -4.39656217545653820507e-04-j5.20943392490592717992e-13
  -4.39656217545653820507e-04-j6.55828874912669437773e-13
  -4.39656217545653874718e-04-j8.25639636415936586887e-13
  -4.39656217545653874718e-04-j1.03941871926851794004e-12
  -4.39656217545653928928e-04-j1.30855063918168128567e-12
  -4.39656217545653983138e-04-j1.64736765228531073994e-12
  -4.39656217545654091558e-04-j2.07391300002966107952e-12
  -4.39656217545654254188e-04-j2.61090177758758769170e-12
  -4.39656217545654525239e-04-j3.28693059550351682508e-12
  -4.39656217545654958920e-04-j4.13800045348299481979e-12
  -4.39656217545655663651e-04-j5.20943392490529366782e-12
  -4.39656217545656693643e-04-j6.55828874912543381587e-12
  -4.39656217545658374157e-04-j8.25639636415685504451e-12
  -4.39656217545661084662e-04-j1.03941871926801650218e-11
  -4.39656217545665313051e-04-j1.30855063918068042944e-11
  -4.39656217545672035104e-04-j1.64736765228331367230e-11
  -4.39656217545682931336e-04-j2.07391300002561540700e-11
  -4.39656217545699953310e-04-j2.61090177757950466693e-11
  -4.39656217545726949944e-04-j3.28693059548740392836e-11
  -4.39656217545769938560e-04-j4.13800045345071474262e-11
  -4.39656217545837809616e-04-j5.20943392484095387956e-11
