<Qucs Dataset 0.0.21>
<indep v-sweep 22>
0.000000000000e+00
4.761900000000e-02
9.523800000000e-02
1.428570000000e-01
1.904760000000e-01
2.380950000000e-01
2.857140000000e-01
3.333330000000e-01
3.809520000000e-01
4.285710000000e-01
4.761900000000e-01
5.238090000000e-01
5.714280000000e-01
6.190470000000e-01
6.666660000000e-01
7.142850000000e-01
7.619040000000e-01
8.095230000000e-01
8.571420000000e-01
9.047610000000e-01
9.523800000000e-01
9.999990000000e-01
</indep>
<dep i(pr1) v-sweep>
-8.471531714582e-37
4.559911337410e-10
1.848398767379e-09
6.100434379874e-09
1.908520186333e-08
5.873797581657e-08
1.798294686495e-07
5.496182202691e-07
1.678876110134e-06
5.127377820990e-06
1.565817380822e-05
4.781490564643e-05
1.459945355187e-04
4.456236847030e-04
1.358848034933e-03
4.131172815988e-03
1.244771648336e-02
3.655661220406e-02
1.007235003022e-01
2.442046657795e-01
4.967840982866e-01
8.540369266992e-01
</dep>
<dep v(vd) v-sweep>
0.000000000000e+00
4.761900000000e-02
9.523800000000e-02
1.428570000000e-01
1.904760000000e-01
2.380950000000e-01
2.857140000000e-01
3.333330000000e-01
3.809520000000e-01
4.285710000000e-01
4.761900000000e-01
5.238090000000e-01
5.714280000000e-01
6.190470000000e-01
6.666660000000e-01
7.142850000000e-01
7.619040000000e-01
8.095230000000e-01
8.571420000000e-01
9.047610000000e-01
9.523800000000e-01
9.999990000000e-01
</dep>
