<Qucs Dataset 0.0.19>
<indep acfrequency 81>
  +1.00000000000000000000e+01
  +1.12201845430196343045e+01
  +1.25892541179416728170e+01
  +1.41253754462275438186e+01
  +1.58489319246111364237e+01
  +1.77827941003892284755e+01
  +1.99526231496887973549e+01
  +2.23872113856834005219e+01
  +2.51188643150958021977e+01
  +2.81838293126445407211e+01
  +3.16227766016837961160e+01
  +3.54813389233575477988e+01
  +3.98107170553497269339e+01
  +4.46683592150963093559e+01
  +5.01187233627272377134e+01
  +5.62341325190349223817e+01
  +6.30957344480193356162e+01
  +7.07945784384137937195e+01
  +7.94328234724281685430e+01
  +8.91250938133745762570e+01
  +1.00000000000000014211e+02
  +1.12201845430196357256e+02
  +1.25892541179416753039e+02
  +1.41253754462275423975e+02
  +1.58489319246111364237e+02
  +1.77827941003892277649e+02
  +1.99526231496887987760e+02
  +2.23872113856834033641e+02
  +2.51188643150958085926e+02
  +2.81838293126445478265e+02
  +3.16227766016838018004e+02
  +3.54813389233575549042e+02
  +3.98107170553497326182e+02
  +4.46683592150963249878e+02
  +5.01187233627272348713e+02
  +5.62341325190349152763e+02
  +6.30957344480193683012e+02
  +7.07945784384137937195e+02
  +7.94328234724281969648e+02
  +8.91250938133745648884e+02
  +1.00000000000000045475e+03
  +1.12201845430196340203e+03
  +1.25892541179416775776e+03
  +1.41253754462275537662e+03
  +1.58489319246111381290e+03
  +1.77827941003892419758e+03
  +1.99526231496888021866e+03
  +2.23872113856834130274e+03
  +2.51188643150958068873e+03
  +2.81838293126445523740e+03
  +3.16227766016837949792e+03
  +3.54813389233575662729e+03
  +3.98107170553497280707e+03
  +4.46683592150963340828e+03
  +5.01187233627272689773e+03
  +5.62341325190349289187e+03
  +6.30957344480193751224e+03
  +7.07945784384138187306e+03
  +7.94328234724282083334e+03
  +8.91250938133745694358e+03
  +1.00000000000000072760e+04
  +1.12201845430196372035e+04
  +1.25892541179416803061e+04
  +1.41253754462275446713e+04
  +1.58489319246111426764e+04
  +1.77827941003892447043e+04
  +1.99526231496888030961e+04
  +2.23872113856834184844e+04
  +2.51188643150958123442e+04
  +2.81838293126445605594e+04
  +3.16227766016838031646e+04
  +3.54813389233575362596e+04
  +3.98107170553497708170e+04
  +4.46683592150963449967e+04
  +5.01187233627272435115e+04
  +5.62341325190349889454e+04
  +6.30957344480193860363e+04
  +7.07945784384138241876e+04
  +7.94328234724281501258e+04
  +8.91250938133746822132e+04
  +1.00000000000000087311e+05
</indep>
<dep out_Pha acfrequency>
  -2.63977115539472062533e-01
  -2.96180547559788176493e-01
  -3.32310650712704602761e-01
  -3.72845420617965883636e-01
  -4.18320711027872382815e-01
  -4.69337101523256805535e-01
  -5.26567524149816001966e-01
  -5.90765709136707117821e-01
  -6.62775503899222906412e-01
  -7.43541107472693973968e-01
  -8.34118241454078090946e-01
  -9.35686244349004603293e-01
  -1.04956102320247723902e+00
  -1.17720871655738190675e+00
  -1.32025980513670337935e+00
  -1.48052323615890291109e+00
  -1.65999988360358963213e+00
  -1.86089432314368941057e+00
  -2.08562342191173222261e+00
  -2.33681958576866222188e+00
  -2.61732561735615565368e+00
  -2.93017695781554809997e+00
  -3.27856555627820789311e+00
  -3.66577769579654599852e+00
  -4.09509581630394414731e+00
  -4.56965183874510394446e+00
  -5.09221703743803644215e+00
  -5.66491179747169226744e+00
  -6.28881881216526927858e+00
  -6.96348729267498534057e+00
  -7.68632620656461185149e+00
  -8.45190457641729153693e+00
  -9.25120921812027319220e+00
  -1.00709554733400015181e+01
  -1.08930997189864751107e+01
  -1.16947503446099343449e+01
  -1.24486930442024377186e+01
  -1.31247071784456252885e+01
  -1.36917294748357285528e+01
  -1.41207216852968286958e+01
  -1.43878634913860068423e+01
  -1.44775031069523034688e+01
  -1.43842465210882668458e+01
  -1.41137038912026184789e+01
  -1.36817135183351705763e+01
  -1.31122300229193182730e+01
  -1.24343627685711748398e+01
  -1.16791843479948909135e+01
  -1.08768739955555222565e+01
  -1.00545700965293036688e+01
  -9.23507063954607687606e+00
  -8.43632211036245038827e+00
  -7.67151854963297186174e+00
  -6.94959484002943117531e+00
  -6.27591829667005107751e+00
  -5.65303084530267252461e+00
  -5.08134723799767140662e+00
  -4.55975969936960101592e+00
  -4.08613148315406515820e+00
  -3.65768161249145995484e+00
  -3.27127336442447624876e+00
  -2.92362297746965982270e+00
  -2.61144522530940559335e+00
  -2.33155076504957925465e+00
  -2.08090770471974240152e+00
  -1.85667730085811677476e+00
  -1.65623141563002596044e+00
  -1.47715745529059194752e+00
  -1.31725499042636262637e+00
  -1.17452708438217512388e+00
  -1.04716847206538132831e+00
  -9.33552077865469343010e-01
  -8.32214885958701633406e-01
  -7.41843834965900672529e-01
  -6.61262167030049585748e-01
  -5.89416492122087243288e-01
  -5.25364711617814728051e-01
  -4.68264865983387956749e-01
  -4.17364918830965381247e-01
  -3.71993455737411216067e-01
  -3.31551255362788843684e-01
</dep>
<dep out_dB acfrequency>
  -9.54279387468803541594e+00
  -9.54288935043251029811e+00
  -9.54300954093112707710e+00
  -9.54316084175316703408e+00
  -9.54335130227514483181e+00
  -9.54359105262634699329e+00
  -9.54389284044116692485e+00
  -9.54427270541808603355e+00
  -9.54475082668312779788e+00
  -9.54535258661956120818e+00
  -9.54610990550167315405e+00
  -9.54706291434680487384e+00
  -9.54826204928840382991e+00
  -9.54977066987370726281e+00
  -9.55166832632166240558e+00
  -9.55405482705534581100e+00
  -9.55705528745456689421e+00
  -9.56082637272001178985e+00
  -9.56556397968410720978e+00
  -9.57151262993739671003e+00
  -9.57897686204008458333e+00
  -9.58833490107351060772e+00
  -9.60005482911880747565e+00
  -9.61471334970940993969e+00
  -9.63301698830668406970e+00
  -9.65582513814971576949e+00
  -9.68417366845917726437e+00
  -9.71929677206950870527e+00
  -9.76264326522254677343e+00
  -9.81588164265709295364e+00
  -9.88088595220250809348e+00
  -9.95969235846592226835e+00
  -1.00544148888125910446e+01
  -1.01671095665344459746e+01
  -1.02995806079910927622e+01
  -1.04531321836069643894e+01
  -1.06282849117849735876e+01
  -1.08244957852913046281e+01
  -1.10399381347229326167e+01
  -1.12714060856517619413e+01
  -1.15143974784623885910e+01
  -1.17633972311628447471e+01
  -1.20123357253170741643e+01
  -1.22551490868360311026e+01
  -1.24863383904611708886e+01
  -1.27014251389939829551e+01
  -1.28972307197999125350e+01
  -1.30719554245610165566e+01
  -1.32250798355795691208e+01
  -1.33571429685113862718e+01
  -1.34694616281106416267e+01
  -1.35638472930346232204e+01
  -1.36423588327587950175e+01
  -1.37071098646244298180e+01
  -1.37601339972219154362e+01
  -1.38033015002014014527e+01
  -1.38382765605224591354e+01
  -1.38665036303855053745e+01
  -1.38892127754358511993e+01
  -1.39074361333204521429e+01
  -1.39220298276110181490e+01
  -1.39336975833591392160e+01
  -1.39430137459596004135e+01
  -1.39504444371563351979e+01
  -1.39563662683901164030e+01
  -1.39610824600645209159e+01
  -1.39648364633714354710e+01
  -1.39678233099669331096e+01
  -1.39701989682990674879e+01
  -1.39720879942412690156e+01
  -1.39735897479383570641e+01
  -1.39747834210894268381e+01
  -1.39757320869134122887e+01
  -1.39764859531264988846e+01
  -1.39770849686886595720e+01
  -1.39775609088694352522e+01
  -1.39779390406233297028e+01
  -1.39782394512317544866e+01
  -1.39784781073396846551e+01
  -1.39786676984907209942e+01
  -1.39788183086316237791e+01
</dep>
<dep V1.i acfrequency>
  -6.66684356499120251956e-05-j1.53568596951352023358e-07
  -6.66688936081260462773e-05-j1.72300880796811586530e-07
  -6.66694700986235702384e-05-j1.93316407808315709247e-07
  -6.66701957862687047884e-05-j2.16892769224723390784e-07
  -6.66711092605488497408e-05-j2.43341012686385709660e-07
  -6.66722590785276755668e-05-j2.73009553696709851909e-07
  -6.66737063315548397985e-05-j3.06288494114975208119e-07
  -6.66755278683044952034e-05-j3.43614368553779824797e-07
  -6.66778203392717170065e-05-j3.85475330366730466716e-07
  -6.66807052678153452593e-05-j4.32416773872935476734e-07
  -6.66843354015254148777e-05-j4.85047365994701590326e-07
  -6.66889026564433071457e-05-j5.44045424985032959610e-07
  -6.66946480366256043903e-05-j6.10165531410153475261e-07
  -6.67018739933519718170e-05-j6.84245180193735110889e-07
  -6.67109597814718178251e-05-j7.67211173047898673330e-07
  -6.67223804724566298867e-05-j8.60085295601839196543e-07
  -6.67367303885902588955e-05-j9.63988606702042046665e-07
  -6.67547518183489956402e-05-j1.08014336786867794180e-06
  -6.67773699377884928522e-05-j1.20987123311554651021e-06
  -6.68057348601948933686e-05-j1.35458577355773697139e-06
  -6.68412716075800336559e-05-j1.51577669643436730011e-06
  -6.68857384518002043728e-05-j1.69498220877746032478e-06
  -6.69412933749761085607e-05-j1.89374486539474486340e-06
  -6.70105671571027191203e-05-j2.11354496643873514093e-06
  -6.70967395588269351070e-05-j2.35570425483173143314e-06
  -6.72036119216003321932e-05-j2.62125158254341326391e-06
  -6.73356649422287385429e-05-j2.91074188391709266167e-06
  -6.74980841946234104553e-05-j3.22402108144929898257e-06
  -6.76967283214981467489e-05-j3.55993376132181446467e-06
  -6.79380066110833838759e-05-j3.91597931616345555173e-06
  -6.82286261335177530692e-05-j4.28793759849596348860e-06
  -6.85751678536741023518e-05-j4.66950808036817771222e-06
  -6.89834623233687160848e-05-j5.05203589071908484891e-06
  -6.94577658223036935401e-05-j5.42442816450692655278e-06
  -6.99997919714350928582e-05-j5.77338258155113033667e-06
  -7.06077284718941588669e-05-j6.08403834502574321238e-06
  -7.12754454898201206519e-05-j6.34109943684571265030e-06
  -7.19921463612867762374e-05-j6.53036461083583298068e-06
  -7.27426812266126929197e-05-j6.64044987431355577498e-06
  -7.35086164081269759392e-05-j6.66436195656683587357e-06
  -7.42699488208098742995e-05-j6.60054511938700049607e-06
  -7.50071493252321740489e-05-j6.45312207150214676564e-06
  -7.57031053911517688802e-05-j6.23126189775614050179e-06
  -7.63445687667041304357e-05-j5.94784882199074479628e-06
  -7.69228799644465174347e-05-j5.61779311006630956989e-06
  -7.74339575357489760896e-05-j5.25636048944586322746e-06
  -7.78777153529594583442e-05-j4.87781062610504767167e-06
  -7.82571537334723020801e-05-j4.49448963861525404537e-06
  -7.85773616937349568242e-05-j4.11638324257447137610e-06
  -7.88446033465086245024e-05-j3.75104615891611579111e-06
  -7.90655822154114236444e-05-j3.40378718464580080560e-06
  -7.92469107289537109213e-05-j3.07799396205584691491e-06
  -7.93947691495819622871e-05-j2.77550721309508342317e-06
  -7.95147174895999303166e-05-j2.49698505343960276305e-06
  -7.96116191096549478869e-05-j2.24222482264430910277e-06
  -7.96896387423423727169e-05-j2.01042930535916542555e-06
  -7.97522853708864315004e-05-j1.80041639184868276434e-06
  -7.98024785280509172704e-05-j1.61077772957878745531e-06
  -7.98426236165396865365e-05-j1.43999460186484920650e-06
  -7.98746872871379152113e-05-j1.28651968328887023366e-06
  -7.99002677919932421165e-05-j1.14883256400119546236e-06
  -7.99206578306848160545e-05-j1.02547569987670579224e-06
  -7.99368990465053623398e-05-j9.15076125938875708569e-07
  -7.99498282960552010979e-05-j8.16357062026547622854e-07
  -7.99601163322952916777e-05-j7.28142519781132552682e-07
  -7.99682997739985837156e-05-j6.49357201923937342008e-07
  -7.99748072965075198961e-05-j5.79023350931531983172e-07
  -7.99799809447601818676e-05-j5.16255725351591460708e-07
  -7.99840933872033102436e-05-j4.60255527171564664201e-07
  -7.99873618273641367148e-05-j4.10303844815813148319e-07
  -7.99899591851967737329e-05-j3.65754990051941700088e-07
  -7.99920230618067935055e-05-j3.26029974644443762810e-07
  -7.99936629130049034432e-05-j2.90610279578222527566e-07
  -7.99949657807689362829e-05-j2.59032005199428062196e-07
  -7.99960008669732796759e-05-j2.30880446605564252282e-07
  -7.99968231797502736915e-05-j2.05785109137900786453e-07
  -7.99974764383152187356e-05-j1.83415159588540937460e-07
  -7.99979953856682854136e-05-j1.63475296638414305669e-07
  -7.99984076289973853203e-05-j1.45702016880085147401e-07
  -7.99987351036828968657e-05-j1.29860248980771851926e-07
  -7.99989952375369025184e-05-j1.15740326998870902878e-07
</dep>
<dep _net1.v acfrequency>
  +3.33289108752199580987e-01-j3.83921492378379997090e-03
  +3.33277659796849035079e-01-j4.30752201992028963679e-03
  +3.33263247534410889106e-01-j4.83291019520789254249e-03
  +3.33245105343282443933e-01-j5.42231923061808462200e-03
  +3.33222268486279005195e-01-j6.08352531715964251618e-03
  +3.33193523036808159077e-01-j6.82523884241774576875e-03
  +3.33157341711129040274e-01-j7.65721235287437993616e-03
  +3.33111803292387598230e-01-j8.59035921384449473182e-03
  +3.33054491518207262946e-01-j9.63688325916826037110e-03
  +3.32982368304616693777e-01-j1.08104193468233859138e-02
  +3.32891614961864812372e-01-j1.21261841498675384393e-02
  +3.32777433588917426199e-01-j1.36011356246258218600e-02
  +3.32633799084359971232e-01-j1.52541382852538348613e-02
  +3.32453150166200805948e-01-j1.71061295048433766042e-02
  +3.32226005463204576706e-01-j1.91802793261974663386e-02
  +3.31940488188584403861e-01-j2.15021323900459783440e-02
  +3.31581740285243731226e-01-j2.40997151675510466740e-02
  +3.31131204541275370179e-01-j2.70035841967169454314e-02
  +3.30565751555287834496e-01-j3.02467808278886578222e-02
  +3.29856628495127923717e-01-j3.38646443389434212423e-02
  +3.28968209810499234713e-01-j3.78944174108591796957e-02
  +3.27856538704995148503e-01-j4.23745552194365049381e-02
  +3.26467665625597369683e-01-j4.73436216348686184086e-02
  +3.24735821072432151446e-01-j5.28386241609683712794e-02
  +3.22581511029326917228e-01-j5.88926063707932850866e-02
  +3.19909701959991910059e-01-j6.55312895635853237541e-02
  +3.16608376444281636175e-01-j7.27685470979273080205e-02
  +3.12547895134414832619e-01-j8.06005270362324666156e-02
  +3.07581791962546424735e-01-j8.89983440330453512424e-02
  +3.01549834722915577334e-01-j9.78994829040863850933e-02
  +2.94284346662056439659e-01-j1.07198439962399069691e-01
  +2.85620803658147404125e-01-j1.16737702009204441511e-01
  +2.75413441915782375435e-01-j1.26300897267977108029e-01
  +2.63555854442407644367e-01-j1.35610704112673147170e-01
  +2.50005200714122965966e-01-j1.44334564538778242770e-01
  +2.34806788202646082864e-01-j1.52100958625643573052e-01
  +2.18113862754496956597e-01-j1.58527485921142796688e-01
  +2.00196340967830566093e-01-j1.63259115270895815986e-01
  +1.81432969334682697715e-01-j1.66011246857838884461e-01
  +1.62284589796825640118e-01-j1.66609048914170887468e-01
  +1.43251279479753412804e-01-j1.65013627984675004257e-01
  +1.24821266869195729443e-01-j1.61328051787553661267e-01
  +1.07422365221205906582e-01-j1.55781547443903489736e-01
  +9.13857808323969983411e-02-j1.48696220549768609587e-01
  +7.69280008888372640596e-02-j1.40444827751657730364e-01
  +6.41510616062757055289e-02-j1.31409012236146566233e-01
  +5.30571161760137743890e-02-j1.21945265652626172459e-01
  +4.35711566631927088578e-02-j1.12362240965381346425e-01
  +3.55659576566261098618e-02-j1.02909581064361779768e-01
  +2.88849163372845441078e-02-j9.37761539729028842372e-02
  +2.33604446147145407287e-02-j8.50946796161450164098e-02
  +1.88272317761574194128e-02-j7.69498490513961658221e-02
  +1.51307712604510959109e-02-j6.93876803273770770275e-02
  +1.21320627600018174364e-02-j6.24246263359900591117e-02
  +9.70952225862661486011e-03-j5.60556205661077236457e-02
  +7.75903144144080535172e-03-j5.02607326339791285474e-02
  +6.19286572783931971858e-03-j4.50104097962170657254e-02
  +4.93803679872736704659e-03-j4.02694432394696821831e-02
  +3.93440958650804160912e-03-j3.59998650466212266608e-02
  +3.13281782155228408215e-03-j3.21629920822217515997e-02
  +2.49330520016899500821e-03-j2.87208141000298844414e-02
  +1.98355423287986274913e-03-j2.56368924969176403827e-02
  +1.57752383736606380422e-03-j2.28769031484718915470e-02
  +1.25429259862001483625e-03-j2.04089265506636891034e-02
  +9.97091692617743620072e-04-j1.82035629945283133901e-02
  +7.92505650035674798909e-04-j1.62339300480984320696e-02
  +6.29817587312326231629e-04-j1.44755837732882981783e-02
  +5.00476380995611819756e-04-j1.29063931337897851853e-02
  +3.97665319917447955891e-04-j1.15063881792891158778e-02
  +3.15954315896648971988e-04-j1.02575961203953281570e-02
  +2.51020370080891623739e-04-j9.14387475129854222777e-03
  +1.99423454830490739327e-04-j8.15074936611109336637e-03
  +1.58427174877717876714e-04-j7.26525698945556207275e-03
  +1.25855480776693081637e-04-j6.47580012998570132832e-03
  +9.99783256682817815259e-05-j5.77201116513910601757e-03
  +7.94205062433690924363e-05-j5.14462772844751902585e-03
  +6.30890421196253384055e-05-j4.58537898971352313876e-03
  +5.01153582930684291029e-05-j4.08688241596035731901e-03
  +3.98092750656273979709e-05-j3.64255042200212816178e-03
  +3.16224079275770152521e-05-j3.24650622451929608131e-03
  +2.51190615776490547111e-05-j2.89350817497177224477e-03
</dep>
<dep out.v acfrequency>
  +3.33315643500879832395e-01-j1.53568596951351998836e-03
  +3.33311063918739658440e-01-j1.72300880796811585471e-03
  +3.33305299013764377847e-01-j1.93316407808315714710e-03
  +3.33298042137312955369e-01-j2.16892769224723410901e-03
  +3.33288907394511613180e-01-j2.43341012686385709321e-03
  +3.33277409214723263631e-01-j2.73009553696709848097e-03
  +3.33262936684451616109e-01-j3.06288494114975197447e-03
  +3.33244721316955039292e-01-j3.43614368553779797946e-03
  +3.33221796607282905178e-01-j3.85475330366730423517e-03
  +3.33192947321846677511e-01-j4.32416773872935488593e-03
  +3.33156645984745924949e-01-j4.85047365994701554920e-03
  +3.33110973435566948275e-01-j5.44045424985032874399e-03
  +3.33053519633743966288e-01-j6.10165531410153394454e-03
  +3.32981260066480322379e-01-j6.84245180193735098861e-03
  +3.32890402185281875092e-01-j7.67211173047898688238e-03
  +3.32776195275433783749e-01-j8.60085295601839203150e-03
  +3.32632696114097514695e-01-j9.63988606702041901653e-03
  +3.32452481816510159174e-01-j1.08014336786867795603e-02
  +3.32226300622115111594e-01-j1.20987123311554634758e-02
  +3.31942651398051180589e-01-j1.35458577355773695378e-02
  +3.31587283924199671681e-01-j1.51577669643436722252e-02
  +3.31142615481998081606e-01-j1.69498220877746033630e-02
  +3.30587066250238925669e-01-j1.89374486539474473634e-02
  +3.29894328428972871681e-01-j2.11354496643873512873e-02
  +3.29032604411730766891e-01-j2.35570425483173154224e-02
  +3.27963880783996741819e-01-j2.62125158254341295017e-02
  +3.26643350577712654470e-01-j2.91074188391709232082e-02
  +3.25019158053765910843e-01-j3.22402108144929852585e-02
  +3.23032716785018603201e-01-j3.55993376132181446603e-02
  +3.20619933889166264240e-01-j3.91597931616345582007e-02
  +3.17713738664822609170e-01-j4.28793759849596320399e-02
  +3.14248321463258983854e-01-j4.66950808036817807678e-02
  +3.10165376766312950174e-01-j5.05203589071908445995e-02
  +3.05422341776963091053e-01-j5.42442816450692602559e-02
  +3.00002080285649230795e-01-j5.77338258155112998837e-02
  +2.93922715281058455350e-01-j6.08403834502574333842e-02
  +2.87245545101798782639e-01-j6.34109943684571242262e-02
  +2.80078536387132259744e-01-j6.53036461083583291698e-02
  +2.72573187733873067984e-01-j6.64044987431355593355e-02
  +2.64913835918730300456e-01-j6.66436195656683605382e-02
  +2.57300511791901387326e-01-j6.60054511938700100293e-02
  +2.49928506747678302879e-01-j6.45312207150214728335e-02
  +2.42968946088482379286e-01-j6.23126189775614000577e-02
  +2.36554312332958815990e-01-j5.94784882199074493858e-02
  +2.30771200355534916726e-01-j5.61779311006630963088e-02
  +2.25660424642510293314e-01-j5.25636048944586320442e-02
  +2.21222846470405520858e-01-j4.87781062610504745347e-02
  +2.17428462665277100196e-01-j4.49448963861525385699e-02
  +2.14226383062650460598e-01-j4.11638324257447146826e-02
  +2.11553966534913817643e-01-j3.75104615891611592460e-02
  +2.09344177845885826006e-01-j3.40378718464580051761e-02
  +2.07530892710462988582e-01-j3.07799396205584684105e-02
  +2.06052308504180436977e-01-j2.77550721309508321988e-02
