<Qucs Dataset 0.0.19>
<indep acfrequency 141>
  +1.00000000000000005551e-01
  +1.12201845430196345266e-01
  +1.25892541179416728170e-01
  +1.41253754462275449288e-01
  +1.58489319246111370898e-01
  +1.77827941003892320282e-01
  +1.99526231496887973549e-01
  +2.23872113856834004109e-01
  +2.51188643150958013095e-01
  +2.81838293126445427195e-01
  +3.16227766016837996688e-01
  +3.54813389233575526838e-01
  +3.98107170553497313747e-01
  +4.46683592150963093559e-01
  +5.01187233627272354930e-01
  +5.62341325190349183849e-01
  +6.30957344480193360603e-01
  +7.07945784384138021572e-01
  +7.94328234724281823098e-01
  +8.91250938133745784775e-01
  +1.00000000000000022204e+00
  +1.12201845430196356368e+00
  +1.25892541179416750374e+00
  +1.41253754462275438186e+00
  +1.58489319246111382000e+00
  +1.77827941003892298077e+00
  +1.99526231496887973549e+00
  +2.23872113856834031864e+00
  +2.51188643150958101913e+00
  +2.81838293126445504910e+00
  +3.16227766016838041097e+00
  +3.54813389233575549042e+00
  +3.98107170553497358156e+00
  +4.46683592150963271195e+00
  +5.01187233627272377134e+00
  +5.62341325190349206053e+00
  +6.30957344480193693670e+00
  +7.07945784384137954959e+00
  +7.94328234724282022938e+00
  +8.91250938133745584935e+00
  +1.00000000000000053291e+01
  +1.12201845430196343045e+01
  +1.25892541179416781461e+01
  +1.41253754462275544768e+01
  +1.58489319246111399764e+01
  +1.77827941003892426863e+01
  +1.99526231496888044603e+01
  +2.23872113856834147327e+01
  +2.51188643150958057504e+01
  +2.81838293126445549319e+01
  +3.16227766016837961160e+01
  +3.54813389233575691151e+01
  +3.98107170553497269339e+01
  +4.46683592150963306722e+01
  +5.01187233627272732406e+01
  +5.62341325190349294871e+01
  +6.30957344480193853542e+01
  +7.07945784384138221412e+01
  +7.94328234724282111756e+01
  +8.91250938133745762570e+01
  +1.00000000000000071054e+02
  +1.12201845430196371467e+02
  +1.25892541179416809882e+02
  +1.41253754462275452397e+02
  +1.58489319246111449502e+02
  +1.77827941003892448180e+02
  +1.99526231496888044603e+02
  +2.23872113856834175749e+02
  +2.51188643150958114347e+02
  +2.81838293126445648795e+02
  +3.16227766016838074847e+02
  +3.54813389233575435355e+02
  +3.98107170553497724086e+02
  +4.46683592150963477252e+02
  +5.01187233627272462400e+02
  +5.62341325190349948571e+02
  +6.30957344480193910385e+02
  +7.07945784384138278256e+02
  +7.94328234724281628587e+02
  +8.91250938133746785752e+02
  +1.00000000000000090949e+03
  +1.12201845430196385678e+03
  +1.25892541179416730301e+03
  +1.41253754462275628612e+03
  +1.58489319246111472239e+03
  +1.77827941003892351546e+03
  +1.99526231496888294714e+03
  +2.23872113856834175749e+03
  +2.51188643150958159822e+03
  +2.81838293126445432790e+03
  +3.16227766016838404539e+03
  +3.54813389233575799153e+03
  +3.98107170553497417131e+03
  +4.46683592150963067979e+03
  +5.01187233627272962622e+03
  +5.62341325190349562035e+03
  +6.30957344480193478375e+03
  +7.07945784384139187750e+03
  +7.94328234724282447132e+03
  +8.91250938133746058156e+03
  +1.00000000000000018190e+04
  +1.12201845430196517555e+04
  +1.25892541179416857631e+04
  +1.41253754462275519472e+04
  +1.58489319246111354005e+04
  +1.77827941003892519802e+04
  +1.99526231496888140100e+04
  +2.23872113856834039325e+04
  +2.51188643150958450860e+04
  +2.81838293126445751113e+04
  +3.16227766016838213545e+04
  +3.54813389233575580874e+04
  +3.98107170553497853689e+04
  +4.46683592150963668246e+04
  +5.01187233627272653393e+04
  +5.62341325190349161858e+04
  +6.30957344480194151402e+04
  +7.07945784384138532914e+04
  +7.94328234724281937815e+04
  +8.91250938133747113170e+04
  +1.00000000000000130967e+05
  +1.12201845430196437519e+05
  +1.25892541179416773957e+05
  +1.41253754462275654078e+05
  +1.58489319246111554094e+05
  +1.77827941003892425215e+05
  +1.99526231496888009133e+05
  +2.23872113856834330363e+05
  +2.51188643150958290789e+05
  +2.81838293126445554662e+05
  +3.16227766016838548239e+05
  +3.54813389233575959224e+05
  +3.98107170553497620858e+05
  +4.46683592150963319000e+05
  +5.01187233627273177262e+05
  +5.62341325190349831246e+05
  +6.30957344480193802156e+05
  +7.07945784384138183668e+05
  +7.94328234724282752723e+05
  +8.91250938133746618405e+05
  +1.00000000000000058208e+06
</indep>
<dep out_dB acfrequency>
  -1.39891675336417957709e+01
  -1.29892797521442044939e+01
  -1.19894210227456632367e+01
  -1.09895988653618648101e+01
  -9.98982274559600114117e+00
  -8.99010457770257787047e+00
  -7.99045935729974488027e+00
  -6.99090595714402418537e+00
  -5.99146812774316384065e+00
  -4.99217575513986489000e+00
  -3.99306644133880439540e+00
  -2.99418748915265187094e+00
  -1.99559839339090072663e+00
  -9.97373965087139491281e-01
  +3.91754287643361674785e-04
  +9.97580595060320707290e-01
  +1.99404414067443713776e+00
  +2.98959609918134239237e+00
  +3.98400281669579658939e+00
  +4.97697151863128794957e+00
  +5.96813579483034928330e+00
  +6.95703777737881345899e+00
  +7.94310640603638162816e+00
  +8.92563115456855449281e+00
  +9.90373063177104029364e+00
  +1.08763156191744343460e+01
  +1.18420464290795646178e+01
  +1.27992850509967261985e+01
  +1.37460435130314273522e+01
  +1.46799313378974929378e+01
  +1.55981070173472353702e+01
  +1.64972410686550858827e+01
  +1.73735012749161157330e+01
  +1.82225735995444324544e+01
  +1.90397339666638352185e+01
  +1.98199850661825109910e+01
  +2.05582668010704026074e+01
  +2.12497376963654325266e+01
  +2.18901079976899666235e+01
  +2.24759865921898764896e+01
  +2.30051894598971031769e+01
  +2.34769542349729611885e+01
  +2.38920180210465851189e+01
  +2.42525421132890883769e+01
  +2.45618994465770938973e+01
  +2.48243672774158063987e+01
  +2.50447804427470899213e+01
  +2.52281976526669993177e+01
  +2.53796189828779397146e+01
  +2.55037741502984403041e+01
  +2.56049844931347259092e+01
  +2.56870901784435368143e+01
  +2.57534285287002226994e+01
  +2.58068482640429763819e+01
  +2.58497461256785570072e+01
  +2.58841152241703724712e+01
  +2.59115974971256655124e+01
  +2.59335353090755731387e+01
  +2.59510192799779702000e+01
  +2.59649308901151556483e+01
  +2.59759793735720379004e+01
  +2.59847330004568277673e+01
  +2.59916451710660680874e+01
  +2.59970758928803213905e+01
  +2.60013092496145183929e+01
  +2.60045674461982798675e+01
  +2.60070219544699021696e+01
  +2.60088022101542719611e+01
  +2.60100022332183158369e+01
  +2.60106854667077342924e+01
  +2.60108880561633135642e+01
  +2.60106207231928081569e+01
  +2.60098693220490986278e+01
  +2.60085941057885072780e+01
  +2.60067276670787421722e+01
  +2.60041714562307646474e+01
  +2.60007907139012388598e+01
  +2.59964075868810020609e+01
  +2.59907921219076385455e+01
  +2.59836507552603919180e+01
  +2.59746118379132795440e+01
  +2.59632076636244519818e+01
  +2.59488524123661932208e+01
  +2.59308154040254557060e+01
  +2.59081891093361385003e+01
  +2.58798515349715074763e+01
  +2.58444229570369863325e+01
  +2.58002176150395996501e+01
  +2.57451920108830059064e+01
  +2.56768930042553336079e+01
  +2.55924110439583856191e+01
  +2.54883466047059812354e+01
  +2.53608009665658045151e+01
  +2.52054052595094866263e+01
  +2.50174030729248286775e+01
  +2.47918002851866781100e+01
  +2.45235893486729885637e+01
  +2.42080430160153134977e+01
  +2.38410552805017772471e+01
  +2.34194889342597747373e+01
  +2.29414761444872894458e+01
  +2.24066177683850398239e+01
  +2.18160423432111585385e+01
  +2.11723138889371824689e+01
  +2.04792097453413646235e+01
  +1.97414145677984720351e+01
  +1.89641868607936743274e+01
  +1.81530493104764154566e+01
  +1.73135387300394967269e+01
  +1.64510328251494186702e+01
  +1.55706550068582032509e+01
  +1.46772479124399950479e+01
  +1.37754012041425699664e+01
  +1.28695181199976609321e+01
  +1.19639062631643717793e+01
  +1.10628796361548520366e+01
  +1.01708598968253696171e+01
  +9.29246474061720206805e+00
  +8.43257023156521867691e+00
  +7.59633237684357087716e+00
  +6.78915239690866201272e+00
  +6.01657164486641882206e+00
  +5.28408785812163195317e+00
  +4.59689573668587936339e+00
  +3.95957137949448956249e+00
  +3.37573868409648314426e+00
  +2.84777032454919476478e+00
  +2.37657924525994523890e+00
  +1.96154426886638955096e+00
  +1.60058703549778713615e+00
  +1.29038525523235625414e+00
  +1.02668030014790057081e+00
  +8.04623959158052182161e-01
  +6.19111728659215598825e-01
  +4.65064088121371621565e-01
  +3.37635711832020346534e-01
  +2.32349240604317497372e-01
  +1.45161676346216461653e-01
  +7.24771196022640784573e-02
  +1.11206559779906295760e-02
  -4.17135130503274581537e-02
</dep>
<dep V1.i acfrequency>
  -9.97954274242666685927e-08-j9.98926765568587084405e-06
  -1.25631753294517352976e-07-j1.12078530485138642064e-05
  -1.58155862058601000917e-07-j1.25750088978854216126e-05
  -1.99098280581369358711e-07-j1.41088142824278095044e-05
  -2.50636964130816428188e-07-j1.58295339553325996101e-05
  -3.15512767674582150681e-07-j1.77598766709686519110e-05
  -3.97174594081205463133e-07-j1.99252815895540557570e-05
  -4.99961774041303352655e-07-j2.23542347725392014004e-05
  -6.29333113327460820770e-07-j2.50786174491324479906e-05
  -7.92154367031584450883e-07-j2.81340871273687711618e-05
  -9.97058757099180517205e-07-j3.15604916142647010948e-05
  -1.25489863690152656956e-06-j3.54023144202837247545e-05
  -1.57931062548512368372e-06-j3.97091476039634167991e-05
  -1.98742157584681974688e-06-j4.45361845169372198459e-05
  -2.50072866593965065435e-06-j4.99447196616318838248e-05
  -3.14619369821354913407e-06-j5.60026353257315077298e-05
  -3.95759922003826232912e-06-j6.27848439390575813798e-05
  -4.97722195395197596827e-06-j7.03736400619797073915e-05
  -6.25788647666174481748e-06-j7.88588950817024783666e-05
  -7.86546768910779374592e-06-j8.83379992253582494799e-05
  -9.88191194937771679938e-06-j9.89154172290774023934e-05
  -1.24088398431727255815e-05-j1.10701673595836914423e-04
  -1.55717722662714229344e-05-j1.23811518748292569581e-04
  -1.95249765219986951492e-05-j1.38360947574863379309e-04
  -2.44568472093423375019e-05-j1.54462648669253442514e-04
  -3.05955998316839169549e-05-j1.72219363320804850440e-04
  -3.82148409767899327667e-05-j1.91714545368651146382e-04
  -4.76382636350089247565e-05-j2.12999670123806310795e-04
  -5.92422815155336420227e-05-j2.36077600793399930033e-04
  -7.34548650800255498172e-05-j2.60881674090191297607e-04
  -9.07482257095600433876e-05-j2.87250735839138932048e-04
  -1.11622452237294212752e-04-j3.14901382013206142425e-04
  -1.36577008065124716561e-04-j3.43400245971233397321e-04
  -1.66067575589869950237e-04-j3.72141284900738729402e-04
  -2.00447620615580167532e-04-j4.00335324453304536481e-04
  -2.39897678083972906802e-04-j4.27020821663173007904e-04
  -2.84350669290632084713e-04-j4.51104606676324760076e-04
  -3.33427480414013222183e-04-j4.71437796234854314924e-04
  -3.86401211179555209314e-04-j4.86924342355697030004e-04
  -4.42207813378679205109e-04-j4.96648832844220487932e-04
  -4.99512994977726969802e-04-j4.99999762826051994541e-04
  -5.56830973589391309969e-04-j4.96759741163554837534e-04
  -6.12674647811818195303e-04-j4.87139018905776832041e-04
  -6.65706049153222357770e-04-j4.71743050053765981822e-04
  -7.14855838664576613735e-04-j4.51483076750105105299e-04
  -7.59391171543325003285e-04-j4.27453178869196528597e-04
  -7.98927238378734560706e-04-j4.00802328031241942435e-04
  -8.33392162796858424444e-04-j3.72625369219049557695e-04
  -8.62962905344001477217e-04-j3.43886506487593029968e-04
  -8.87990620089961000920e-04-j3.15377993401897999820e-04
  -9.08929787294367663372e-04-j2.87708931149839759744e-04
  -9.26279532219337407677e-04-j2.61315442350548796796e-04
  -9.40540208600990231512e-04-j2.36483243816123546444e-04
  -9.52184665560594175639e-04-j2.13375322452840493481e-04
  -9.61641704185102106327e-04-j1.92059722370607408037e-04
  -9.69288633923575206931e-04-j1.72534570652216681652e-04
  -9.75450025847325358393e-04-j1.54749064364788704862e-04
  -9.80400298841882207948e-04-j1.38620174839849084891e-04
  -9.84368391319913544138e-04-j1.24045400923045341657e-04
  -9.87543323899849881040e-04-j1.10912160382376986933e-04
  -9.90079895287859952646e-04-j9.91044713150746742203e-05
  -9.92104070786253540784e-04-j8.85075336657745875835e-05
  -9.93717838446123375232e-04-j7.90107334486117585115e-05
  -9.95003445838615321536e-04-j7.05094930338965447669e-05
  -9.96027013112852840915e-04-j6.29062974776099792518e-05
  -9.96841563482244201119e-04-j5.61111468116541611817e-05
  -9.97489533894532157815e-04-j5.00416193323222069367e-05
  -9.98004835722955934568e-04-j4.46226802932291055637e-05
  -9.98414534087544141422e-04-j3.97863319532738846096e-05
  -9.98740208860828069387e-04-j3.54711723158061820182e-05
  -9.98999052979456306223e-04-j3.16219089494251814898e-05
  -9.99204755805947839736e-04-j2.81888591596723969701e-05
  -9.99368211748334189098e-04-j2.51274569996809415962e-05
  -9.99498087534324546749e-04-j2.23977800139288363290e-05
  -9.99601275597143549070e-04-j1.99641033283987079372e-05
  -9.99683255973915583376e-04-j1.77944850812405963580e-05
  -9.99748384885357915808e-04-j1.58603847518340446143e-05
  -9.99800124666583170732e-04-j1.41363143452699624447e-05
  -9.99841226852282195792e-04-j1.25995213720725418582e-05
  -9.99873877887314790533e-04-j1.12297019505408490758e-05
  -9.99899815046097727167e-04-j1.00087420227268353301e-05
  -9.99920418622629461960e-04-j8.92048452579008444019e-06
  -9.99936785230319449130e-04-j7.95052033350507336706e-06
  -9.99949786070734956273e-04-j7.08600083448862605451e-06
  -9.99960113246274595600e-04-j6.31547011489819176688e-06
  -9.99968316565406651480e-04-j5.62871484027782642556e-06
  -9.99974832789330162972e-04-j5.01663007221320178530e-06
  -9.99980008870498008819e-04-j4.47109940135415051543e-06
  -9.99984120416101771728e-04-j3.98488792024975779782e-06
  -9.99987386356958286512e-04-j3.55154669656743138262e-06
  -9.99989980601195902615e-04-j3.16532753685816459210e-06
  -9.99992041292234500396e-04-j2.82110695021264845650e-06
  -9.99993678163362074290e-04-j2.51431833153681338899e-06
  -9.99994978380133779997e-04-j2.24089148548323180421e-06
  -9.99996011181436593798e-04-j1.99719870130898868865e-06
  -9.99996831566192382126e-04-j1.78000667661049050139e-06
  -9.99997483221926747321e-04-j1.58643365422150850463e-06
  -9.99998000851081130652e-04-j1.41391121444289780129e-06
  -9.99998412018915285721e-04-j1.26015021451042485978e-06
  -9.99998738621376290561e-04-j1.12311042765877999727e-06
  -9.99998998051084692085e-04-j1.00097348187944135134e-06
  -9.99999204123522885540e-04-j8.92118738657797632759e-07
  -9.99999367812739146932e-04-j7.95101792905127927638e-07
  -9.99999497835743879695e-04-j7.08635310875393997776e-07
  -9.99999601116711642201e-04-j6.31571950932746027348e-07
  -9.99999683155715704541e-04-j5.62889139965605522775e-07
  -9.99999748321622663333e-04-j5.01675506734895188243e-07
  -9.99999800084748350151e-04-j4.47118789160468430382e-07
  -9.99999841201664645476e-04-j3.98495056681381718581e-07
  -9.99999873861994381316e-04-j3.55159104792335256207e-07
  -9.99999899804971531525e-04-j3.16535893052360961519e-07
  -9.99999920412279058590e-04-j2.82112917915355865262e-07
  -9.99999936781091613991e-04-j2.51433406539547377179e-07
  -9.99999949783163255557e-04-j2.24090262790355154721e-07
  -9.99999960111656741382e-04-j1.99720658821067942050e-07
  -9.99999968315562611995e-04-j1.78001225999271981276e-07
  -9.99999974832008198256e-04-j1.58643761238863589824e-07
  -9.99999980008471405987e-04-j1.41391401280036263102e-07
  -9.99999984120164163090e-04-j1.26015219592545690830e-07
  -9.99999987386197873931e-04-j1.12311183012564854713e-07
  -9.99999989980515646693e-04-j1.00097446775748721848e-07
  -9.99999992041229008796e-04-j8.92119427220450234017e-08
  -9.99999993678123404867e-04-j7.95102290532132290710e-08
  -9.99999994977435191501e-04-j7.08635639057320076972e-08
  -9.99999996011165584453e-04-j6.31572198983576527098e-08
  -9.99999996831555998042e-04-j5.62889326261029054876e-08
  -9.99999997483215713814e-04-j5.01675631733195434796e-08
  -9.99999998000847224386e-04-j4.47118877652492070097e-08
  -9.99999998412016586832e-04-j3.98495119328940061030e-08
  -9.99999998738619914548e-04-j3.55159137654936785111e-08
  -9.99999998998050195625e-04-j3.16535917477267503273e-08
  -9.99999999204122984667e-04-j2.82112940050040536427e-08
  -9.99999999367812359222e-04-j2.51433422520424839254e-08
  -9.99999999497835521597e-04-j2.24090273728644040151e-08
  -9.99999999602874112270e-04-j1.99720631144373328425e-08
  -9.99999999683155596855e-04-j1.78001231582741943189e-08
  -9.99999999748321568432e-04-j1.58643764647419110057e-08
  -9.99999999800084849594e-04-j1.41391404078400345589e-08
  -9.99999999841201699102e-04-j1.26015221534102985675e-08
  -9.99999999873861988506e-04-j1.12311184415069233799e-08
  -9.99999999899804994929e-04-j1.00097423683109809645e-08
</dep>
<dep _net1.v acfrequency>
  +9.97954274242666505932e-05+j9.98926765568586977340e-03
  +1.25631753294517357422e-04+j1.12078530485138633255e-02
  +1.58155862058601009599e-04+j1.25750088978854208943e-02
  +1.99098280581369373957e-04+j1.41088142824278076071e-02
  +2.50636964130816406165e-04+j1.58295339553325975501e-02
  +3.15512767674582157457e-04+j1.77598766709686495258e-02
  +3.97174594081205374618e-04+j1.99252815895540578983e-02
  +4.99961774041303430582e-04+j2.23542347725392033519e-02
  +6.29333113327460737761e-04+j2.50786174491324440061e-02
  +7.92154367031584370415e-04+j2.81340871273687703757e-02
  +9.97058757099180542616e-04+j3.15604916142646976795e-02
  +1.25489863690152647809e-03+j3.54023144202837286576e-02
  +1.57931062548512376673e-03+j3.97091476039634141970e-02
  +1.98742157584681951310e-03+j4.45361845169372147502e-02
  +2.50072866593965045107e-03+j4.99447196616318797591e-02
  +3.14619369821354929670e-03+j5.60026353257315062661e-02
  +3.95759922003826192932e-03+j6.27848439390575746577e-02
  +4.97722195395197512802e-03+j7.03736400619797003442e-02
  +6.25788647666174549511e-03+j7.88588950817024764151e-02
  +7.86546768910779264816e-03+j8.83379992253582463357e-02
  +9.88191194937771723306e-03+j9.89154172290774014176e-02
  +1.24088398431727274518e-02+j1.10701673595836908026e-01
  +1.55717722662714226634e-02+j1.23811518748292576086e-01
  +1.95249765219986937126e-02+j1.38360947574863391019e-01
  +2.44568472093423389113e-02+j1.54462648669253438394e-01
  +3.05955998316839138107e-02+j1.72219363320804841333e-01
  +3.82148409767899335798e-02+j1.91714545368651123614e-01
  +4.76382636350089275212e-02+j2.12999670123806328359e-01
  +5.92422815155336512927e-02+j2.36077600793399927648e-01
  +7.34548650800255498172e-02+j2.60881674090191306714e-01
  +9.07482257095600514107e-02+j2.87250735839138959804e-01
  +1.11622452237294222943e-01+j3.14901382013206110333e-01
  +1.36577008065124710923e-01+j3.43400245971233364362e-01
  +1.66067575589869953490e-01+j3.72141284900738666952e-01
  +2.00447620615580163195e-01+j4.00335324453304552961e-01
  +2.39897678083972915042e-01+j4.27020821663173011373e-01
  +2.84350669290632018793e-01+j4.51104606676324793035e-01
  +3.33427480414013266419e-01+j4.71437796234854322730e-01
  +3.86401211179555226227e-01+j4.86924342355696926354e-01
  +4.42207813378679148730e-01+j4.96648832844220455840e-01
  +4.99512994977726942913e-01+j4.99999762826052074338e-01
  +5.56830973589391264866e-01+j4.96759741163554702226e-01
  +6.12674647811818129384e-01+j4.87139018905776766122e-01
  +6.65706049153222290116e-01+j4.71743050053765877738e-01
  +7.14855838664576692665e-01+j4.51483076750105238872e-01
  +7.59391171543325027571e-01+j4.27453178869196481759e-01
  +7.98927238378734583257e-01+j4.00802328031241772432e-01
  +8.33392162796858460005e-01+j3.72625369219049651370e-01
  +8.62962905344001440788e-01+j3.43886506487593113235e-01
  +8.87990620089960991379e-01+j3.15377993401897982473e-01
  +9.08929787294367685924e-01+j2.87708931149839697294e-01
  +9.26279532219337342624e-01+j2.61315442350548654549e-01
  +9.40540208600990190746e-01+j2.36483243816123261949e-01
  +9.52184665560594112321e-01+j2.13375322452840493481e-01
  +9.61641704185102086377e-01+j1.92059722370607199871e-01
