<Qucs Dataset 0.0.19>
<indep acfrequency 141>
  +1.00000000000000005551e-01
  +1.12201845430196345266e-01
  +1.25892541179416728170e-01
  +1.41253754462275449288e-01
  +1.58489319246111370898e-01
  +1.77827941003892320282e-01
  +1.99526231496887973549e-01
  +2.23872113856834004109e-01
  +2.51188643150958013095e-01
  +2.81838293126445427195e-01
  +3.16227766016837996688e-01
  +3.54813389233575526838e-01
  +3.98107170553497313747e-01
  +4.46683592150963093559e-01
  +5.01187233627272354930e-01
  +5.62341325190349183849e-01
  +6.30957344480193360603e-01
  +7.07945784384138021572e-01
  +7.94328234724281823098e-01
  +8.91250938133745784775e-01
  +1.00000000000000022204e+00
  +1.12201845430196356368e+00
  +1.25892541179416750374e+00
  +1.41253754462275438186e+00
  +1.58489319246111382000e+00
  +1.77827941003892298077e+00
  +1.99526231496887973549e+00
  +2.23872113856834031864e+00
  +2.51188643150958101913e+00
  +2.81838293126445504910e+00
  +3.16227766016838041097e+00
  +3.54813389233575549042e+00
  +3.98107170553497358156e+00
  +4.46683592150963271195e+00
  +5.01187233627272377134e+00
  +5.62341325190349206053e+00
  +6.30957344480193693670e+00
  +7.07945784384137954959e+00
  +7.94328234724282022938e+00
  +8.91250938133745584935e+00
  +1.00000000000000053291e+01
  +1.12201845430196343045e+01
  +1.25892541179416781461e+01
  +1.41253754462275544768e+01
  +1.58489319246111399764e+01
  +1.77827941003892426863e+01
  +1.99526231496888044603e+01
  +2.23872113856834147327e+01
  +2.51188643150958057504e+01
  +2.81838293126445549319e+01
  +3.16227766016837961160e+01
  +3.54813389233575691151e+01
  +3.98107170553497269339e+01
  +4.46683592150963306722e+01
  +5.01187233627272732406e+01
  +5.62341325190349294871e+01
  +6.30957344480193853542e+01
  +7.07945784384138221412e+01
  +7.94328234724282111756e+01
  +8.91250938133745762570e+01
  +1.00000000000000071054e+02
  +1.12201845430196371467e+02
  +1.25892541179416809882e+02
  +1.41253754462275452397e+02
  +1.58489319246111449502e+02
  +1.77827941003892448180e+02
  +1.99526231496888044603e+02
  +2.23872113856834175749e+02
  +2.51188643150958114347e+02
  +2.81838293126445648795e+02
  +3.16227766016838074847e+02
  +3.54813389233575435355e+02
  +3.98107170553497724086e+02
  +4.46683592150963477252e+02
  +5.01187233627272462400e+02
  +5.62341325190349948571e+02
  +6.30957344480193910385e+02
  +7.07945784384138278256e+02
  +7.94328234724281628587e+02
  +8.91250938133746785752e+02
  +1.00000000000000090949e+03
  +1.12201845430196385678e+03
  +1.25892541179416730301e+03
  +1.41253754462275628612e+03
  +1.58489319246111472239e+03
  +1.77827941003892351546e+03
  +1.99526231496888294714e+03
  +2.23872113856834175749e+03
  +2.51188643150958159822e+03
  +2.81838293126445432790e+03
  +3.16227766016838404539e+03
  +3.54813389233575799153e+03
  +3.98107170553497417131e+03
  +4.46683592150963067979e+03
  +5.01187233627272962622e+03
  +5.62341325190349562035e+03
  +6.30957344480193478375e+03
  +7.07945784384139187750e+03
  +7.94328234724282447132e+03
  +8.91250938133746058156e+03
  +1.00000000000000018190e+04
  +1.12201845430196517555e+04
  +1.25892541179416857631e+04
  +1.41253754462275519472e+04
  +1.58489319246111354005e+04
  +1.77827941003892519802e+04
  +1.99526231496888140100e+04
  +2.23872113856834039325e+04
  +2.51188643150958450860e+04
  +2.81838293126445751113e+04
  +3.16227766016838213545e+04
  +3.54813389233575580874e+04
  +3.98107170553497853689e+04
  +4.46683592150963668246e+04
  +5.01187233627272653393e+04
  +5.62341325190349161858e+04
  +6.30957344480194151402e+04
  +7.07945784384138532914e+04
  +7.94328234724281937815e+04
  +8.91250938133747113170e+04
  +1.00000000000000130967e+05
  +1.12201845430196437519e+05
  +1.25892541179416773957e+05
  +1.41253754462275654078e+05
  +1.58489319246111554094e+05
  +1.77827941003892425215e+05
  +1.99526231496888009133e+05
  +2.23872113856834330363e+05
  +2.51188643150958290789e+05
  +2.81838293126445554662e+05
  +3.16227766016838548239e+05
  +3.54813389233575959224e+05
  +3.98107170553497620858e+05
  +4.46683592150963319000e+05
  +5.01187233627273177262e+05
  +5.62341325190349831246e+05
  +6.30957344480193802156e+05
  +7.07945784384138183668e+05
  +7.94328234724282752723e+05
  +8.91250938133746618405e+05
  +1.00000000000000058208e+06
</indep>
<dep out_dB acfrequency>
  -1.39883374268380968886e+01
  -1.29884496634293533646e+01
  -1.19885909568019890514e+01
  -1.09887688280832946930e+01
  -9.98899274440132600716e+00
  -8.98927462192954251918e+00
  -7.98962945870078478094e+00
  -6.99007613050967702151e+00
  -5.99063839168586298456e+00
  -4.99134613307896124468e+00
  -3.99223696273805606083e+00
  -2.99335819107389955462e+00
  -1.99476932244340132705e+00
  -9.96545179871226483037e-01
  +1.22018012080292014704e-03
  +9.98408568982736110975e-01
  +1.99487154650590481353e+00
  +2.99042279114239795135e+00
  +3.98482861202287530489e+00
  +4.97779618843978788334e+00
  +5.96895905286255867850e+00
  +6.95785926622945893882e+00
  +7.94392568041940005941e+00
  +8.92644766119104637880e+00
  +9.90454368543999486008e+00
  +1.08771243749174004734e+01
  +1.18428498503656598473e+01
  +1.28000818746707079043e+01
  +1.37468322124038202503e+01
  +1.46807100866502509007e+01
  +1.55988736585620877406e+01
  +1.64979930952989768400e+01
  +1.73742358302826396255e+01
  +1.82232875079090490544e+01
  +1.90404238048492686630e+01
  +1.98206472846283645595e+01
  +2.05588978971817617492e+01
  +2.12503344329523002898e+01
  +2.18906676464210221411e+01
  +2.24765071695803513308e+01
  +2.30056699164393343437e+01
  +2.34773945611134493561e+01
  +2.38924192480197596922e+01
  +2.42529062086167428447e+01
  +2.45622291259072547120e+01
  +2.48246657688452287971e+01
  +2.50450512430508069883e+01
  +2.52284443080774813950e+01
  +2.53798449146979407942e+01
  +2.55039825327160656343e+01
  +2.56051781805808644776e+01
  +2.56872716739419182375e+01
  +2.57535999825020383014e+01
  +2.58070114922399014290e+01
  +2.58499026402268796687e+01
  +2.58842662679133361792e+01
  +2.59117440794218083511e+01
  +2.59336782392816331821e+01
  +2.59511591972401234329e+01
  +2.59650682887363686291e+01
  +2.59761146237252269486e+01
  +2.59848663642866775092e+01
  +2.59917768143352958532e+01
  +2.59972058923207640646e+01
  +2.60014375960763857165e+01
  +2.60046940435731777086e+01
  +2.60071466142083238537e+01
  +2.60089246410095107365e+01
  +2.60101220256256056018e+01
  +2.60108020709432992135e+01
  +2.60110007531141782522e+01
  +2.60107285861902717272e+01
  +2.60099711677611153959e+01
  +2.60086884316073181367e+01
  +2.60068125717558160659e+01
  +2.60042445396718733264e+01
  +2.60008489510067910544e+01
  +2.59964471690627760836e+01
  +2.59908082583913646602e+01
  +2.59836374244533843125e+01
  +2.59745614769397015209e+01
  +2.59631107815825217244e+01
  +2.59486971099403689323e+01
  +2.59305867788309001298e+01
  +2.59078685228853089484e+01
  +2.58794157136216398385e+01
  +2.58438428959959054509e+01
  +2.57994572518639166958e+01
  +2.57442066333090124886e+01
  +2.56756273568956316922e+01
  +2.55907970990287338964e+01
  +2.54863009618753686425e+01
  +2.53582218422886001008e+01
  +2.52021690093787142928e+01
  +2.50133601501486992902e+01
  +2.47867704595876503504e+01
  +2.45173558798964137395e+01
  +2.42003452866256125731e+01
  +2.38315791613473138000e+01
  +2.34078539092149817691e+01
  +2.29272180105040135345e+01
  +2.23891655852175297525e+01
  +2.17946882323984283403e+01
  +2.11461742204549736357e+01
  +2.04471761171679702329e+01
  +1.97020927006376567192e+01
  +1.89158210636757360135e+01
  +1.80934295440389405485e+01
  +1.72398865643951957338e+01
  +1.63598618393752772704e+01
  +1.54576004999955518571e+01
  +1.45368603076503095650e+01
  +1.36008973946342912598e+01
  +1.26524854765002103818e+01
  +1.16939554584170668505e+01
  +1.07272453265765559394e+01
  +9.75395322085110194621e+00
  +8.77538914321152674347e+00
  +7.79262271092879910128e+00
  +6.80652573961430640281e+00
  +5.81780934251001546897e+00
  +4.82705578026553894233e+00
  +3.83474559859616137558e+00
  +2.84128073592093954858e+00
  +1.84700433247467410425e+00
  +8.52217970204671271262e-01
  -1.42802951985596782158e-01
  -1.13779503183728714077e+00
  -2.13249321164220884128e+00
  -3.12661701286434201563e+00
  -4.11985599875539776349e+00
  -5.11185377549401831487e+00
  -6.10218979248418769146e+00
  -7.09035813631299305371e+00
  -8.07574243695941440535e+00
  -9.05758593120909516472e+00
  -1.00349556776447137452e+01
  -1.10066999241365479634e+01
  -1.19713977460897105232e+01
  -1.29273003827664911825e+01
  -1.38722643164363823587e+01
</dep>
<dep V1.i acfrequency>
  -9.98054665190817175212e-08-j9.98926747500710415046e-06
  -1.25644390916151836860e-07-j1.12078527933107823677e-05
  -1.58171770534684817758e-07-j1.25750085374236442019e-05
  -1.99118306031677227248e-07-j1.41088137733014143545e-05
  -2.50662171296647438486e-07-j1.58295332362424984250e-05
  -3.15544496256401990768e-07-j1.77598756553514351198e-05
  -3.97214529506433388158e-07-j1.99252801551780342069e-05
  -5.00012036306935427261e-07-j2.23542327468228791494e-05
  -6.29396368452570780519e-07-j2.50786145884318833468e-05
  -7.92233966744665079277e-07-j2.81340830877657142623e-05
  -9.97158913708592920552e-07-j3.15604859103845160838e-05
  -1.25502464188635642343e-06-j3.54023063672675512002e-05
  -1.57946912222328983523e-06-j3.97091362357561311635e-05
  -1.98762089907372440953e-06-j4.45361684713173360721e-05
  -2.50097926297366036455e-06-j4.99446970186116261038e-05
  -3.14650864959692211644e-06-j5.60026033807065810898e-05
  -3.95799487981141839236e-06-j6.27847988848765058969e-05
  -4.97771873190230023526e-06-j7.03735765442764439788e-05
  -6.25850978585693614955e-06-j7.88588055785814721465e-05
  -7.86624908065363871886e-06-j8.83378731848853638794e-05
  -9.88289045072699116749e-06-j9.89152398749962064213e-05
  -1.24100635035002841765e-05-j1.10701424282613270552e-04
  -1.55732998879949890113e-05-j1.23811168710642933478e-04
  -1.95268795151076202923e-05-j1.38360456875301801897e-04
  -2.44592114361404473148e-05-j1.54461962103489837102e-04
  -3.05985272029503163138e-05-j1.72218405003415512633e-04
  -3.82184504041671070651e-05-j1.91713211706651245675e-04
  -4.76426907287579520052e-05-j2.12997820922018819400e-04
  -5.92476761411517383418e-05-j2.36075048367692831705e-04
  -7.34613855737228997307e-05-j2.60878170556049784282e-04
  -9.07560282666361255958e-05-j2.87245959269838793161e-04
  -1.11631673863660309015e-04-j3.14894922990863342614e-04
  -1.36587741744838482051e-04-j3.43391597191994443154e-04
  -1.66079837273142737935e-04-j3.72129837803005533801e-04
  -2.00461309566891791607e-04-j4.00320377923206417378e-04
  -2.39912535131107208320e-04-j4.27001608026441031168e-04
  -2.84366241141594086779e-04-j4.51080338491268567885e-04
  -3.33443101225241729339e-04-j4.71407733141461678106e-04
  -3.86416013029824935085e-04-j4.86887870617577300878e-04
  -4.42220773380736789041e-04-j4.96605543035591001470e-04
  -4.99523018092047589242e-04-j4.99949506630189264601e-04
  -5.56836999101002999395e-04-j4.96702649755226635121e-04
  -6.12675758490818572408e-04-j4.87075473911823583328e-04
  -6.65701559862702301959e-04-j4.71673610932582120132e-04
  -7.14845347086509358588e-04-j4.51408380216210389137e-04
  -7.59374565058797113513e-04-j4.27373831771021080346e-04
  -7.98904662813730245298e-04-j4.00718813250988627108e-04
  -8.33363966303340020919e-04-j3.72537976849747563390e-04
  -8.62929572548336775925e-04-j3.43795293723104253628e-04
  -8.87952708991223056169e-04-j3.15282769595172374100e-04
  -9.08887876665117602423e-04-j2.87609260800462040661e-04
  -9.26234182610507074222e-04-j2.61210658098290707252e-04
  -9.40491936657959098390e-04-j2.36372462724926537614e-04
  -9.52133929468916952524e-04-j2.13257460816078066920e-04
  -9.61588897393029769060e-04-j1.91933506165055541536e-04
  -9.69234084381511351233e-04-j1.72398540240280528620e-04
  -9.75393998462928618967e-04-j1.54601573012947752410e-04
  -9.80342999404611734407e-04-j1.38459381159033545310e-04
  -9.84309970654250821279e-04-j1.23869255565354038267e-04
  -9.87483881402580849704e-04-j1.10718387362857982516e-04
  -9.90019481281767445985e-04-j9.88905442543074714948e-05
  -9.92042687293461346656e-04-j8.82706471264877926127e-05
  -9.93655438069192872147e-04-j7.87477694018692662850e-05
  -9.94939928455206836974e-04-j7.02169823556971877928e-05
  -9.95962220054766268415e-04-j6.25803762534314877682e-05
  -9.96775268791176040362e-04-j5.57475071175956985500e-05
  -9.97421432129308969949e-04-j4.96354540678711476888e-05
  -9.97934525636485960515e-04-j4.41686215628132237921e-05
  -9.98341497292867720986e-04-j3.92783824331909898380e-05
  -9.98663782357915108881e-04-j3.49026290033938301491e-05
  -9.98918394108458222724e-04-j3.09852786789499275253e-05
  -9.99118797816541358292e-04-j2.74757652949588608864e-05
  -9.99275607714307251978e-04-j2.43285367930524771207e-05
  -9.99397139781385860854e-04-j2.15025722781319247336e-05
  -9.99489847132719114176e-04-j1.89609263364377337549e-05
  -9.99558659593487901576e-04-j1.66703050356034635719e-05
  -9.99607244667209682287e-04-j1.46006758146172070347e-05
  -9.99638203450589450660e-04-j1.27249121830144416617e-05
  -9.99653212040618873932e-04-j1.10184735627168559096e-05
  -9.99653116548214308590e-04-j9.45912058106049573238e-06
  -9.99637987940532168202e-04-j8.02666657442607010093e-06
  -9.99607141586347043224e-04-j6.70276694517691666261e-06
  -9.99559125638402150293e-04-j5.47074930414734826849e-06
  -9.99491682390986953960e-04-j4.31548899552700824253e-06
  -9.99401687728819444409e-04-j3.22333656221798687299e-06
  -9.99285076064194369844e-04-j2.18210577367523212870e-06
  -9.99136762160432500071e-04-j1.18113260834665514222e-06
  -9.98950577399686408253e-04-j2.11416318814618168435e-07
  -9.98719246664402570887e-04+j7.34147835404300976231e-07
  -9.98434442871788804461e-04+j1.66044030117987484891e-06
  -9.98086968077633489640e-04+j2.56970186159068521769e-06
  -9.97667119824689925534e-04+j3.46106138520859943120e-06
  -9.97165303197423058199e-04+j4.33006977724996048776e-06
  -9.96572933976366554659e-04+j5.16834581942918609666e-06
  -9.95883635860658972608e-04+j5.96348403199600311212e-06
  -9.95094657429210433311e-04+j6.69940356505683494198e-06
  -9.94208326247468607978e-04+j7.35730377224881293928e-06
  -9.93233243449210710316e-04+j7.91730856830120591607e-06
  -9.92184852186956539599e-04+j8.36071696720073037872e-06
  -9.91085048799127338662e-04+j8.67255989112275208635e-06
  -9.89960683998349511709e-04+j8.84397114603312967161e-06
  -9.88841095704166665736e-04+j8.87381586860007713028e-06
  -9.87755120961369709881e-04+j8.76915112596564073595e-06
  -9.86728213538988008571e-04+j8.54439709874194172276e-06
  -9.85780256634444934649e-04+j8.21945320980839704700e-06
  -9.84924425645663983303e-04+j7.81725031526105552243e-06
  -9.84167138838837980350e-04+j7.36129485008876131673e-06
  -9.83508869183384679818e-04+j6.87364400110764982212e-06
  -9.82945459672364017442e-04+j6.37353963678693113352e-06
  -9.82469589538561118361e-04+j5.87672234455893305674e-06
  -9.82072129787268021869e-04+j5.39530796920422751894e-06
  -9.81743242954454496674e-04+j4.93805095291537511464e-06
  -9.81473181653583518977e-04+j4.51082257555736072102e-06
  -9.81252805983834092834e-04+j4.11716875986037626929e-06
  -9.81073872168400492808e-04+j3.75885746441384461722e-06
  -9.80929153110682294781e-04+j3.43636568862060566912e-06
  -9.80812446187281526330e-04+j3.14928541063997985069e-06
  -9.80718512469141989740e-04+j2.89664629789780246269e-06
  -9.80642979551751663159e-04+j2.67716304300284714188e-06
  -9.80582229684532052233e-04+j2.48941941067437220655e-06
  -9.80533286730379686005e-04+j2.33200185898786195582e-06
  -9.80493709623909363154e-04+j2.20359455041941459941e-06
  -9.80461496040904711968e-04+j2.10304579980626592250e-06
  -9.80434997469383211904e-04+j2.02941404402624120396e-06
  -9.80412845357056224674e-04+j1.98199965433399488690e-06
  -9.80393887161370384403e-04+j1.96036737553501039244e-06
  -9.80377130697226636946e-04+j1.96436292732358021643e-06
  -9.80361694989891714266e-04+j1.99412643656993529562e-06
  -9.80346765779689221371e-04+j2.05010446613612239836e-06
  -9.80331553814617080028e-04+j2.13306200497030565635e-06
  -9.80315254058446421820e-04+j2.24409521721978403100e-06
  -9.80297003904621834167e-04+j2.38464540000489283109e-06
  -9.80275838401740030187e-04+j2.55651429450994048878e-06
  -9.80250640353966251617e-04+j2.76188045686583116822e-06
  -9.80220082955449980786e-04+j3.00331606949431938539e-06
  -9.80182562354875355076e-04+j3.28380300407591458819e-06
  -9.80136117237838952812e-04+j3.60674629681039362120e-06
  -9.80078332189728311172e-04+j3.97598228253745640537e-06
  -9.80006221314149361321e-04+j4.39577740679630065562e-06
  -9.79916088425557838329e-04+j4.87081208290902857236e-06
  -9.79803360264689185422e-04+j5.40614175986478778628e-06
</dep>
<dep _net1.v acfrequency>
  +9.98135129078489389967e-05+j9.99027254346196089130e-03
  +1.25654520457724985967e-04+j1.12089804753183735347e-02
  +1.58184522457208479561e-04+j1.25762737844707303547e-02
  +1.99134359093669467081e-04+j1.41102333572610538770e-02
  +2.50682379862637828242e-04+j1.58311259698577649901e-02
  +3.15569935682890028578e-04+j1.77616626389477533232e-02
  +3.97246553230984865424e-04+j1.99272850525270758815e-02
  +5.00052347642371991000e-04+j2.23564820933234639777e-02
  +6.29447110848990569465e-04+j2.50811381349993339773e-02
  +7.92297837230209714594e-04+j2.81369141840086475770e-02
  +9.97239305398369812322e-04+j3.15636619307670743262e-02
  +1.25512582290862877328e-03+j3.54058691839596872963e-02
  +1.57959646021190824698e-03+j3.97131327416994778234e-02
  +1.98778114258215364563e-03+j4.45406511565872090253e-02
  +2.50118089385004040842e-03+j4.99497246023046168051e-02
  +3.14676232359172459302e-03+j5.60082414991461899345e-02
  +3.95831397652831370321e-03+j6.27911208346524640778e-02
  +4.97812003967703763790e-03+j7.03806640751722667471e-02
  +6.25901435222399847580e-03+j7.88667497263353528547e-02
  +7.86688326458737270663e-03+j8.83467751263599387901e-02
  +9.88368721847835383920e-03+j9.89252117779175904611e-02
  +1.24110640149290071127e-02+j1.10712590107604771927e-01
  +1.55745554236590456887e-02+j1.23823664903684099725e-01
  +1.95284537941090262370e-02+j1.38374432862770541108e-01
  +2.44611833678596429786e-02+j1.54477580468522779356e-01
  +3.06009940979038927433e-02+j1.72235841180970211672e-01
  +3.82215316340699315378e-02+j1.91732652986293078401e-01
  +4.76465317653032224832e-02+j2.13019464495729199394e-01
  +5.92524528074171372150e-02+j2.36099098113228239582e-01
  +7.34673082020853157603e-02+j2.60904832220150484368e-01
  +9.07633452673862889393e-02+j2.87275433735367902166e-01
  +1.11640673975138465801e-01+j3.14927397414488607907e-01
  +1.36598753986785170778e-01+j3.43427234029517136626e-01
  +1.66093227422527162096e-01+j3.72168762140362208157e-01
  +2.00477471925153721832e-01+j4.00362664118140365588e-01
  +2.39931878593998504368e-01+j4.27047267390057272429e-01
  +2.84389169253026485862e-01+j4.51129310446922449085e-01
  +3.33469987043878979271e-01+j4.71459882719183209776e-01
  +3.86447171121151455964e-01+j4.86942994940108453417e-01
  +4.42256432675488142525e-01+j4.96663388376033354543e-01
  +4.99563300147491395897e-01+j5.00009795707745841042e-01
  +5.56881905945113109269e-01+j4.96765116639651727048e-01
  +6.12725172582381572006e-01+j4.87139902009199654564e-01
  +6.65755256191166489010e-01+j4.71739868782384608181e-01
  +7.14903014919034296426e-01+j4.51476450561033859632e-01
  +7.59435835177325713197e-01+j4.27443831256441308941e-01
  +7.98969135708982647337e-01+j4.00791002420377961979e-01
  +8.33431237575014249863e-01+j3.72612762034488786966e-01
  +8.62999253185528503174e-01+j3.43873223531186045232e-01
  +8.88024439696170508896e-01+j3.15364528928313347933e-01
  +9.08961336540621500646e-01+j2.87695664930034955553e-01
  +9.26309093212836387465e-01+j2.61302648639061219082e-01
  +9.40568062669917992480e-01+j2.36471106636267552892e-01
  +9.52211077207051559412e-01+j2.13363952988162908220e-01
  +9.61666912169834353641e-01+j1.92049175762883606033e-01
