<Qucs Dataset 0.0.22>
<indep time 88>
0.000000000000e+00
2.000000000000e-07
2.168022576934e-07
2.504067730803e-07
3.176158038540e-07
4.520338654015e-07
7.208699884964e-07
1.258542234686e-06
2.333886727066e-06
4.484575711825e-06
8.785953681344e-06
1.738870962038e-05
3.459422149846e-05
6.900524525460e-05
1.090052452546e-04
1.490052452546e-04
1.890052452546e-04
2.290052452546e-04
2.690052452546e-04
3.090052452546e-04
3.490052452546e-04
3.890052452546e-04
4.290052452546e-04
4.690052452546e-04
5.000000000000e-04
5.000001000000e-04
5.000003000000e-04
5.000007000000e-04
5.000010000000e-04
5.000010499165e-04
5.000011497494e-04
5.000013494153e-04
5.000017487470e-04
5.000025474106e-04
5.000041447376e-04
5.000073393917e-04
5.000137286998e-04
5.000265073161e-04
5.000520645486e-04
5.001028172006e-04
5.001562684741e-04
5.002343433579e-04
5.003285393717e-04
5.005059312561e-04
5.008045480551e-04
5.014017816531e-04
5.025962488492e-04
5.049851832413e-04
5.097630520255e-04
5.193187895940e-04
5.384302647309e-04
5.766532150048e-04
6.166532150048e-04
6.566532150048e-04
6.966532150048e-04
7.366532150048e-04
7.766532150048e-04
8.166532150048e-04
8.566532150048e-04
8.966532150048e-04
9.366532150048e-04
9.766532150048e-04
1.016653215005e-03
1.056653215005e-03
1.096653215005e-03
1.136653215005e-03
1.176653215005e-03
1.216653215005e-03
1.256653215005e-03
1.296653215005e-03
1.336653215005e-03
1.376653215005e-03
1.416653215005e-03
1.456653215005e-03
1.496653215005e-03
1.536653215005e-03
1.576653215005e-03
1.616653215005e-03
1.656653215005e-03
1.696653215005e-03
1.736653215005e-03
1.776653215005e-03
1.816653215005e-03
1.856653215005e-03
1.896653215005e-03
1.936653215005e-03
1.976653215005e-03
2.000000000000e-03
</indep>
<dep tran.v(av) time>
0.000000000000e+00
0.000000000000e+00
0.000000000000e+00
0.000000000000e+00
0.000000000000e+00
0.000000000000e+00
0.000000000000e+00
0.000000000000e+00
0.000000000000e+00
0.000000000000e+00
0.000000000000e+00
0.000000000000e+00
0.000000000000e+00
0.000000000000e+00
0.000000000000e+00
0.000000000000e+00
0.000000000000e+00
0.000000000000e+00
0.000000000000e+00
0.000000000000e+00
0.000000000000e+00
0.000000000000e+00
0.000000000000e+00
0.000000000000e+00
0.000000000000e+00
1.996007785542e-03
9.972070432982e-03
4.973323726239e-02
1.002831655511e-01
1.101564815570e-01
1.298834186031e-01
1.692193583864e-01
2.474218462149e-01
4.019678516271e-01
7.037701235822e-01
1.279344129107e+00
2.326787381514e+00
4.065609876048e+00
6.481398221676e+00
8.850297423229e+00
9.650920873344e+00
9.956590491923e+00
9.998218648501e+00
9.999857556496e+00
9.999321872848e+00
9.999627076766e+00
9.999392602297e+00
9.999598816091e+00
9.999405284292e+00
9.999592803431e+00
9.999408212383e+00
9.999591358486e+00
9.999409147018e+00
9.999590449747e+00
9.999410051225e+00
9.999589550048e+00
9.999410946437e+00
9.999588659302e+00
9.999411832741e+00
9.999587777418e+00
9.999412710227e+00
9.999586904308e+00
9.999413578982e+00
9.999586039886e+00
9.999414439094e+00
9.999585184064e+00
9.999415290647e+00
9.999584336757e+00
9.999416133727e+00
9.999583497882e+00
9.999416968419e+00
9.999582667352e+00
9.999417794807e+00
9.999581845086e+00
9.999418612972e+00
9.999581031002e+00
9.999419422997e+00
9.999580225016e+00
9.999420224962e+00
9.999579427051e+00
9.999421018948e+00
9.999578637026e+00
9.999421805034e+00
9.999577854860e+00
9.999422583298e+00
9.999577080477e+00
9.999423353819e+00
9.999576042210e+00
</dep>
<dep tran.v(av0) time>
0.000000000000e+00
5.025541814446e-02
5.483213194903e-02
6.469493022972e-02
8.867660631939e-02
1.536628281563e-01
3.517151008055e-01
1.020044772901e+00
3.444835250931e+00
1.264053229463e+01
4.836107809514e+01
1.886119156658e+02
7.392814430432e+02
2.865017267922e+03
6.880943347054e+03
1.225001659146e+04
1.856485869129e+04
2.536141107146e+04
3.214798571745e+04
3.843605628317e+04
4.377085459674e+04
4.775984991414e+04
5.009732131159e+04
5.058347909600e+04
4.963023102382e+04
4.963022606079e+04
4.963021613469e+04
4.963019628236e+04
4.963018139298e+04
4.963017891555e+04
4.963017396069e+04
4.963016405092e+04
4.963014423125e+04
4.963010459132e+04
4.963002530916e+04
4.962986673560e+04
4.962954955153e+04
4.962891503556e+04
4.962764541234e+04
4.962512180277e+04
4.962246064669e+04
4.961856736902e+04
4.961386040520e+04
4.960496708900e+04
4.958991058077e+04
4.955947498501e+04
4.949731449686e+04
4.936784488488e+04
4.908838568582e+04
4.844808187901e+04
4.684903217171e+04
4.245767561124e+04
3.635231999482e+04
2.903676917394e+04
2.092857023862e+04
1.249672687793e+04
4.232165384585e+03
-3.383174278315e+03
-9.906680326075e+03
-1.496293752244e+04
-1.826737109067e+04
-1.964418062010e+04
-1.903743719977e+04
-1.651464658688e+04
-1.226255460160e+04
-6.575458385818e+03
1.632419551908e+02
7.505092080422e+03
1.496472137344e+04
2.205030205959e+04
2.829441556020e+04
3.328338657788e+04
3.668324168775e+04
3.826066130599e+04
3.789760849407e+04
3.559871536667e+04
3.149096293945e+04
2.581567448663e+04
1.891332545038e+04
1.120212430814e+04
3.151710199625e+03
-4.746380051429e+03
-1.200961989331e+04
-1.819483395617e+04
-2.292606551998e+04
-2.591821955890e+04
-2.699499581507e+04
-2.670933618207e+04
</dep>
<dep tran.v(bav0) time>
0.000000000000e+00
5.025541814446e-03
5.483213194903e-03
6.469493022972e-03
8.867660631939e-03
1.536628281563e-02
3.517151008055e-02
1.020044772901e-01
3.444835250931e-01
1.264053229463e+00
4.836107809514e+00
1.886119156658e+01
7.392814430432e+01
2.865017267922e+02
6.880943347054e+02
1.225001659146e+03
1.856485869129e+03
2.536141107146e+03
3.214798571745e+03
3.843605628317e+03
4.377085459674e+03
4.775984991414e+03
5.009732131159e+03
5.058347909600e+03
4.963023102382e+03
4.963022606079e+03
4.963021613469e+03
4.963019628236e+03
4.963018139298e+03
4.963017891555e+03
4.963017396069e+03
4.963016405092e+03
4.963014423125e+03
4.963010459132e+03
4.963002530916e+03
4.962986673560e+03
4.962954955153e+03
4.962891503556e+03
4.962764541234e+03
4.962512180277e+03
4.962246064669e+03
4.961856736902e+03
4.961386040520e+03
4.960496708900e+03
4.958991058077e+03
4.955947498501e+03
4.949731449686e+03
4.936784488488e+03
4.908838568582e+03
4.844808187901e+03
4.684903217171e+03
4.245767561124e+03
3.635231999482e+03
2.903676917394e+03
2.092857023862e+03
1.249672687793e+03
4.232165384585e+02
-3.383174278315e+02
-9.906680326075e+02
-1.496293752244e+03
-1.826737109067e+03
-1.964418062010e+03
-1.903743719977e+03
-1.651464658688e+03
-1.226255460160e+03
-6.575458385818e+02
1.632419551908e+01
7.505092080422e+02
1.496472137344e+03
2.205030205959e+03
2.829441556020e+03
3.328338657788e+03
3.668324168775e+03
3.826066130599e+03
3.789760849407e+03
3.559871536667e+03
3.149096293945e+03
2.581567448663e+03
1.891332545038e+03
1.120212430814e+03
3.151710199625e+02
-4.746380051429e+02
-1.200961989331e+03
-1.819483395617e+03
-2.292606551998e+03
-2.591821955890e+03
-2.699499581507e+03
-2.670933618207e+03
</dep>
