<Qucs Dataset 0.0.21>
<indep frequency 100>
1.000000000000e+00
1.232846739442e+00
1.519911082953e+00
1.873817422860e+00
2.310129700083e+00
2.848035868436e+00
3.511191734215e+00
4.328761281083e+00
5.336699231206e+00
6.579332246576e+00
8.111308307897e+00
1.000000000000e+01
1.232846739442e+01
1.519911082953e+01
1.873817422860e+01
2.310129700083e+01
2.848035868436e+01
3.511191734215e+01
4.328761281083e+01
5.336699231206e+01
6.579332246576e+01
8.111308307897e+01
1.000000000000e+02
1.232846739442e+02
1.519911082953e+02
1.873817422860e+02
2.310129700083e+02
2.848035868436e+02
3.511191734215e+02
4.328761281083e+02
5.336699231206e+02
6.579332246576e+02
8.111308307897e+02
1.000000000000e+03
1.232846739442e+03
1.519911082953e+03
1.873817422860e+03
2.310129700083e+03
2.848035868436e+03
3.511191734215e+03
4.328761281083e+03
5.336699231206e+03
6.579332246576e+03
8.111308307897e+03
1.000000000000e+04
1.232846739442e+04
1.519911082953e+04
1.873817422860e+04
2.310129700083e+04
2.848035868436e+04
3.511191734215e+04
4.328761281083e+04
5.336699231206e+04
6.579332246576e+04
8.111308307897e+04
1.000000000000e+05
1.232846739442e+05
1.519911082953e+05
1.873817422860e+05
2.310129700083e+05
2.848035868436e+05
3.511191734215e+05
4.328761281083e+05
5.336699231206e+05
6.579332246576e+05
8.111308307897e+05
1.000000000000e+06
1.232846739442e+06
1.519911082953e+06
1.873817422860e+06
2.310129700083e+06
2.848035868436e+06
3.511191734215e+06
4.328761281083e+06
5.336699231206e+06
6.579332246576e+06
8.111308307897e+06
1.000000000000e+07
1.232846739442e+07
1.519911082953e+07
1.873817422860e+07
2.310129700083e+07
2.848035868436e+07
3.511191734215e+07
4.328761281083e+07
5.336699231206e+07
6.579332246576e+07
8.111308307897e+07
1.000000000000e+08
1.232846739442e+08
1.519911082953e+08
1.873817422860e+08
2.310129700083e+08
2.848035868436e+08
3.511191734215e+08
4.328761281083e+08
5.336699231206e+08
6.579332246576e+08
8.111308307897e+08
1.000000000000e+09
</indep>
<dep ac.v(av0) frequency>
-1.455191522837e-11+j5.684341886081e-14
0.000000000000e+00+j5.684341886081e-14
1.455191522837e-11+j0.000000000000e+00
1.455191522837e-11+j0.000000000000e+00
-1.455191522837e-11+j1.136868377216e-13
0.000000000000e+00+j1.136868377216e-13
1.455191522837e-11+j0.000000000000e+00
0.000000000000e+00+j2.273736754432e-13
0.000000000000e+00+j0.000000000000e+00
0.000000000000e+00-j4.547473508865e-13
-1.455191522837e-11+j4.547473508865e-13
0.000000000000e+00-j4.547473508865e-13
0.000000000000e+00+j4.547473508865e-13
0.000000000000e+00-j9.094947017729e-13
0.000000000000e+00+j0.000000000000e+00
0.000000000000e+00+j0.000000000000e+00
0.000000000000e+00+j1.818989403546e-12
0.000000000000e+00+j0.000000000000e+00
-2.910383045673e-11+j0.000000000000e+00
0.000000000000e+00+j1.818989403546e-12
-1.455191522837e-11+j3.637978807092e-12
0.000000000000e+00+j0.000000000000e+00
0.000000000000e+00+j3.637978807092e-12
0.000000000000e+00+j0.000000000000e+00
0.000000000000e+00+j0.000000000000e+00
0.000000000000e+00+j0.000000000000e+00
-7.275957614183e-12+j1.455191522837e-11
0.000000000000e+00+j0.000000000000e+00
0.000000000000e+00+j0.000000000000e+00
0.000000000000e+00+j0.000000000000e+00
3.637978807092e-12+j0.000000000000e+00
0.000000000000e+00+j0.000000000000e+00
-3.637978807092e-12+j7.275957614183e-12
0.000000000000e+00+j0.000000000000e+00
0.000000000000e+00+j0.000000000000e+00
0.000000000000e+00-j3.637978807092e-12
0.000000000000e+00+j0.000000000000e+00
0.000000000000e+00+j0.000000000000e+00
0.000000000000e+00-j1.818989403546e-12
1.136868377216e-13+j0.000000000000e+00
0.000000000000e+00-j9.094947017729e-13
0.000000000000e+00-j9.094947017729e-13
0.000000000000e+00+j0.000000000000e+00
0.000000000000e+00+j4.547473508865e-13
1.421085471520e-14+j0.000000000000e+00
0.000000000000e+00+j0.000000000000e+00
0.000000000000e+00+j0.000000000000e+00
0.000000000000e+00+j4.547473508865e-13
-3.552713678801e-15+j0.000000000000e+00
0.000000000000e+00+j2.273736754432e-13
1.776356839400e-15+j0.000000000000e+00
0.000000000000e+00+j0.000000000000e+00
0.000000000000e+00+j0.000000000000e+00
4.440892098501e-16+j0.000000000000e+00
0.000000000000e+00+j0.000000000000e+00
0.000000000000e+00-j5.684341886081e-14
-1.110223024625e-16+j5.684341886081e-14
-1.110223024625e-16+j2.842170943040e-14
5.551115123126e-17-j2.842170943040e-14
2.775557561563e-17-j2.842170943040e-14
-1.387778780781e-17+j0.000000000000e+00
0.000000000000e+00+j0.000000000000e+00
1.387778780781e-17-j1.421085471520e-14
-6.938893903907e-18+j0.000000000000e+00
-6.938893903907e-18+j7.105427357601e-15
0.000000000000e+00+j0.000000000000e+00
1.734723475977e-18+j0.000000000000e+00
-8.673617379884e-19+j0.000000000000e+00
-1.734723475977e-18+j0.000000000000e+00
-4.336808689942e-19+j0.000000000000e+00
-2.168404344971e-19+j0.000000000000e+00
0.000000000000e+00+j1.776356839400e-15
0.000000000000e+00+j0.000000000000e+00
-1.084202172486e-19+j8.881784197001e-16
0.000000000000e+00+j0.000000000000e+00
0.000000000000e+00+j0.000000000000e+00
0.000000000000e+00+j0.000000000000e+00
1.355252715607e-20+j0.000000000000e+00
-1.355252715607e-20-j4.440892098501e-16
-6.776263578034e-21+j0.000000000000e+00
3.388131789017e-21-j2.220446049250e-16
3.388131789017e-21+j0.000000000000e+00
1.694065894509e-21+j0.000000000000e+00
-1.694065894509e-21+j1.110223024625e-16
-8.470329472543e-22+j1.110223024625e-16
4.235164736272e-22+j0.000000000000e+00
4.235164736272e-22+j0.000000000000e+00
0.000000000000e+00+j0.000000000000e+00
-2.117582368136e-22+j0.000000000000e+00
-1.058791184068e-22+j0.000000000000e+00
0.000000000000e+00+j2.775557561563e-17
0.000000000000e+00-j2.775557561563e-17
-2.646977960170e-23+j2.775557561563e-17
-5.293955920339e-23+j1.387778780781e-17
-1.323488980085e-23+j0.000000000000e+00
0.000000000000e+00+j0.000000000000e+00
6.617444900424e-24+j0.000000000000e+00
-3.308722450212e-24+j6.938893903907e-18
3.308722450212e-24+j0.000000000000e+00
0.000000000000e+00+j0.000000000000e+00
</dep>
<dep ac.v(bav0) frequency>
-1.455191522837e-12+j5.684341886081e-15
0.000000000000e+00+j5.684341886081e-15
1.455191522837e-12+j0.000000000000e+00
1.455191522837e-12+j0.000000000000e+00
-1.455191522837e-12+j1.136868377216e-14
0.000000000000e+00+j1.136868377216e-14
1.455191522837e-12+j0.000000000000e+00
0.000000000000e+00+j2.273736754432e-14
0.000000000000e+00+j0.000000000000e+00
0.000000000000e+00-j4.547473508865e-14
-1.455191522837e-12+j4.547473508865e-14
0.000000000000e+00-j4.547473508865e-14
0.000000000000e+00+j4.547473508865e-14
0.000000000000e+00-j9.094947017729e-14
0.000000000000e+00+j0.000000000000e+00
0.000000000000e+00+j0.000000000000e+00
0.000000000000e+00+j1.818989403546e-13
0.000000000000e+00+j0.000000000000e+00
-2.910383045673e-12+j0.000000000000e+00
0.000000000000e+00+j1.818989403546e-13
-1.455191522837e-12+j3.637978807092e-13
0.000000000000e+00+j0.000000000000e+00
0.000000000000e+00+j3.637978807092e-13
0.000000000000e+00+j0.000000000000e+00
0.000000000000e+00+j0.000000000000e+00
0.000000000000e+00+j0.000000000000e+00
-7.275957614183e-13+j1.455191522837e-12
0.000000000000e+00+j0.000000000000e+00
0.000000000000e+00+j0.000000000000e+00
0.000000000000e+00+j0.000000000000e+00
3.637978807092e-13+j0.000000000000e+00
0.000000000000e+00+j0.000000000000e+00
-3.637978807092e-13+j7.275957614183e-13
0.000000000000e+00+j0.000000000000e+00
0.000000000000e+00+j0.000000000000e+00
0.000000000000e+00-j3.637978807092e-13
0.000000000000e+00+j0.000000000000e+00
0.000000000000e+00+j0.000000000000e+00
0.000000000000e+00-j1.818989403546e-13
1.136868377216e-14+j0.000000000000e+00
0.000000000000e+00-j9.094947017729e-14
0.000000000000e+00-j9.094947017729e-14
0.000000000000e+00+j0.000000000000e+00
0.000000000000e+00+j4.547473508865e-14
1.421085471520e-15+j0.000000000000e+00
0.000000000000e+00+j0.000000000000e+00
0.000000000000e+00+j0.000000000000e+00
0.000000000000e+00+j4.547473508865e-14
-3.552713678801e-16+j0.000000000000e+00
0.000000000000e+00+j2.273736754432e-14
1.776356839400e-16+j0.000000000000e+00
0.000000000000e+00+j0.000000000000e+00
0.000000000000e+00+j0.000000000000e+00
4.440892098501e-17+j0.000000000000e+00
0.000000000000e+00+j0.000000000000e+00
0.000000000000e+00-j5.684341886081e-15
-1.110223024625e-17+j5.684341886081e-15
-1.110223024625e-17+j2.842170943040e-15
5.551115123126e-18-j2.842170943040e-15
2.775557561563e-18-j2.842170943040e-15
-1.387778780781e-18+j0.000000000000e+00
0.000000000000e+00+j0.000000000000e+00
1.387778780781e-18-j1.421085471520e-15
-6.938893903907e-19+j0.000000000000e+00
-6.938893903907e-19+j7.105427357601e-16
0.000000000000e+00+j0.000000000000e+00
1.734723475977e-19+j0.000000000000e+00
-8.673617379884e-20+j0.000000000000e+00
-1.734723475977e-19+j0.000000000000e+00
-4.336808689942e-20+j0.000000000000e+00
-2.168404344971e-20+j0.000000000000e+00
0.000000000000e+00+j1.776356839400e-16
0.000000000000e+00+j0.000000000000e+00
-1.084202172486e-20+j8.881784197001e-17
0.000000000000e+00+j0.000000000000e+00
0.000000000000e+00+j0.000000000000e+00
0.000000000000e+00+j0.000000000000e+00
1.355252715607e-21+j0.000000000000e+00
-1.355252715607e-21-j4.440892098501e-17
-6.776263578034e-22+j0.000000000000e+00
3.388131789017e-22-j2.220446049250e-17
3.388131789017e-22+j0.000000000000e+00
1.694065894509e-22+j0.000000000000e+00
-1.694065894509e-22+j1.110223024625e-17
-8.470329472543e-23+j1.110223024625e-17
4.235164736272e-23+j0.000000000000e+00
4.235164736272e-23+j0.000000000000e+00
0.000000000000e+00+j0.000000000000e+00
-2.117582368136e-23+j0.000000000000e+00
-1.058791184068e-23+j0.000000000000e+00
0.000000000000e+00+j2.775557561563e-18
0.000000000000e+00-j2.775557561563e-18
-2.646977960170e-24+j2.775557561563e-18
-5.293955920339e-24+j1.387778780781e-18
-1.323488980085e-24+j0.000000000000e+00
0.000000000000e+00+j0.000000000000e+00
6.617444900424e-25+j0.000000000000e+00
-3.308722450212e-25+j6.938893903907e-19
3.308722450212e-25+j0.000000000000e+00
0.000000000000e+00+j0.000000000000e+00
</dep>
