<Qucs Dataset 0.0.24>
<indep frequency 100>
1.000000000000e+00
1.232846739442e+00
1.519911082953e+00
1.873817422860e+00
2.310129700083e+00
2.848035868436e+00
3.511191734215e+00
4.328761281083e+00
5.336699231206e+00
6.579332246576e+00
8.111308307897e+00
1.000000000000e+01
1.232846739442e+01
1.519911082953e+01
1.873817422860e+01
2.310129700083e+01
2.848035868436e+01
3.511191734215e+01
4.328761281083e+01
5.336699231206e+01
6.579332246576e+01
8.111308307897e+01
1.000000000000e+02
1.232846739442e+02
1.519911082953e+02
1.873817422860e+02
2.310129700083e+02
2.848035868436e+02
3.511191734215e+02
4.328761281083e+02
5.336699231206e+02
6.579332246576e+02
8.111308307897e+02
1.000000000000e+03
1.232846739442e+03
1.519911082953e+03
1.873817422860e+03
2.310129700083e+03
2.848035868436e+03
3.511191734215e+03
4.328761281083e+03
5.336699231206e+03
6.579332246576e+03
8.111308307897e+03
1.000000000000e+04
1.232846739442e+04
1.519911082953e+04
1.873817422860e+04
2.310129700083e+04
2.848035868436e+04
3.511191734215e+04
4.328761281083e+04
5.336699231206e+04
6.579332246576e+04
8.111308307897e+04
1.000000000000e+05
1.232846739442e+05
1.519911082953e+05
1.873817422860e+05
2.310129700083e+05
2.848035868436e+05
3.511191734215e+05
4.328761281083e+05
5.336699231206e+05
6.579332246576e+05
8.111308307897e+05
1.000000000000e+06
1.232846739442e+06
1.519911082953e+06
1.873817422860e+06
2.310129700083e+06
2.848035868436e+06
3.511191734215e+06
4.328761281083e+06
5.336699231206e+06
6.579332246576e+06
8.111308307897e+06
1.000000000000e+07
1.232846739442e+07
1.519911082953e+07
1.873817422860e+07
2.310129700083e+07
2.848035868436e+07
3.511191734215e+07
4.328761281083e+07
5.336699231206e+07
6.579332246576e+07
8.111308307897e+07
1.000000000000e+08
1.232846739442e+08
1.519911082953e+08
1.873817422860e+08
2.310129700083e+08
2.848035868436e+08
3.511191734215e+08
4.328761281083e+08
5.336699231206e+08
6.579332246576e+08
8.111308307897e+08
1.000000000000e+09
</indep>
<dep ac.v(av) frequency>
9.086365825478e+01-j2.291070971873e-04
9.086365825544e+01-j2.824539380278e-04
9.086365825642e+01-j3.482224164508e-04
9.086365825794e+01-j4.293048709187e-04
9.086365826020e+01-j5.292671100285e-04
9.086365826363e+01-j6.525052296223e-04
9.086365826897e+01-j8.044389462687e-04
9.086365827698e+01-j9.917499330923e-04
9.086365828917e+01-j1.222675671773e-03
9.086365830768e+01-j1.507371715781e-03
9.086365833577e+01-j1.858358304238e-03
9.086365837854e+01-j2.291070979420e-03
9.086365844355e+01-j2.824539394876e-03
9.086365854236e+01-j3.482224191066e-03
9.086365869249e+01-j4.293048758195e-03
9.086365892067e+01-j5.292671195940e-03
9.086365926755e+01-j6.525052485371e-03
9.086365979475e+01-j8.044389800712e-03
9.086366059605e+01-j9.917499953836e-03
9.086366181393e+01-j1.222675787795e-02
9.086366366507e+01-j1.507371934918e-02
9.086366647858e+01-j1.858358715804e-02
9.086367075495e+01-j2.291071753108e-02
9.086367725456e+01-j2.824540837583e-02
9.086368713337e+01-j3.482226892776e-02
9.086370214838e+01-j4.293053825667e-02
9.086372496981e+01-j5.292680692458e-02
9.086375965636e+01-j6.525070286699e-02
9.086381237685e+01-j8.044423150803e-02
9.086389250733e+01-j9.917562447025e-02
9.086401429864e+01-j1.222687498991e-01
9.086419941079e+01-j1.507393878625e-01
9.086448076526e+01-j1.858399836107e-01
9.086490840009e+01-j2.291148801773e-01
9.086555836946e+01-j2.824685217662e-01
9.086654627076e+01-j3.482497444024e-01
9.086804780593e+01-j4.293560797605e-01
9.087033003600e+01-j5.293630704463e-01
9.087379889234e+01-j6.526850542367e-01
9.087907140615e+01-j8.047759337685e-01
9.088708552906e+01-j9.923814738534e-01
9.089926713872e+01-j1.223859317013e+00
9.091778407474e+01-j1.509590371816e+00
9.094593271493e+01-j1.862517715231e+00
9.098872659697e+01-j2.298870804303e+00
9.105379347832e+01-j2.839171520807e+00
9.115274419875e+01-j3.509689732462e+00
9.130326519478e+01-j4.344650165652e+00
9.153232464038e+01-j5.389751938431e+00
9.188109778161e+01-j6.708080131643e+00
9.241254722904e+01-j8.390562790440e+00
9.322305944461e+01-j1.057546315897e+01
9.445998355063e+01-j1.348679363122e+01
9.634617533222e+01-j1.751493380203e+01
9.920417091773e+01-j2.339878888804e+01
1.034198535404e+02-j3.267362486715e+01
1.089663553664e+02-j4.885802524388e+01
1.120522648341e+02-j8.038582322699e+01
8.584012551383e+01-j1.384671503936e+02
-1.908949022876e+01-j1.528344955900e+02
-6.220752590462e+01-j7.135834562284e+01
-4.497799090309e+01-j2.724745621638e+01
-2.830726689730e+01-j1.136252668136e+01
-1.774341453709e+01-j5.184220332520e+00
-1.126263365960e+01-j2.517642848533e+00
-7.233244899557e+00-j1.274990915618e+00
-4.686047655089e+00-j6.643650132151e-01
-3.054344133190e+00-j3.529493558900e-01
-1.998962673859e+00-j1.898437787553e-01
-1.311691811389e+00-j1.027983796126e-01
-8.620633434183e-01-j5.578695816044e-02
-5.670349278501e-01-j3.024864828280e-02
-3.731165602954e-01-j1.636084745004e-02
-2.455459816457e-01-j8.823222604779e-03
-1.615929567740e-01-j4.745284248321e-03
-1.063393166964e-01-j2.546408472556e-03
-6.997510177292e-02-j1.364145005038e-03
-4.604411197332e-02-j7.299016097936e-04
-3.029631739353e-02-j3.902103413431e-04
-1.993401603839e-02-j2.084877136967e-04
-1.311572227509e-02-j1.113503259469e-04
-8.629476431452e-03-j5.945498869019e-05
-5.677709764209e-03-j3.174016015801e-05
-3.735593333789e-03-j1.694258045868e-05
-2.457788115313e-03-j9.043086774017e-06
-1.617067904142e-03-j4.826494986356e-06
-1.063925929026e-03-j2.575920934585e-06
-6.999936164947e-04-j1.374749751831e-06
-4.605496635197e-04-j7.336830462798e-07
-3.030111877758e-04-j3.915517578325e-07
-1.993612415686e-04-j2.089619189970e-07
-1.311664337612e-04-j1.115175770432e-07
-8.629877604254e-05-j5.951388781062e-08
-5.677884123172e-05-j3.176088115113e-08
-3.735669009791e-05-j1.694986535215e-08
-2.457820930763e-05-j9.045646805089e-09
-1.617082125453e-05-j4.827394363180e-09
-1.063932089735e-05-j2.576236838824e-09
-6.999962846413e-06-j1.374860698631e-09
-4.605508188736e-06-j7.337220080132e-10
</dep>
<dep ac.v(av0) frequency>
1.999920967249e+05-j1.257844040755e+03
1.999879879711e+05-j1.550697097125e+03
1.999817433537e+05-j1.911712224687e+03
1.999722528365e+05-j2.356736445953e+03
1.999578298174e+05-j2.905285493384e+03
1.999359120906e+05-j3.581379535708e+03
1.999026082855e+05-j4.414557352460e+03
1.998520106835e+05-j5.441096463770e+03
1.997751558102e+05-j6.705460977453e+03
1.996584562549e+05-j8.261981440485e+03
1.994813439110e+05-j1.017673037562e+04
1.992127492315e+05-j1.252947256030e+04
1.988058901363e+05-j1.541540325525e+04
1.981906700078e+05-j1.894607683799e+04
1.972628405206e+05-j2.324837065954e+04
1.958691244016e+05-j2.845938044652e+04
1.937880760621e+05-j3.471365625990e+04
1.907083221648e+05-j4.211717900316e+04
1.862102242336e+05-j5.070061572203e+04
1.797653972252e+05-j6.034504353039e+04
1.707806330971e+05-j7.068196380186e+04
1.587214359001e+05-j8.099407645503e+04
1.433346948388e+05-j9.018550851854e+04
1.249220437501e+05-j9.692209398274e+04
1.045068725270e+05-j9.999383785779e+04
8.370027359612e+04-j9.878034000923e+04
6.423823802496e+04-j9.353192782905e+04
4.744137627743e+04-j8.525298931961e+04
3.392240845889e+04-j7.527904115762e+04
2.364015538308e+04-j6.484142631580e+04
1.615122507939e+04-j5.482805410541e+04
1.086715201100e+04-j4.575066674171e+04
7.221729571658e+03-j3.782470932304e+04
4.745658159903e+03-j3.107443707655e+04
3.081584084947e+03-j2.541972851458e+04
1.971180580800e+03-j2.073434631066e+04
1.233759039325e+03-j1.688009605454e+04
7.455902704690e+02-j1.372460574778e+04
4.231102378736e+02-j1.114924821586e+04
2.103888022357e+02-j9.051633101778e+03
7.021341597757e+01-j7.345354031664e+03
-2.207647007412e+01-j5.958505724394e+03
-8.277748051319e+01-j4.831775909043e+03
-1.226345354035e+02-j3.916512746314e+03
-1.487144883768e+02-j3.172948770777e+03
-1.656469986514e+02-j2.568648048844e+03
-1.764415643735e+02-j2.077186926998e+03
-1.830213215433e+02-j1.677053492718e+03
-1.865674032671e+02-j1.350741905077e+03
-1.877365450163e+02-j1.084017178865e+03
-1.867952567238e+02-j8.653295708287e+02
-1.837041512785e+02-j6.853625748096e+02
-1.781850421555e+02-j5.367012414998e+02
-1.698093432435e+02-j4.136021304218e+02
-1.581508722992e+02-j3.118244346089e+02
-1.430277832132e+02-j2.284420732971e+02
-1.247885978743e+02-j1.615267320570e+02
-1.044875556599e+02-j1.096420272335e+02
-8.375604601277e+01-j7.126175655648e+01
-6.434341412515e+01-j4.439439386312e+01
-4.757905659136e+01-j2.662319820077e+01
-3.408147419172e+01-j1.546704238532e+01
-2.381329100872e+01-j8.765338735121e+00
-1.633361731939e+01-j4.876435517503e+00
-1.105563382192e+01-j2.677203911187e+00
-7.414216905093e+00-j1.456281417659e+00
-4.940779326644e+00-j7.871557409021e-01
-3.278435808055e+00-j4.236615401118e-01
-2.169167353124e+00-j2.273703596869e-01
-1.432487216270e+00-j1.217925783039e-01
-9.447980632577e-01-j6.515667310923e-02
-6.226211575192e-01-j3.482843702548e-02
-4.100802757078e-01-j1.860670348515e-02
-2.699949958891e-01-j9.936807460022e-03
-1.777208288278e-01-j5.305425226708e-03
-1.169640262542e-01-j2.832206757588e-03
-7.696993203566e-02-j1.511765988125e-03
-5.064774975097e-02-j8.068902612955e-04
-3.332572703275e-02-j4.306503686588e-04
-2.192735412009e-02-j2.298382494974e-04
-1.442727641369e-02-j1.226623611629e-04
-9.492418958175e-03-j6.546282817872e-05
-6.245479313100e-03-j3.493610967692e-05
-4.109152281308e-03-j1.864455012400e-05
-2.703566830798e-03-j9.950105560929e-06
-1.778774676355e-03-j5.310096623665e-06
-1.170318522776e-03-j2.833847478333e-06
-7.699929823547e-04-j1.512342193059e-06
-5.066046336826e-04-j8.070926047993e-07
-3.333123093572e-04-j4.307214215591e-07
-2.192973676546e-04-j2.298631989693e-07
-1.442830784306e-04-j1.226711217327e-07
-9.492865450455e-05-j6.546590425941e-08
-6.245672592119e-05-j3.493718976554e-08
-4.109235948084e-05-j1.864492936791e-08
-2.703603048406e-05-j9.950238721684e-09
-1.778790354166e-05-j5.310143379178e-09
-1.170325309347e-05-j2.833863895141e-09
-7.699959201051e-06-j1.512347957326e-09
-5.066059053664e-06-j8.070946287469e-10
</dep>
<dep ac.v(bav0) frequency>
1.999920959424e+03-j1.257968442908e+01
1.999879867818e+03-j1.550850462762e+01
1.999817415461e+03-j1.911901295108e+01
1.999722500893e+03-j2.356969529742e+01
1.999578256421e+03-j2.905572829246e+01
1.999359057453e+03-j3.581733737955e+01
1.999025986428e+03-j4.414993956799e+01
1.998519960311e+03-j5.441634593752e+01
1.997751335484e+03-j6.706124154093e+01
1.996584224388e+03-j8.262798557994e+01
1.994812925591e+03-j1.017773686256e+02
1.992126712860e+03-j1.253071173353e+02
1.988057719079e+03-j1.541692784552e+02
1.981904908666e+03-j1.894795060703e+02
1.972625695153e+03-j2.325066991391e+02
1.958687154049e+03-j2.846219504534e+02
1.937874610215e+03-j3.471708935781e+02
1.907074021987e+03-j4.212134421561e+02
1.862088589122e+03-j5.070562966093e+02
1.797633938037e+03-j6.035101098396e+02
1.707777400971e+03-j7.068895301273e+02
1.587173489234e+03-j8.100208457136e+02
1.433290844268e+03-j9.019442409419e+02
1.249146103097e+03-j9.693167336252e+02
1.044974177914e+03-j1.000037174451e+03
8.368875881367e+02-j9.879009460917e+02
6.422479632605e+02-j9.354115681877e+02
4.742627154862e+02-j8.526139125817e+02
3.390596525630e+02-j7.528644650986e+02
2.362269419221e+02-j6.484778706288e+02
1.613302249546e+02-j5.483340964864e+02
1.084842638039e+02-j4.575510654396e+02
7.202643203564e+01-j3.782834343141e+02
4.726326932955e+01-j3.107737701896e+02
3.062088548971e+01-j2.542207675144e+02
1.951575788855e+01-j2.073619140538e+02
1.214082276267e+01-j1.688151116537e+02
7.258667557235e+00-j1.372564880548e+02
4.033571982121e+00-j1.114996279500e+02
1.906183535719e+00-j9.052049428534e+01
5.043463772971e-01-j7.345489834114e+01
-4.185595708316e-01-j5.958366778708e+01
-1.025501788335e+00-j4.831356214518e+01
-1.423917557102e+00-j3.915794305796e+01
-1.684448336210e+00-j3.171900984375e+01
-1.853343996005e+00-j2.567226767062e+01
-1.960625624161e+00-j2.075333276215e+01
-2.025412160342e+00-j1.674692711459e+01
-2.059348018599e+00-j1.347782658371e+01
-2.068758376268e+00-j1.080352210021e+01
-2.055967188832e+00-j8.608391629844e+00
-2.020120500988e+00-j6.799231124557e+00
-1.957857071619e+00-j5.302019087209e+00
-1.864240845514e+00-j4.059725808299e+00
-1.734425005884e+00-j3.030733577466e+00
-1.566316359992e+00-j2.186990319170e+00
-1.363736587983e+00-j1.510685873613e+00
-1.138360066414e+00-j9.887953385919e-01
-9.082820629785e-01-j6.067499642072e-01
-6.929198720196e-01-j3.443725776931e-01
-5.070421853433e-01-j1.764054545001e-01
-3.575405788742e-01-j7.658050934639e-02
-2.440410664928e-01-j2.194185215697e-02
-1.617044776886e-01+j4.915314683062e-03
-1.040803827466e-01+j1.582366109612e-02
-6.495427674591e-02+j1.820999908472e-02
-3.915429015500e-02+j1.648379499186e-02
-2.268962758023e-02+j1.316347567342e-02
-1.258878604519e-02+j9.628218334493e-03
-6.675403973239e-03+j6.562796038363e-03
-3.388106897018e-03+j4.217082998301e-03
-1.653555144006e-03+j2.581119157141e-03
-7.811109651114e-04+j1.519945991080e-03
-3.596843902677e-04+j8.691334079397e-04
-1.625085531038e-04+j4.864116675653e-04
-7.242869346238e-05+j2.680979523900e-04
-3.197516472485e-05+j1.462136881109e-04
-1.402443174842e-05+j7.916801985523e-05
-6.124145118499e-06+j4.265798810104e-05
-2.666397296993e-06+j2.291076186007e-05
-1.158648011572e-06+j1.227835361986e-05
-5.028202173836e-07+j6.570809373242e-06
-2.180218321859e-07+j3.513067843505e-06
-9.448010316876e-08+j1.877080603201e-06
-4.092775629433e-08+j1.002537112313e-06
-1.772508176349e-08+j5.353036041699e-07
-7.675168415241e-09+j2.857737183447e-07
-3.323082106812e-09+j1.525433658386e-07
-1.438678049678e-09+j8.141993370862e-08
-6.228249709518e-10+j4.345562887093e-08
-2.696218956728e-10+j2.319245779262e-08
-1.167173921980e-10+j1.237764237764e-08
-5.052545734786e-11+j6.605759879271e-09
-2.187163020175e-11+j3.525360124144e-09
-9.467810796571e-12+j1.881401404551e-09
-4.098418956188e-12+j1.004055326862e-09
-1.774116181310e-12+j5.358369324421e-10
-7.679749506125e-13+j2.859610388580e-10
-3.324387086973e-13+j1.526091512370e-10
-1.439049763140e-13+j8.144303536032e-11
</dep>
<dep ac.av_db frequency>
3.916780435858e+01+j0.000000000000e+00
3.916780435865e+01+j0.000000000000e+00
3.916780435877e+01+j0.000000000000e+00
3.916780435895e+01+j0.000000000000e+00
3.916780435921e+01+j0.000000000000e+00
3.916780435962e+01+j0.000000000000e+00
3.916780436025e+01+j0.000000000000e+00
3.916780436119e+01+j0.000000000000e+00
3.916780436262e+01+j0.000000000000e+00
3.916780436480e+01+j0.000000000000e+00
3.916780436811e+01+j0.000000000000e+00
3.916780437314e+01+j0.000000000000e+00
3.916780438079e+01+j0.000000000000e+00
3.916780439242e+01+j0.000000000000e+00
3.916780441009e+01+j0.000000000000e+00
3.916780443694e+01+j0.000000000000e+00
3.916780447776e+01+j0.000000000000e+00
3.916780453980e+01+j0.000000000000e+00
3.916780463410e+01+j0.000000000000e+00
3.916780477741e+01+j0.000000000000e+00
3.916780499525e+01+j0.000000000000e+00
3.916780532634e+01+j0.000000000000e+00
3.916780582958e+01+j0.000000000000e+00
3.916780659445e+01+j0.000000000000e+00
3.916780775698e+01+j0.000000000000e+00
3.916780952392e+01+j0.000000000000e+00
3.916781220952e+01+j0.000000000000e+00
3.916781629139e+01+j0.000000000000e+00
3.916782249548e+01+j0.000000000000e+00
3.916783192514e+01+j0.000000000000e+00
3.916784625740e+01+j0.000000000000e+00
3.916786804119e+01+j0.000000000000e+00
3.916790115066e+01+j0.000000000000e+00
3.916795147427e+01+j0.000000000000e+00
3.916802796200e+01+j0.000000000000e+00
3.916814421731e+01+j0.000000000000e+00
3.916832091677e+01+j0.000000000000e+00
3.916858948827e+01+j0.000000000000e+00
3.916899770236e+01+j0.000000000000e+00
3.916961817293e+01+j0.000000000000e+00
3.917056128258e+01+j0.000000000000e+00
3.917199483988e+01+j0.000000000000e+00
3.917417398395e+01+j0.000000000000e+00
3.917748669989e+01+j0.000000000000e+00
3.918252314396e+01+j0.000000000000e+00
3.919018134759e+01+j0.000000000000e+00
3.920182865287e+01+j0.000000000000e+00
3.921954886389e+01+j0.000000000000e+00
3.924652199350e+01+j0.000000000000e+00
3.928761083114e+01+j0.000000000000e+00
3.935027383971e+01+j0.000000000000e+00
3.944600075356e+01+j0.000000000000e+00
3.959260016241e+01+j0.000000000000e+00
3.981789550912e+01+j0.000000000000e+00
4.016572527655e+01+j0.000000000000e+00
4.070526657601e+01+j0.000000000000e+00
4.154143074010e+01+j0.000000000000e+00
4.279155494608e+01+j0.000000000000e+00
4.423928390571e+01+j0.000000000000e+00
4.375165795132e+01+j0.000000000000e+00
3.952394751768e+01+j0.000000000000e+00
3.441764795592e+01+j0.000000000000e+00
2.968673609503e+01+j0.000000000000e+00
2.533651206427e+01+j0.000000000000e+00
2.124456757842e+01+j0.000000000000e+00
1.731954688294e+01+j0.000000000000e+00
1.350256229070e+01+j0.000000000000e+00
9.755968243060e+00+j0.000000000000e+00
6.055089369066e+00+j0.000000000000e+00
2.383228876627e+00+j0.000000000000e+00
-1.271066978397e+00+j0.000000000000e+00
-4.915462520064e+00+j0.000000000000e+00
-8.554767124467e+00+j0.000000000000e+00
-1.219173944138e+01+j0.000000000000e+00
-1.582780795759e+01+j0.000000000000e+00
-1.946363310078e+01+j0.000000000000e+00
-2.309947902732e+01+j0.000000000000e+00
-2.673542675744e+01+j0.000000000000e+00
-3.037148277374e+01+j0.000000000000e+00
-3.400762889119e+01+j0.000000000000e+00
-3.764384274499e+01+j0.000000000000e+00
-4.128010491174e+01+j0.000000000000e+00
-4.491640051245e+01+j0.000000000000e+00
-4.855271883084e+01+j0.000000000000e+00
-5.218905240989e+01+j0.000000000000e+00
-5.582539616594e+01+j0.000000000000e+00
-5.946174667702e+01+j0.000000000000e+00
-6.309810165818e+01+j0.000000000000e+00
-6.673445959148e+01+j0.000000000000e+00
-7.037081947192e+01+j0.000000000000e+00
-7.400718063555e+01+j0.000000000000e+00
-7.764354264432e+01+j0.000000000000e+00
-8.127990520954e+01+j0.000000000000e+00
-8.491626814103e+01+j0.000000000000e+00
-8.855263131358e+01+j0.000000000000e+00
-9.218899464476e+01+j0.000000000000e+00
-9.582535808033e+01+j0.000000000000e+00
-9.946172158457e+01+j0.000000000000e+00
-1.030980851340e+02+j0.000000000000e+00
-1.067344487132e+02+j0.000000000000e+00
</dep>
<dep ac.av0_db frequency>
1.060204284639e+02+j0.000000000000e+00
1.060203393281e+02+j0.000000000000e+00
1.060202038532e+02+j0.000000000000e+00
1.060199979515e+02+j0.000000000000e+00
1.060196850178e+02+j0.000000000000e+00
1.060192094297e+02+j0.000000000000e+00
1.060184866777e+02+j0.000000000000e+00
1.060173883893e+02+j0.000000000000e+00
1.060157196202e+02+j0.000000000000e+00
1.060131844670e+02+j0.000000000000e+00
1.060093340912e+02+j0.000000000000e+00
1.060034883918e+02+j0.000000000000e+00
1.059946184894e+02+j0.000000000000e+00
1.059811716231e+02+j0.000000000000e+00
1.059608129827e+02+j0.000000000000e+00
1.059300512756e+02+j0.000000000000e+00
1.058837095398e+02+j0.000000000000e+00
1.058142077894e+02+j0.000000000000e+00
1.057106564702e+02+j0.000000000000e+00
1.055578492746e+02+j0.000000000000e+00
1.053354283893e+02+j0.000000000000e+00
1.050177839842e+02+j0.000000000000e+00
1.045755280825e+02+j0.000000000000e+00
1.039792974733e+02+j0.000000000000e+00
1.032057110534e+02+j0.000000000000e+00
1.022435929380e+02+j0.000000000000e+00
1.010973957207e+02+j0.000000000000e+00
9.978580211359e+01+j0.000000000000e+00
9.833635583141e+01+j0.000000000000e+00
9.677904972913e+01+j0.000000000000e+00
9.514146155228e+01+j0.000000000000e+00
9.344631659230e+01+j0.000000000000e+00
9.171100739959e+01+j0.000000000000e+00
8.994819319827e+01+j0.000000000000e+00
8.816677866849e+01+j0.000000000000e+00
8.637288215972e+01+j0.000000000000e+00
8.457063690706e+01+j0.000000000000e+00
8.276279563974e+01+j0.000000000000e+00
8.095116179552e+01+j0.000000000000e+00
7.913688446351e+01+j0.000000000000e+00
7.732065146236e+01+j0.000000000000e+00
7.550280683466e+01+j0.000000000000e+00
7.368341015759e+01+j0.000000000000e+00
7.186224685031e+01+j0.000000000000e+00
7.003879110030e+01+j0.000000000000e+00
6.821211561076e+01+j0.000000000000e+00
6.638073448660e+01+j0.000000000000e+00
6.454235692551e+01+j0.000000000000e+00
6.269352059706e+01+j0.000000000000e+00
6.082906759981e+01+j0.000000000000e+00
5.894143049446e+01+j0.000000000000e+00
5.701972798941e+01+j0.000000000000e+00
5.504875922454e+01+j0.000000000000e+00
