<Qucs Dataset 0.0.24>
<indep frequency 100>
1.000000000000e+00
1.232846739442e+00
1.519911082953e+00
1.873817422860e+00
2.310129700083e+00
2.848035868436e+00
3.511191734215e+00
4.328761281083e+00
5.336699231206e+00
6.579332246576e+00
8.111308307897e+00
1.000000000000e+01
1.232846739442e+01
1.519911082953e+01
1.873817422860e+01
2.310129700083e+01
2.848035868436e+01
3.511191734215e+01
4.328761281083e+01
5.336699231206e+01
6.579332246576e+01
8.111308307897e+01
1.000000000000e+02
1.232846739442e+02
1.519911082953e+02
1.873817422860e+02
2.310129700083e+02
2.848035868436e+02
3.511191734215e+02
4.328761281083e+02
5.336699231206e+02
6.579332246576e+02
8.111308307897e+02
1.000000000000e+03
1.232846739442e+03
1.519911082953e+03
1.873817422860e+03
2.310129700083e+03
2.848035868436e+03
3.511191734215e+03
4.328761281083e+03
5.336699231206e+03
6.579332246576e+03
8.111308307897e+03
1.000000000000e+04
1.232846739442e+04
1.519911082953e+04
1.873817422860e+04
2.310129700083e+04
2.848035868436e+04
3.511191734215e+04
4.328761281083e+04
5.336699231206e+04
6.579332246576e+04
8.111308307897e+04
1.000000000000e+05
1.232846739442e+05
1.519911082953e+05
1.873817422860e+05
2.310129700083e+05
2.848035868436e+05
3.511191734215e+05
4.328761281083e+05
5.336699231206e+05
6.579332246576e+05
8.111308307897e+05
1.000000000000e+06
1.232846739442e+06
1.519911082953e+06
1.873817422860e+06
2.310129700083e+06
2.848035868436e+06
3.511191734215e+06
4.328761281083e+06
5.336699231206e+06
6.579332246576e+06
8.111308307897e+06
1.000000000000e+07
1.232846739442e+07
1.519911082953e+07
1.873817422860e+07
2.310129700083e+07
2.848035868436e+07
3.511191734215e+07
4.328761281083e+07
5.336699231206e+07
6.579332246576e+07
8.111308307897e+07
1.000000000000e+08
1.232846739442e+08
1.519911082953e+08
1.873817422860e+08
2.310129700083e+08
2.848035868436e+08
3.511191734215e+08
4.328761281083e+08
5.336699231206e+08
6.579332246576e+08
8.111308307897e+08
1.000000000000e+09
</indep>
<dep ac.v(av) frequency>
9.090454485563e+00-j2.858563432816e-06
9.090454485587e+00-j3.524170730670e-06
9.090454485585e+00-j4.344762106881e-06
9.090454485621e+00-j5.356425695921e-06
9.090454485635e+00-j6.603652331183e-06
9.090454485677e+00-j8.141291573449e-06
9.090454485801e+00-j1.003696483809e-05
9.090454485858e+00-j1.237403936696e-05
9.090454486056e+00-j1.525529447888e-05
9.090454486282e+00-j1.880743821880e-05
9.090454486662e+00-j2.318668853268e-05
9.090454487255e+00-j2.858563549013e-05
9.090454488138e+00-j3.524170701275e-05
9.090454489476e+00-j4.344762261188e-05
9.090454491529e+00-j5.356426449343e-05
9.090454494634e+00-j6.603652856807e-05
9.090454499348e+00-j8.141290405539e-05
9.090454506544e+00-j1.003696359638e-04
9.090454517490e+00-j1.237403927279e-04
9.090454534042e+00-j1.525529350026e-04
9.090454559319e+00-j1.880743904881e-04
9.090454597687e+00-j2.318669032313e-04
9.090454655969e+00-j2.858563586710e-04
9.090454744607e+00-j3.524170995588e-04
9.090454879301e+00-j4.344762747310e-04
9.090455083986e+00-j5.356426753957e-04
9.090455395139e+00-j6.603653773016e-04
9.090455868035e+00-j8.141293690702e-04
9.090456586808e+00-j1.003696903449e-03
9.090457679286e+00-j1.237404763108e-03
9.090459339745e+00-j1.525530996297e-03
9.090461863505e+00-j1.880746987378e-03
9.090465699396e+00-j2.318674798360e-03
9.090471529613e+00-j2.858574427895e-03
9.090480391040e+00-j3.524191212588e-03
9.090493859652e+00-j4.344800864184e-03
9.090514330817e+00-j5.356498337186e-03
9.090545445333e+00-j6.603787907417e-03
9.090592737018e+00-j8.141545332302e-03
9.090664617062e+00-j1.003744053417e-02
9.090773870395e+00-j1.237493112268e-02
9.090939930495e+00-j1.525696556541e-02
9.091192338056e+00-j1.881057229559e-02
9.091576000455e+00-j2.319256175381e-02
9.092159191761e+00-j2.859663930087e-02
9.093045726024e+00-j3.526233047667e-02
9.094393491998e+00-j4.348627751540e-02
9.096442699168e+00-j5.363671699225e-02
9.099558982506e+00-j6.617236516955e-02
9.104299319201e+00-j8.166765638610e-02
9.111513146763e+00-j1.008475603621e-01
9.122498215231e+00-j1.246375522045e-01
9.139242504868e+00-j1.542387319388e-01
9.164803704088e+00-j1.912466630508e-01
9.203913740734e+00-j2.378496748863e-01
9.263963657092e+00-j2.971782421451e-01
9.356660028217e+00-j3.739560774209e-01
9.500936506207e+00-j4.757901268791e-01
9.728384998281e+00-j6.159177622310e-01
1.009420739123e+01-j8.196176904323e-01
1.070161611357e+01-j1.141118974176e+00
1.176347625535e+01-j1.716535730294e+00
1.378289187822e+01-j2.977336767077e+00
1.810240301836e+01-j6.938210384461e+00
2.067859536285e+01-j2.938765184084e+01
-1.760040397077e+01-j1.503222106326e+01
-8.453374559553e+00-j2.729685938222e+00
-4.380561687779e+00-j8.491095018472e-01
-2.508434011288e+00-j3.367900852203e-01
-1.517855146269e+00-j1.508102493237e-01
-9.480038870957e-01-j7.223496178930e-02
-6.034669558718e-01-j3.600579313686e-02
-3.887060947796e-01-j1.839268653406e-02
-2.522511678913e-01-j9.541740595136e-03
-1.644849767115e-01-j4.999226745166e-03
-1.075885848175e-01-j2.636036852642e-03
-7.051520893213e-02-j1.395735923350e-03
-4.627773496742e-02-j7.410238187685e-04
-3.039739978074e-02-j3.941228397449e-04
-1.997775922642e-02-j2.098632010736e-04
-1.313465406810e-02-j1.118336947379e-04
-8.637670550157e-03-j5.962480443635e-05
-5.681256520750e-03-j3.179980802197e-05
-3.737128560455e-03-j1.696352914826e-05
-2.458452655755e-03-j9.050443461922e-06
-1.617355561443e-03-j4.829078338740e-06
-1.064050447189e-03-j2.576828063512e-06
-7.000475169184e-04-j1.375068277077e-06
-4.605729955795e-04-j7.337948900424e-07
-3.030212876257e-04-j3.915910291174e-07
-1.993656135406e-04-j2.089757080819e-07
-1.311683262801e-04-j1.115224186978e-07
-8.629959526784e-05-j5.951558781818e-08
-5.677919585452e-05-j3.176147805865e-08
-3.735684360557e-05-j1.695007493835e-08
-2.457827575741e-05-j9.045720394942e-09
-1.617085001905e-05-j4.827420202016e-09
-1.063933334882e-05-j2.576245911341e-09
-6.999968236357e-06-j1.374863884167e-09
-4.605510521914e-06-j7.337231265164e-10
</dep>
<dep ac.v(av0) frequency>
1.999920967249e+05-j1.257844040755e+03
1.999879879711e+05-j1.550697097125e+03
1.999817433537e+05-j1.911712224687e+03
1.999722528365e+05-j2.356736445953e+03
1.999578298174e+05-j2.905285493384e+03
1.999359120906e+05-j3.581379535708e+03
1.999026082855e+05-j4.414557352460e+03
1.998520106835e+05-j5.441096463770e+03
1.997751558102e+05-j6.705460977453e+03
1.996584562549e+05-j8.261981440485e+03
1.994813439110e+05-j1.017673037562e+04
1.992127492315e+05-j1.252947256030e+04
1.988058901363e+05-j1.541540325525e+04
1.981906700078e+05-j1.894607683799e+04
1.972628405206e+05-j2.324837065954e+04
1.958691244016e+05-j2.845938044652e+04
1.937880760621e+05-j3.471365625990e+04
1.907083221648e+05-j4.211717900316e+04
1.862102242336e+05-j5.070061572203e+04
1.797653972252e+05-j6.034504353039e+04
1.707806330971e+05-j7.068196380186e+04
1.587214359001e+05-j8.099407645503e+04
1.433346948388e+05-j9.018550851854e+04
1.249220437501e+05-j9.692209398274e+04
1.045068725270e+05-j9.999383785779e+04
8.370027359612e+04-j9.878034000923e+04
6.423823802496e+04-j9.353192782905e+04
4.744137627743e+04-j8.525298931961e+04
3.392240845889e+04-j7.527904115762e+04
2.364015538308e+04-j6.484142631580e+04
1.615122507939e+04-j5.482805410541e+04
1.086715201100e+04-j4.575066674171e+04
7.221729571658e+03-j3.782470932304e+04
4.745658159903e+03-j3.107443707655e+04
3.081584084947e+03-j2.541972851458e+04
1.971180580800e+03-j2.073434631066e+04
1.233759039325e+03-j1.688009605454e+04
7.455902704690e+02-j1.372460574778e+04
4.231102378736e+02-j1.114924821586e+04
2.103888022357e+02-j9.051633101778e+03
7.021341597757e+01-j7.345354031664e+03
-2.207647007412e+01-j5.958505724394e+03
-8.277748051319e+01-j4.831775909043e+03
-1.226345354035e+02-j3.916512746314e+03
-1.487144883768e+02-j3.172948770777e+03
-1.656469986514e+02-j2.568648048844e+03
-1.764415643735e+02-j2.077186926998e+03
-1.830213215433e+02-j1.677053492718e+03
-1.865674032671e+02-j1.350741905077e+03
-1.877365450163e+02-j1.084017178865e+03
-1.867952567238e+02-j8.653295708287e+02
-1.837041512785e+02-j6.853625748096e+02
-1.781850421555e+02-j5.367012414998e+02
-1.698093432435e+02-j4.136021304218e+02
-1.581508722992e+02-j3.118244346089e+02
-1.430277832132e+02-j2.284420732971e+02
-1.247885978743e+02-j1.615267320570e+02
-1.044875556599e+02-j1.096420272335e+02
-8.375604601277e+01-j7.126175655648e+01
-6.434341412515e+01-j4.439439386312e+01
-4.757905659136e+01-j2.662319820077e+01
-3.408147419172e+01-j1.546704238532e+01
-2.381329100872e+01-j8.765338735121e+00
-1.633361731939e+01-j4.876435517503e+00
-1.105563382192e+01-j2.677203911187e+00
-7.414216905093e+00-j1.456281417659e+00
-4.940779326644e+00-j7.871557409021e-01
-3.278435808055e+00-j4.236615401118e-01
-2.169167353124e+00-j2.273703596869e-01
-1.432487216270e+00-j1.217925783039e-01
-9.447980632577e-01-j6.515667310923e-02
-6.226211575192e-01-j3.482843702548e-02
-4.100802757078e-01-j1.860670348515e-02
-2.699949958891e-01-j9.936807460022e-03
-1.777208288278e-01-j5.305425226708e-03
-1.169640262542e-01-j2.832206757588e-03
-7.696993203566e-02-j1.511765988125e-03
-5.064774975097e-02-j8.068902612955e-04
-3.332572703275e-02-j4.306503686588e-04
-2.192735412009e-02-j2.298382494974e-04
-1.442727641369e-02-j1.226623611629e-04
-9.492418958175e-03-j6.546282817872e-05
-6.245479313100e-03-j3.493610967692e-05
-4.109152281308e-03-j1.864455012400e-05
-2.703566830798e-03-j9.950105560929e-06
-1.778774676355e-03-j5.310096623665e-06
-1.170318522776e-03-j2.833847478333e-06
-7.699929823547e-04-j1.512342193059e-06
-5.066046336826e-04-j8.070926047993e-07
-3.333123093572e-04-j4.307214215591e-07
-2.192973676546e-04-j2.298631989693e-07
-1.442830784306e-04-j1.226711217327e-07
-9.492865450455e-05-j6.546590425941e-08
-6.245672592119e-05-j3.493718976554e-08
-4.109235948084e-05-j1.864492936791e-08
-2.703603048406e-05-j9.950238721684e-09
-1.778790354166e-05-j5.310143379178e-09
-1.170325309347e-05-j2.833863895141e-09
-7.699959201051e-06-j1.512347957326e-09
-5.066059053664e-06-j8.070946287469e-10
</dep>
<dep ac.v(bav0) frequency>
1.999920967249e+04-j1.257844040755e+02
1.999879879711e+04-j1.550697097125e+02
1.999817433537e+04-j1.911712224687e+02
1.999722528365e+04-j2.356736445953e+02
1.999578298174e+04-j2.905285493384e+02
1.999359120906e+04-j3.581379535708e+02
1.999026082855e+04-j4.414557352460e+02
1.998520106835e+04-j5.441096463770e+02
1.997751558102e+04-j6.705460977453e+02
1.996584562549e+04-j8.261981440485e+02
1.994813439110e+04-j1.017673037562e+03
1.992127492315e+04-j1.252947256030e+03
1.988058901363e+04-j1.541540325525e+03
1.981906700078e+04-j1.894607683799e+03
1.972628405206e+04-j2.324837065954e+03
1.958691244016e+04-j2.845938044652e+03
1.937880760621e+04-j3.471365625990e+03
1.907083221648e+04-j4.211717900316e+03
1.862102242336e+04-j5.070061572203e+03
1.797653972252e+04-j6.034504353039e+03
1.707806330971e+04-j7.068196380186e+03
1.587214359001e+04-j8.099407645503e+03
1.433346948388e+04-j9.018550851854e+03
1.249220437501e+04-j9.692209398274e+03
1.045068725270e+04-j9.999383785779e+03
8.370027359612e+03-j9.878034000923e+03
6.423823802496e+03-j9.353192782905e+03
4.744137627743e+03-j8.525298931961e+03
3.392240845889e+03-j7.527904115762e+03
2.364015538308e+03-j6.484142631580e+03
1.615122507939e+03-j5.482805410541e+03
1.086715201100e+03-j4.575066674171e+03
7.221729571658e+02-j3.782470932304e+03
4.745658159903e+02-j3.107443707655e+03
3.081584084947e+02-j2.541972851458e+03
1.971180580800e+02-j2.073434631066e+03
1.233759039325e+02-j1.688009605454e+03
7.455902704690e+01-j1.372460574778e+03
4.231102378736e+01-j1.114924821586e+03
2.103888022357e+01-j9.051633101778e+02
7.021341597757e+00-j7.345354031664e+02
-2.207647007412e+00-j5.958505724394e+02
-8.277748051319e+00-j4.831775909043e+02
-1.226345354035e+01-j3.916512746314e+02
-1.487144883768e+01-j3.172948770777e+02
-1.656469986514e+01-j2.568648048844e+02
-1.764415643735e+01-j2.077186926998e+02
-1.830213215433e+01-j1.677053492718e+02
-1.865674032671e+01-j1.350741905077e+02
-1.877365450163e+01-j1.084017178865e+02
-1.867952567238e+01-j8.653295708287e+01
-1.837041512785e+01-j6.853625748096e+01
-1.781850421555e+01-j5.367012414998e+01
-1.698093432435e+01-j4.136021304218e+01
-1.581508722992e+01-j3.118244346089e+01
-1.430277832132e+01-j2.284420732971e+01
-1.247885978743e+01-j1.615267320570e+01
-1.044875556599e+01-j1.096420272335e+01
-8.375604601277e+00-j7.126175655648e+00
-6.434341412515e+00-j4.439439386312e+00
-4.757905659136e+00-j2.662319820077e+00
-3.408147419172e+00-j1.546704238532e+00
-2.381329100872e+00-j8.765338735121e-01
-1.633361731939e+00-j4.876435517503e-01
-1.105563382192e+00-j2.677203911187e-01
-7.414216905093e-01-j1.456281417659e-01
-4.940779326644e-01-j7.871557409021e-02
-3.278435808055e-01-j4.236615401118e-02
-2.169167353124e-01-j2.273703596869e-02
-1.432487216270e-01-j1.217925783039e-02
-9.447980632577e-02-j6.515667310923e-03
-6.226211575192e-02-j3.482843702548e-03
-4.100802757078e-02-j1.860670348515e-03
-2.699949958891e-02-j9.936807460022e-04
-1.777208288278e-02-j5.305425226708e-04
-1.169640262542e-02-j2.832206757588e-04
-7.696993203566e-03-j1.511765988125e-04
-5.064774975097e-03-j8.068902612955e-05
-3.332572703275e-03-j4.306503686588e-05
-2.192735412009e-03-j2.298382494974e-05
-1.442727641369e-03-j1.226623611629e-05
-9.492418958175e-04-j6.546282817872e-06
-6.245479313100e-04-j3.493610967692e-06
-4.109152281308e-04-j1.864455012400e-06
-2.703566830798e-04-j9.950105560929e-07
-1.778774676355e-04-j5.310096623665e-07
-1.170318522776e-04-j2.833847478333e-07
-7.699929823547e-05-j1.512342193059e-07
-5.066046336826e-05-j8.070926047993e-08
-3.333123093572e-05-j4.307214215591e-08
-2.192973676546e-05-j2.298631989693e-08
-1.442830784306e-05-j1.226711217327e-08
-9.492865450455e-06-j6.546590425941e-09
-6.245672592119e-06-j3.493718976554e-09
-4.109235948084e-06-j1.864492936791e-09
-2.703603048406e-06-j9.950238721684e-10
-1.778790354166e-06-j5.310143379178e-10
-1.170325309347e-06-j2.833863895141e-10
-7.699959201051e-07-j1.512347957326e-10
-5.066059053664e-07-j8.070946287469e-11
</dep>
<dep ac.av_db frequency>
1.917171193427e+01+j0.000000000000e+00
1.917171193429e+01+j0.000000000000e+00
1.917171193429e+01+j0.000000000000e+00
1.917171193433e+01+j0.000000000000e+00
1.917171193434e+01+j0.000000000000e+00
1.917171193438e+01+j0.000000000000e+00
1.917171193450e+01+j0.000000000000e+00
1.917171193456e+01+j0.000000000000e+00
1.917171193475e+01+j0.000000000000e+00
1.917171193498e+01+j0.000000000000e+00
1.917171193535e+01+j0.000000000000e+00
1.917171193593e+01+j0.000000000000e+00
1.917171193680e+01+j0.000000000000e+00
1.917171193811e+01+j0.000000000000e+00
1.917171194012e+01+j0.000000000000e+00
1.917171194317e+01+j0.000000000000e+00
1.917171194779e+01+j0.000000000000e+00
1.917171195485e+01+j0.000000000000e+00
1.917171196558e+01+j0.000000000000e+00
1.917171198181e+01+j0.000000000000e+00
1.917171200660e+01+j0.000000000000e+00
1.917171204423e+01+j0.000000000000e+00
1.917171210139e+01+j0.000000000000e+00
1.917171218831e+01+j0.000000000000e+00
1.917171232041e+01+j0.000000000000e+00
1.917171252114e+01+j0.000000000000e+00
1.917171282628e+01+j0.000000000000e+00
1.917171329005e+01+j0.000000000000e+00
1.917171399494e+01+j0.000000000000e+00
1.917171506633e+01+j0.000000000000e+00
1.917171669473e+01+j0.000000000000e+00
1.917171916976e+01+j0.000000000000e+00
1.917172293158e+01+j0.000000000000e+00
1.917172864922e+01+j0.000000000000e+00
1.917173733953e+01+j0.000000000000e+00
1.917175054804e+01+j0.000000000000e+00
1.917177062385e+01+j0.000000000000e+00
1.917180113737e+01+j0.000000000000e+00
1.917184751541e+01+j0.000000000000e+00
1.917191800635e+01+j0.000000000000e+00
1.917202514735e+01+j0.000000000000e+00
1.917218799454e+01+j0.000000000000e+00
1.917243551334e+01+j0.000000000000e+00
1.917281173270e+01+j0.000000000000e+00
1.917338358227e+01+j0.000000000000e+00
1.917425281112e+01+j0.000000000000e+00
1.917557411960e+01+j0.000000000000e+00
1.917758275594e+01+j0.000000000000e+00
1.918063654800e+01+j0.000000000000e+00
1.918527999008e+01+j0.000000000000e+00
1.919234211775e+01+j0.000000000000e+00
1.920308635525e+01+j0.000000000000e+00
1.921944079504e+01+j0.000000000000e+00
1.924435408684e+01+j0.000000000000e+00
1.928235013754e+01+j0.000000000000e+00
1.934040370175e+01+j0.000000000000e+00
1.942934865450e+01+j0.000000000000e+00
1.956620604652e+01+j0.000000000000e+00
1.977818816726e+01+j0.000000000000e+00
2.010998320622e+01+j0.000000000000e+00
2.063808832919e+01+j0.000000000000e+00
2.150221663114e+01+j0.000000000000e+00
2.298487684906e+01+j0.000000000000e+00
2.574998098084e+01+j0.000000000000e+00
3.111006428600e+01+j0.000000000000e+00
2.728955605487e+01+j0.000000000000e+00
1.897136043240e+01+j0.000000000000e+00
1.299077970634e+01+j0.000000000000e+00
8.065644767014e+00+j0.000000000000e+00
3.667269459290e+00+j0.000000000000e+00
-4.386555552503e-01+j0.000000000000e+00
-4.371497118091e+00+j0.000000000000e+00
-8.197860154907e+00+j0.000000000000e+00
-1.195712670131e+01+j0.000000000000e+00
-1.567346531472e+01+j0.000000000000e+00
-1.936206979921e+01+j0.000000000000e+00
-2.303264291889e+01+j0.000000000000e+00
-2.669144471525e+01+j0.000000000000e+00
-3.034254126869e+01+j0.000000000000e+00
-3.398858528165e+01+j0.000000000000e+00
-3.763131238743e+01+j0.000000000000e+00
-4.127186035310e+01+j0.000000000000e+00
-4.491097595704e+01+j0.000000000000e+00
-4.854914975365e+01+j0.000000000000e+00
-5.218670415958e+01+j0.000000000000e+00
-5.582385115841e+01+j0.000000000000e+00
-5.946073015845e+01+j0.000000000000e+00
-6.309743285389e+01+j0.000000000000e+00
-6.673401956164e+01+j0.000000000000e+00
-7.037052996112e+01+j0.000000000000e+00
-7.400699015653e+01+j0.000000000000e+00
-7.764341732174e+01+j0.000000000000e+00
-8.127982275561e+01+j0.000000000000e+00
-8.491621389183e+01+j0.000000000000e+00
-8.855259562122e+01+j0.000000000000e+00
-9.218897116157e+01+j0.000000000000e+00
-9.582534262995e+01+j0.000000000000e+00
-9.946171141926e+01+j0.000000000000e+00
-1.030980784459e+02+j0.000000000000e+00
-1.067344443129e+02+j0.000000000000e+00
</dep>
<dep ac.av0_db frequency>
1.060204284639e+02+j0.000000000000e+00
1.060203393281e+02+j0.000000000000e+00
1.060202038532e+02+j0.000000000000e+00
1.060199979515e+02+j0.000000000000e+00
1.060196850178e+02+j0.000000000000e+00
1.060192094297e+02+j0.000000000000e+00
1.060184866777e+02+j0.000000000000e+00
1.060173883893e+02+j0.000000000000e+00
1.060157196202e+02+j0.000000000000e+00
1.060131844670e+02+j0.000000000000e+00
1.060093340912e+02+j0.000000000000e+00
1.060034883918e+02+j0.000000000000e+00
1.059946184894e+02+j0.000000000000e+00
1.059811716231e+02+j0.000000000000e+00
1.059608129827e+02+j0.000000000000e+00
1.059300512756e+02+j0.000000000000e+00
1.058837095398e+02+j0.000000000000e+00
1.058142077894e+02+j0.000000000000e+00
1.057106564702e+02+j0.000000000000e+00
1.055578492746e+02+j0.000000000000e+00
1.053354283893e+02+j0.000000000000e+00
1.050177839842e+02+j0.000000000000e+00
1.045755280825e+02+j0.000000000000e+00
1.039792974733e+02+j0.000000000000e+00
1.032057110534e+02+j0.000000000000e+00
1.022435929380e+02+j0.000000000000e+00
1.010973957207e+02+j0.000000000000e+00
9.978580211359e+01+j0.000000000000e+00
9.833635583141e+01+j0.000000000000e+00
9.677904972913e+01+j0.000000000000e+00
9.514146155228e+01+j0.000000000000e+00
9.344631659230e+01+j0.000000000000e+00
9.171100739959e+01+j0.000000000000e+00
8.994819319827e+01+j0.000000000000e+00
8.816677866849e+01+j0.000000000000e+00
8.637288215972e+01+j0.000000000000e+00
8.457063690706e+01+j0.000000000000e+00
8.276279563974e+01+j0.000000000000e+00
8.095116179552e+01+j0.000000000000e+00
7.913688446351e+01+j0.000000000000e+00
7.732065146236e+01+j0.000000000000e+00
7.550280683466e+01+j0.000000000000e+00
7.368341015759e+01+j0.000000000000e+00
7.186224685031e+01+j0.000000000000e+00
7.003879110030e+01+j0.000000000000e+00
6.821211561076e+01+j0.000000000000e+00
6.638073448660e+01+j0.000000000000e+00
6.454235692551e+01+j0.000000000000e+00
6.269352059706e+01+j0.000000000000e+00
6.082906759981e+01+j0.000000000000e+00
5.894143049446e+01+j0.000000000000e+00
5.701972798941e+01+j0.000000000000e+00
5.504875922454e+01+j0.000000000000e+00
5.300816998742e+01+j0.000000000000e+00
