<Qucs Dataset 0.0.24>
<indep frequency 100>
1.000000000000e+00
1.232846739442e+00
1.519911082953e+00
1.873817422860e+00
2.310129700083e+00
2.848035868436e+00
3.511191734215e+00
4.328761281083e+00
5.336699231206e+00
6.579332246576e+00
8.111308307897e+00
1.000000000000e+01
1.232846739442e+01
1.519911082953e+01
1.873817422860e+01
2.310129700083e+01
2.848035868436e+01
3.511191734215e+01
4.328761281083e+01
5.336699231206e+01
6.579332246576e+01
8.111308307897e+01
1.000000000000e+02
1.232846739442e+02
1.519911082953e+02
1.873817422860e+02
2.310129700083e+02
2.848035868436e+02
3.511191734215e+02
4.328761281083e+02
5.336699231206e+02
6.579332246576e+02
8.111308307897e+02
1.000000000000e+03
1.232846739442e+03
1.519911082953e+03
1.873817422860e+03
2.310129700083e+03
2.848035868436e+03
3.511191734215e+03
4.328761281083e+03
5.336699231206e+03
6.579332246576e+03
8.111308307897e+03
1.000000000000e+04
1.232846739442e+04
1.519911082953e+04
1.873817422860e+04
2.310129700083e+04
2.848035868436e+04
3.511191734215e+04
4.328761281083e+04
5.336699231206e+04
6.579332246576e+04
8.111308307897e+04
1.000000000000e+05
1.232846739442e+05
1.519911082953e+05
1.873817422860e+05
2.310129700083e+05
2.848035868436e+05
3.511191734215e+05
4.328761281083e+05
5.336699231206e+05
6.579332246576e+05
8.111308307897e+05
1.000000000000e+06
1.232846739442e+06
1.519911082953e+06
1.873817422860e+06
2.310129700083e+06
2.848035868436e+06
3.511191734215e+06
4.328761281083e+06
5.336699231206e+06
6.579332246576e+06
8.111308307897e+06
1.000000000000e+07
1.232846739442e+07
1.519911082953e+07
1.873817422860e+07
2.310129700083e+07
2.848035868436e+07
3.511191734215e+07
4.328761281083e+07
5.336699231206e+07
6.579332246576e+07
8.111308307897e+07
1.000000000000e+08
1.232846739442e+08
1.519911082953e+08
1.873817422860e+08
2.310129700083e+08
2.848035868436e+08
3.511191734215e+08
4.328761281083e+08
5.336699231206e+08
6.579332246576e+08
8.111308307897e+08
1.000000000000e+09
</indep>
<dep ac.v(av) frequency>
9.090454485543e+00-j2.855707721086e-06
9.090454485528e+00-j3.520649889954e-06
9.090454485552e+00-j4.340421949134e-06
9.090454485567e+00-j5.351075313756e-06
9.090454485525e+00-j6.597054799801e-06
9.090454485566e+00-j8.133158546253e-06
9.090454485510e+00-j1.002693665980e-05
9.090454485519e+00-j1.236167711202e-05
9.090454485513e+00-j1.524005369413e-05
9.090454485516e+00-j1.878865029326e-05
9.090454485513e+00-j2.316352629389e-05
9.090454485457e+00-j2.855707653093e-05
9.090454485420e+00-j3.520650030209e-05
9.090454485328e+00-j4.340421771964e-05
9.090454485233e+00-j5.351075296245e-05
9.090454485081e+00-j6.597055490021e-05
9.090454484827e+00-j8.133158313006e-05
9.090454484473e+00-j1.002693852412e-04
9.090454483865e+00-j1.236167817558e-04
9.090454482967e+00-j1.524005235991e-04
9.090454481658e+00-j1.878864875002e-04
9.090454479665e+00-j2.316352647243e-04
9.090454476556e+00-j2.855707637321e-04
9.090454471927e+00-j3.520650076956e-04
9.090454464820e+00-j4.340421873401e-04
9.090454454048e+00-j5.351074809319e-04
9.090454437668e+00-j6.597055323425e-04
9.090454412783e+00-j8.133158071355e-04
9.090454374939e+00-j1.002693718191e-03
9.090454317442e+00-j1.236167681884e-03
9.090454230041e+00-j1.524005276648e-03
9.090454097205e+00-j1.878864907153e-03
9.090453895305e+00-j2.316352419802e-03
9.090453588438e+00-j2.855707441128e-03
9.090453122025e+00-j3.520649420781e-03
9.090452413118e+00-j4.340420818659e-03
9.090451335643e+00-j5.351073020012e-03
9.090449697978e+00-j6.597051738268e-03
9.090447208874e+00-j8.133151499475e-03
9.090443425659e+00-j1.002692513519e-02
9.090437675514e+00-j1.236165413866e-02
9.090428935820e+00-j1.524001034719e-02
9.090415652294e+00-j1.878856960985e-02
9.090395462590e+00-j2.316337533759e-02
9.090364776207e+00-j2.855679535990e-02
9.090318136030e+00-j3.520597141459e-02
9.090247248025e+00-j4.340322859866e-02
9.090139506677e+00-j5.350889464219e-02
9.089975754300e+00-j6.596707791946e-02
9.089726876544e+00-j8.132507023386e-02
9.089348630582e+00-j1.002571755506e-01
9.088773790633e+00-j1.235939150079e-01
9.087900224249e+00-j1.523577098820e-01
9.086572802555e+00-j1.878062699773e-01
9.084555982050e+00-j2.314849566775e-01
9.081492308135e+00-j2.852892307271e-01
9.076839751341e+00-j3.515377086270e-01
9.069777400735e+00-j4.330549116227e-01
9.059064276807e+00-j5.332597102468e-01
9.042829660368e+00-j6.562493288664e-01
9.018265614734e+00-j8.068571195437e-01
8.981184962232e+00-j9.906411053269e-01
8.925405990088e+00-j1.213723539348e+00
8.841941320816e+00-j1.482342342356e+00
8.718029929248e+00-j1.801890237541e+00
8.536207788881e+00-j2.175124127258e+00
8.273931802525e+00-j2.599202376593e+00
7.904782820559e+00-j3.061450147914e+00
7.402783674368e+00-j3.534609162079e+00
6.751142533985e+00-j3.974044340015e+00
5.954478275507e+00-j4.321238504775e+00
5.048922963734e+00-j4.517231597904e+00
4.100989054059e+00-j4.523465830545e+00
3.190530146468e+00-j4.338650304610e+00
2.385559319731e+00-j3.999365593518e+00
1.724325870634e+00-j3.563931275586e+00
1.213210504168e+00-j3.091400191191e+00
8.363947367982e-01-j2.627480186617e+00
5.681739613843e-01-j2.200485829411e+00
3.819873968670e-01-j1.823876277028e+00
2.549873601849e-01-j1.500977161150e+00
1.693899488402e-01-j1.229283801842e+00
1.121621985583e-01-j1.003506353845e+00
7.410801555555e-02-j8.174249472899e-01
4.889447411471e-02-j6.648927146053e-01
3.222859516611e-02-j5.403090737199e-01
2.123000996503e-02-j4.387934890032e-01
1.397909638065e-02-j3.562034871554e-01
9.202152499623e-03-j2.890796929156e-01
6.056499051099e-03-j2.345626734691e-01
3.985680292854e-03-j1.903043868352e-01
2.622704835737e-03-j1.543849097471e-01
1.725734963299e-03-j1.252387199584e-01
1.135492105976e-03-j1.015915841285e-01
7.471099051389e-04-j8.240758712128e-02
4.915622484338e-04-j6.684521383579e-02
3.234211175871e-04-j5.422121676861e-02
2.127920885146e-04-j4.398103585697e-02
1.400041060192e-04-j3.567465980786e-02
9.211383821688e-05-j2.893696889516e-02
</dep>
<dep ac.v(av0) frequency>
1.999921046282e+05-j1.256587453352e+03
1.999879999832e+05-j1.549147949269e+03
1.999817616103e+05-j1.909802422439e+03
1.999722805836e+05-j2.354382064215e+03
1.999578719875e+05-j2.902383110885e+03
1.999359761785e+05-j3.577801735119e+03
1.999027056771e+05-j4.410147207401e+03
1.998521586727e+05-j5.435660806989e+03
1.997753806542e+05-j6.698762222769e+03
1.996587977983e+05-j8.253727726877e+03
1.994818625666e+05-j1.016656383822e+04
1.992135364814e+05-j1.251695565411e+04
1.988070842450e+05-j1.540000334441e+04
1.981924793360e+05-j1.892714986092e+04
1.972655776773e+05-j2.322514583596e+04
1.958732552730e+05-j2.843095009602e+04
1.937942879797e+05-j3.467897839311e+04
1.907176138329e+05-j4.207510594709e+04
1.862240139946e+05-j5.064996950312e+04
1.797856318055e+05-j6.028476554979e+04
1.708098524298e+05-j7.061136451638e+04
1.587627144123e+05-j8.091318430826e+04
1.433913600650e+05-j9.009544867368e+04
1.249971215864e+05-j9.682532681276e+04
1.046023654721e+05-j9.989403501742e+04
8.381657304529e+04-j9.868179513974e+04
6.437399936557e+04-j9.343868620007e+04
4.759393426071e+04-j8.516809422389e+04
3.408848507702e+04-j7.520420334368e+04
2.381651374820e+04-j6.477712885364e+04
1.633507160562e+04-j5.477389667316e+04
1.105628144120e+04-j4.570574284411e+04
7.414502647389e+03-j3.778790388431e+04
4.940904606372e+03-j3.104461922693e+04
3.278490500845e+03-j2.539585793402e+04
2.169191161830e+03-j2.071552176677e+04
1.432497560870e+03-j1.686557034055e+04
9.448025521860e+02-j1.371378352515e+04
6.226231038142e+02-j1.114167676938e+04
4.100811191106e+02-j9.046991615884e+03
2.699953612343e+02-j7.343444338440e+03
1.777209870501e+02-j5.959245980893e+03
1.169640947657e+02-j4.835197860860e+03
7.696996169857e+01-j3.922762797406e+03
5.064776259303e+01-j3.182292777661e+03
3.332573259225e+01-j2.581479404140e+03
2.192735652680e+01-j2.094036889932e+03
1.442727745553e+01-j1.698601585061e+03
9.492419409177e+00-j1.377822113268e+03
6.245479508331e+00-j1.117612140079e+03
4.109152365820e+00-j9.065393472050e+02
2.703566867382e+00-j7.353271817379e+02
1.778774692192e+00-j5.964493058081e+02
1.170318529631e+00-j4.837998928078e+02
7.699929853221e-01-j3.924257944825e+02
5.066046349672e-01-j3.183090798975e+02
3.333123099132e-01-j2.581905321377e+02
2.192973678953e-01-j2.094264202237e+02
1.442830785348e-01-j1.698722899397e+02
9.492865454966e-02-j1.377886856693e+02
6.245672594071e-02-j1.117646692265e+02
4.109235948929e-02-j9.065577868661e+01
2.703603048771e-02-j7.353370225003e+01
1.778790354325e-02-j5.964545575515e+01
1.170325309416e-02-j4.838026955139e+01
7.699959201348e-03-j3.924272902055e+01
5.066059053792e-03-j3.183098781209e+01
3.333128598448e-03-j2.581909581259e+01
2.192976059477e-03-j2.094266475609e+01
1.442831815820e-03-j1.698724112628e+01
9.492869915635e-04-j1.377887504158e+01
6.245674524989e-04-j1.117647037797e+01
4.109236784777e-04-j9.065579712665e+00
2.703603410590e-04-j7.353371209092e+00
1.778790510947e-04-j5.964546100694e+00
1.170325377214e-04-j4.838027235411e+00
7.699959494830e-05-j3.924273051628e+00
5.066059180834e-05-j3.183098861032e+00
3.333128653441e-05-j2.581909623858e+00
2.192976083282e-05-j2.094266498343e+00
1.442831826125e-05-j1.698724124760e+00
9.492869960242e-06-j1.377887510633e+00
6.245674544298e-06-j1.117647041253e+00
4.109236793136e-06-j9.065579731105e-01
2.703603414208e-06-j7.353371218933e-01
1.778790512514e-06-j5.964546105946e-01
1.170325377892e-06-j4.838027238214e-01
7.699959497765e-07-j3.924273053124e-01
5.066059182104e-07-j3.183098861830e-01
3.333128653991e-07-j2.581909624284e-01
2.192976083520e-07-j2.094266498571e-01
1.442831826228e-07-j1.698724124881e-01
9.492869960688e-08-j1.377887510698e-01
6.245674544491e-08-j1.117647041287e-01
4.109236793219e-08-j9.065579731290e-02
2.703603414245e-08-j7.353371219032e-02
1.778790512529e-08-j5.964546105998e-02
1.170325377899e-08-j4.838027238242e-02
7.699959497795e-09-j3.924273053138e-02
5.066059182117e-09-j3.183098861838e-02
</dep>
<dep ac.v(bav0) frequency>
1.999921046282e+04-j1.256587453352e+02
1.999879999832e+04-j1.549147949269e+02
1.999817616103e+04-j1.909802422439e+02
1.999722805836e+04-j2.354382064215e+02
1.999578719875e+04-j2.902383110885e+02
1.999359761785e+04-j3.577801735119e+02
1.999027056771e+04-j4.410147207401e+02
1.998521586727e+04-j5.435660806989e+02
1.997753806542e+04-j6.698762222769e+02
1.996587977983e+04-j8.253727726877e+02
1.994818625666e+04-j1.016656383822e+03
1.992135364814e+04-j1.251695565411e+03
1.988070842450e+04-j1.540000334441e+03
1.981924793360e+04-j1.892714986092e+03
1.972655776773e+04-j2.322514583596e+03
1.958732552730e+04-j2.843095009602e+03
1.937942879797e+04-j3.467897839311e+03
1.907176138329e+04-j4.207510594709e+03
1.862240139946e+04-j5.064996950312e+03
1.797856318055e+04-j6.028476554979e+03
1.708098524298e+04-j7.061136451638e+03
1.587627144123e+04-j8.091318430826e+03
1.433913600650e+04-j9.009544867368e+03
1.249971215864e+04-j9.682532681276e+03
1.046023654721e+04-j9.989403501742e+03
8.381657304529e+03-j9.868179513974e+03
6.437399936557e+03-j9.343868620007e+03
4.759393426071e+03-j8.516809422389e+03
3.408848507702e+03-j7.520420334368e+03
2.381651374820e+03-j6.477712885364e+03
1.633507160562e+03-j5.477389667316e+03
1.105628144120e+03-j4.570574284411e+03
7.414502647389e+02-j3.778790388431e+03
4.940904606372e+02-j3.104461922693e+03
3.278490500845e+02-j2.539585793402e+03
2.169191161830e+02-j2.071552176677e+03
1.432497560870e+02-j1.686557034055e+03
9.448025521860e+01-j1.371378352515e+03
6.226231038142e+01-j1.114167676938e+03
4.100811191106e+01-j9.046991615884e+02
2.699953612343e+01-j7.343444338440e+02
1.777209870501e+01-j5.959245980893e+02
1.169640947657e+01-j4.835197860860e+02
7.696996169857e+00-j3.922762797406e+02
5.064776259303e+00-j3.182292777661e+02
3.332573259225e+00-j2.581479404140e+02
2.192735652680e+00-j2.094036889932e+02
1.442727745553e+00-j1.698601585061e+02
9.492419409177e-01-j1.377822113268e+02
6.245479508331e-01-j1.117612140079e+02
4.109152365820e-01-j9.065393472050e+01
2.703566867382e-01-j7.353271817379e+01
1.778774692192e-01-j5.964493058081e+01
1.170318529631e-01-j4.837998928078e+01
7.699929853221e-02-j3.924257944825e+01
5.066046349672e-02-j3.183090798975e+01
3.333123099132e-02-j2.581905321377e+01
2.192973678953e-02-j2.094264202237e+01
1.442830785348e-02-j1.698722899397e+01
9.492865454966e-03-j1.377886856693e+01
6.245672594071e-03-j1.117646692265e+01
4.109235948929e-03-j9.065577868661e+00
2.703603048771e-03-j7.353370225003e+00
1.778790354325e-03-j5.964545575515e+00
1.170325309416e-03-j4.838026955139e+00
7.699959201348e-04-j3.924272902055e+00
5.066059053792e-04-j3.183098781209e+00
3.333128598448e-04-j2.581909581259e+00
2.192976059477e-04-j2.094266475609e+00
1.442831815820e-04-j1.698724112628e+00
9.492869915635e-05-j1.377887504158e+00
6.245674524989e-05-j1.117647037797e+00
4.109236784777e-05-j9.065579712665e-01
2.703603410590e-05-j7.353371209092e-01
1.778790510947e-05-j5.964546100694e-01
1.170325377214e-05-j4.838027235411e-01
7.699959494830e-06-j3.924273051628e-01
5.066059180834e-06-j3.183098861032e-01
3.333128653441e-06-j2.581909623858e-01
2.192976083282e-06-j2.094266498343e-01
1.442831826125e-06-j1.698724124760e-01
9.492869960242e-07-j1.377887510633e-01
6.245674544298e-07-j1.117647041253e-01
4.109236793136e-07-j9.065579731105e-02
2.703603414208e-07-j7.353371218933e-02
1.778790512514e-07-j5.964546105946e-02
1.170325377892e-07-j4.838027238214e-02
7.699959497765e-08-j3.924273053124e-02
5.066059182104e-08-j3.183098861830e-02
3.333128653991e-08-j2.581909624284e-02
2.192976083520e-08-j2.094266498571e-02
1.442831826228e-08-j1.698724124881e-02
9.492869960688e-09-j1.377887510698e-02
6.245674544491e-09-j1.117647041287e-02
4.109236793219e-09-j9.065579731290e-03
2.703603414245e-09-j7.353371219032e-03
1.778790512529e-09-j5.964546105998e-03
1.170325377899e-09-j4.838027238242e-03
7.699959497795e-10-j3.924273053138e-03
5.066059182117e-10-j3.183098861838e-03
</dep>
<dep ac.av_db frequency>
1.917171193425e+01+j0.000000000000e+00
1.917171193424e+01+j0.000000000000e+00
1.917171193426e+01+j0.000000000000e+00
1.917171193428e+01+j0.000000000000e+00
1.917171193424e+01+j0.000000000000e+00
1.917171193428e+01+j0.000000000000e+00
1.917171193422e+01+j0.000000000000e+00
1.917171193424e+01+j0.000000000000e+00
1.917171193423e+01+j0.000000000000e+00
1.917171193424e+01+j0.000000000000e+00
1.917171193425e+01+j0.000000000000e+00
1.917171193421e+01+j0.000000000000e+00
1.917171193420e+01+j0.000000000000e+00
1.917171193414e+01+j0.000000000000e+00
1.917171193411e+01+j0.000000000000e+00
1.917171193404e+01+j0.000000000000e+00
1.917171193391e+01+j0.000000000000e+00
1.917171193376e+01+j0.000000000000e+00
1.917171193345e+01+j0.000000000000e+00
1.917171193301e+01+j0.000000000000e+00
1.917171193239e+01+j0.000000000000e+00
1.917171193145e+01+j0.000000000000e+00
1.917171192995e+01+j0.000000000000e+00
1.917171192776e+01+j0.000000000000e+00
1.917171192435e+01+j0.000000000000e+00
1.917171191921e+01+j0.000000000000e+00
1.917171191138e+01+j0.000000000000e+00
1.917171189949e+01+j0.000000000000e+00
1.917171188141e+01+j0.000000000000e+00
1.917171185394e+01+j0.000000000000e+00
1.917171181218e+01+j0.000000000000e+00
1.917171174872e+01+j0.000000000000e+00
1.917171165226e+01+j0.000000000000e+00
1.917171150566e+01+j0.000000000000e+00
1.917171128283e+01+j0.000000000000e+00
1.917171094415e+01+j0.000000000000e+00
1.917171042939e+01+j0.000000000000e+00
1.917170964700e+01+j0.000000000000e+00
1.917170845783e+01+j0.000000000000e+00
1.917170665041e+01+j0.000000000000e+00
1.917170390329e+01+j0.000000000000e+00
1.917169972791e+01+j0.000000000000e+00
1.917169338171e+01+j0.000000000000e+00
1.917168373607e+01+j0.000000000000e+00
1.917166907560e+01+j0.000000000000e+00
1.917164679308e+01+j0.000000000000e+00
1.917161292585e+01+j0.000000000000e+00
1.917156145118e+01+j0.000000000000e+00
1.917148321542e+01+j0.000000000000e+00
1.917136430672e+01+j0.000000000000e+00
1.917118358231e+01+j0.000000000000e+00
1.917090891168e+01+j0.000000000000e+00
1.917049147001e+01+j0.000000000000e+00
1.916985707261e+01+j0.000000000000e+00
1.916889302241e+01+j0.000000000000e+00
1.916742816152e+01+j0.000000000000e+00
1.916520264897e+01+j0.000000000000e+00
1.916182225027e+01+j0.000000000000e+00
1.915668937832e+01+j0.000000000000e+00
1.914889946833e+01+j0.000000000000e+00
1.913708619135e+01+j0.000000000000e+00
1.911919237234e+01+j0.000000000000e+00
1.909213576706e+01+j0.000000000000e+00
1.905133225114e+01+j0.000000000000e+00
1.899003952342e+01+j0.000000000000e+00
1.889850574880e+01+j0.000000000000e+00
1.876297533636e+01+j0.000000000000e+00
1.856475539149e+01+j0.000000000000e+00
1.827980655239e+01+j0.000000000000e+00
1.787962873872e+01+j0.000000000000e+00
1.733429311818e+01+j0.000000000000e+00
1.661784341011e+01+j0.000000000000e+00
1.571474206827e+01+j0.000000000000e+00
1.462448449223e+01+j0.000000000000e+00
1.336175816983e+01+j0.000000000000e+00
1.195204940825e+01+j0.000000000000e+00
1.042521758558e+01+j0.000000000000e+00
8.809968879711e+00+j0.000000000000e+00
7.130669234484e+00+j0.000000000000e+00
5.406346309293e+00+j0.000000000000e+00
3.651042495464e+00+j0.000000000000e+00
1.874732335646e+00+j0.000000000000e+00
8.432110284324e-02+j0.000000000000e+00
-1.715492192856e+00+j0.000000000000e+00
-3.521546238592e+00+j0.000000000000e+00
-5.331730281167e+00+j0.000000000000e+00
-7.144642052705e+00+j0.000000000000e+00
-8.959353040939e+00+j0.000000000000e+00
-1.077524977098e+01+j0.000000000000e+00
-1.259192749773e+01+j0.000000000000e+00
-1.440911944000e+01+j0.000000000000e+00
-1.622664986286e+01+j0.000000000000e+00
-1.804440305312e+01+j0.000000000000e+00
-1.986230283968e+01+j0.000000000000e+00
-2.168029908990e+01+j0.000000000000e+00
-2.349835881243e+01+j0.000000000000e+00
-2.531646029795e+01+j0.000000000000e+00
-2.713458926179e+01+j0.000000000000e+00
-2.895273630500e+01+j0.000000000000e+00
-3.077089524342e+01+j0.000000000000e+00
</dep>
<dep ac.av0_db frequency>
1.060204284641e+02+j0.000000000000e+00
1.060203393284e+02+j0.000000000000e+00
1.060202038536e+02+j0.000000000000e+00
1.060199979521e+02+j0.000000000000e+00
1.060196850188e+02+j0.000000000000e+00
1.060192094311e+02+j0.000000000000e+00
1.060184866798e+02+j0.000000000000e+00
1.060173883925e+02+j0.000000000000e+00
1.060157196251e+02+j0.000000000000e+00
1.060131844744e+02+j0.000000000000e+00
1.060093341025e+02+j0.000000000000e+00
1.060034884089e+02+j0.000000000000e+00
1.059946185155e+02+j0.000000000000e+00
1.059811716627e+02+j0.000000000000e+00
1.059608130429e+02+j0.000000000000e+00
1.059300513671e+02+j0.000000000000e+00
1.058837096789e+02+j0.000000000000e+00
1.058142080007e+02+j0.000000000000e+00
1.057106567915e+02+j0.000000000000e+00
1.055578497629e+02+j0.000000000000e+00
1.053354291314e+02+j0.000000000000e+00
1.050177851122e+02+j0.000000000000e+00
1.045755297971e+02+j0.000000000000e+00
1.039793000792e+02+j0.000000000000e+00
1.032057150142e+02+j0.000000000000e+00
1.022435989580e+02+j0.000000000000e+00
1.010974048706e+02+j0.000000000000e+00
9.978581602062e+01+j0.000000000000e+00
9.833637696884e+01+j0.000000000000e+00
9.677908185610e+01+j0.000000000000e+00
9.514151038232e+01+j0.000000000000e+00
9.344639080940e+01+j0.000000000000e+00
9.171112020248e+01+j0.000000000000e+00
8.994836464747e+01+j0.000000000000e+00
8.816703925336e+01+j0.000000000000e+00
8.637327821938e+01+j0.000000000000e+00
8.457123886826e+01+j0.000000000000e+00
8.276371053427e+01+j0.000000000000e+00
8.095255227772e+01+j0.000000000000e+00
7.913899769695e+01+j0.000000000000e+00
7.732386298313e+01+j0.000000000000e+00
7.550768712281e+01+j0.000000000000e+00
7.369082559647e+01+j0.000000000000e+00
7.187351266112e+01+j0.000000000000e+00
7.005590260465e+01+j0.000000000000e+00
6.823809700855e+01+j0.000000000000e+00
6.642016273715e+01+j0.000000000000e+00
6.460214379592e+01+j0.000000000000e+00
6.278406914323e+01+j0.000000000000e+00
6.096595783423e+01+j0.000000000000e+00
5.914782240700e+01+j0.000000000000e+00
5.732967111124e+01+j0.000000000000e+00
5.551150937489e+01+j0.000000000000e+00
5.369334076926e+01+j0.000000000000e+00
5.187516764408e+01+j0.000000000000e+00
5.005699154532e+01+j0.000000000000e+00
4.823881349014e+01+j0.000000000000e+00
4.642063414777e+01+j0.000000000000e+00
