<Qucs Dataset 0.0.21>
<indep frequency 190>
1.000000000000e-01
1.115883992508e-01
1.245197084735e-01
1.389495494373e-01
1.550515779833e-01
1.730195738846e-01
1.930697728883e-01
2.154434690032e-01
2.404099183510e-01
2.682695795280e-01
2.993577294720e-01
3.340484983513e-01
3.727593720315e-01
4.159562163072e-01
4.641588833613e-01
5.179474679231e-01
5.779692884153e-01
6.449466771038e-01
7.196856730012e-01
8.030857221392e-01
8.961505019466e-01
1.000000000000e+00
1.115883992508e+00
1.245197084735e+00
1.389495494373e+00
1.550515779833e+00
1.730195738846e+00
1.930697728883e+00
2.154434690032e+00
2.404099183510e+00
2.682695795280e+00
2.993577294720e+00
3.340484983513e+00
3.727593720315e+00
4.159562163072e+00
4.641588833613e+00
5.179474679231e+00
5.779692884153e+00
6.449466771038e+00
7.196856730011e+00
8.030857221391e+00
8.961505019466e+00
1.000000000000e+01
1.115883992508e+01
1.245197084735e+01
1.389495494373e+01
1.550515779833e+01
1.730195738846e+01
1.930697728883e+01
2.154434690032e+01
2.404099183510e+01
2.682695795280e+01
2.993577294720e+01
3.340484983513e+01
3.727593720315e+01
4.159562163072e+01
4.641588833613e+01
5.179474679231e+01
5.779692884153e+01
6.449466771038e+01
7.196856730011e+01
8.030857221391e+01
8.961505019466e+01
1.000000000000e+02
1.115883992508e+02
1.245197084735e+02
1.389495494373e+02
1.550515779833e+02
1.730195738846e+02
1.930697728883e+02
2.154434690032e+02
2.404099183510e+02
2.682695795280e+02
2.993577294720e+02
3.340484983513e+02
3.727593720315e+02
4.159562163072e+02
4.641588833613e+02
5.179474679231e+02
5.779692884153e+02
6.449466771038e+02
7.196856730011e+02
8.030857221391e+02
8.961505019466e+02
1.000000000000e+03
1.115883992508e+03
1.245197084735e+03
1.389495494373e+03
1.550515779833e+03
1.730195738846e+03
1.930697728883e+03
2.154434690032e+03
2.404099183510e+03
2.682695795280e+03
2.993577294720e+03
3.340484983513e+03
3.727593720315e+03
4.159562163072e+03
4.641588833613e+03
5.179474679231e+03
5.779692884153e+03
6.449466771038e+03
7.196856730011e+03
8.030857221391e+03
8.961505019466e+03
1.000000000000e+04
1.115883992508e+04
1.245197084735e+04
1.389495494373e+04
1.550515779833e+04
1.730195738846e+04
1.930697728883e+04
2.154434690032e+04
2.404099183510e+04
2.682695795280e+04
2.993577294720e+04
3.340484983513e+04
3.727593720315e+04
4.159562163072e+04
4.641588833613e+04
5.179474679231e+04
5.779692884153e+04
6.449466771038e+04
7.196856730011e+04
8.030857221391e+04
8.961505019466e+04
1.000000000000e+05
1.115883992508e+05
1.245197084735e+05
1.389495494373e+05
1.550515779833e+05
1.730195738846e+05
1.930697728883e+05
2.154434690032e+05
2.404099183510e+05
2.682695795280e+05
2.993577294720e+05
3.340484983513e+05
3.727593720315e+05
4.159562163072e+05
4.641588833613e+05
5.179474679231e+05
5.779692884153e+05
6.449466771038e+05
7.196856730011e+05
8.030857221391e+05
8.961505019466e+05
1.000000000000e+06
1.115883992508e+06
1.245197084735e+06
1.389495494373e+06
1.550515779833e+06
1.730195738846e+06
1.930697728883e+06
2.154434690032e+06
2.404099183510e+06
2.682695795280e+06
2.993577294720e+06
3.340484983513e+06
3.727593720315e+06
4.159562163072e+06
4.641588833613e+06
5.179474679231e+06
5.779692884153e+06
6.449466771038e+06
7.196856730011e+06
8.030857221391e+06
8.961505019466e+06
1.000000000000e+07
1.115883992508e+07
1.245197084735e+07
1.389495494373e+07
1.550515779833e+07
1.730195738846e+07
1.930697728883e+07
2.154434690032e+07
2.404099183510e+07
2.682695795280e+07
2.993577294720e+07
3.340484983513e+07
3.727593720315e+07
4.159562163072e+07
4.641588833613e+07
5.179474679231e+07
5.779692884153e+07
6.449466771038e+07
7.196856730011e+07
8.030857221391e+07
8.961505019466e+07
1.000000000000e+08
</indep>
<dep ac.v(out) frequency>
1.991542036619e+05-j3.975397618755e+03
1.991347558703e+05-j4.435649375870e+03
1.991105448458e+05-j4.949068350264e+03
1.990804055767e+05-j5.521750201051e+03
1.990428889989e+05-j6.160471507521e+03
1.989961932264e+05-j6.872758807918e+03
1.989380784044e+05-j7.666961832003e+03
1.988657614284e+05-j8.552329957730e+03
1.987757860019e+05-j9.539090262566e+03
1.986638626087e+05-j1.063852460464e+04
1.985246719875e+05-j1.186304185851e+04
1.983516246360e+05-j1.322623961476e+04
1.981365678241e+05-j1.474294716492e+04
1.978694307014e+05-j1.642923822484e+04
1.975377975679e+05-j1.830239735034e+04
1.971263996398e+05-j2.038081808805e+04
1.966165172730e+05-j2.268380329865e+04
1.959852885124e+05-j2.523122857266e+04
1.952049273272e+05-j2.804301820498e+04
1.942418677838e+05-j3.113837019452e+04
1.930558710679e+05-j3.453465336137e+04
1.915991635460e+05-j3.824588843325e+04
1.898157188746e+05-j4.228072045495e+04
1.876408575828e+05-j4.663979974007e+04
1.850014129003e+05-j5.131252425166e+04
1.818167952931e+05-j5.627317307740e+04
1.780013632428e+05-j6.147659586266e+04
1.734685417742e+05-j6.685383035674e+04
1.681370720926e+05-j7.230829831675e+04
1.619395601896e+05-j7.771354507182e+04
1.548330594174e+05-j8.291375407900e+04
1.468107577871e+05-j8.772833765905e+04
1.379130344188e+05-j9.196159421840e+04
1.282354397872e+05-j9.541758654792e+04
1.179309103031e+05-j9.791905892832e+04
1.072041140668e+05-j9.932768010813e+04
9.629736422504e+04-j9.956175701859e+04
8.546970024144e+04-j9.860744585525e+04
7.497276045923e+04-j9.652070563080e+04
6.502808716849e+04-j9.341949686337e+04
5.581004605735e+04-j8.946818126261e+04
4.743682105844e+04-j8.485777586404e+04
3.996972970900e+04-j7.978611376572e+04
3.341925266547e+04-j7.444115609964e+04
2.775520382632e+04-j6.898924185871e+04
2.291842203584e+04-j6.356859527559e+04
1.883194070022e+04-j5.828736160091e+04
1.541039726679e+04-j5.322493653252e+04
1.256718273770e+04-j4.843529728122e+04
1.021935765241e+04-j4.395125301622e+04
8.290655931751e+03-j3.978884193095e+04
6.713009682292e+03-j3.595140126207e+04
5.427023115905e+03-j3.243307314771e+04
4.381759906601e+03-j2.922167154728e+04
3.534125221934e+03-j2.630093308663e+04
2.848043804537e+03-j2.365222446938e+04
2.293568888259e+03-j2.125579748661e+04
1.846005946551e+03-j1.909168268449e+04
1.485099015402e+03-j1.714030345705e+04
1.194302866617e+03-j1.538287939790e+04
9.601486829040e+02-j1.380167439933e+04
7.717015249745e+02-j1.238013284723e+04
6.201027509283e+02-j1.110293697036e+04
4.981881526892e+02-j9.956010066234e+03
4.001718630745e+02-j8.926483782721e+03
3.213863523552e+02-j8.002642616248e+03
2.580696146950e+02-j7.173855007714e+03
2.071916546298e+02-j6.430497611478e+03
1.663134493184e+02-j5.763877255827e+03
1.334725865842e+02-j5.166153622300e+03
1.070907123162e+02-j4.630264602307e+03
8.589874327724e+01-j4.149855531778e+03
6.887650942232e+01-j3.719212974435e+03
5.520408944866e+01-j3.333203359042e+03
4.422260499064e+01-j2.987216529307e+03
3.540265486295e+01-j2.677114103042e+03
2.831891331220e+01-j2.399182434927e+03
2.262969683657e+01-j2.150089916809e+03
1.806053303442e+01-j1.926848318024e+03
1.439095107105e+01-j1.726777856450e+03
1.144386431545e+01-j1.547475692315e+03
9.077037896729e+00-j1.386787546578e+03
7.176232684557e+00-j1.242782160641e+03
5.649696907707e+00-j1.113728332029e+03
4.423740896963e+00-j9.980742799078e+02
3.439182221531e+00-j8.944291139112e+02
2.648490182033e+00-j8.015461989154e+02
2.013492176424e+00-j7.183082268690e+02
1.503531446151e+00-j6.437138241407e+02
1.093987414884e+00-j5.768655390597e+02
7.650872818056e-01-j5.169590692962e+02
5.009515570411e-01-j4.632736024657e+02
2.888274983329e-01-j4.151631558942e+02
1.184734650925e-01-j3.720488128907e+02
-1.833551726366e-02-j3.334117632243e+02
-1.282048438034e-01-j2.987870648654e+02
-2.164392323476e-01-j2.677580525005e+02
-2.872988341757e-01-j2.399513259519e+02
-3.442049157944e-01-j2.150322584929e+02
-3.899050406483e-01-j1.927009712230e+02
-4.266057249145e-01-j1.726887252110e+02
-4.560789715355e-01-j1.547546881030e+02
-4.797478257152e-01-j1.386830363628e+02
-4.987550823876e-01-j1.242803583304e+02
-5.140184628254e-01-j1.113733268884e+02
-5.262749243237e-01-j9.980661375778e+01
-5.361162422625e-01-j8.944102034422e+01
-5.440175824915e-01-j8.015180265765e+01
-5.503604435525e-01-j7.182717015607e+01
-5.554510764330e-01-j6.436694045722e+01
-5.595352711948e-01-j5.768133373369e+01
-5.628102244112e-01-j5.168989228706e+01
-5.654340604075e-01-j4.632051230191e+01
-5.675334660238e-01-j4.150857612954e+01
-5.692098075428e-01-j3.719617466093e+01
-5.705440251507e-01-j3.333141043186e+01
-5.716005412908e-01-j2.986777307491e+01
-5.724303716814e-01-j2.676357960334e+01
-5.730735893087e-01-j2.398147279247e+01
-5.735612605194e-01-j2.148797162329e+01
-5.739169469399e-01-j1.925306838038e+01
-5.741578461153e-01-j1.724986755786e+01
-5.742956265269e-01-j1.545426223171e+01
-5.743369982113e-01-j1.384464400834e+01
-5.742840479253e-01-j1.240164306582e+01
-5.741343571959e-01-j1.110789516835e+01
-5.738809122690e-01-j9.947832862791e+00
-5.735118067110e-01-j8.907498361595e+00
-5.730097301290e-01-j7.974375883809e+00
-5.723512303023e-01-j7.137241468202e+00
-5.715057313753e-01-j6.386028493863e+00
-5.704342884781e-01-j5.711707346972e+00
-5.690880606292e-01-j5.106177860932e+00
-5.674064912620e-01-j4.562173333483e+00
-5.653152025139e-01-j4.073175090879e+00
-5.627236402436e-01-j3.633336726613e+00
-5.595225579046e-01-j3.237417289545e+00
-5.555815067343e-01-j2.880722828988e+00
-5.507466157769e-01-j2.559055812435e+00
-5.448391052117e-01-j2.268671997103e+00
-5.376551815756e-01-j2.006244330935e+00
-5.289682013226e-01-j1.768833341793e+00
-5.185342216396e-01-j1.553863196882e+00
-5.061022061075e-01-j1.359102132971e+00
-4.914300869225e-01-j1.182645257905e+00
-4.743074256464e-01-j1.022896867879e+00
-4.545843729066e-01-j8.785486096010e-01
-4.322049054419e-01-j7.485494138929e-01
-4.072400627212e-01-j6.320636539849e-01
-3.799146634106e-01-j5.284159259788e-01
-3.506197280597e-01-j4.370243378827e-01
-3.199036915371e-01-j3.573286168186e-01
-2.884391117482e-01-j2.887232286158e-01
-2.569674643783e-01-j2.305071545036e-01
-2.262308761291e-01-j1.818596697988e-01
-1.969037307419e-01-j1.418456890681e-01
-1.695371229274e-01-j1.094470218234e-01
-1.445251159160e-01-j8.361004989383e-02
-1.220955125956e-01-j6.329795957411e-02
-1.023219390481e-01-j4.753704289330e-02
-8.515036535641e-02-j3.545042814267e-02
-7.043228340682e-02-j2.627701492823e-02
-5.795798603336e-02-j1.937688647545e-02
-4.748562540968e-02-j1.422642502095e-02
-3.876399085329e-02-j1.040688113851e-02
-3.154868043057e-02-j7.589729667785e-03
-2.561239442803e-02-j5.521301166597e-03
-2.075054756407e-02-j4.008283514447e-03
-1.678346811408e-02-j2.904942680983e-03
-1.355630591585e-02-j2.102378815846e-03
-1.093753923919e-02-j1.519800202105e-03
-8.816732063411e-03-j1.097618047148e-03
-7.101987102378e-03-j7.920901414495e-04
-5.717378738436e-03-j5.712299103358e-04
-4.600532738137e-03-j4.117196730910e-04
-3.700439105914e-03-j2.966038274317e-04
-2.975532095756e-03-j2.135779372072e-04
-2.392039357163e-03-j1.537274216861e-04
-1.922584053479e-03-j1.106021565667e-04
-1.545014765315e-03-j7.954012600727e-05
-1.241434669446e-03-j5.717461187346e-05
-9.974015380651e-04-j4.107599407913e-05
-8.012720054393e-04-j2.949190379622e-05
-6.436663296671e-04-j2.115902063431e-05
-5.170329474975e-04-j1.516693229747e-05
-4.152951409457e-04-j1.085975437562e-05
-3.335649264627e-04-j7.765094848945e-06
-2.679117599250e-04-j5.542796385369e-06
-2.151758015449e-04-j3.947969333194e-06
-1.728173146239e-04-j2.804342462380e-06
</dep>
<dep ac.out_db frequency>
1.059855196899e+02+j0.000000000000e+00
1.059850955735e+02+j0.000000000000e+00
1.059845675229e+02+j0.000000000000e+00
1.059839100855e+02+j0.000000000000e+00
1.059830915855e+02+j0.000000000000e+00
1.059820726073e+02+j0.000000000000e+00
1.059808041127e+02+j0.000000000000e+00
1.059792251047e+02+j0.000000000000e+00
1.059772597306e+02+j0.000000000000e+00
1.059748136952e+02+j0.000000000000e+00
1.059717698236e+02+j0.000000000000e+00
1.059679825832e+02+j0.000000000000e+00
1.059632713345e+02+j0.000000000000e+00
1.059574120365e+02+j0.000000000000e+00
1.059501270886e+02+j0.000000000000e+00
1.059410729410e+02+j0.000000000000e+00
1.059298250651e+02+j0.000000000000e+00
1.059158598416e+02+j0.000000000000e+00
1.058985329252e+02+j0.000000000000e+00
1.058770536852e+02+j0.000000000000e+00
1.058504554454e+02+j0.000000000000e+00
1.058175614957e+02+j0.000000000000e+00
1.057769472712e+02+j0.000000000000e+00
1.057268997751e+02+j0.000000000000e+00
1.056653763261e+02+j0.000000000000e+00
1.055899660969e+02+j0.000000000000e+00
1.054978596900e+02+j0.000000000000e+00
1.053858340503e+02+j0.000000000000e+00
1.052502620350e+02+j0.000000000000e+00
1.050871573549e+02+j0.000000000000e+00
1.048922654628e+02+j0.000000000000e+00
1.046612081966e+02+j0.000000000000e+00
1.043896836340e+02+j0.000000000000e+00
1.040737125182e+02+j0.000000000000e+00
1.037099100764e+02+j0.000000000000e+00
1.032957502131e+02+j0.000000000000e+00
1.028297823369e+02+j0.000000000000e+00
1.023117634363e+02+j0.000000000000e+00
1.017426807445e+02+j0.000000000000e+00
1.011246606255e+02+j0.000000000000e+00
1.004607809994e+02+j0.000000000000e+00
9.975482088017e+01+j0.000000000000e+00
9.901098707653e+01+j0.000000000000e+00
9.823365457398e+01+j0.000000000000e+00
9.742714672903e+01+j0.000000000000e+00
9.659556867485e+01+j0.000000000000e+00
9.574269602534e+01+j0.000000000000e+00
9.487191309892e+01+j0.000000000000e+00
9.398619079682e+01+j0.000000000000e+00
9.308809323399e+01+j0.000000000000e+00
9.217980313822e+01+j0.000000000000e+00
9.126315789530e+01+j0.000000000000e+00
9.033969021108e+01+j0.000000000000e+00
8.941066926896e+01+j0.000000000000e+00
8.847713980686e+01+j0.000000000000e+00
8.753995768680e+01+j0.000000000000e+00
8.659982132786e+01+j0.000000000000e+00
8.565729888974e+01+j0.000000000000e+00
8.471285140376e+01+j0.000000000000e+00
8.376685221401e+01+j0.000000000000e+00
8.281960316185e+01+j0.000000000000e+00
8.187134795969e+01+j0.000000000000e+00
8.092228317766e+01+j0.000000000000e+00
7.997256722786e+01+j0.000000000000e+00
7.902232768440e+01+j0.000000000000e+00
7.807166723018e+01+j0.000000000000e+00
7.712066847701e+01+j0.000000000000e+00
7.616939786524e+01+j0.000000000000e+00
7.521790881410e+01+j0.000000000000e+00
7.426624426373e+01+j0.000000000000e+00
7.331443872446e+01+j0.000000000000e+00
7.236251992749e+01+j0.000000000000e+00
7.141051015385e+01+j0.000000000000e+00
7.045842730371e+01+j0.000000000000e+00
6.950628575651e+01+j0.000000000000e+00
6.855409706251e+01+j0.000000000000e+00
6.760187049874e+01+j0.000000000000e+00
6.664961351581e+01+j0.000000000000e+00
6.569733209694e+01+j0.000000000000e+00
6.474503104634e+01+j0.000000000000e+00
6.379271422090e+01+j0.000000000000e+00
6.284038471621e+01+j0.000000000000e+00
6.188804501589e+01+j0.000000000000e+00
6.093569711145e+01+j0.000000000000e+00
5.998334259836e+01+j0.000000000000e+00
5.903098275307e+01+j0.000000000000e+00
5.807861859462e+01+j0.000000000000e+00
5.712625093383e+01+j0.000000000000e+00
5.617388041241e+01+j0.000000000000e+00
5.522150753398e+01+j0.000000000000e+00
5.426913268838e+01+j0.000000000000e+00
5.331675617043e+01+j0.000000000000e+00
5.236437819425e+01+j0.000000000000e+00
5.141199890352e+01+j0.000000000000e+00
5.045961837848e+01+j0.000000000000e+00
4.950723663976e+01+j0.000000000000e+00
4.855485364939e+01+j0.000000000000e+00
4.760246930898e+01+j0.000000000000e+00
4.665008345494e+01+j0.000000000000e+00
4.569769585062e+01+j0.000000000000e+00
4.474530617485e+01+j0.000000000000e+00
4.379291400646e+01+j0.000000000000e+00
4.284051880391e+01+j0.000000000000e+00
4.188811987922e+01+j0.000000000000e+00
4.093571636468e+01+j0.000000000000e+00
3.998330717101e+01+j0.000000000000e+00
3.903089093476e+01+j0.000000000000e+00
3.807846595252e+01+j0.000000000000e+00
3.712603009872e+01+j0.000000000000e+00
3.617358072303e+01+j0.000000000000e+00
3.522111452251e+01+j0.000000000000e+00
3.426862738226e+01+j0.000000000000e+00
3.331611417700e+01+j0.000000000000e+00
3.236356852389e+01+j0.000000000000e+00
3.141098247494e+01+j0.000000000000e+00
3.045834613403e+01+j0.000000000000e+00
2.950564718041e+01+j0.000000000000e+00
2.855287027578e+01+j0.000000000000e+00
2.759999632677e+01+j0.000000000000e+00
2.664700156782e+01+j0.000000000000e+00
2.569385642105e+01+j0.000000000000e+00
2.474052407958e+01+j0.000000000000e+00
2.378695874801e+01+j0.000000000000e+00
2.283310345863e+01+j0.000000000000e+00
2.187888736320e+01+j0.000000000000e+00
2.092422237767e+01+j0.000000000000e+00
1.996899903049e+01+j0.000000000000e+00
1.901308133368e+01+j0.000000000000e+00
1.805630045880e+01+j0.000000000000e+00
1.709844695882e+01+j0.000000000000e+00
1.613926123096e+01+j0.000000000000e+00
1.517842186849e+01+j0.000000000000e+00
1.421553150406e+01+j0.000000000000e+00
1.325009971197e+01+j0.000000000000e+00
1.228152252287e+01+j0.000000000000e+00
1.130905813082e+01+j0.000000000000e+00
1.033179846719e+01+j0.000000000000e+00
9.348636518268e+00+j0.000000000000e+00
8.358229626866e+00+j0.000000000000e+00
7.358959609651e+00+j0.000000000000e+00
6.348891416313e+00+j0.000000000000e+00
5.325733320391e+00+j0.000000000000e+00
4.286803292141e+00+j0.000000000000e+00
3.229008193711e+00+j0.000000000000e+00
2.148844517243e+00+j0.000000000000e+00
1.042431059670e+00+j0.000000000000e+00
-9.441561618013e-02+j0.000000000000e+00
-1.266053911021e+00+j0.000000000000e+00
-2.476834244001e+00+j0.000000000000e+00
-3.730865550103e+00+j0.000000000000e+00
-5.031748363744e+00+j0.000000000000e+00
-6.382304128111e+00+j0.000000000000e+00
-7.784339188506e+00+j0.000000000000e+00
-9.238482722475e+00+j0.000000000000e+00
-1.074412828234e+01+j0.000000000000e+00
-1.229949015882e+01+j0.000000000000e+00
-1.390176375410e+01+j0.000000000000e+00
-1.554736056132e+01+j0.000000000000e+00
-1.723217857929e+01+j0.000000000000e+00
-1.895186960422e+01+j0.000000000000e+00
-2.070207354799e+01+j0.000000000000e+00
-2.247860240071e+01+j0.000000000000e+00
-2.427756852035e+01+j0.000000000000e+00
-2.609546098260e+01+j0.000000000000e+00
-2.792917895176e+01+j0.000000000000e+00
-2.977603291257e+01+j0.000000000000e+00
-3.163372417924e+01+j0.000000000000e+00
-3.350031143917e+01+j0.000000000000e+00
-3.537417101032e+01+j0.000000000000e+00
-3.725395549706e+01+j0.000000000000e+00
-3.913855386143e+01+j0.000000000000e+00
-4.102705465585e+01+j0.000000000000e+00
-4.291871326262e+01+j0.000000000000e+00
-4.481292338914e+01+j0.000000000000e+00
-4.670919270085e+01+j0.000000000000e+00
-4.860712226889e+01+j0.000000000000e+00
-5.050638941358e+01+j0.000000000000e+00
-5.240673349716e+01+j0.000000000000e+00
-5.430794423268e+01+j0.000000000000e+00
-5.620985211095e+01+j0.000000000000e+00
-5.811232059254e+01+j0.000000000000e+00
-6.001523975912e+01+j0.000000000000e+00
-6.191852116417e+01+j0.000000000000e+00
-6.382209366462e+01+j0.000000000000e+00
-6.572590005193e+01+j0.000000000000e+00
-6.762989433252e+01+j0.000000000000e+00
-6.953403953462e+01+j0.000000000000e+00
-7.143830594102e+01+j0.000000000000e+00
-7.334266966567e+01+j0.000000000000e+00
-7.524711150784e+01+j0.000000000000e+00
</dep>
<dep ac.out_fas frequency>
-1.143549687742e+00+j0.000000000000e+00
-1.276027250741e+00+j0.000000000000e+00
-1.423840670435e+00+j0.000000000000e+00
-1.588760833657e+00+j0.000000000000e+00
-1.772761397442e+00+j0.000000000000e+00
-1.978041336608e+00+j0.000000000000e+00
-2.207049736266e+00+j0.000000000000e+00
-2.462512947666e+00+j0.000000000000e+00
-2.747464185396e+00+j0.000000000000e+00
-3.065275578669e+00+j0.000000000000e+00
-3.419692589072e+00+j0.000000000000e+00
-3.814870557808e+00+j0.000000000000e+00
-4.255412928858e+00+j0.000000000000e+00
-4.746410386110e+00+j0.000000000000e+00
-5.293479710782e+00+j0.000000000000e+00
-5.902800570429e+00+j0.000000000000e+00
-6.581147643304e+00+j0.000000000000e+00
-7.335914404860e+00+j0.000000000000e+00
-8.175123495110e+00+j0.000000000000e+00
-9.107416790242e+00+j0.000000000000e+00
-1.014201608611e+01+j0.000000000000e+00
-1.128864268852e+01+j0.000000000000e+00
-1.255738132883e+01+j0.000000000000e+00
-1.395847100657e+01+j0.000000000000e+00
-1.550200322695e+01+j0.000000000000e+00
-1.719750769507e+01+j0.000000000000e+00
-1.905340842044e+01+j0.000000000000e+00
-2.107634145353e+01+j0.000000000000e+00
-2.327034143305e+01+j0.000000000000e+00
-2.563592958006e+01+j0.000000000000e+00
-2.816917070145e+01+j0.000000000000e+00
-3.086080744563e+01+j0.000000000000e+00
