<Qucs Dataset 0.0.19>
<indep acfrequency 91>
  +1.00000000000000005551e-01
  +1.25892541179416728170e-01
  +1.58489319246111370898e-01
  +1.99526231496888001304e-01
  +2.51188643150958068606e-01
  +3.16227766016837996688e-01
  +3.98107170553497369259e-01
  +5.01187233627272465952e-01
  +6.30957344480193471625e-01
  +7.94328234724281823098e-01
  +1.00000000000000022204e+00
  +1.25892541179416816988e+00
  +1.58489319246111448614e+00
  +1.99526231496888062367e+00
  +2.51188643150958235140e+00
  +3.16227766016838174323e+00
  +3.98107170553497580201e+00
  +5.01187233627272643588e+00
  +6.30957344480193693670e+00
  +7.94328234724282022938e+00
  +1.00000000000000053291e+01
  +1.25892541179416888042e+01
  +1.58489319246111541872e+01
  +1.99526231496888186712e+01
  +2.51188643150958306194e+01
  +3.16227766016838245378e+01
  +3.98107170553497624610e+01
  +5.01187233627272732406e+01
  +6.30957344480194279868e+01
  +7.94328234724282822299e+01
  +1.00000000000000170530e+02
  +1.25892541179416923569e+02
  +1.58489319246111563189e+02
  +1.99526231496888243555e+02
  +2.51188643150958341721e+02
  +3.16227766016838586438e+02
  +3.98107170553497724086e+02
  +5.01187233627273258207e+02
  +6.30957344480193910385e+02
  +7.94328234724282992829e+02
  +1.00000000000000090949e+03
  +1.25892541179416934938e+03
  +1.58489319246111767825e+03
  +1.99526231496888294714e+03
  +2.51188643150958614569e+03
  +3.16227766016838404539e+03
  +3.98107170553498144727e+03
  +5.01187233627272962622e+03
  +6.30957344480194660719e+03
  +7.94328234724283902324e+03
  +1.00000000000000218279e+04
  +1.25892541179417094099e+04
  +1.58489319246111645043e+04
  +1.99526231496888503898e+04
  +2.51188643150958450860e+04
  +3.16227766016838722862e+04
  +3.98107170553498654044e+04
  +5.01187233627273526508e+04
  +6.30957344480195315555e+04
  +7.94328234724283393007e+04
  +1.00000000000000305590e+05
  +1.25892541179416992236e+05
  +1.58489319246111816028e+05
  +1.99526231496888358379e+05
  +2.51188643150958698243e+05
  +3.16227766016839072108e+05
  +3.98107170553498319350e+05
  +5.01187233627274108585e+05
  +6.30957344480194966309e+05
  +7.94328234724284149706e+05
  +1.00000000000000419095e+06
  +1.25892541179417143576e+06
  +1.58489319246111717075e+06
  +1.99526231496888934635e+06
  +2.51188643150958977640e+06
  +3.16227766016838885844e+06
  +3.98107170553498063236e+06
  +5.01187233627274539322e+06
  +6.30957344480195641518e+06
  +7.94328234724283684045e+06
  +1.00000000000000186265e+07
  +1.25892541179417278618e+07
  +1.58489319246111884713e+07
  +1.99526231496888436377e+07
  +2.51188643150959312916e+07
  +3.16227766016839221120e+07
  +3.98107170553498491645e+07
  +5.01187233627273440361e+07
  +6.30957344480196237564e+07
  +7.94328234724284559488e+07
  +1.00000000000000298023e+08
</indep>
<dep out_dB acfrequency>
  +1.06799118959653270622e+02
  +1.06798102908207553696e+02
  +1.06796493061952133985e+02
  +1.06793942849305864229e+02
  +1.06789904099617473321e+02
  +1.06783510796268416243e+02
  +1.06773397332707219221e+02
  +1.06757416659877719667e+02
  +1.06732208840917692783e+02
  +1.06692554451997693832e+02
  +1.06630438868388125684e+02
  +1.06533776724967992777e+02
  +1.06384852688658213538e+02
  +1.06158810884735558489e+02
  +1.05823043009960258587e+02
  +1.05338949331537094167e+02
  +1.04667598307416213288e+02
  +1.03779144784191274198e+02
  +1.02662440649655550828e+02
  +1.01329136430988029360e+02
  +9.98094013100160992735e+01
  +9.81422536947412140762e+01
  +9.63662031109971621845e+01
  +9.45136884739252707277e+01
  +9.26093903305943086934e+01
  +9.06708775673860287725e+01
  +8.87101261441426913734e+01
  +8.67350740795063614996e+01
  +8.47508892216081051174e+01
  +8.27608976148726469546e+01
  +8.07672243701136949312e+01
  +7.87712210270092043629e+01
  +7.67737446355194208536e+01
  +7.47753376713493480565e+01
  +7.27763430965189996869e+01
  +7.07769775757234640423e+01
  +6.87773779194888703614e+01
  +6.67776304856207332250e+01
  +6.47777897681119725348e+01
  +6.27778901391982628866e+01
  +6.07779532604590073674e+01
  +5.87779927552295049509e+01
  +5.67780171479108730637e+01
  +5.47780317034512691521e+01
  +5.27780395635828014633e+01
  +5.07780424248850579261e+01
  +4.87780409049617063033e+01
  +4.67780346757416154446e+01
  +4.47780223926690865710e+01
  +4.27780014045034207015e+01
  +4.07779671811083161970e+01
  +3.87779123357744879286e+01
  +3.67778250311850030130e+01
  +3.47776864253045872033e+01
  +3.27774666067794697710e+01
  +3.07771181447414257093e+01
  +2.87765658663634553704e+01
  +2.67756906697654173399e+01
  +2.47743039137012566187e+01
  +2.27721069448458202089e+01
  +2.07686272490730132745e+01
  +1.87631180011280633835e+01
  +1.67544007172829338970e+01
  +1.47406204907462434761e+01
  +1.27188694682105527534e+01
  +1.06846180078301209448e+01
  +8.63088040184491589457e+00
  +6.54705097582823380975e+00
  +4.41741820784765160113e+00
  +2.21957514492786378568e+00
  -7.66175959815962592803e-02
  -2.50822890111314400485e+00
  -5.11497305956192427345e+00
  -7.93080288594263294044e+00
  -1.09737633884916618854e+01
  -1.42395421532112003149e+01
  -1.77030872185805776553e+01
  -2.13271446965123416817e+01
  -2.50722844210934390219e+01
  -2.89038570007072159740e+01
  -3.27948248817520919829e+01
  -3.67257230024045284722e+01
  -4.06833560890887753203e+01
  -4.46592887616778639881e+01
  -4.86486088270725218763e+01
  -5.26491081001177718690e+01
  -5.66608902080530967282e+01
  -6.06863893344863569723e+01
  -6.47308009583503860540e+01
  -6.88029408730945277739e+01
  -7.29165164934776726113e+01
</dep>
<dep out_pha acfrequency>
  -1.14605490207569227223e+00
  -1.44268512009927873940e+00
  -1.81600853455737754061e+00
  -2.28577176403826198836e+00
  -2.87672403582105351560e+00
  -3.61980353511716934634e+00
  -4.55352424546789347204e+00
  -5.72551274658308528842e+00
  -7.19403724484586426513e+00
  -9.02915863837811372150e+00
  -1.13127429008094608776e+01
  -1.41359253155304145366e+01
  -1.75917146504586767719e+01
  -2.17596287109474282317e+01
  -2.66797878205853251643e+01
  -3.23181567177526574142e+01
  -3.85344659860792972950e+01
  -4.50753138541420454999e+01
  -5.16122691877890105161e+01
  -5.78178534200263101184e+01
  -6.34410062844491591250e+01
  -6.83441026883569264783e+01
  -7.24952040274419147181e+01
  -7.59356983855802099015e+01
  -7.87456628969030276721e+01
  -8.10182053424544790232e+01
  -8.28443172196104455907e+01
  -8.43056218840743269993e+01
  -8.54719194990332482575e+01
  -8.64012388348936894999e+01
  -8.71410044896031052986e+01
  -8.77295703815222367439e+01
  -8.81977558897799980286e+01
  -8.85702303877073120475e+01
  -8.88666973790488157192e+01
  -8.91028785302761292542e+01
  -8.92913181089363661158e+01
  -8.94420345438215917966e+01
  -8.95630456798558327591e+01
  -8.96607916132463174108e+01
  -8.97404755720137359276e+01
  -8.98063399649715847772e+01
  -8.98618917830307708527e+01
  -8.99100890970686776882e+01
  -8.99534984539426432093e+01
  -8.99944314870212025426e+01
  -9.00350679827623423535e+01
  -9.00775719390492639604e+01
  -9.01242067842759553287e+01
  -9.01774558822497454003e+01
  -9.02401547248910134158e+01
  -9.03156418249344881133e+01
  -9.04079362908203449933e+01
  -9.05219514345351257134e+01
  -9.06637555772486649630e+01
  -9.08408935218888444751e+01
  -9.10627849755346829852e+01
  -9.13412194716575953635e+01
  -9.16909708279825537147e+01
  -9.21305572563263837083e+01
  -9.26831744851641019523e+01
  -9.33778256098077008573e+01
  -9.42506566235940823617e+01
  -9.53464684907841331096e+01
  -9.67202922202898349724e+01
  -9.84387419938676515585e+01
  -1.00580538053938695953e+02
  -1.03235033137033880735e+02
  -1.06496742379299277559e+02
  -1.10452965907876432539e+02
  -1.15161486926696952082e+02
  -1.20618078732019554877e+02
  -1.26721615385578090240e+02
  -1.33256349567515087529e+02
  -1.39914613049440106352e+02
  -1.46363754256855514768e+02
  -1.52327058704914094278e+02
  -1.57636013229385753220e+02
  -1.62236033982353433203e+02
  -1.66159759580155110825e+02
  -1.69491888148263598168e+02
  -1.72340798216422768974e+02
  -1.74821062220647860386e+02
  -1.77045068215141583323e+02
  -1.79120588446241470137e+02
  +1.78848316922335300205e+02
  +1.76758804371776847120e+02
  +1.74506310117906508594e+02
  +1.71982133327317001203e+02
  +1.69072727073658001018e+02
  +1.65662511475631305302e+02
</dep>
<dep V1.i acfrequency>
  -2.49816779899549915016e-08+j3.52167585589781410741e-10
  -2.49775599430101202480e-08+j4.43249010235264982499e-10
  -2.49710372236885578499e-08+j5.57810634235725641523e-10
  -2.49607093077885102544e-08+j7.01829740263520330156e-10
  -2.49443654793275262424e-08+j8.82730010522704997455e-10
  -2.49185244036182669293e-08+j1.10965649599421244031e-09
  -2.48777244271160336322e-08+j1.39372538784852105562e-09
  -2.48134481818476000490e-08+j1.74815179343900227838e-09
  -2.47125387757773222704e-08+j2.18805559332508779553e-09
  -2.45549789727566415215e-08+j2.72956162528262810718e-09
  -2.43110471662159058777e-08+j3.38751580697585751145e-09
  -2.39383203331980702199e-08+j4.17075896738499209601e-09
  -2.33800660789508816680e-08+j5.07367507314971182451e-09
  -2.25684783775274128383e-08+j6.06343059153389680367e-09
  -2.14382804945910608867e-08+j7.06547766971696159213e-09
  -1.99551876687566215939e-08+j7.95668215896695561536e-09
  -1.81537308193739548288e-08+j8.58216122749286681216e-09
  -1.61601061036913393297e-08+j8.80543750140653850622e-09
  -1.41688476006909774608e-08+j8.57195587180568590114e-09
  -1.23735898598324837963e-08+j7.93868474082369709857e-09
  -1.08984850672657634071e-08+j7.04325706196040695592e-09
  -9.77611881320181992243e-09+j6.04027058188805170787e-09
  -8.97108377971617643171e-09+j5.05181638372727174363e-09
  -8.41778685292479853450e-09+j4.15135721319489557708e-09
  -8.04857385690254307719e-09+j3.37093826734319915684e-09
  -7.80703006078001511922e-09+j2.71571680601568260557e-09
  -7.65104986363051572537e-09+j2.17663443153757060731e-09
  -7.55116743178644296399e-09+j1.73877143782638026872e-09
  -7.48755157335399448186e-09+j1.38600280953854931031e-09
  -7.44717330530689990786e-09+j1.10323999107593405182e-09
  -7.42160034170932443869e-09+j8.77308096390787190849e-10
  -7.40542650561592300520e-09+j6.97128945330042174960e-10
  -7.39520619377961810272e-09+j5.53588312758222551621e-10
  -7.38875153139361460205e-09+j4.39284173780889471439e-10
  -7.38467653119681147132e-09+j3.48251033376103083100e-10
  -7.38210449456810484987e-09+j2.75702096500537544945e-10
  -7.38048139782626133946e-09+j2.17804497285287683219e-10
  -7.37945735410826742932e-09+j1.71490338498093160114e-10
  -7.37881150560845882141e-09+j1.34300924228785162772e-10
  -7.37840451827933564903e-09+j1.04259643736851007700e-10
  -7.37814857280771967021e-09+j7.97686249161058178627e-11
  -7.37798843480142519590e-09+j5.95246022238297865201e-11
  -7.37788954286421674910e-09+j4.24499946617509289995e-11
  -7.37783055292372996803e-09+j2.76357624035425697450e-11
  -7.37779873284852116611e-09+j1.42931188610962956424e-11
  -7.37778721455122113920e-09+j1.71158713513207689606e-12
  -7.37779351160521525995e-09-j1.07788019637003456938e-11
  -7.37781898352782157515e-09-j2.38431668018640751821e-11
  -7.37786912783065921671e-09-j3.81771746955312392077e-11
  -7.37795476813700572462e-09-j5.45440601618621765225e-11
  -7.37809438820154351859e-09-j7.38152186012511843668e-11
  -7.37831812155880047610e-09-j9.70165112155115433338e-11
  -7.37867425262493755515e-09-j1.25382698445049643515e-10
  -7.37923963032983749688e-09-j1.60422801821034772037e-10
  -7.38013623624111625984e-09-j2.03999680210847216310e-10
  -7.38155746388915813860e-09-j2.58427668960994529066e-10
  -7.38380973624332785933e-09-j3.26592706557027823561e-10
  -7.38737832899727138213e-09-j4.12099802712277450634e-10
  -7.39303132003401050796e-09-j5.19452630685811652189e-10
  -7.40198337884703003822e-09-j6.54268713839840127012e-10
  -7.41615294230043079060e-09-j8.23529600395490173052e-10
  -7.43856377940033861025e-09-j1.03585558078824225961e-09
  -7.47396642051733547034e-09-j1.30177309411553793402e-09
  -7.52978593652031008871e-09-j1.63389926471370229158e-09
  -7.61753310191182368674e-09-j2.04688328681699146894e-09
  -7.75482125321576626294e-09-j2.55678966489257723295e-09
  -7.96804445878664736357e-09-j3.17934984207080023532e-09
  -8.29544414801004924975e-09-j3.92614331564376471815e-09
  -8.78945083808353263838e-09-j4.79744126040499068654e-09
  -9.51553421388267914827e-09-j5.77071521053699662335e-09
  -1.05425683693265946402e-08-j6.78598761905808550701e-09
  -1.19191678744443571902e-08-j7.73488073687359855803e-09
  -1.36369853419446251018e-08-j8.46798839619826440370e-09
  -1.55991138801997722159e-08-j8.83482405911152053894e-09
  -1.76261468871448032871e-08-j8.74786778617566545838e-09
  -1.95141664259492963931e-08-j8.22857228338652051607e-09
  -2.11104314529708103938e-08-j7.39554133166987687175e-09
  -2.23532088102253705915e-08-j6.40566225898276153230e-09
  -2.32600884693052047559e-08-j5.39572328843526093001e-09
  -2.38910408124302731122e-08-j4.45545150574074100247e-09
  -2.43155857823250043253e-08-j3.62905706918663687553e-09
  -2.45948460407382250440e-08-j2.92888392761555578023e-09
  -2.47757921456458589548e-08-j2.34928628634341592193e-09
  -2.48918623871362641185e-08-j1.87645457771571447555e-09
  -2.49657880222058706085e-08-j1.49416555568441355097e-09
  -2.50125796744037202149e-08-j1.18668970098137542420e-09
  -2.50419569269059896561e-08-j9.40027465017005476806e-10
  -2.50601131019734266806e-08-j7.42269188535103017963e-10
  -2.50709206169807816405e-08-j5.83544516667288388285e-10
  -2.50767239835233710346e-08-j4.55812933334211838820e-10
  -2.50788518884424172938e-08-j3.52624751031787234740e-10
</dep>
<dep V2.i acfrequency>
  -5.83435133907619188896e-12-j2.91643192426153804670e-10
  -9.24466048990018186821e-12-j3.67071137932637541703e-10
  -1.46463691959300034665e-11-j4.61943917596651181430e-10
  -2.31993038649371969183e-11-j5.81211543497527807114e-10
  -3.67342414834211239752e-11-j7.31021845435166354444e-10
  -5.81342059967139364103e-11-j9.18948183279207068960e-10
  -9.19221975145937500483e-11-j1.15419629207667768865e-09
  -1.45151768125520312467e-10-j1.44771009811830740392e-09
  -2.28718633836587070273e-10-j1.81201094181486391952e-09
  -3.59199819037035451197e-10-j2.26045240645416640155e-09
  -5.61208901300761292745e-10-j2.80532895350599835318e-09
  -8.69877978039069195579e-10-j3.45396200520004501887e-09
  -1.33218927397390737337e-09-j4.20170071358436770887e-09
  -2.00429550377659732044e-09-j5.02135439811650105090e-09
  -2.94025478032037764837e-09-j5.85118718455089563250e-09
  -4.16845960125659878514e-09-j6.58922706378172059525e-09
  -5.66031361640895529039e-09-j7.10720975104469543656e-09
  -7.31130905257362292384e-09-j7.29211321177046469779e-09
  -8.96034493929113328407e-09-j7.09875831303837678780e-09
  -1.04470652400575100244e-08-j6.57432272651201723433e-09
  -1.16686548709005711845e-08-j5.83278546546558030218e-09
  -1.25981284817337271944e-08-j5.00217472504571968035e-09
  -1.32648082012166867971e-08-j4.18359871260960485448e-09
  -1.37230141483788188823e-08-j3.43789468452394524244e-09
  -1.40287732847876654157e-08-j2.79160047088358397156e-09
  -1.42288047660540563487e-08-j2.24898699210918207804e-09
  -1.43579778203867345328e-08-j1.80255264916916341653e-09
  -1.44406942101214682019e-08-j1.43994187362951544721e-09
  -1.44933768896352586904e-08-j1.14780093520238528256e-09
  -1.45268156486698852502e-08-j9.13634434791434354634e-10
  -1.45479935793356868596e-08-j7.26531754891652299216e-10
  -1.45613877398936206117e-08-j5.77318638824381826257e-10
  -1.45698515637379005782e-08-j4.58447254748006951259e-10
  -1.45751969118237541347e-08-j3.63787708093441772796e-10
  -1.45785715723233474808e-08-j2.88399748579564810788e-10
  -1.45807015724843175228e-08-j2.28319251617313239845e-10
  -1.45820457197071735911e-08-j1.80372077148522964156e-10
  -1.45828937687861988148e-08-j1.42017584358706089750e-10
  -1.45834286201973036881e-08-j1.11219634905291316793e-10
  -1.45837656616293891456e-08-j8.63413232583145373436e-11
  -1.45839776196573992367e-08-j6.60593915743065425424e-11
  -1.45841102359807209658e-08-j4.92945567496066631736e-11
  -1.45841921321005172660e-08-j3.51544335266604702623e-11
  -1.45842409838255328058e-08-j2.28862119144675072202e-11
  -1.45842673352285048716e-08-j1.18366681428496088828e-11
  -1.45842768740454156362e-08-j1.41742962540283972013e-12
  -1.45842716591684498935e-08+j8.92633027026837235501e-12
  -1.45842505649983773831e-08+j1.97454209852939140061e-11
  -1.45842090385150899279e-08+j3.16159507541515872099e-11
  -1.45841381166583499244e-08+j4.51699827406269665928e-11
  -1.45840224920591792670e-08+j6.11291520977118486835e-11
  -1.45838372099840893311e-08+j8.03430130341508154856e-11
  -1.45835422844796661931e-08+j1.03834116998267803136e-10
  -1.45830740740083881170e-08+j1.32852141345773929994e-10
  -1.45823315610284733172e-08+j1.68939789379626801509e-10
  -1.45811545890892061332e-08+j2.14013649026052517887e-10
  -1.45792893978896726579e-08+j2.70463674263186799057e-10
  -1.45763341123277091614e-08+j3.41275308861336336938e-10
  -1.45716526582936212007e-08+j4.30178213675571928994e-10
  -1.45642391224987657642e-08+j5.41824470498100200524e-10
  -1.45525047753950087487e-08+j6.81995761456775647690e-10
  -1.45339455203214441891e-08+j8.57830872404630555629e-10
  -1.45046272648105027483e-08+j1.07804714259562461578e-09
  -1.44584010292531016809e-08+j1.35309328606163645868e-09
  -1.43857343092584822973e-08+j1.69510085018176935256e-09
  -1.42720408400230066698e-08+j2.11737345387500446915e-09
  -1.40954627032641904322e-08+j2.63293889545674757372e-09
  -1.38243307363501904071e-08+j3.25138659107845676913e-09
  -1.34152252608446897348e-08+j3.97294111080418118186e-09
  -1.28139283742562634264e-08+j4.77894578675871054014e-09
  -1.19634028551443383281e-08+j5.61973096192274672298e-09
  -1.08233891540436305767e-08+j6.40554495585429314935e-09
  -9.40080005564389722098e-09+j7.01265891520953465421e-09
  -7.77588779277894676457e-09+j7.31644929159296151167e-09
  -6.09722570416753188514e-09+j7.24443753930958466361e-09
  -4.53368588438758076231e-09+j6.81438944914525101788e-09
  -3.21175892262099769418e-09+j6.12452526218188586196e-09
  -2.18256836327665097881e-09+j5.30476926119015665343e-09
  -1.43154729090363465059e-09+j4.46840090612573345893e-09
  -9.09031981820553022064e-10+j3.68972656328517284113e-09
  -5.57450363062546907530e-10+j3.00535832352575356314e-09
  -3.26184465035010462005e-10+j2.42551867404523391947e-09
  -1.76336206342869752643e-10+j1.94553212043472925319e-09
  -8.02140843425666972547e-11+j1.55396244158136438726e-09
  -1.89934921974526005095e-11+j1.23737455870658429223e-09
  +1.97564306330237085053e-11+j9.82742266736885227899e-10
  +4.40848356874339060558e-11+j7.78472014209024340785e-10
  +5.91206454891015718558e-11+j6.14700965439841311653e-10
  +6.80707541756670150490e-11+j4.83255109215915162823e-10
  +7.28767397595229214278e-11+j3.77475792485943819265e-10
  +7.46389376662611551985e-11+j2.92021787034913711309e-10
</dep>
<dep V3.i acfrequency>
  -1.00399932445871336610e-06+j2.01646265521147305258e-23
  -1.00399932445871294259e-06+j1.83021596411594532113e-24
  -1.00399932445871378962e-06+j4.73551035052752211694e-23
  -1.00399932445871315434e-06+j3.76456546738050499762e-23
  -1.00399932445871294259e-06+j2.24946135036277172346e-23
  -1.00399932445871378962e-06+j1.13114856276150360569e-22
  -1.00399932445871315434e-06+j7.49361271568363733497e-23
  -1.00399932445871315434e-06+j7.46613436216798519760e-23
  -1.00399932445871294259e-06+j1.10988813308632269266e-22
  -1.00399932445871315434e-06+j1.47109433777268964023e-22
  -1.00399932445871273083e-06+j1.59522388589771709076e-22
  -1.00399932445871315434e-06+j2.12747212548299058699e-22
  -1.00399932445871315434e-06+j2.74105214703838789999e-22
  -1.00399932445871336610e-06+j3.64044037195156271343e-22
  -1.00399932445871294259e-06+j3.61290039255021455869e-22
  -1.00399932445871315434e-06+j4.59465242597581002676e-22
  -1.00399932445871315434e-06+j6.63193861681654911394e-22
  -1.00399932445871315434e-06+j9.03883104776618140525e-22
