<Qucs Dataset 0.0.22>
<indep frequency 190>
1.000000000000e-01
1.115883992508e-01
1.245197084735e-01
1.389495494373e-01
1.550515779833e-01
1.730195738846e-01
1.930697728883e-01
2.154434690032e-01
2.404099183510e-01
2.682695795280e-01
2.993577294720e-01
3.340484983513e-01
3.727593720315e-01
4.159562163072e-01
4.641588833613e-01
5.179474679231e-01
5.779692884153e-01
6.449466771038e-01
7.196856730012e-01
8.030857221392e-01
8.961505019466e-01
1.000000000000e+00
1.115883992508e+00
1.245197084735e+00
1.389495494373e+00
1.550515779833e+00
1.730195738846e+00
1.930697728883e+00
2.154434690032e+00
2.404099183510e+00
2.682695795280e+00
2.993577294720e+00
3.340484983513e+00
3.727593720315e+00
4.159562163072e+00
4.641588833613e+00
5.179474679231e+00
5.779692884153e+00
6.449466771038e+00
7.196856730011e+00
8.030857221391e+00
8.961505019466e+00
1.000000000000e+01
1.115883992508e+01
1.245197084735e+01
1.389495494373e+01
1.550515779833e+01
1.730195738846e+01
1.930697728883e+01
2.154434690032e+01
2.404099183510e+01
2.682695795280e+01
2.993577294720e+01
3.340484983513e+01
3.727593720315e+01
4.159562163072e+01
4.641588833613e+01
5.179474679231e+01
5.779692884153e+01
6.449466771038e+01
7.196856730011e+01
8.030857221391e+01
8.961505019466e+01
1.000000000000e+02
1.115883992508e+02
1.245197084735e+02
1.389495494373e+02
1.550515779833e+02
1.730195738846e+02
1.930697728883e+02
2.154434690032e+02
2.404099183510e+02
2.682695795280e+02
2.993577294720e+02
3.340484983513e+02
3.727593720315e+02
4.159562163072e+02
4.641588833613e+02
5.179474679231e+02
5.779692884153e+02
6.449466771038e+02
7.196856730011e+02
8.030857221391e+02
8.961505019466e+02
1.000000000000e+03
1.115883992508e+03
1.245197084735e+03
1.389495494373e+03
1.550515779833e+03
1.730195738846e+03
1.930697728883e+03
2.154434690032e+03
2.404099183510e+03
2.682695795280e+03
2.993577294720e+03
3.340484983513e+03
3.727593720315e+03
4.159562163072e+03
4.641588833613e+03
5.179474679231e+03
5.779692884153e+03
6.449466771038e+03
7.196856730011e+03
8.030857221391e+03
8.961505019466e+03
1.000000000000e+04
1.115883992508e+04
1.245197084735e+04
1.389495494373e+04
1.550515779833e+04
1.730195738846e+04
1.930697728883e+04
2.154434690032e+04
2.404099183510e+04
2.682695795280e+04
2.993577294720e+04
3.340484983513e+04
3.727593720315e+04
4.159562163072e+04
4.641588833613e+04
5.179474679231e+04
5.779692884153e+04
6.449466771038e+04
7.196856730011e+04
8.030857221391e+04
8.961505019466e+04
1.000000000000e+05
1.115883992508e+05
1.245197084735e+05
1.389495494373e+05
1.550515779833e+05
1.730195738846e+05
1.930697728883e+05
2.154434690032e+05
2.404099183510e+05
2.682695795280e+05
2.993577294720e+05
3.340484983513e+05
3.727593720315e+05
4.159562163072e+05
4.641588833613e+05
5.179474679231e+05
5.779692884153e+05
6.449466771038e+05
7.196856730011e+05
8.030857221391e+05
8.961505019466e+05
1.000000000000e+06
1.115883992508e+06
1.245197084735e+06
1.389495494373e+06
1.550515779833e+06
1.730195738846e+06
1.930697728883e+06
2.154434690032e+06
2.404099183510e+06
2.682695795280e+06
2.993577294720e+06
3.340484983513e+06
3.727593720315e+06
4.159562163072e+06
4.641588833613e+06
5.179474679231e+06
5.779692884153e+06
6.449466771038e+06
7.196856730011e+06
8.030857221391e+06
8.961505019466e+06
1.000000000000e+07
1.115883992508e+07
1.245197084735e+07
1.389495494373e+07
1.550515779833e+07
1.730195738846e+07
1.930697728883e+07
2.154434690032e+07
2.404099183510e+07
2.682695795280e+07
2.993577294720e+07
3.340484983513e+07
3.727593720315e+07
4.159562163072e+07
4.641588833613e+07
5.179474679231e+07
5.779692884153e+07
6.449466771038e+07
7.196856730011e+07
8.030857221391e+07
8.961505019466e+07
1.000000000000e+08
</indep>
<dep ac.v(out) frequency>
1.991505311898e+05-j3.975324311055e+03
1.991310837569e+05-j4.435567580969e+03
1.991068731788e+05-j4.948977087741e+03
1.990767344656e+05-j5.521648378078e+03
1.990392185795e+05-j6.160357906307e+03
1.989925236681e+05-j6.872632071881e+03
1.989344099178e+05-j7.666820450589e+03
1.988620942754e+05-j8.552172249823e+03
1.987721205080e+05-j9.538914358459e+03
1.986601991787e+05-j1.063832842659e+04
1.985210111243e+05-j1.186282309994e+04
1.983479669638e+05-j1.322599571835e+04
1.981329141176e+05-j1.474267529990e+04
1.978657819210e+05-j1.642893526403e+04
1.975341549029e+05-j1.830205984783e+04
1.971227645611e+05-j2.038044225875e+04
1.966128915967e+05-j2.268338500151e+04
1.959816744762e+05-j2.523076330013e+04
1.952013276812e+05-j2.804250108208e+04
1.942382858970e+05-j3.113779599226e+04
1.930523110512e+05-j3.453401653048e+04
1.915956303915e+05-j3.824518316590e+04
1.898122186074e+05-j4.227994078392e+04
1.876373974208e+05-j4.663893968612e+04
1.849980014106e+05-j5.131157803106e+04
1.818134425289e+05-j5.627213538073e+04
1.779980808364e+05-j6.147546221308e+04
1.734653429546e+05-j6.685259754910e+04
1.681339715872e+05-j7.230696492685e+04
1.619365739684e+05-j7.771211200731e+04
1.548302042425e+05-j8.291222512085e+04
1.468080505462e+05-j8.772671991832e+04
1.379104912550e+05-j9.195989841496e+04
1.282330750815e+05-j9.541582701480e+04
1.179287356165e+05-j9.791725326718e+04
1.072021371860e+05-j9.932584847154e+04
9.629558846851e+04-j9.955992106554e+04
8.546812415076e+04-j9.860562750002e+04
7.497137793573e+04-j9.651892575578e+04
6.502688802819e+04-j9.341777417570e+04
5.580901690090e+04-j8.946653143856e+04
4.743594630714e+04-j8.485621105746e+04
3.996899265343e+04-j7.978464248233e+04
3.341863640295e+04-j7.443978337911e+04
2.775469201081e+04-j6.898796967335e+04
2.291799941226e+04-j6.356742304883e+04
1.883159343276e+04-j5.828628676191e+04
1.541011309376e+04-j5.322395504638e+04
1.256695099453e+04-j4.843440411767e+04
1.021916920393e+04-j4.395044253999e+04
8.290503049203e+03-j3.978810821102e+04
6.712885892084e+03-j3.595073830586e+04
5.426923039731e+03-j3.243247507068e+04
4.381679105441e+03-j2.922113268961e+04
3.534060051449e+03-j2.630044808838e+04
2.847991285629e+03-j2.365178831422e+04
2.293526594060e+03-j2.125540552239e+04
1.845971905566e+03-j1.909133062729e+04
1.485071629665e+03-j1.713998738396e+04
1.194280843261e+03-j1.538259573232e+04
9.601309774318e+02-j1.380141989171e+04
7.716872945327e+02-j1.237990455332e+04
6.200913160200e+02-j1.110273222838e+04
4.981789659280e+02-j9.955826473983e+03
4.001644837675e+02-j8.926319175289e+03
3.213804258801e+02-j8.002495044765e+03
2.580648558024e+02-j7.173722719359e+03
2.071878339442e+02-j6.430379030890e+03
1.663103824410e+02-j5.763770967947e+03
1.334701253036e+02-j5.166058356649e+03
1.070887375265e+02-j4.630179218635e+03
8.589715927469e+01-j4.149779007014e+03
6.887523931562e+01-j3.719144390868e+03
5.520307146609e+01-j3.333141893625e+03
4.422178951042e+01-j2.987161444007e+03
3.540200202564e+01-j2.677064736137e+03
2.831839110153e+01-j2.399138193178e+03
2.262927953700e+01-j2.150050268411e+03
1.806019999181e+01-j1.926812786278e+03
1.439068569679e+01-j1.726746014073e+03
1.144365328648e+01-j1.547447156331e+03
9.076870512859e+00-j1.386761973738e+03
7.176100352189e+00-j1.242759243311e+03
5.649592725184e+00-j1.113707794495e+03
4.423659321491e+00-j9.980558750747e+02
3.439118801660e+00-j8.944126203306e+02
2.648441342795e+00-j8.015314181277e+02
2.013455046768e+00-j7.182949810182e+02
1.503503720346e+00-j6.437019538363e+02
1.093967241211e+00-j5.768549014607e+02
7.650731731646e-01-j5.169495363931e+02
5.009423191537e-01-j4.632650595411e+02
2.888221720862e-01-j4.151555001428e+02
1.184712802327e-01-j3.720419521826e+02
-1.833517931868e-02-j3.334056149967e+02
-1.282024798303e-01-j2.987815551291e+02
-2.164352413019e-01-j2.677531149499e+02
-2.872935364546e-01-j2.399469011668e+02
-3.441985687056e-01-j2.150282932241e+02
-3.898978508335e-01-j1.926974177508e+02
-4.265978583264e-01-j1.726855407715e+02
-4.560705614507e-01-j1.547518343733e+02
-4.797389791685e-01-j1.386804789999e+02
-4.987458853406e-01-j1.242780665578e+02
-5.140089843164e-01-j1.113712731260e+02
-5.262652198013e-01-j9.980477328948e+01
-5.361063562628e-01-j8.943937102104e+01
-5.440075507884e-01-j8.015032463083e+01
-5.503502948848e-01-j7.182584563834e+01
-5.554408338923e-01-j6.436575350869e+01
-5.595249533402e-01-j5.768027007004e+01
-5.627998461653e-01-j5.168893910766e+01
-5.654236337771e-01-j4.631965813572e+01
-5.675230006796e-01-j4.150781069712e+01
-5.691993112863e-01-j3.719548875067e+01
-5.705335042908e-01-j3.333079578918e+01
-5.715900009483e-01-j2.986722230289e+01
-5.724198160366e-01-j2.676308607372e+01
-5.730630218027e-01-j2.398103056586e+01
-5.735506840205e-01-j2.148757537770e+01
-5.739063638821e-01-j1.925271334717e+01
-5.741472586151e-01-j1.724954946437e+01
-5.742850364860e-01-j1.545397724979e+01
-5.743264074075e-01-j1.384438870833e+01
-5.742734580978e-01-j1.240141437524e+01
-5.741237701286e-01-j1.110769033493e+01
-5.738703298752e-01-j9.947649421320e+00
-5.735012311235e-01-j8.907334104249e+00
-5.729991637998e-01-j7.974228833562e+00
-5.723406761159e-01-j7.137109855000e+00
-5.714951927799e-01-j6.385910733285e+00
-5.704237696402e-01-j5.711602021107e+00
-5.690775666158e-01-j5.106083701237e+00
-5.673960282568e-01-j4.562089205416e+00
-5.653047780722e-01-j4.073099980106e+00
-5.627132635904e-01-j3.633269726608e+00
-5.595122402796e-01-j3.237357590428e+00
-5.555712617824e-01-j2.880669707437e+00
-5.507364599807e-01-j2.559008622530e+00
-5.448290583502e-01-j2.268630161973e+00
-5.376452671861e-01-j2.006207335058e+00
-5.289584471214e-01-j1.768800723851e+00
-5.185246598415e-01-j1.553834543060e+00
-5.060928735565e-01-j1.359077070605e+00
-4.914210249261e-01-j1.182623449460e+00
-4.742986793927e-01-j1.022878005245e+00
-4.545759903471e-01-j8.785324087937e-01
-4.321969355610e-01-j7.485356103113e-01
-4.072325531932e-01-j6.320519984370e-01
-3.799076577645e-01-j5.284061817275e-01
-3.506132626136e-01-j4.370162789214e-01
-3.198977924963e-01-j3.573220274723e-01
-2.884337929159e-01-j2.887179043760e-01
-2.569627258849e-01-j2.305029037887e-01
-2.262267044199e-01-j1.818563161617e-01
-1.969000998268e-01-j1.418430733050e-01
-1.695339966541e-01-j1.094450035060e-01
-1.445224508654e-01-j8.360850802280e-02
-1.220932611480e-01-j6.329679226920e-02
-1.023200522262e-01-j4.753616622957e-02
-8.514879517924e-02-j3.544977436487e-02
-7.043098463184e-02-j2.627653031592e-02
-5.795691728508e-02-j1.937652910838e-02
-4.748474977227e-02-j1.422616263451e-02
-3.876327604328e-02-j1.040668918989e-02
-3.154809867126e-02-j7.589589672281e-03
-2.561192213414e-02-j5.521199317227e-03
-2.075016492289e-02-j4.008209568970e-03
-1.678315862606e-02-j2.904889084545e-03
-1.355605593686e-02-j2.102340021754e-03
-1.093733755040e-02-j1.519772153506e-03
-8.816569482412e-03-j1.097597786040e-03
-7.101856141365e-03-j7.920755164703e-04
-5.717273309674e-03-j5.712193599827e-04
-4.600447904073e-03-j4.117120658641e-04
-3.700370869623e-03-j2.965983445146e-04
-2.975477226788e-03-j2.135739866966e-04
-2.391995247833e-03-j1.537245760811e-04
-1.922548600929e-03-j1.106001073219e-04
-1.544986275162e-03-j7.953865055899e-05
-1.241411777325e-03-j5.717354975243e-05
-9.973831459283e-04-j4.107522962936e-05
-8.012572299413e-04-j2.949135368529e-05
-6.436544604259e-04-j2.115862483421e-05
-5.170234133825e-04-j1.516664757612e-05
-4.152874828811e-04-j1.085954960250e-05
-3.335587755076e-04-j7.764947610769e-06
-2.679068196177e-04-j5.542690547023e-06
-2.151718336914e-04-j3.947893280400e-06
-1.728141278631e-04-j2.804287835848e-06
</dep>
<dep ac.out_db frequency>
1.059853595176e+02+j0.000000000000e+00
1.059849354012e+02+j0.000000000000e+00
1.059844073506e+02+j0.000000000000e+00
1.059837499132e+02+j0.000000000000e+00
1.059829314132e+02+j0.000000000000e+00
1.059819124350e+02+j0.000000000000e+00
1.059806439404e+02+j0.000000000000e+00
1.059790649324e+02+j0.000000000000e+00
1.059770995584e+02+j0.000000000000e+00
1.059746535230e+02+j0.000000000000e+00
1.059716096513e+02+j0.000000000000e+00
1.059678224110e+02+j0.000000000000e+00
1.059631111623e+02+j0.000000000000e+00
1.059572518642e+02+j0.000000000000e+00
1.059499669163e+02+j0.000000000000e+00
1.059409127688e+02+j0.000000000000e+00
1.059296648928e+02+j0.000000000000e+00
1.059156996693e+02+j0.000000000000e+00
1.058983727529e+02+j0.000000000000e+00
1.058768935129e+02+j0.000000000000e+00
1.058502952731e+02+j0.000000000000e+00
1.058174013234e+02+j0.000000000000e+00
1.057767870989e+02+j0.000000000000e+00
1.057267396028e+02+j0.000000000000e+00
1.056652161539e+02+j0.000000000000e+00
1.055898059247e+02+j0.000000000000e+00
1.054976995177e+02+j0.000000000000e+00
1.053856738780e+02+j0.000000000000e+00
1.052501018628e+02+j0.000000000000e+00
1.050869971826e+02+j0.000000000000e+00
1.048921052905e+02+j0.000000000000e+00
1.046610480243e+02+j0.000000000000e+00
1.043895234617e+02+j0.000000000000e+00
1.040735523459e+02+j0.000000000000e+00
1.037097499042e+02+j0.000000000000e+00
1.032955900408e+02+j0.000000000000e+00
1.028296221646e+02+j0.000000000000e+00
1.023116032640e+02+j0.000000000000e+00
1.017425205723e+02+j0.000000000000e+00
1.011245004532e+02+j0.000000000000e+00
1.004606208272e+02+j0.000000000000e+00
9.975466070790e+01+j0.000000000000e+00
9.901082690426e+01+j0.000000000000e+00
9.823349440171e+01+j0.000000000000e+00
9.742698655676e+01+j0.000000000000e+00
9.659540850258e+01+j0.000000000000e+00
9.574253585307e+01+j0.000000000000e+00
9.487175292665e+01+j0.000000000000e+00
9.398603062455e+01+j0.000000000000e+00
9.308793306172e+01+j0.000000000000e+00
9.217964296595e+01+j0.000000000000e+00
9.126299772303e+01+j0.000000000000e+00
9.033953003881e+01+j0.000000000000e+00
8.941050909669e+01+j0.000000000000e+00
8.847697963459e+01+j0.000000000000e+00
8.753979751453e+01+j0.000000000000e+00
8.659966115559e+01+j0.000000000000e+00
8.565713871747e+01+j0.000000000000e+00
8.471269123149e+01+j0.000000000000e+00
8.376669204174e+01+j0.000000000000e+00
8.281944298958e+01+j0.000000000000e+00
8.187118778742e+01+j0.000000000000e+00
8.092212300539e+01+j0.000000000000e+00
7.997240705559e+01+j0.000000000000e+00
7.902216751213e+01+j0.000000000000e+00
7.807150705791e+01+j0.000000000000e+00
7.712050830474e+01+j0.000000000000e+00
7.616923769297e+01+j0.000000000000e+00
7.521774864183e+01+j0.000000000000e+00
7.426608409146e+01+j0.000000000000e+00
7.331427855219e+01+j0.000000000000e+00
7.236235975522e+01+j0.000000000000e+00
7.141034998158e+01+j0.000000000000e+00
7.045826713144e+01+j0.000000000000e+00
6.950612558424e+01+j0.000000000000e+00
6.855393689024e+01+j0.000000000000e+00
6.760171032646e+01+j0.000000000000e+00
6.664945334354e+01+j0.000000000000e+00
6.569717192467e+01+j0.000000000000e+00
6.474487087407e+01+j0.000000000000e+00
6.379255404863e+01+j0.000000000000e+00
6.284022454394e+01+j0.000000000000e+00
6.188788484362e+01+j0.000000000000e+00
6.093553693918e+01+j0.000000000000e+00
5.998318242609e+01+j0.000000000000e+00
5.903082258080e+01+j0.000000000000e+00
5.807845842235e+01+j0.000000000000e+00
5.712609076156e+01+j0.000000000000e+00
5.617372024014e+01+j0.000000000000e+00
5.522134736171e+01+j0.000000000000e+00
5.426897251611e+01+j0.000000000000e+00
5.331659599816e+01+j0.000000000000e+00
5.236421802197e+01+j0.000000000000e+00
5.141183873125e+01+j0.000000000000e+00
5.045945820621e+01+j0.000000000000e+00
4.950707646749e+01+j0.000000000000e+00
4.855469347712e+01+j0.000000000000e+00
4.760230913671e+01+j0.000000000000e+00
4.664992328267e+01+j0.000000000000e+00
4.569753567835e+01+j0.000000000000e+00
4.474514600258e+01+j0.000000000000e+00
4.379275383419e+01+j0.000000000000e+00
4.284035863164e+01+j0.000000000000e+00
4.188795970695e+01+j0.000000000000e+00
4.093555619241e+01+j0.000000000000e+00
3.998314699874e+01+j0.000000000000e+00
3.903073076249e+01+j0.000000000000e+00
3.807830578025e+01+j0.000000000000e+00
3.712586992645e+01+j0.000000000000e+00
3.617342055076e+01+j0.000000000000e+00
3.522095435024e+01+j0.000000000000e+00
3.426846720999e+01+j0.000000000000e+00
3.331595400473e+01+j0.000000000000e+00
3.236340835162e+01+j0.000000000000e+00
3.141082230267e+01+j0.000000000000e+00
3.045818596176e+01+j0.000000000000e+00
2.950548700814e+01+j0.000000000000e+00
2.855271010351e+01+j0.000000000000e+00
2.759983615450e+01+j0.000000000000e+00
2.664684139555e+01+j0.000000000000e+00
2.569369624878e+01+j0.000000000000e+00
2.474036390731e+01+j0.000000000000e+00
2.378679857574e+01+j0.000000000000e+00
2.283294328636e+01+j0.000000000000e+00
2.187872719093e+01+j0.000000000000e+00
2.092406220540e+01+j0.000000000000e+00
1.996883885822e+01+j0.000000000000e+00
1.901292116141e+01+j0.000000000000e+00
1.805614028653e+01+j0.000000000000e+00
1.709828678655e+01+j0.000000000000e+00
1.613910105869e+01+j0.000000000000e+00
1.517826169622e+01+j0.000000000000e+00
1.421537133179e+01+j0.000000000000e+00
1.324993953970e+01+j0.000000000000e+00
1.228136235060e+01+j0.000000000000e+00
1.130889795855e+01+j0.000000000000e+00
1.033163829492e+01+j0.000000000000e+00
9.348476345998e+00+j0.000000000000e+00
8.358069454596e+00+j0.000000000000e+00
7.358799437381e+00+j0.000000000000e+00
6.348731244043e+00+j0.000000000000e+00
5.325573148121e+00+j0.000000000000e+00
4.286643119871e+00+j0.000000000000e+00
3.228848021441e+00+j0.000000000000e+00
2.148684344972e+00+j0.000000000000e+00
1.042270887400e+00+j0.000000000000e+00
-9.457578845034e-02+j0.000000000000e+00
-1.266214083291e+00+j0.000000000000e+00
-2.476994416272e+00+j0.000000000000e+00
-3.731025722373e+00+j0.000000000000e+00
-5.031908536014e+00+j0.000000000000e+00
-6.382464300381e+00+j0.000000000000e+00
-7.784499360777e+00+j0.000000000000e+00
-9.238642894745e+00+j0.000000000000e+00
-1.074428845461e+01+j0.000000000000e+00
-1.229965033109e+01+j0.000000000000e+00
-1.390192392637e+01+j0.000000000000e+00
-1.554752073359e+01+j0.000000000000e+00
-1.723233875156e+01+j0.000000000000e+00
-1.895202977649e+01+j0.000000000000e+00
-2.070223372026e+01+j0.000000000000e+00
-2.247876257298e+01+j0.000000000000e+00
-2.427772869262e+01+j0.000000000000e+00
-2.609562115487e+01+j0.000000000000e+00
-2.792933912403e+01+j0.000000000000e+00
-2.977619308484e+01+j0.000000000000e+00
-3.163388435151e+01+j0.000000000000e+00
-3.350047161143e+01+j0.000000000000e+00
-3.537433118259e+01+j0.000000000000e+00
-3.725411566933e+01+j0.000000000000e+00
-3.913871403370e+01+j0.000000000000e+00
-4.102721482812e+01+j0.000000000000e+00
-4.291887343488e+01+j0.000000000000e+00
-4.481308356140e+01+j0.000000000000e+00
-4.670935287311e+01+j0.000000000000e+00
-4.860728244115e+01+j0.000000000000e+00
-5.050654958584e+01+j0.000000000000e+00
-5.240689366942e+01+j0.000000000000e+00
-5.430810440494e+01+j0.000000000000e+00
-5.621001228320e+01+j0.000000000000e+00
-5.811248076479e+01+j0.000000000000e+00
-6.001539993136e+01+j0.000000000000e+00
-6.191868133641e+01+j0.000000000000e+00
-6.382225383686e+01+j0.000000000000e+00
-6.572606022416e+01+j0.000000000000e+00
-6.763005450473e+01+j0.000000000000e+00
-6.953419970682e+01+j0.000000000000e+00
-7.143846611321e+01+j0.000000000000e+00
-7.334282983784e+01+j0.000000000000e+00
-7.524727167997e+01+j0.000000000000e+00
</dep>
<dep ac.out_fas frequency>
-1.143549687742e+00+j0.000000000000e+00
-1.276027250741e+00+j0.000000000000e+00
-1.423840670435e+00+j0.000000000000e+00
-1.588760833657e+00+j0.000000000000e+00
-1.772761397442e+00+j0.000000000000e+00
-1.978041336608e+00+j0.000000000000e+00
-2.207049736266e+00+j0.000000000000e+00
-2.462512947666e+00+j0.000000000000e+00
-2.747464185396e+00+j0.000000000000e+00
-3.065275578669e+00+j0.000000000000e+00
-3.419692589072e+00+j0.000000000000e+00
-3.814870557808e+00+j0.000000000000e+00
-4.255412928858e+00+j0.000000000000e+00
-4.746410386110e+00+j0.000000000000e+00
-5.293479710782e+00+j0.000000000000e+00
-5.902800570429e+00+j0.000000000000e+00
-6.581147643304e+00+j0.000000000000e+00
-7.335914404860e+00+j0.000000000000e+00
-8.175123495110e+00+j0.000000000000e+00
-9.107416790242e+00+j0.000000000000e+00
-1.014201608611e+01+j0.000000000000e+00
-1.128864268852e+01+j0.000000000000e+00
-1.255738132883e+01+j0.000000000000e+00
-1.395847100657e+01+j0.000000000000e+00
-1.550200322695e+01+j0.000000000000e+00
-1.719750769507e+01+j0.000000000000e+00
-1.905340842044e+01+j0.000000000000e+00
-2.107634145353e+01+j0.000000000000e+00
-2.327034143305e+01+j0.000000000000e+00
-2.563592958006e+01+j0.000000000000e+00
-2.816917070145e+01+j0.000000000000e+00
-3.086080744563e+01+j0.000000000000e+00
