<Qucs Dataset 0.0.21>
<indep frequency 100>
1.000000000000e+00
1.232846739442e+00
1.519911082953e+00
1.873817422860e+00
2.310129700083e+00
2.848035868436e+00
3.511191734215e+00
4.328761281083e+00
5.336699231206e+00
6.579332246576e+00
8.111308307897e+00
1.000000000000e+01
1.232846739442e+01
1.519911082953e+01
1.873817422860e+01
2.310129700083e+01
2.848035868436e+01
3.511191734215e+01
4.328761281083e+01
5.336699231206e+01
6.579332246576e+01
8.111308307897e+01
1.000000000000e+02
1.232846739442e+02
1.519911082953e+02
1.873817422860e+02
2.310129700083e+02
2.848035868436e+02
3.511191734215e+02
4.328761281083e+02
5.336699231206e+02
6.579332246576e+02
8.111308307897e+02
1.000000000000e+03
1.232846739442e+03
1.519911082953e+03
1.873817422860e+03
2.310129700083e+03
2.848035868436e+03
3.511191734215e+03
4.328761281083e+03
5.336699231206e+03
6.579332246576e+03
8.111308307897e+03
1.000000000000e+04
1.232846739442e+04
1.519911082953e+04
1.873817422860e+04
2.310129700083e+04
2.848035868436e+04
3.511191734215e+04
4.328761281083e+04
5.336699231206e+04
6.579332246576e+04
8.111308307897e+04
1.000000000000e+05
1.232846739442e+05
1.519911082953e+05
1.873817422860e+05
2.310129700083e+05
2.848035868436e+05
3.511191734215e+05
4.328761281083e+05
5.336699231206e+05
6.579332246576e+05
8.111308307897e+05
1.000000000000e+06
1.232846739442e+06
1.519911082953e+06
1.873817422860e+06
2.310129700083e+06
2.848035868436e+06
3.511191734215e+06
4.328761281083e+06
5.336699231206e+06
6.579332246576e+06
8.111308307897e+06
1.000000000000e+07
1.232846739442e+07
1.519911082953e+07
1.873817422860e+07
2.310129700083e+07
2.848035868436e+07
3.511191734215e+07
4.328761281083e+07
5.336699231206e+07
6.579332246576e+07
8.111308307897e+07
1.000000000000e+08
1.232846739442e+08
1.519911082953e+08
1.873817422860e+08
2.310129700083e+08
2.848035868436e+08
3.511191734215e+08
4.328761281083e+08
5.336699231206e+08
6.579332246576e+08
8.111308307897e+08
1.000000000000e+09
</indep>
<dep ac.v(av) frequency>
0.000000000000e+00+j0.000000000000e+00
0.000000000000e+00+j0.000000000000e+00
0.000000000000e+00+j0.000000000000e+00
0.000000000000e+00+j0.000000000000e+00
0.000000000000e+00+j0.000000000000e+00
0.000000000000e+00+j0.000000000000e+00
0.000000000000e+00+j0.000000000000e+00
0.000000000000e+00+j0.000000000000e+00
0.000000000000e+00+j0.000000000000e+00
0.000000000000e+00+j0.000000000000e+00
0.000000000000e+00+j0.000000000000e+00
0.000000000000e+00+j0.000000000000e+00
0.000000000000e+00+j0.000000000000e+00
0.000000000000e+00+j0.000000000000e+00
0.000000000000e+00+j0.000000000000e+00
0.000000000000e+00+j0.000000000000e+00
0.000000000000e+00+j0.000000000000e+00
0.000000000000e+00+j0.000000000000e+00
0.000000000000e+00+j0.000000000000e+00
0.000000000000e+00+j0.000000000000e+00
0.000000000000e+00+j0.000000000000e+00
0.000000000000e+00+j0.000000000000e+00
0.000000000000e+00+j0.000000000000e+00
0.000000000000e+00+j0.000000000000e+00
0.000000000000e+00+j0.000000000000e+00
0.000000000000e+00+j0.000000000000e+00
0.000000000000e+00+j0.000000000000e+00
0.000000000000e+00+j0.000000000000e+00
0.000000000000e+00+j0.000000000000e+00
0.000000000000e+00+j0.000000000000e+00
0.000000000000e+00+j0.000000000000e+00
0.000000000000e+00+j0.000000000000e+00
0.000000000000e+00+j0.000000000000e+00
0.000000000000e+00+j0.000000000000e+00
0.000000000000e+00+j0.000000000000e+00
0.000000000000e+00+j0.000000000000e+00
0.000000000000e+00+j0.000000000000e+00
0.000000000000e+00+j0.000000000000e+00
0.000000000000e+00+j0.000000000000e+00
0.000000000000e+00+j0.000000000000e+00
0.000000000000e+00+j0.000000000000e+00
0.000000000000e+00+j0.000000000000e+00
0.000000000000e+00+j0.000000000000e+00
0.000000000000e+00+j0.000000000000e+00
0.000000000000e+00+j0.000000000000e+00
0.000000000000e+00+j0.000000000000e+00
0.000000000000e+00+j0.000000000000e+00
0.000000000000e+00+j0.000000000000e+00
0.000000000000e+00+j0.000000000000e+00
0.000000000000e+00+j0.000000000000e+00
0.000000000000e+00+j0.000000000000e+00
0.000000000000e+00+j0.000000000000e+00
0.000000000000e+00+j0.000000000000e+00
0.000000000000e+00+j0.000000000000e+00
0.000000000000e+00+j0.000000000000e+00
0.000000000000e+00+j0.000000000000e+00
0.000000000000e+00+j0.000000000000e+00
0.000000000000e+00+j0.000000000000e+00
0.000000000000e+00+j0.000000000000e+00
0.000000000000e+00+j0.000000000000e+00
0.000000000000e+00+j0.000000000000e+00
0.000000000000e+00+j0.000000000000e+00
0.000000000000e+00+j0.000000000000e+00
0.000000000000e+00+j0.000000000000e+00
0.000000000000e+00+j0.000000000000e+00
0.000000000000e+00+j0.000000000000e+00
0.000000000000e+00+j0.000000000000e+00
0.000000000000e+00+j0.000000000000e+00
0.000000000000e+00+j0.000000000000e+00
0.000000000000e+00+j0.000000000000e+00
0.000000000000e+00+j0.000000000000e+00
0.000000000000e+00+j0.000000000000e+00
0.000000000000e+00+j0.000000000000e+00
0.000000000000e+00+j0.000000000000e+00
0.000000000000e+00+j0.000000000000e+00
0.000000000000e+00+j0.000000000000e+00
0.000000000000e+00+j0.000000000000e+00
0.000000000000e+00+j0.000000000000e+00
0.000000000000e+00+j0.000000000000e+00
0.000000000000e+00+j0.000000000000e+00
0.000000000000e+00+j0.000000000000e+00
0.000000000000e+00+j0.000000000000e+00
0.000000000000e+00+j0.000000000000e+00
0.000000000000e+00+j0.000000000000e+00
0.000000000000e+00+j0.000000000000e+00
0.000000000000e+00+j0.000000000000e+00
0.000000000000e+00+j0.000000000000e+00
0.000000000000e+00+j0.000000000000e+00
0.000000000000e+00+j0.000000000000e+00
0.000000000000e+00+j0.000000000000e+00
0.000000000000e+00+j0.000000000000e+00
0.000000000000e+00+j0.000000000000e+00
0.000000000000e+00+j0.000000000000e+00
0.000000000000e+00+j0.000000000000e+00
0.000000000000e+00+j0.000000000000e+00
0.000000000000e+00+j0.000000000000e+00
0.000000000000e+00+j0.000000000000e+00
0.000000000000e+00+j0.000000000000e+00
0.000000000000e+00+j0.000000000000e+00
0.000000000000e+00+j0.000000000000e+00
</dep>
<indep time 133>
0.000000000000e+00
9.900990000000e-08
1.980198000000e-07
3.960396000000e-07
7.920792000000e-07
1.584158400000e-06
3.168316800000e-06
6.336633600000e-06
1.267326720000e-05
2.257425720000e-05
3.247524720000e-05
4.237623720000e-05
5.227722720000e-05
6.217821720000e-05
7.207920720000e-05
8.198019720000e-05
9.188118720000e-05
1.017821772000e-04
1.116831672000e-04
1.215841572000e-04
1.314851472000e-04
1.413861372000e-04
1.512871272000e-04
1.611881172000e-04
1.710891072000e-04
1.809900972000e-04
1.908910872000e-04
2.007920772000e-04
2.106930672000e-04
2.205940572000e-04
2.304950472000e-04
2.403960372000e-04
2.502970272000e-04
2.601980172000e-04
2.700990072000e-04
2.799999972000e-04
2.899009872000e-04
2.998019772000e-04
3.097029672000e-04
3.196039572000e-04
3.295049472000e-04
3.394059372000e-04
3.493069272000e-04
3.592079172000e-04
3.691089072000e-04
3.790098972000e-04
3.889108872000e-04
3.988118772000e-04
4.087128672000e-04
4.186138572000e-04
4.285148472000e-04
4.384158372000e-04
4.483168272000e-04
4.582178172000e-04
4.681188072000e-04
4.780197972000e-04
4.879207872000e-04
4.978217772000e-04
5.000000000000e-04
5.000001000000e-04
5.000003000000e-04
5.000007000000e-04
5.000010000000e-04
5.000010499165e-04
5.000011497494e-04
5.000013494153e-04
5.000017487470e-04
5.000025474106e-04
5.000041447376e-04
5.000073393917e-04
5.000137286998e-04
5.000265073161e-04
5.000520645486e-04
5.001028172006e-04
5.001562684741e-04
5.002343433579e-04
5.003285393717e-04
5.005059312561e-04
5.008045480553e-04
5.014017816535e-04
5.025962488500e-04
5.049851832430e-04
5.097630520291e-04
5.193187896011e-04
5.292197796011e-04
5.391207696011e-04
5.490217596011e-04
5.589227496011e-04
5.688237396011e-04
5.787247296011e-04
5.886257196011e-04
5.985267096011e-04
6.084276996011e-04
6.183286896011e-04
6.282296796011e-04
6.381306696011e-04
6.480316596011e-04
6.579326496011e-04
6.678336396011e-04
6.777346296011e-04
6.876356196011e-04
6.975366096011e-04
7.074375996011e-04
7.173385896011e-04
7.272395796011e-04
7.371405696011e-04
7.470415596011e-04
7.569425496011e-04
7.668435396011e-04
7.767445296011e-04
7.866455196011e-04
7.965465096011e-04
8.064474996011e-04
8.163484896011e-04
8.262494796011e-04
8.361504696011e-04
8.460514596011e-04
8.559524496011e-04
8.658534396011e-04
8.757544296011e-04
8.856554196011e-04
8.955564096011e-04
9.054573996011e-04
9.153583896011e-04
9.252593796011e-04
9.351603696011e-04
9.450613596011e-04
9.549623496011e-04
9.648633396011e-04
9.747643296011e-04
9.846653196011e-04
9.945663096011e-04
1.000000000000e-03
</indep>
<dep tran.v(av) time>
0.000000000000e+00
0.000000000000e+00
0.000000000000e+00
0.000000000000e+00
0.000000000000e+00
0.000000000000e+00
0.000000000000e+00
0.000000000000e+00
0.000000000000e+00
0.000000000000e+00
0.000000000000e+00
0.000000000000e+00
0.000000000000e+00
0.000000000000e+00
0.000000000000e+00
0.000000000000e+00
0.000000000000e+00
0.000000000000e+00
0.000000000000e+00
0.000000000000e+00
0.000000000000e+00
0.000000000000e+00
0.000000000000e+00
0.000000000000e+00
0.000000000000e+00
0.000000000000e+00
0.000000000000e+00
0.000000000000e+00
0.000000000000e+00
0.000000000000e+00
0.000000000000e+00
0.000000000000e+00
0.000000000000e+00
0.000000000000e+00
0.000000000000e+00
0.000000000000e+00
0.000000000000e+00
0.000000000000e+00
0.000000000000e+00
0.000000000000e+00
0.000000000000e+00
0.000000000000e+00
0.000000000000e+00
0.000000000000e+00
0.000000000000e+00
0.000000000000e+00
0.000000000000e+00
0.000000000000e+00
0.000000000000e+00
0.000000000000e+00
0.000000000000e+00
0.000000000000e+00
0.000000000000e+00
0.000000000000e+00
0.000000000000e+00
0.000000000000e+00
0.000000000000e+00
0.000000000000e+00
0.000000000000e+00
1.814552515815e-04
9.065518493024e-04
4.521203346389e-03
9.116651330859e-03
1.001422550538e-02
1.180758340299e-02
1.538357789752e-02
2.249289491074e-02
3.654253164361e-02
6.397910158133e-02
1.163040107159e-01
2.115261237332e-01
3.696008945625e-01
5.892180149180e-01
8.045724857485e-01
8.773564350758e-01
9.051445819495e-01
9.089289597831e-01
9.090779514170e-01
9.090292529042e-01
9.090569987145e-01
9.090356828540e-01
9.090544295623e-01
9.090368357626e-01
9.090538829569e-01
9.090371828142e-01
9.090535490036e-01
9.090375100894e-01
9.090532282730e-01
9.090378244064e-01
9.090529202414e-01
9.090381262783e-01
9.090526244060e-01
9.090384161977e-01
9.090523402841e-01
9.090386946381e-01
9.090520674117e-01
9.090389620539e-01
9.090518053434e-01
9.090392188815e-01
9.090515536516e-01
9.090394655403e-01
9.090513119252e-01
9.090397024328e-01
9.090510797699e-01
9.090399299458e-01
9.090508568065e-01
9.090401484505e-01
9.090506426712e-01
9.090403583038e-01
9.090504370144e-01
9.090405598481e-01
9.090502395004e-01
9.090407534124e-01
9.090500498068e-01
9.090409393127e-01
9.090498676240e-01
9.090411178524e-01
9.090496926545e-01
9.090412893229e-01
9.090495246128e-01
9.090414540043e-01
9.090493632246e-01
9.090416121652e-01
9.090492082265e-01
9.090417640639e-01
9.090490593653e-01
9.090419099482e-01
9.090489163982e-01
9.090420500564e-01
9.090487790918e-01
9.090421846172e-01
9.090486472219e-01
9.090423654876e-01
</dep>
