<Qucs Dataset 0.0.21>
<indep time 88>
0.000000000000e+00
2.000000000000e-07
2.168022576934e-07
2.504067730803e-07
3.176158038540e-07
4.520338654015e-07
7.208699884964e-07
1.258542234686e-06
2.333886727066e-06
4.484575711825e-06
8.785953681344e-06
1.738870962038e-05
3.459422149846e-05
6.900524525460e-05
1.090052452546e-04
1.490052452546e-04
1.890052452546e-04
2.290052452546e-04
2.690052452546e-04
3.090052452546e-04
3.490052452546e-04
3.890052452546e-04
4.290052452546e-04
4.690052452546e-04
5.000000000000e-04
5.000001000000e-04
5.000003000000e-04
5.000007000000e-04
5.000010000000e-04
5.000010499165e-04
5.000011497494e-04
5.000013494153e-04
5.000017487470e-04
5.000025474106e-04
5.000041447376e-04
5.000073393917e-04
5.000137286998e-04
5.000265073161e-04
5.000520645486e-04
5.001028172006e-04
5.001562684741e-04
5.002343433579e-04
5.003285393717e-04
5.005059312561e-04
5.008045480551e-04
5.014017816531e-04
5.025962488492e-04
5.049851832413e-04
5.097630520255e-04
5.193187895940e-04
5.384302647310e-04
5.766532150051e-04
6.166532150051e-04
6.566532150051e-04
6.966532150051e-04
7.366532150051e-04
7.766532150051e-04
8.166532150051e-04
8.566532150051e-04
8.966532150051e-04
9.366532150051e-04
9.766532150051e-04
1.016653215005e-03
1.056653215005e-03
1.096653215005e-03
1.136653215005e-03
1.176653215005e-03
1.216653215005e-03
1.256653215005e-03
1.296653215005e-03
1.336653215005e-03
1.376653215005e-03
1.416653215005e-03
1.456653215005e-03
1.496653215005e-03
1.536653215005e-03
1.576653215005e-03
1.616653215005e-03
1.656653215005e-03
1.696653215005e-03
1.736653215005e-03
1.776653215005e-03
1.816653215005e-03
1.856653215005e-03
1.896653215005e-03
1.936653215005e-03
1.976653215005e-03
2.000000000000e-03
</indep>
<dep tran.v(av) time>
0.000000000000e+00
0.000000000000e+00
0.000000000000e+00
0.000000000000e+00
0.000000000000e+00
0.000000000000e+00
0.000000000000e+00
0.000000000000e+00
0.000000000000e+00
0.000000000000e+00
0.000000000000e+00
0.000000000000e+00
0.000000000000e+00
0.000000000000e+00
0.000000000000e+00
0.000000000000e+00
0.000000000000e+00
0.000000000000e+00
0.000000000000e+00
0.000000000000e+00
0.000000000000e+00
0.000000000000e+00
0.000000000000e+00
0.000000000000e+00
0.000000000000e+00
1.814552515815e-03
9.065518493024e-03
4.521203346389e-02
9.116651330859e-02
1.001422550506e-01
1.180758340204e-01
1.538357789530e-01
2.249289490602e-01
3.654253163399e-01
6.397910156240e-01
1.163040106801e+00
2.115261236698e+00
3.696008944636e+00
5.892180147970e+00
8.045724857070e+00
8.773564350556e+00
9.051445819462e+00
9.089289597826e+00
9.090779514171e+00
9.090292529041e+00
9.090569987145e+00
9.090356828540e+00
9.090544295623e+00
9.090368357626e+00
9.090538829569e+00
9.090371019527e+00
9.090537515982e+00
9.090371869194e+00
9.090536689856e+00
9.090372691202e+00
9.090535871949e+00
9.090373505030e+00
9.090535062179e+00
9.090374310762e+00
9.090534260466e+00
9.090375108475e+00
9.090533466730e+00
9.090375898253e+00
9.090532680891e+00
9.090376680172e+00
9.090531902872e+00
9.090377454312e+00
9.090531132593e+00
9.090378220749e+00
9.090530369978e+00
9.090378979560e+00
9.090529614952e+00
9.090379730821e+00
9.090528867437e+00
9.090380474608e+00
9.090528127360e+00
9.090381210994e+00
9.090527394647e+00
9.090381940053e+00
9.090526669224e+00
9.090382661858e+00
9.090525951018e+00
9.090383376482e+00
9.090525239959e+00
9.090384083995e+00
9.090524535974e+00
9.090384784468e+00
9.090523592095e+00
</dep>
<dep tran.v(av0) time>
0.000000000000e+00
5.025541814446e-02
5.483213194903e-02
6.469493022972e-02
8.867660631939e-02
1.536628281563e-01
3.517151008055e-01
1.020044772901e+00
3.444835250931e+00
1.264053229463e+01
4.836107809514e+01
1.886119156658e+02
7.392814430432e+02
2.865017267922e+03
6.880943347054e+03
1.225001659146e+04
1.856485869129e+04
2.536141107146e+04
3.214798571745e+04
3.843605628317e+04
4.377085459674e+04
4.775984991414e+04
5.009732131159e+04
5.058347909600e+04
4.963023102382e+04
4.963022606079e+04
4.963021613469e+04
4.963019628236e+04
4.963018139298e+04
4.963017891555e+04
4.963017396069e+04
4.963016405092e+04
4.963014423125e+04
4.963010459132e+04
4.963002530916e+04
4.962986673560e+04
4.962954955153e+04
4.962891503556e+04
4.962764541234e+04
4.962512180277e+04
4.962246064669e+04
4.961856736902e+04
4.961386040520e+04
4.960496708900e+04
4.958991058077e+04
4.955947498501e+04
4.949731449686e+04
4.936784488488e+04
4.908838568581e+04
4.844808187900e+04
4.684903217169e+04
4.245767561120e+04
3.635231999478e+04
2.903676917388e+04
2.092857023856e+04
1.249672687787e+04
4.232165384527e+03
-3.383174278366e+03
-9.906680326117e+03
-1.496293752247e+04
-1.826737109069e+04
-1.964418062011e+04
-1.903743719976e+04
-1.651464658685e+04
-1.226255460157e+04
-6.575458385773e+03
1.632419552418e+02
7.505092080475e+03
1.496472137349e+04
2.205030205964e+04
2.829441556024e+04
3.328338657791e+04
3.668324168777e+04
3.826066130599e+04
3.789760849406e+04
3.559871536665e+04
3.149096293941e+04
2.581567448659e+04
1.891332545033e+04
1.120212430808e+04
3.151710199568e+03
-4.746380051484e+03
-1.200961989336e+04
-1.819483395621e+04
-2.292606552001e+04
-2.591821955891e+04
-2.699499581507e+04
-2.670933618207e+04
</dep>
<dep tran.v(bav0) time>
0.000000000000e+00
5.025541814446e-03
5.483213194903e-03
6.469493022972e-03
8.867660631939e-03
1.536628281563e-02
3.517151008055e-02
1.020044772901e-01
3.444835250931e-01
1.264053229463e+00
4.836107809514e+00
1.886119156658e+01
7.392814430432e+01
2.865017267922e+02
6.880943347054e+02
1.225001659146e+03
1.856485869129e+03
2.536141107146e+03
3.214798571745e+03
3.843605628317e+03
4.377085459674e+03
4.775984991414e+03
5.009732131159e+03
5.058347909600e+03
4.963023102382e+03
4.963022606079e+03
4.963021613469e+03
4.963019628236e+03
4.963018139298e+03
4.963017891555e+03
4.963017396069e+03
4.963016405092e+03
4.963014423125e+03
4.963010459132e+03
4.963002530916e+03
4.962986673560e+03
4.962954955153e+03
4.962891503556e+03
4.962764541234e+03
4.962512180277e+03
4.962246064669e+03
4.961856736902e+03
4.961386040520e+03
4.960496708900e+03
4.958991058077e+03
4.955947498501e+03
4.949731449686e+03
4.936784488488e+03
4.908838568581e+03
4.844808187900e+03
4.684903217169e+03
4.245767561120e+03
3.635231999478e+03
2.903676917388e+03
2.092857023856e+03
1.249672687787e+03
4.232165384527e+02
-3.383174278366e+02
-9.906680326117e+02
-1.496293752247e+03
-1.826737109069e+03
-1.964418062011e+03
-1.903743719976e+03
-1.651464658685e+03
-1.226255460157e+03
-6.575458385773e+02
1.632419552418e+01
7.505092080475e+02
1.496472137349e+03
2.205030205964e+03
2.829441556024e+03
3.328338657791e+03
3.668324168777e+03
3.826066130599e+03
3.789760849406e+03
3.559871536665e+03
3.149096293941e+03
2.581567448659e+03
1.891332545033e+03
1.120212430808e+03
3.151710199568e+02
-4.746380051484e+02
-1.200961989336e+03
-1.819483395621e+03
-2.292606552001e+03
-2.591821955891e+03
-2.699499581507e+03
-2.670933618207e+03
</dep>
