<Qucs Dataset 0.0.23>
<indep frequency 190>
1.000000000000e-1
1.115883992508e-1
1.245197084735e-1
1.389495494373e-1
1.550515779833e-1
1.730195738846e-1
1.930697728883e-1
2.154434690032e-1
2.404099183510e-1
2.682695795280e-1
2.993577294720e-1
3.340484983513e-1
3.727593720315e-1
4.159562163072e-1
4.641588833613e-1
5.179474679231e-1
5.779692884153e-1
6.449466771038e-1
7.196856730012e-1
8.030857221392e-1
8.961505019466e-1
1.000000000000e+0
1.115883992508e+0
1.245197084735e+0
1.389495494373e+0
1.550515779833e+0
1.730195738846e+0
1.930697728883e+0
2.154434690032e+0
2.404099183510e+0
2.682695795280e+0
2.993577294720e+0
3.340484983513e+0
3.727593720315e+0
4.159562163072e+0
4.641588833613e+0
5.179474679231e+0
5.779692884153e+0
6.449466771038e+0
7.196856730011e+0
8.030857221391e+0
8.961505019466e+0
1.000000000000e+1
1.115883992508e+1
1.245197084735e+1
1.389495494373e+1
1.550515779833e+1
1.730195738846e+1
1.930697728883e+1
2.154434690032e+1
2.404099183510e+1
2.682695795280e+1
2.993577294720e+1
3.340484983513e+1
3.727593720315e+1
4.159562163072e+1
4.641588833613e+1
5.179474679231e+1
5.779692884153e+1
6.449466771038e+1
7.196856730011e+1
8.030857221391e+1
8.961505019466e+1
1.000000000000e+2
1.115883992508e+2
1.245197084735e+2
1.389495494373e+2
1.550515779833e+2
1.730195738846e+2
1.930697728883e+2
2.154434690032e+2
2.404099183510e+2
2.682695795280e+2
2.993577294720e+2
3.340484983513e+2
3.727593720315e+2
4.159562163072e+2
4.641588833613e+2
5.179474679231e+2
5.779692884153e+2
6.449466771038e+2
7.196856730011e+2
8.030857221391e+2
8.961505019466e+2
1.000000000000e+3
1.115883992508e+3
1.245197084735e+3
1.389495494373e+3
1.550515779833e+3
1.730195738846e+3
1.930697728883e+3
2.154434690032e+3
2.404099183510e+3
2.682695795280e+3
2.993577294720e+3
3.340484983513e+3
3.727593720315e+3
4.159562163072e+3
4.641588833613e+3
5.179474679231e+3
5.779692884153e+3
6.449466771038e+3
7.196856730011e+3
8.030857221391e+3
8.961505019466e+3
1.000000000000e+4
1.115883992508e+4
1.245197084735e+4
1.389495494373e+4
1.550515779833e+4
1.730195738846e+4
1.930697728883e+4
2.154434690032e+4
2.404099183510e+4
2.682695795280e+4
2.993577294720e+4
3.340484983513e+4
3.727593720315e+4
4.159562163072e+4
4.641588833613e+4
5.179474679231e+4
5.779692884153e+4
6.449466771038e+4
7.196856730011e+4
8.030857221391e+4
8.961505019466e+4
1.000000000000e+5
1.115883992508e+5
1.245197084735e+5
1.389495494373e+5
1.550515779833e+5
1.730195738846e+5
1.930697728883e+5
2.154434690032e+5
2.404099183510e+5
2.682695795280e+5
2.993577294720e+5
3.340484983513e+5
3.727593720315e+5
4.159562163072e+5
4.641588833613e+5
5.179474679231e+5
5.779692884153e+5
6.449466771038e+5
7.196856730011e+5
8.030857221391e+5
8.961505019466e+5
1.000000000000e+6
1.115883992508e+6
1.245197084735e+6
1.389495494373e+6
1.550515779833e+6
1.730195738846e+6
1.930697728883e+6
2.154434690032e+6
2.404099183510e+6
2.682695795280e+6
2.993577294720e+6
3.340484983513e+6
3.727593720315e+6
4.159562163072e+6
4.641588833613e+6
5.179474679231e+6
5.779692884153e+6
6.449466771038e+6
7.196856730011e+6
8.030857221391e+6
8.961505019466e+6
1.000000000000e+7
1.115883992508e+7
1.245197084735e+7
1.389495494373e+7
1.550515779833e+7
1.730195738846e+7
1.930697728883e+7
2.154434690032e+7
2.404099183510e+7
2.682695795280e+7
2.993577294720e+7
3.340484983513e+7
3.727593720315e+7
4.159562163072e+7
4.641588833613e+7
5.179474679231e+7
5.779692884153e+7
6.449466771038e+7
7.196856730011e+7
8.030857221391e+7
8.961505019466e+7
1.000000000000e+8
</indep>
<dep ac.v(vout) frequency>
5.000000000000e-1-j1.570796326795e-7
4.999999999999e-1-j1.752826476560e-7
4.999999999999e-1-j1.955951006837e-7
4.999999999999e-1-j2.182614418659e-7
4.999999999999e-1-j2.435544491598e-7
4.999999999999e-1-j2.717785111215e-7
4.999999999998e-1-j3.032732900680e-7
4.999999999998e-1-j3.384178097420e-7
4.999999999997e-1-j3.776350166706e-7
4.999999999996e-1-j4.213968701131e-7
4.999999999996e-1-j4.702300218519e-7
4.999999999994e-1-j5.247221541810e-7
4.999999999993e-1-j5.855290523646e-7
4.999999999991e-1-j6.533824966817e-7
4.999999999989e-1-j7.290990690316e-7
4.999999999987e-1-j8.135899800842e-7
4.999999999984e-1-j9.078720352401e-7
4.999999999979e-1-j1.013079871369e-6
4.999999999974e-1-j1.130479611591e-6
4.999999999968e-1-j1.261484102430e-6
4.999999999960e-1-j1.407669916702e-6
4.999999999951e-1-j1.570796326779e-6
4.999999999939e-1-j1.752826476539e-6
4.999999999923e-1-j1.955951006808e-6
4.999999999905e-1-j2.182614418618e-6
4.999999999881e-1-j2.435544491541e-6
4.999999999852e-1-j2.717785111135e-6
4.999999999816e-1-j3.032732900569e-6
4.999999999771e-1-j3.384178097267e-6
4.999999999715e-1-j3.776350166493e-6
4.999999999645e-1-j4.213968700834e-6
4.999999999558e-1-j4.702300218108e-6
4.999999999449e-1-j5.247221541238e-6
4.999999999314e-1-j5.855290522851e-6
4.999999999146e-1-j6.533824965713e-6
4.999999998937e-1-j7.290990688781e-6
4.999999998676e-1-j8.135899798709e-6
4.999999998352e-1-j9.078720349437e-6
4.999999997947e-1-j1.013079870957e-5
4.999999997444e-1-j1.130479611019e-5
4.999999996817e-1-j1.261484101635e-5
4.999999996037e-1-j1.407669915597e-5
4.999999995065e-1-j1.570796325245e-5
4.999999993855e-1-j1.752826474406e-5
4.999999992349e-1-j1.955951003844e-5
4.999999990472e-1-j2.182614414500e-5
4.999999988136e-1-j2.435544485820e-5
4.999999985227e-1-j2.717785103185e-5
4.999999981605e-1-j3.032732889524e-5
4.999999977095e-1-j3.384178081918e-5
4.999999971478e-1-j3.776350145167e-5
4.999999964485e-1-j4.213968671202e-5
4.999999955777e-1-j4.702300176933e-5
4.999999944933e-1-j5.247221484027e-5
4.999999931431e-1-j5.855290443356e-5
4.999999914618e-1-j6.533824855254e-5
4.999999893683e-1-j7.290990535300e-5
4.999999867614e-1-j8.135899585448e-5
4.999999835154e-1-j9.078720053112e-5
4.999999794734e-1-j1.013079829783e-4
4.999999744403e-1-j1.130479553808e-4
4.999999681732e-1-j1.261484022139e-4
4.999999603693e-1-j1.407669805139e-4
4.999999506520e-1-j1.570796171764e-4
4.999999385520e-1-j1.752826261145e-4
4.999999234851e-1-j1.955950707519e-4
4.999999047239e-1-j2.182614002757e-4
4.999998813625e-1-j2.435543913705e-4
4.999998522729e-1-j2.717784308234e-4
4.999998160507e-1-j3.032731784943e-4
4.999997709469e-1-j3.384176547108e-4
4.999997147838e-1-j3.776348012555e-4
4.999996448496e-1-j4.213965707948e-4
4.999995577678e-1-j4.702296059507e-4
4.999994493339e-1-j5.247215762882e-4
4.999993143124e-1-j5.855282493854e-4
4.999991461841e-1-j6.533813809461e-4
4.999989368314e-1-j7.290975187226e-4
4.999986761462e-1-j8.135878259380e-4
4.999983515422e-1-j9.078690420655e-4
4.999979473468e-1-j1.013075712370e-3
4.999974440448e-1-j1.130473832687e-3
4.999968173360e-1-j1.261476072677e-3
4.999960369622e-1-j1.407658759415e-3
4.999950652465e-1-j1.570780823810e-3
4.999938552742e-1-j1.752804935284e-3
4.999923486284e-1-j1.955921075422e-3
4.999904725701e-1-j2.182572829248e-3
4.999881365275e-1-j2.435486703569e-3
4.999852277246e-1-j2.717704815475e-3
4.999816057390e-1-j3.032621330920e-3
4.999770957265e-1-j3.384023073140e-3
4.999714799857e-1-j3.776134763587e-3
4.999644874580e-1-j4.213669403653e-3
4.999557806564e-1-j4.701884353265e-3
4.999449393962e-1-j5.246643711443e-3
4.999314405479e-1-j5.854487652633e-3
4.999146328402e-1-j6.532709418668e-3
4.998937055113e-1-j7.289440706077e-3
4.998676493115e-1-j8.133746216984e-3
4.998352080042e-1-j9.075728151539e-3
4.997948180687e-1-j1.012664140004e-2
4.997445337623e-1-j1.129902012851e-2
4.996819340326e-1-j1.260681632115e-2
4.996040069507e-1-j1.406555061708e-2
4.995070063452e-1-j1.569247541551e-2
4.993862741133e-1-j1.750674966593e-2
4.992360202483e-1-j1.952962392908e-2
4.990490509146e-1-j2.178463308289e-2
4.988164329156e-1-j2.429779231013e-2
4.985270806206e-1-j2.709778954496e-2
4.981672488991e-1-j3.021616411556e-2
4.977199129470e-1-j3.368745656091e-2
4.971640132828e-1-j3.754930808883e-2
4.964735420335e-1-j4.184247934141e-2
4.956164455400e-1-j4.661074640334e-2
4.945533193293e-1-j5.190061661522e-2
4.932358762202e-1-j5.776078703917e-2
4.916051791386e-1-j6.424124386556e-2
4.895896505633e-1-j7.139187168679e-2
4.871029051523e-1-j7.926040858057e-2
4.840415071374e-1-j8.788954964538e-2
4.802828367807e-1-j9.731297490171e-2
4.756833677798e-1-j1.075500697702e-1
4.700778145706e-1-j1.185991379979e-1
4.632798018310e-1-j1.304290080117e-1
4.550849188231e-1-j1.429691437734e-1
4.452772013609e-1-j1.560987335908e-1
4.336401465324e-1-j1.696357762430e-1
4.199731756673e-1-j1.833279017323e-1
4.041138535466e-1-j1.968474539968e-1
3.859650043509e-1-j2.097939884550e-1
3.655241285831e-1-j2.217074101493e-1
3.429104905271e-1-j2.320940342836e-1
3.183835644500e-1-j2.404655653376e-1
2.923461517236e-1-j2.463875066520e-1
2.653272812766e-1-j2.495297065455e-1
2.379441598296e-1-j2.497091442414e-1
2.108479512749e-1-j2.469152022064e-1
1.846630164539e-1-j2.413111654713e-1
1.599313288212e-1-j2.332115659055e-1
1.370721264423e-1-j2.230410172451e-1
1.163622409103e-1-j2.112840489613e-1
9.793699053180e-2-j1.984359875413e-1
8.180713119113e-2-j1.849625877896e-1
6.788526544681e-2-j1.712723663018e-1
5.601526425475e-2-j1.577020047363e-1
4.599983417519e-2-j1.445127411111e-1
3.762339732844e-2-j1.318945739509e-1
3.066924456915e-2-j1.199750795879e-1
2.493116156985e-2-j1.088302254326e-1
2.022039594048e-2-j9.849534790157e-2
1.636906417944e-2-j8.897519782281e-2
1.323105712504e-2-j8.025252450779e-2
1.068133100499e-2-j7.229505287677e-2
8.614261288472e-3-j6.506093410557e-2
6.941539713137e-3-j5.850286217767e-2
5.589933061256e-3-j5.257108691095e-2
4.499100086760e-3-j4.721554978806e-2
3.619576475923e-3-j4.238734367823e-2
2.910979768053e-3-j3.803966457287e-2
2.340449443494e-3-j3.412839020742e-2
1.881315607451e-3-j3.061239055204e-2
1.511977951548e-3-j2.745365000228e-2
1.214971372043e-3-j2.461726082623e-2
9.761932608197e-4-j2.207133156670e-2
7.842683839749e-4-j1.978684196857e-2
6.300293369461e-4-j1.773746688531e-2
5.060931386533e-4-j1.589938486425e-2
4.065171982654e-4-j1.425108216593e-2
3.265204330257e-4-j1.277315939459e-2
2.622576222626e-4-j1.144814535507e-2
2.106371075181e-4-j1.026032093884e-2
1.691736873881e-4-j9.195554575857e-3
1.358700253018e-4-j8.241149918980e-3
1.091211164024e-4-j7.385705841907e-3
8.763737678398e-5-j6.618988448561e-3
7.038275521850e-5-j5.931814551806e-3
5.652495260119e-5-j5.315945939372e-3
4.539539293183e-5-j4.763993673822e-3
3.645704369355e-5-j4.269331649186e-3
2.927855163801e-5-j3.826018633700e-3
2.351345791273e-5-j3.428728054784e-3
1.888349719414e-5-j3.072684821227e-3
1.516517976199e-5-j2.753608523069e-3
1.217901207944e-5-j2.467662398179e-3
9.780837623989e-6-j2.211407503652e-3
7.854881303179e-6-j1.981761578099e-3
6.308162537834e-6-j1.775962126849e-3
5.066007852726e-6-j1.591533305315e-3
</dep>
<dep ac.vout_db frequency>
-6.020599913280e+0+j0.000000000000e+0
-6.020599913280e+0+j0.000000000000e+0
-6.020599913280e+0+j0.000000000000e+0
-6.020599913280e+0+j0.000000000000e+0
-6.020599913281e+0+j0.000000000000e+0
-6.020599913281e+0+j0.000000000000e+0
-6.020599913281e+0+j0.000000000000e+0
-6.020599913282e+0+j0.000000000000e+0
-6.020599913282e+0+j0.000000000000e+0
-6.020599913283e+0+j0.000000000000e+0
-6.020599913283e+0+j0.000000000000e+0
-6.020599913284e+0+j0.000000000000e+0
-6.020599913286e+0+j0.000000000000e+0
-6.020599913287e+0+j0.000000000000e+0
-6.020599913289e+0+j0.000000000000e+0
-6.020599913291e+0+j0.000000000000e+0
-6.020599913294e+0+j0.000000000000e+0
-6.020599913297e+0+j0.000000000000e+0
-6.020599913302e+0+j0.000000000000e+0
-6.020599913307e+0+j0.000000000000e+0
-6.020599913314e+0+j0.000000000000e+0
-6.020599913322e+0+j0.000000000000e+0
-6.020599913333e+0+j0.000000000000e+0
-6.020599913346e+0+j0.000000000000e+0
-6.020599913362e+0+j0.000000000000e+0
-6.020599913383e+0+j0.000000000000e+0
-6.020599913408e+0+j0.000000000000e+0
-6.020599913439e+0+j0.000000000000e+0
-6.020599913479e+0+j0.000000000000e+0
-6.020599913527e+0+j0.000000000000e+0
-6.020599913588e+0+j0.000000000000e+0
-6.020599913664e+0+j0.000000000000e+0
-6.020599913758e+0+j0.000000000000e+0
-6.020599913875e+0+j0.000000000000e+0
-6.020599914021e+0+j0.000000000000e+0
-6.020599914203e+0+j0.000000000000e+0
-6.020599914430e+0+j0.000000000000e+0
-6.020599914711e+0+j0.000000000000e+0
-6.020599915063e+0+j0.000000000000e+0
-6.020599915500e+0+j0.000000000000e+0
-6.020599916044e+0+j0.000000000000e+0
-6.020599916722e+0+j0.000000000000e+0
-6.020599917566e+0+j0.000000000000e+0
-6.020599918617e+0+j0.000000000000e+0
-6.020599919926e+0+j0.000000000000e+0
-6.020599921555e+0+j0.000000000000e+0
-6.020599923584e+0+j0.000000000000e+0
-6.020599926111e+0+j0.000000000000e+0
-6.020599929257e+0+j0.000000000000e+0
-6.020599933175e+0+j0.000000000000e+0
-6.020599938053e+0+j0.000000000000e+0
-6.020599944128e+0+j0.000000000000e+0
-6.020599951691e+0+j0.000000000000e+0
-6.020599961110e+0+j0.000000000000e+0
-6.020599972838e+0+j0.000000000000e+0
-6.020599987441e+0+j0.000000000000e+0
-6.020600005625e+0+j0.000000000000e+0
-6.020600028268e+0+j0.000000000000e+0
-6.020600056463e+0+j0.000000000000e+0
-6.020600091572e+0+j0.000000000000e+0
-6.020600135288e+0+j0.000000000000e+0
-6.020600189724e+0+j0.000000000000e+0
-6.020600257507e+0+j0.000000000000e+0
-6.020600341911e+0+j0.000000000000e+0
-6.020600447010e+0+j0.000000000000e+0
-6.020600577879e+0+j0.000000000000e+0
-6.020600740837e+0+j0.000000000000e+0
-6.020600943752e+0+j0.000000000000e+0
-6.020601196421e+0+j0.000000000000e+0
-6.020601511043e+0+j0.000000000000e+0
-6.020601902810e+0+j0.000000000000e+0
-6.020602390637e+0+j0.000000000000e+0
-6.020602998078e+0+j0.000000000000e+0
-6.020603754461e+0+j0.000000000000e+0
-6.020604696307e+0+j0.000000000000e+0
-6.020605869091e+0+j0.000000000000e+0
-6.020607329437e+0+j0.000000000000e+0
-6.020609147855e+0+j0.000000000000e+0
-6.020611412143e+0+j0.000000000000e+0
-6.020614231626e+0+j0.000000000000e+0
-6.020617742436e+0+j0.000000000000e+0
-6.020622114081e+0+j0.000000000000e+0
-6.020627557636e+0+j0.000000000000e+0
-6.020634335925e+0+j0.000000000000e+0
-6.020642776215e+0+j0.000000000000e+0
-6.020653286018e+0+j0.000000000000e+0
-6.020666372757e+0+j0.000000000000e+0
-6.020682668272e+0+j0.000000000000e+0
-6.020702959315e+0+j0.000000000000e+0
-6.020728225529e+0+j0.000000000000e+0
-6.020759686739e+0+j0.000000000000e+0
-6.020798861829e+0+j0.000000000000e+0
-6.020847642042e+0+j0.000000000000e+0
-6.020908382255e+0+j0.000000000000e+0
-6.020984014603e+0+j0.000000000000e+0
-6.021078189942e+0+j0.000000000000e+0
-6.021195453945e+0+j0.000000000000e+0
-6.021341466314e+0+j0.000000000000e+0
-6.021523273629e+0+j0.000000000000e+0
-6.021749648928e+0+j0.000000000000e+0
-6.022031514297e+0+j0.000000000000e+0
-6.022382466664e+0+j0.000000000000e+0
-6.022819431887e+0+j0.000000000000e+0
-6.023363478260e+0+j0.000000000000e+0
-6.024040827962e+0+j0.000000000000e+0
-6.024884114189e+0+j0.000000000000e+0
-6.025933942901e+0+j0.000000000000e+0
-6.027240831909e+0+j0.000000000000e+0
-6.028867616747e+0+j0.000000000000e+0
-6.030892433053e+0+j0.000000000000e+0
-6.033412409508e+0+j0.000000000000e+0
-6.036548234269e+0+j0.000000000000e+0
-6.040449791715e+0+j0.000000000000e+0
-6.045303105261e+0+j0.000000000000e+0
-6.051338865486e+0+j0.000000000000e+0
-6.058842869656e+0+j0.000000000000e+0
-6.068168745697e+0+j0.000000000000e+0
-6.079753375582e+0+j0.000000000000e+0
-6.094135460641e+0+j0.000000000000e+0
-6.111977669814e+0+j0.000000000000e+0
-6.134092758893e+0+j0.000000000000e+0
-6.161473911522e+0+j0.000000000000e+0
-6.195329285432e+0+j0.000000000000e+0
-6.237120290407e+0+j0.000000000000e+0
-6.288602406190e+0+j0.000000000000e+0
-6.351866295090e+0+j0.000000000000e+0
-6.429375521163e+0+j0.000000000000e+0
-6.523995362764e+0+j0.000000000000e+0
-6.639005131614e+0+j0.000000000000e+0
-6.778084434368e+0+j0.000000000000e+0
-6.945262567885e+0+j0.000000000000e+0
-7.144820669153e+0+j0.000000000000e+0
-7.381139452467e+0+j0.000000000000e+0
-7.658492241439e+0+j0.000000000000e+0
-7.980793551062e+0+j0.000000000000e+0
-8.351326142555e+0+j0.000000000000e+0
-8.772480886942e+0+j0.000000000000e+0
-9.245549458480e+0+j0.000000000000e+0
-9.770606101581e+0+j0.000000000000e+0
-1.034650070220e+1+j0.000000000000e+0
-1.097096449983e+1+j0.000000000000e+0
-1.164080845492e+1+j0.000000000000e+0
-1.235217919342e+1+j0.000000000000e+0
-1.310083241045e+1+j0.000000000000e+0
-1.388238832555e+1+j0.000000000000e+0
-1.469254475133e+1+j0.000000000000e+0
-1.552723606545e+1+j0.000000000000e+0
-1.638273729568e+1+j0.000000000000e+0
-1.725571986630e+1+j0.000000000000e+0
-1.814326916893e+1+j0.000000000000e+0
-1.904287482438e+1+j0.000000000000e+0
-1.995240340300e+1+j0.000000000000e+0
-2.087006144189e+1+j0.000000000000e+0
-2.179435451157e+1+j0.000000000000e+0
-2.272404621988e+1+j0.000000000000e+0
-2.365811954982e+1+j0.000000000000e+0
-2.459574183026e+1+j0.000000000000e+0
-2.553623388368e+1+j0.000000000000e+0
-2.647904341097e+1+j0.000000000000e+0
-2.742372238647e+1+j0.000000000000e+0
-2.836990808657e+1+j0.000000000000e+0
-2.931730731379e+1+j0.000000000000e+0
-3.026568337234e+1+j0.000000000000e+0
-3.121484537562e+1+j0.000000000000e+0
-3.216463950742e+1+j0.000000000000e+0
-3.311494190498e+1+j0.000000000000e+0
-3.406565287911e+1+j0.000000000000e+0
-3.501669223072e+1+j0.000000000000e+0
-3.596799546253e+1+j0.000000000000e+0
-3.691951071924e+1+j0.000000000000e+0
-3.787119631882e+1+j0.000000000000e+0
-3.882301876269e+1+j0.000000000000e+0
-3.977495113284e+1+j0.000000000000e+0
-4.072697180169e+1+j0.000000000000e+0
-4.167906339387e+1+j0.000000000000e+0
-4.263121195124e+1+j0.000000000000e+0
-4.358340626151e+1+j0.000000000000e+0
-4.453563731847e+1+j0.000000000000e+0
-4.548789788823e+1+j0.000000000000e+0
-4.644018216063e+1+j0.000000000000e+0
-4.739248546914e+1+j0.000000000000e+0
-4.834480406583e+1+j0.000000000000e+0
-4.929713494060e+1+j0.000000000000e+0
-5.024947567595e+1+j0.000000000000e+0
-5.120182433033e+1+j0.000000000000e+0
-5.215417934448e+1+j0.000000000000e+0
-5.310653946613e+1+j0.000000000000e+0
-5.405890368957e+1+j0.000000000000e+0
-5.501127120713e+1+j0.000000000000e+0
-5.596364137017e+1+j0.000000000000e+0
</dep>
