<Qucs Dataset 0.0.23>
<indep frequency 190>
1.000000000000e-1
1.115883992508e-1
1.245197084735e-1
1.389495494373e-1
1.550515779833e-1
1.730195738846e-1
1.930697728883e-1
2.154434690032e-1
2.404099183510e-1
2.682695795280e-1
2.993577294720e-1
3.340484983513e-1
3.727593720315e-1
4.159562163072e-1
4.641588833613e-1
5.179474679231e-1
5.779692884153e-1
6.449466771038e-1
7.196856730012e-1
8.030857221392e-1
8.961505019466e-1
1.000000000000e+0
1.115883992508e+0
1.245197084735e+0
1.389495494373e+0
1.550515779833e+0
1.730195738846e+0
1.930697728883e+0
2.154434690032e+0
2.404099183510e+0
2.682695795280e+0
2.993577294720e+0
3.340484983513e+0
3.727593720315e+0
4.159562163072e+0
4.641588833613e+0
5.179474679231e+0
5.779692884153e+0
6.449466771038e+0
7.196856730011e+0
8.030857221391e+0
8.961505019466e+0
1.000000000000e+1
1.115883992508e+1
1.245197084735e+1
1.389495494373e+1
1.550515779833e+1
1.730195738846e+1
1.930697728883e+1
2.154434690032e+1
2.404099183510e+1
2.682695795280e+1
2.993577294720e+1
3.340484983513e+1
3.727593720315e+1
4.159562163072e+1
4.641588833613e+1
5.179474679231e+1
5.779692884153e+1
6.449466771038e+1
7.196856730011e+1
8.030857221391e+1
8.961505019466e+1
1.000000000000e+2
1.115883992508e+2
1.245197084735e+2
1.389495494373e+2
1.550515779833e+2
1.730195738846e+2
1.930697728883e+2
2.154434690032e+2
2.404099183510e+2
2.682695795280e+2
2.993577294720e+2
3.340484983513e+2
3.727593720315e+2
4.159562163072e+2
4.641588833613e+2
5.179474679231e+2
5.779692884153e+2
6.449466771038e+2
7.196856730011e+2
8.030857221391e+2
8.961505019466e+2
1.000000000000e+3
1.115883992508e+3
1.245197084735e+3
1.389495494373e+3
1.550515779833e+3
1.730195738846e+3
1.930697728883e+3
2.154434690032e+3
2.404099183510e+3
2.682695795280e+3
2.993577294720e+3
3.340484983513e+3
3.727593720315e+3
4.159562163072e+3
4.641588833613e+3
5.179474679231e+3
5.779692884153e+3
6.449466771038e+3
7.196856730011e+3
8.030857221391e+3
8.961505019466e+3
1.000000000000e+4
1.115883992508e+4
1.245197084735e+4
1.389495494373e+4
1.550515779833e+4
1.730195738846e+4
1.930697728883e+4
2.154434690032e+4
2.404099183510e+4
2.682695795280e+4
2.993577294720e+4
3.340484983513e+4
3.727593720315e+4
4.159562163072e+4
4.641588833613e+4
5.179474679231e+4
5.779692884153e+4
6.449466771038e+4
7.196856730011e+4
8.030857221391e+4
8.961505019466e+4
1.000000000000e+5
1.115883992508e+5
1.245197084735e+5
1.389495494373e+5
1.550515779833e+5
1.730195738846e+5
1.930697728883e+5
2.154434690032e+5
2.404099183510e+5
2.682695795280e+5
2.993577294720e+5
3.340484983513e+5
3.727593720315e+5
4.159562163072e+5
4.641588833613e+5
5.179474679231e+5
5.779692884153e+5
6.449466771038e+5
7.196856730011e+5
8.030857221391e+5
8.961505019466e+5
1.000000000000e+6
1.115883992508e+6
1.245197084735e+6
1.389495494373e+6
1.550515779833e+6
1.730195738846e+6
1.930697728883e+6
2.154434690032e+6
2.404099183510e+6
2.682695795280e+6
2.993577294720e+6
3.340484983513e+6
3.727593720315e+6
4.159562163072e+6
4.641588833613e+6
5.179474679231e+6
5.779692884153e+6
6.449466771038e+6
7.196856730011e+6
8.030857221391e+6
8.961505019466e+6
1.000000000000e+7
1.115883992508e+7
1.245197084735e+7
1.389495494373e+7
1.550515779833e+7
1.730195738846e+7
1.930697728883e+7
2.154434690032e+7
2.404099183510e+7
2.682695795280e+7
2.993577294720e+7
3.340484983513e+7
3.727593720315e+7
4.159562163072e+7
4.641588833613e+7
5.179474679231e+7
5.779692884153e+7
6.449466771038e+7
7.196856730011e+7
8.030857221391e+7
8.961505019466e+7
1.000000000000e+8
</indep>
<dep ac.v(vout) frequency>
9.999999999992e-1-j6.283185307170e-7
9.999999999990e-1-j7.011305906228e-7
9.999999999988e-1-j7.823804027331e-7
9.999999999985e-1-j8.730457674611e-7
9.999999999981e-1-j9.742177966357e-7
9.999999999976e-1-j1.087114044481e-6
9.999999999971e-1-j1.213093160265e-6
9.999999999963e-1-j1.353671238959e-6
9.999999999954e-1-j1.510540066669e-6
9.999999999943e-1-j1.685587480434e-6
9.999999999929e-1-j1.880920087383e-6
9.999999999912e-1-j2.098888616689e-6
9.999999999890e-1-j2.342116209410e-6
9.999999999863e-1-j2.613529986660e-6
9.999999999830e-1-j2.916396276033e-6
9.999999999788e-1-j3.254359920208e-6
9.999999999736e-1-j3.631488140781e-6
9.999999999672e-1-j4.052319485226e-6
9.999999999591e-1-j4.521918446019e-6
9.999999999491e-1-j5.045936409237e-6
9.999999999366e-1-j5.630679666138e-6
9.999999999210e-1-j6.283185306187e-6
9.999999999017e-1-j7.011305904863e-6
9.999999998776e-1-j7.823804025434e-6
9.999999998476e-1-j8.730457671976e-6
9.999999998102e-1-j9.742177962696e-6
9.999999997636e-1-j1.087114043972e-5
9.999999997057e-1-j1.213093159558e-5
9.999999996335e-1-j1.353671237976e-5
9.999999995437e-1-j1.510540065305e-5
9.999999994318e-1-j1.685587478538e-5
9.999999992924e-1-j1.880920084748e-5
9.999999991189e-1-j2.098888613028e-5
9.999999989029e-1-j2.342116204323e-5
9.999999986339e-1-j2.613529979591e-5
9.999999982989e-1-j2.916396266210e-5
9.999999978818e-1-j3.254359906559e-5
9.999999973625e-1-j3.631488121816e-5
9.999999967157e-1-j4.052319458875e-5
9.999999959105e-1-j4.521918409403e-5
9.999999949077e-1-j5.045936358360e-5
9.999999936591e-1-j5.630679595445e-5
9.999999921043e-1-j6.283185207959e-5
9.999999901683e-1-j7.011305768376e-5
9.999999877576e-1-j7.823803835786e-5
9.999999847558e-1-j8.730457408460e-5
9.999999810180e-1-j9.742177596542e-5
9.999999763637e-1-j1.087113993095e-4
9.999999705681e-1-j1.213093088865e-4
9.999999633515e-1-j1.353671139749e-4
9.999999543654e-1-j1.510539928817e-4
9.999999431759e-1-j1.685587288889e-4
9.999999292428e-1-j1.880919821232e-4
9.999999118933e-1-j2.098888246874e-4
9.999998902899e-1-j2.342115695554e-4
9.999998633893e-1-j2.613529272659e-4
9.999998298927e-1-j2.916395283932e-4
9.999997881829e-1-j3.254358541687e-4
9.999997362460e-1-j3.631486225333e-4
9.999996715744e-1-j4.052316823721e-4
9.999995910454e-1-j4.521914747870e-4
9.999994907710e-1-j5.045931270676e-4
9.999993659097e-1-j5.630672526134e-4
9.999992104329e-1-j6.283175385187e-4
9.999990168337e-1-j7.011292119683e-4
9.999987757648e-1-j7.823784870998e-4
9.999984755868e-1-j8.730431056988e-4
9.999981018066e-1-j9.742140981318e-4
9.999976363773e-1-j1.087108905431e-3
9.999970568273e-1-j1.213086019587e-3
9.999963351752e-1-j1.353661317033e-3
9.999954365791e-1-j1.510526280223e-3
9.999943176543e-1-j1.685568324272e-3
9.999929243794e-1-j1.880893470055e-3
9.999911894884e-1-j2.098851632161e-3
9.999890292240e-1-j2.342064819797e-3
9.999863392953e-1-j2.613458581408e-3
9.999829898442e-1-j2.916297059423e-3
9.999788191803e-1-j3.254222060324e-3
9.999736259790e-1-j3.631296587083e-3
9.999671595707e-1-j4.052053325670e-3
9.999591078517e-1-j4.521548624469e-3
9.999490822373e-1-j5.045422554165e-3
9.999365989334e-1-j5.629965684659e-3
9.999210556312e-1-j6.282193262983e-3
9.999017025076e-1-j7.009927518663e-3
9.998776061489e-1-j7.821888856340e-3
9.998476046804e-1-j8.727796712863e-3
9.998102519729e-1-j9.738480848297e-3
9.997637482934e-1-j1.086600379389e-2
9.997058541423e-1-j1.212379507616e-2
9.996337832614e-1-j1.352679764836e-2
9.995440698654e-1-j1.509162665211e-2
9.994324040318e-1-j1.683674015137e-2
9.992934278264e-1-j1.878262075820e-2
9.991204831409e-1-j2.095196600879e-2
9.989053003260e-1-j2.336988381760e-2
9.986376145325e-1-j2.606408716186e-2
9.983046942314e-1-j2.906507909271e-2
9.978907637508e-1-j3.240631492522e-2
9.973762990154e-1-j3.612432262950e-2
9.967371732911e-1-j4.025875452992e-2
9.959436281778e-1-j4.485233281252e-2
9.949590452060e-1-j4.995063735081e-2
9.937384965661e-1-j5.560166626714e-2
9.922270617992e-1-j6.185507684986e-2
9.903579137514e-1-j6.876098673715e-2
9.880502059919e-1-j7.636818334376e-2
9.852068408674e-1-j8.472155575275e-2
9.817122693319e-1-j9.385853312855e-2
9.774305780961e-1-j1.038042973431e-1
9.722042624436e-1-j1.145655522044e-1
9.658542646259e-1-j1.261227039150e-1
9.581820657101e-1-j1.384204736182e-1
9.489748173881e-1-j1.513572662457e-1
9.380146176219e-1-j1.647740985728e-1
9.250929523279e-1-j1.784445517383e-1
9.100308861887e-1-j1.920679969845e-1
8.927046288258e-1-j2.052690646729e-1
8.730745558069e-1-j2.176066490550e-1
8.512137815700e-1-j2.285952108429e-1
8.273304754511e-1-j2.377393479559e-1
8.017771544667e-1-j2.445794886644e-1
7.750411402172e-1-j2.487427210927e-1
7.477137298400e-1-j2.499895457189e-1
7.204408504449e-1-j2.482463628688e-1
6.938633183696e-1-j2.436158307162e-1
6.685580895529e-1-j2.363624657655e-1
6.449915687813e-1-j2.268771239526e-1
6.234922934460e-1-j2.156288482148e-1
6.042448228945e-1-j2.031143233426e-1
5.873016626698e-1-j1.898137271906e-1
5.726070875407e-1-j1.761583225658e-1
5.600261476816e-1-j1.625113394053e-1
5.493733281817e-1-j1.491607808880e-1
5.404373031753e-1-j1.363212239513e-1
5.330001604119e-1-j1.241413292128e-1
5.268509231406e-1-j1.127141938569e-1
5.217940577574e-1-j1.020884318871e-1
5.176540232529e-1-j9.227863831598e-2
5.142769568176e-1-j8.327452739490e-2
5.115304521410e-1-j7.504848262252e-2
5.093021828951e-1-j6.756153373718e-2
5.074979186321e-1-j6.076792354737e-2
5.060393048290e-1-j5.461848781964e-2
5.048616426572e-1-j4.906307939058e-2
5.039118055572e-1-j4.405224802285e-2
5.031463624161e-1-j3.953835620734e-2
5.025299336430e-1-j3.547627738751e-2
5.020337799639e-1-j3.182379174474e-2
5.016346089084e-1-j2.854176777808e-2
5.013135766980e-1-j2.559419592940e-2
5.010554607063e-1-j2.294812314423e-2
5.008479779030e-1-j2.057352388274e-2
5.006812264475e-1-j1.844313298452e-2
5.005472300479e-1-j1.653225826206e-2
5.004395673715e-1-j1.481858516457e-2
5.003530714016e-1-j1.328198183280e-2
5.002835860341e-1-j1.190430997585e-2
5.002277693332e-1-j1.066924494711e-2
5.001829347091e-1-j9.562106955506e-3
5.001469228380e-1-j8.569704351442e-3
5.001179984611e-1-j7.680189250331e-3
5.000947672833e-1-j6.882925309276e-3
5.000761090927e-1-j6.168367186954e-3
5.000611239578e-1-j5.527951045220e-3
5.000490889595e-1-j4.953995358270e-3
5.000394234046e-1-j4.439611256334e-3
5.000316608649e-1-j3.978621628140e-3
5.000254267056e-1-j3.565488227017e-3
5.000204200287e-1-j3.195246060762e-3
5.000163991654e-1-j2.863444388987e-3
5.000131700206e-1-j2.566093699500e-3
5.000105767104e-1-j2.299618084347e-3
5.000084940405e-1-j2.060812484703e-3
5.000068214655e-1-j1.846804320507e-3
5.000054782362e-1-j1.655019065008e-3
5.000043995028e-1-j1.483149365712e-3
5.000035331840e-1-j1.329127351457e-3
5.000028374536e-1-j1.191099800537e-3
5.000022787210e-1-j1.067405876914e-3
5.000018300099e-1-j9.565571708159e-4
5.000014696559e-1-j8.572198065744e-4
5.000011802604e-1-j7.681984045676e-4
5.000009478507e-1-j6.884217058402e-4
5.000007612056e-1-j6.169296875337e-4
5.000006113136e-1-j5.528620148886e-4
5.000004909373e-1-j4.954476914300e-4
5.000003942648e-1-j4.439957832077e-4
5.000003166285e-1-j3.978871057648e-4
</dep>
<dep ac.vout_db frequency>
-5.142758379130e-12+j0.000000000000e+0
-6.405063032849e-12+j0.000000000000e+0
-7.976916803332e-12+j0.000000000000e+0
-9.930644250571e-12+j0.000000000000e+0
-1.236653543109e-11+j0.000000000000e+0
-1.539838098594e-11+j0.000000000000e+0
-1.917372301750e-11+j0.000000000000e+0
-2.387481941696e-11+j0.000000000000e+0
-2.972828713896e-11+j0.000000000000e+0
-3.701763845866e-11+j0.000000000000e+0
-4.609388857390e-11+j0.000000000000e+0
-5.739677080944e-11+j0.000000000000e+0
-7.147016585642e-11+j0.000000000000e+0
-8.899392457879e-11+j0.000000000000e+0
-1.108147264922e-10+j0.000000000000e+0
-1.379865815177e-10+j0.000000000000e+0
-1.718200106823e-10+j0.000000000000e+0
-2.139495490420e-10+j0.000000000000e+0
-2.664108918789e-10+j0.000000000000e+0
-3.317334701380e-10+j0.000000000000e+0
-4.130735276178e-10+j0.000000000000e+0
-5.143578057628e-10+j0.000000000000e+0
-6.404773734843e-10+j0.000000000000e+0
-7.975200300804e-10+j0.000000000000e+0
-9.930702110781e-10+j0.000000000000e+0
-1.236566753724e-9+j0.000000000000e+0
-1.539769631479e-9+j0.000000000000e+0
-1.917317335294e-9+j0.000000000000e+0
-2.387436618630e-9+j0.000000000000e+0
-2.972830643054e-9+j0.000000000000e+0
-3.701759025010e-9+j0.000000000000e+0
-4.609419717080e-9+j0.000000000000e+0
-5.739636581068e-9+j0.000000000000e+0
-7.146978979782e-9+j0.000000000000e+0
-8.899396319703e-9+j0.000000000000e+0
-1.108150158604e-8+j0.000000000000e+0
-1.379865430531e-8+j0.000000000000e+0
-1.718204447979e-8+j0.000000000000e+0
-2.139503111216e-8+j0.000000000000e+0
-2.664103136869e-8+j0.000000000000e+0
-3.317333357593e-8+j0.000000000000e+0
-4.130733742978e-8+j0.000000000000e+0
-5.143577686974e-8+j0.000000000000e+0
-6.404767875823e-8+j0.000000000000e+0
-7.975198215531e-8+j0.000000000000e+0
-9.930693488036e-8+j0.000000000000e+0
-1.236567051736e-7+j0.000000000000e+0
-1.539769683563e-7+j0.000000000000e+0
-1.917316710144e-7+j0.000000000000e+0
-2.387437162206e-7+j0.000000000000e+0
-2.972829758022e-7+j0.000000000000e+0
-3.701758890950e-7+j0.000000000000e+0
-4.609419307783e-7+j0.000000000000e+0
-5.739635370534e-7+j0.000000000000e+0
-7.146977023995e-7+j0.000000000000e+0
-8.899394659174e-7+j0.000000000000e+0
-1.108149981719e-6+j0.000000000000e+0
-1.379865054947e-6+j0.000000000000e+0
-1.718203832225e-6+j0.000000000000e+0
-2.139502231282e-6+j0.000000000000e+0
-2.664101671514e-6+j0.000000000000e+0
-3.317331219048e-6+j0.000000000000e+0
-4.130730518624e-6+j0.000000000000e+0
-5.143572599658e-6+j0.000000000000e+0
-6.404760056303e-6+j0.000000000000e+0
-7.975186146769e-6+j0.000000000000e+0
-9.930674814853e-6+j0.000000000000e+0
-1.236564155040e-5+j0.000000000000e+0
-1.539765185187e-5+j0.000000000000e+0
-1.917309730683e-5+j0.000000000000e+0
-2.387426333597e-5+j0.000000000000e+0
-2.972812971367e-5+j0.000000000000e+0
-3.701732867959e-5+j0.000000000000e+0
-4.609378947758e-5+j0.000000000000e+0
-5.739572781090e-5+j0.000000000000e+0
-7.146879995173e-5+j0.000000000000e+0
-8.899244211076e-5+j0.000000000000e+0
-1.108126655096e-4+j0.000000000000e+0
-1.379828886572e-4+j0.000000000000e+0
-1.718147752948e-4+j0.000000000000e+0
-2.139415278892e-4+j0.000000000000e+0
-2.663966853862e-4+j0.000000000000e+0
-3.317122185089e-4+j0.000000000000e+0
-4.130406413660e-4+j0.000000000000e+0
-5.143070081301e-4+j0.000000000000e+0
-6.403980915015e-4+j0.000000000000e+0
-7.973978117705e-4+j0.000000000000e+0
-9.928801825245e-4+j0.000000000000e+0
-1.236273760504e-3+j0.000000000000e+0
-1.539314953432e-3+j0.000000000000e+0
-1.916611696547e-3+j0.000000000000e+0
-2.386344130969e-3+j0.000000000000e+0
-2.971135212181e-3+j0.000000000000e+0
-3.699131887006e-3+j0.000000000000e+0
-4.605346879485e-3+j0.000000000000e+0
-5.733322527054e-3+j0.000000000000e+0
-7.137191832890e-3+j0.000000000000e+0
-8.884228263953e-3+j0.000000000000e+0
-1.105799508556e-2+j0.000000000000e+0
-1.376222730038e-2+j0.000000000000e+0
-1.712560439329e-2+j0.000000000000e+0
-2.130759941655e-2+j0.000000000000e+0
-2.650561798884e-2+j0.000000000000e+0
-3.296366667887e-2+j0.000000000000e+0
-4.098280904219e-2+j0.000000000000e+0
-5.093367112988e-2+j0.000000000000e+0
-6.327123378075e-2+j0.000000000000e+0
-7.855207708167e-2+j0.000000000000e+0
-9.745409490800e-2+j0.000000000000e+0
-1.207984354046e-1+j0.000000000000e+0
-1.495729955413e-1+j0.000000000000e+0
-1.849561429948e-1+j0.000000000000e+0
-2.283383924755e-1+j0.000000000000e+0
-2.813384783277e-1+j0.000000000000e+0
-3.458086453297e-1+j0.000000000000e+0
-4.238221413758e-1+j0.000000000000e+0
-5.176341487161e-1+j0.000000000000e+0
-6.296063240432e-1+j0.000000000000e+0
-7.620856444522e-1+j0.000000000000e+0
-9.172315258243e-1+j0.000000000000e+0
-1.096792257233e+0+j0.000000000000e+0
-1.301843045026e+0+j0.000000000000e+0
-1.532512260508e+0+j0.000000000000e+0
-1.787736657597e+0+j0.000000000000e+0
-2.065095393094e+0+j0.000000000000e+0
-2.360771361240e+0+j0.000000000000e+0
-2.669673504069e+0+j0.000000000000e+0
-2.985726573209e+0+j0.000000000000e+0
-3.302301335015e+0+j0.000000000000e+0
-3.612727548172e+0+j0.000000000000e+0
-3.910813167632e+0+j0.000000000000e+0
-4.191291788598e+0+j0.000000000000e+0
-4.450136772161e+0+j0.000000000000e+0
-4.684709867568e+0+j0.000000000000e+0
-4.893745826912e+0+j0.000000000000e+0
-5.077203172612e+0+j0.000000000000e+0
-5.236028243634e+0+j0.000000000000e+0
-5.371882945400e+0+j0.000000000000e+0
-5.486878847747e+0+j0.000000000000e+0
-5.583346536168e+0+j0.000000000000e+0
-5.663654579178e+0+j0.000000000000e+0
-5.730080631067e+0+j0.000000000000e+0
-5.784729462029e+0+j0.000000000000e+0
-5.829488909209e+0+j0.000000000000e+0
-5.866013869159e+0+j0.000000000000e+0
-5.895729339502e+0+j0.000000000000e+0
-5.919845205861e+0+j0.000000000000e+0
-5.939377320585e+0+j0.000000000000e+0
-5.955171084917e+0+j0.000000000000e+0
-5.967925085690e+0+j0.000000000000e+0
-5.978213333874e+0+j0.000000000000e+0
-5.986505348271e+0+j0.000000000000e+0
-5.993183786242e+0+j0.000000000000e+0
-5.998559607490e+0+j0.000000000000e+0
-6.002884919209e+0+j0.000000000000e+0
-6.006363732500e+0+j0.000000000000e+0
-6.009160890289e+0+j0.000000000000e+0
-6.011409426853e+0+j0.000000000000e+0
-6.013216601927e+0+j0.000000000000e+0
-6.014668827242e+0+j0.000000000000e+0
-6.015835675353e+0+j0.000000000000e+0
-6.016773133088e+0+j0.000000000000e+0
-6.017526236387e+0+j0.000000000000e+0
-6.018131200581e+0+j0.000000000000e+0
-6.018617140428e+0+j0.000000000000e+0
-6.019007457418e+0+j0.000000000000e+0
-6.019320957765e+0+j0.000000000000e+0
-6.019572752732e+0+j0.000000000000e+0
-6.019774983295e+0+j0.000000000000e+0
-6.019937403138e+0+j0.000000000000e+0
-6.020067847525e+0+j0.000000000000e+0
-6.020172610279e+0+j0.000000000000e+0
-6.020256746800e+0+j0.000000000000e+0
-6.020324317606e+0+j0.000000000000e+0
-6.020378584025e+0+j0.000000000000e+0
-6.020422165429e+0+j0.000000000000e+0
-6.020457165560e+0+j0.000000000000e+0
-6.020485274006e+0+j0.000000000000e+0
-6.020507847717e+0+j0.000000000000e+0
-6.020525976483e+0+j0.000000000000e+0
-6.020540535528e+0+j0.000000000000e+0
-6.020552227748e+0+j0.000000000000e+0
-6.020561617641e+0+j0.000000000000e+0
-6.020569158555e+0+j0.000000000000e+0
-6.020575214570e+0+j0.000000000000e+0
-6.020580078080e+0+j0.000000000000e+0
-6.020583983902e+0+j0.000000000000e+0
-6.020587120617e+0+j0.000000000000e+0
-6.020589639670e+0+j0.000000000000e+0
-6.020591662687e+0+j0.000000000000e+0
</dep>
