<Qucs Dataset 0.0.23>
<indep frequency 100>
1.000000000000e+0
1.232846739442e+0
1.519911082953e+0
1.873817422860e+0
2.310129700083e+0
2.848035868436e+0
3.511191734215e+0
4.328761281083e+0
5.336699231206e+0
6.579332246576e+0
8.111308307897e+0
1.000000000000e+1
1.232846739442e+1
1.519911082953e+1
1.873817422860e+1
2.310129700083e+1
2.848035868436e+1
3.511191734215e+1
4.328761281083e+1
5.336699231206e+1
6.579332246576e+1
8.111308307897e+1
1.000000000000e+2
1.232846739442e+2
1.519911082953e+2
1.873817422860e+2
2.310129700083e+2
2.848035868436e+2
3.511191734215e+2
4.328761281083e+2
5.336699231206e+2
6.579332246576e+2
8.111308307897e+2
1.000000000000e+3
1.232846739442e+3
1.519911082953e+3
1.873817422860e+3
2.310129700083e+3
2.848035868436e+3
3.511191734215e+3
4.328761281083e+3
5.336699231206e+3
6.579332246576e+3
8.111308307897e+3
1.000000000000e+4
1.232846739442e+4
1.519911082953e+4
1.873817422860e+4
2.310129700083e+4
2.848035868436e+4
3.511191734215e+4
4.328761281083e+4
5.336699231206e+4
6.579332246576e+4
8.111308307897e+4
1.000000000000e+5
1.232846739442e+5
1.519911082953e+5
1.873817422860e+5
2.310129700083e+5
2.848035868436e+5
3.511191734215e+5
4.328761281083e+5
5.336699231206e+5
6.579332246576e+5
8.111308307897e+5
1.000000000000e+6
1.232846739442e+6
1.519911082953e+6
1.873817422860e+6
2.310129700083e+6
2.848035868436e+6
3.511191734215e+6
4.328761281083e+6
5.336699231206e+6
6.579332246576e+6
8.111308307897e+6
1.000000000000e+7
1.232846739442e+7
1.519911082953e+7
1.873817422860e+7
2.310129700083e+7
2.848035868436e+7
3.511191734215e+7
4.328761281083e+7
5.336699231206e+7
6.579332246576e+7
8.111308307897e+7
1.000000000000e+8
1.232846739442e+8
1.519911082953e+8
1.873817422860e+8
2.310129700083e+8
2.848035868436e+8
3.511191734215e+8
4.328761281083e+8
5.336699231206e+8
6.579332246576e+8
8.111308307897e+8
1.000000000000e+9
</indep>
<dep ac.v(b) frequency>
1.640892877662e-1+j3.703564159427e-1
2.297967311063e-1+j4.207018272125e-1
3.119952878684e-1+j4.633076761263e-1
4.080201739582e-1+j4.914665977984e-1
5.116218160177e-1+j4.998645453285e-1
6.142344940685e-1+j4.867751395639e-1
7.076087069053e-1+j4.548605428855e-1
7.862468980243e-1+j4.099538330126e-1
8.482704299070e-1+j3.587577102478e-1
8.947070075783e-1+j3.069295222388e-1
9.281356827347e-1+j2.582618176691e-1
9.515262590389e-1+j2.147634740638e-1
9.675695501185e-1+j1.771384108603e-1
9.784233374151e-1+j1.452941952501e-1
9.856982017091e-1+j1.187288699361e-1
9.905438693829e-1+j9.677807814253e-2
9.937580638242e-1+j7.875440485455e-2
9.958841902599e-1+j6.401679614993e-2
9.972880083573e-1+j5.199919296079e-2
9.982137874766e-1+j4.221730242125e-2
9.988238263298e-1+j3.426468298937e-2
9.992255979915e-1+j2.780432042615e-2
9.994901132495e-1+j2.255891174814e-2
9.996642230206e-1+j1.830141635472e-2
9.997788087115e-1+j1.484654463166e-2
9.998542127727e-1+j1.204339833656e-2
9.999038298136e-1+j9.769256468416e-3
9.999364771992e-1+j7.924403845312e-3
9.999579581617e-1+j6.427866360063e-3
9.999720917040e-1+j5.213914277603e-3
9.999813908489e-1+j4.229205952859e-3
9.999875091597e-1+j3.430460332518e-3
9.999915346404e-1+j2.782563347550e-3
9.999941831556e-1+j2.257028906009e-3
9.999959257095e-1+j1.830748932165e-3
9.999970721968e-1+j1.484978617559e-3
9.999978265104e-1+j1.204512864042e-3
9.999983227989e-1+j9.770180243402e-4
9.999986493240e-1+j7.924897244020e-4
9.999988641557e-1+j6.428130160520e-4
9.999990055007e-1+j5.214055657073e-4
9.999990984964e-1+j4.229282137197e-4
9.999991596813e-1+j3.430501894550e-4
9.999991999369e-1+j2.782586643147e-4
9.999992264224e-1+j2.257042712951e-4
9.999992438481e-1+j1.830757995384e-4
9.999992553131e-1+j1.484985543830e-4
9.999992628564e-1+j1.204519136419e-4
9.999992678194e-1+j9.770245475729e-5
9.999992710849e-1+j7.924971209939e-5
9.999992732336e-1+j6.428217904004e-5
9.999992746476e-1+j5.214161992708e-5
9.999992755783e-1+j4.229412251412e-5
9.999992761914e-1+j3.430661781539e-5
9.999992765958e-1+j2.782783479353e-5
9.999992768635e-1+j2.257285231751e-5
9.999992770420e-1+j1.831056902541e-5
9.999992771631e-1+j1.485354004760e-5
9.999992772484e-1+j1.204973363403e-5
9.999992773131e-1+j9.775845161038e-6
9.999992773685e-1+j7.931874481284e-6
9.999992774247e-1+j6.436728136895e-6
9.999992774915e-1+j5.224653022343e-6
9.999992775809e-1+j4.242344640348e-6
9.999992777087e-1+j3.446602745526e-6
9.999992778975e-1+j2.802431214233e-6
9.999992781810e-1+j2.281498460967e-6
9.999992786090e-1+j1.860890477180e-6
9.999992792572e-1+j1.522101251566e-6
9.999992802392e-1+j1.250215429658e-6
9.999992817260e-1+j1.033245906819e-6
9.999992839739e-1+j8.615947609002e-7
9.999992873637e-1+j7.276094475278e-7
9.999992924553e-1+j6.252072203320e-7
9.999993000579e-1+j5.495389576810e-7
9.999993113089e-1+j4.966591996160e-7
9.999993277412e-1+j4.631647975833e-7
9.999993512850e-1+j4.457689056846e-7
9.999993841069e-1+j4.408101581379e-7
9.999994281584e-1+j4.437882275074e-7
9.999994843621e-1+j4.491723303141e-7
9.999995516113e-1+j4.508467962228e-7
9.999996261592e-1+j4.433816128939e-7
9.999997021069e-1+j4.236903263172e-7
9.999997730937e-1+j3.920238463034e-7
9.999998342713e-1+j3.515181511529e-7
9.999998833740e-1+j3.066289090695e-7
9.999999205244e-1+j2.615258506511e-7
9.999999473199e-1+j2.192065788075e-7
9.999999659044e-1+j1.813641843045e-7
9.999999783680e-1+j1.486603437555e-7
9.999999864798e-1+j1.210829412357e-7
9.999999916229e-1+j9.823614387152e-8
9.999999948184e-1+j7.953866489466e-8
9.999999967807e-1+j6.435344027401e-8
9.999999979828e-1+j5.206963370790e-8
9.999999987233e-1+j4.214708805627e-8
9.999999991841e-1+j3.413173433715e-8
9.999999994744e-1+j2.765274281677e-8
9.999999996593e-1+j2.241140704547e-8
</dep>
<dep ac.v(uin) frequency>
1.000000000000e+0+j0.000000000000e+0
1.000000000000e+0+j0.000000000000e+0
1.000000000000e+0+j0.000000000000e+0
1.000000000000e+0+j0.000000000000e+0
1.000000000000e+0+j0.000000000000e+0
1.000000000000e+0+j0.000000000000e+0
1.000000000000e+0+j0.000000000000e+0
1.000000000000e+0+j0.000000000000e+0
1.000000000000e+0+j0.000000000000e+0
1.000000000000e+0+j0.000000000000e+0
1.000000000000e+0+j0.000000000000e+0
1.000000000000e+0+j0.000000000000e+0
1.000000000000e+0+j0.000000000000e+0
1.000000000000e+0+j0.000000000000e+0
1.000000000000e+0+j0.000000000000e+0
1.000000000000e+0+j0.000000000000e+0
1.000000000000e+0+j0.000000000000e+0
1.000000000000e+0+j0.000000000000e+0
1.000000000000e+0+j0.000000000000e+0
1.000000000000e+0+j0.000000000000e+0
1.000000000000e+0+j0.000000000000e+0
1.000000000000e+0+j0.000000000000e+0
1.000000000000e+0+j0.000000000000e+0
1.000000000000e+0+j0.000000000000e+0
1.000000000000e+0+j0.000000000000e+0
1.000000000000e+0+j0.000000000000e+0
1.000000000000e+0+j0.000000000000e+0
1.000000000000e+0+j0.000000000000e+0
1.000000000000e+0+j0.000000000000e+0
1.000000000000e+0+j0.000000000000e+0
1.000000000000e+0+j0.000000000000e+0
1.000000000000e+0+j0.000000000000e+0
1.000000000000e+0+j0.000000000000e+0
1.000000000000e+0+j0.000000000000e+0
1.000000000000e+0+j0.000000000000e+0
1.000000000000e+0+j0.000000000000e+0
1.000000000000e+0+j0.000000000000e+0
1.000000000000e+0+j0.000000000000e+0
1.000000000000e+0+j0.000000000000e+0
1.000000000000e+0+j0.000000000000e+0
1.000000000000e+0+j0.000000000000e+0
1.000000000000e+0+j0.000000000000e+0
1.000000000000e+0+j0.000000000000e+0
1.000000000000e+0+j0.000000000000e+0
1.000000000000e+0+j0.000000000000e+0
1.000000000000e+0+j0.000000000000e+0
1.000000000000e+0+j0.000000000000e+0
1.000000000000e+0+j0.000000000000e+0
1.000000000000e+0+j0.000000000000e+0
1.000000000000e+0+j0.000000000000e+0
1.000000000000e+0+j0.000000000000e+0
1.000000000000e+0+j0.000000000000e+0
1.000000000000e+0+j0.000000000000e+0
1.000000000000e+0+j0.000000000000e+0
1.000000000000e+0+j0.000000000000e+0
1.000000000000e+0+j0.000000000000e+0
1.000000000000e+0+j0.000000000000e+0
1.000000000000e+0+j0.000000000000e+0
1.000000000000e+0+j0.000000000000e+0
1.000000000000e+0+j0.000000000000e+0
1.000000000000e+0+j0.000000000000e+0
1.000000000000e+0+j0.000000000000e+0
1.000000000000e+0+j0.000000000000e+0
1.000000000000e+0+j0.000000000000e+0
1.000000000000e+0+j0.000000000000e+0
1.000000000000e+0+j0.000000000000e+0
1.000000000000e+0+j0.000000000000e+0
1.000000000000e+0+j0.000000000000e+0
1.000000000000e+0+j0.000000000000e+0
1.000000000000e+0+j0.000000000000e+0
1.000000000000e+0+j0.000000000000e+0
1.000000000000e+0+j0.000000000000e+0
1.000000000000e+0+j0.000000000000e+0
1.000000000000e+0+j0.000000000000e+0
1.000000000000e+0+j0.000000000000e+0
1.000000000000e+0+j0.000000000000e+0
1.000000000000e+0+j0.000000000000e+0
1.000000000000e+0+j0.000000000000e+0
1.000000000000e+0+j0.000000000000e+0
1.000000000000e+0+j0.000000000000e+0
1.000000000000e+0+j0.000000000000e+0
1.000000000000e+0+j0.000000000000e+0
1.000000000000e+0+j0.000000000000e+0
1.000000000000e+0+j0.000000000000e+0
1.000000000000e+0+j0.000000000000e+0
1.000000000000e+0+j0.000000000000e+0
1.000000000000e+0+j0.000000000000e+0
1.000000000000e+0+j0.000000000000e+0
1.000000000000e+0+j0.000000000000e+0
1.000000000000e+0+j0.000000000000e+0
1.000000000000e+0+j0.000000000000e+0
1.000000000000e+0+j0.000000000000e+0
1.000000000000e+0+j0.000000000000e+0
1.000000000000e+0+j0.000000000000e+0
1.000000000000e+0+j0.000000000000e+0
1.000000000000e+0+j0.000000000000e+0
1.000000000000e+0+j0.000000000000e+0
1.000000000000e+0+j0.000000000000e+0
1.000000000000e+0+j0.000000000000e+0
1.000000000000e+0+j0.000000000000e+0
</dep>
<dep ac.i(pr2) frequency>
2.976796234350e-7+j6.719208202398e-7
4.168815972911e-7+j7.632646128330e-7
5.660006272840e-7+j8.405702796195e-7
7.402024433860e-7+j8.916703487075e-7
9.281494947486e-7+j9.069251443801e-7
1.114302434884e-6+j8.832036582381e-7
1.283695579891e-6+j8.253364782552e-7
1.426355636742e-6+j7.439069014015e-7
1.538874509051e-6+j6.510761431117e-7
1.623116589363e-6+j5.571093912684e-7
1.683760617828e-6+j4.688893109647e-7
1.726194210231e-6+j3.900633301688e-7
1.755298857618e-6+j3.219122229411e-7
1.774989060307e-6+j2.642729534052e-7
1.788186624409e-6+j2.162406368242e-7
1.796977305350e-6+j1.766171090604e-7
1.802808278681e-6+j1.441640207554e-7
1.806665353277e-6+j1.177291562939e-7
1.809212065559e-6+j9.629885158800e-8
1.810891552557e-6+j7.901086053301e-8
1.811998245825e-6+j6.514797083745e-8
1.812727116104e-6+j5.412360684501e-8
1.813206986954e-6+j4.546529454265e-8
1.813522853056e-6+j3.879886533950e-8
1.813730738780e-6+j3.383467379924e-8
1.813867550175e-6+j3.035629103469e-8
1.813957590121e-6+j2.821175227295e-8
1.814016859473e-6+j2.730728298757e-8
1.814055893654e-6+j2.760339350074e-8
1.814081632376e-6+j2.911325905038e-8
1.814098652135e-6+j3.190336152225e-8
1.814109979363e-6+j3.609644642943e-8
1.814117628363e-6+j4.187693871728e-8
1.814122959381e-6+j4.949906280100e-8
1.814126920473e-6+j5.929802779429e-8
1.814130216088e-6+j7.170477188805e-8
1.814133432318e-6+j8.726491539797e-8
1.814137141153e-6+j1.066627565776e-7
1.814142002186e-6+j1.307513657792e-7
1.814148879923e-6+j1.605901015901e-7
1.814158997529e-6+j1.974911988840e-7
1.814174154366e-6+j2.430774776301e-7
1.814197045985e-6+j2.993537103158e-7
1.814231743534e-6+j3.687947864452e-7
1.814284417771e-6+j4.544545511591e-7
1.814364436502e-6+j5.601001040242e-7
1.814486030592e-6+j6.903774633528e-7
1.814670824827e-6+j8.510158801131e-7
1.814951683741e-6+j1.049079783936e-6
1.815378556336e-6+j1.293279436082e-6
1.816027359107e-6+j1.594353941570e-6
1.817013477091e-6+j1.965543446475e-6
1.818512283805e-6+j2.423171252887e-6
1.820790328989e-6+j2.987361388591e-6
1.824252739602e-6+j3.682923070479e-6
1.829515261626e-6+j4.540440737216e-6
1.837513749103e-6+j5.597617174051e-6
1.849670559209e-6+j6.900928021205e-6
1.868147415050e-6+j8.507658973397e-6
1.896229635645e-6+j1.048841253824e-5
1.938909902633e-6+j1.293018949326e-5
2.003775005632e-6+j1.594017100255e-5
2.102352396713e-6+j1.965034983274e-5
2.252154017646e-6+j2.422318085837e-5
2.479776236373e-6+j2.985843673123e-5
2.825596480891e-6+j3.680145319372e-5
3.350877137654e-6+j4.535290830040e-5
4.148483236668e-6+j5.588015909240e-5
5.358989336127e-6+j6.882987995013e-5
7.194740713640e-6+j8.474116590101e-5
9.975464845642e-6+j1.042571267996e-4
1.418021777121e-5+j1.281308685614e-4
2.052142749319e-5+j1.572179373365e-4
3.004651768770e-5+j1.924408060843e-4
4.426858981505e-5+j2.347007978612e-4
6.531485599073e-5+j2.846990843190e-4
9.605135319612e-5+j3.426156539823e-4
1.400849546796e-4+j4.075996187920e-4
2.014606501357e-4+j4.770833665932e-4
2.838126443229e-4+j5.461019384589e-4
3.888350062846e-4+j6.070883865455e-4
5.144029697204e-4+j6.508348579147e-4
6.534197931231e-4+j6.689781351554e-4
7.947231126516e-4+j6.571958026764e-4
9.262425336788e-4+j6.171489787318e-4
1.038692064158e-3+j5.557125315062e-4
1.127578283129e-3+j4.821218919734e-4
1.192862669305e-3+j4.050463973180e-4
1.237315562575e-3+j3.309988576533e-4
1.264884068866e-3+j2.641116916784e-4
1.279688890349e-3+j2.065829099013e-4
1.285575108081e-3+j1.591802442058e-4
1.285894976035e-3+j1.215932119505e-4
1.283323500120e-3+j9.272257219799e-5
1.279731384024e-3+j7.102260608026e-5
1.276211208908e-3+j5.486523685837e-5
1.273253827285e-3+j4.281080994389e-5
1.270977353336e-3+j3.372696172300e-5
1.269317977815e-3+j2.678657420338e-5
1.268150234661e-3+j2.140864350362e-5
</dep>
<dep ac.i(pr3) frequency>
-6.563571510649e-6-j1.481425663771e-5
-9.191869244252e-6-j1.682807308850e-5
-1.247981151474e-5-j1.853230704505e-5
-1.632080695833e-5-j1.965866391194e-5
-2.046487264071e-5-j1.999458181314e-5
-2.456937976274e-5-j1.947100558256e-5
-2.830434827621e-5-j1.819442171542e-5
-3.144987592097e-5-j1.639815332051e-5
-3.393081719628e-5-j1.435030840991e-5
-3.578828030313e-5-j1.227718088955e-5
-3.712542730939e-5-j1.033047270676e-5
-3.806105036155e-5-j8.590538962553e-6
-3.870278200474e-5-j7.085536434414e-6
-3.913693349661e-5-j5.811767810004e-6
-3.942792806836e-5-j4.749154797444e-6
-3.962175477532e-5-j3.871123125701e-6
-3.975032255297e-5-j3.150176194182e-6
-3.983536761039e-5-j2.560671845997e-6
-3.989152033429e-5-j2.079967718431e-6
-3.992855149907e-5-j1.688692096850e-6
-3.995295305319e-5-j1.370587319575e-6
-3.996902391966e-5-j1.112172817046e-6
-3.997960452998e-5-j9.023564699256e-7
-3.998656892083e-5-j7.320566541890e-7
-3.999115234846e-5-j5.938617852662e-7
-3.999416851091e-5-j4.817359334623e-7
-3.999615319254e-5-j3.907702587366e-7
-3.999745908797e-5-j3.169761538125e-7
-3.999831832647e-5-j2.571146544025e-7
-3.999888366816e-5-j2.085565711041e-7
-3.999925563396e-5-j1.691682381144e-7
-3.999950036639e-5-j1.372184133007e-7
-3.999966138562e-5-j1.113025339020e-7
-3.999976732623e-5-j9.028115624037e-8
-3.999983702838e-5-j7.322995728660e-8
-3.999988288787e-5-j5.939914470236e-8
-3.999991306041e-5-j4.818051456169e-8
-3.999993291196e-5-j3.908072097361e-8
-3.999994597296e-5-j3.169958897608e-8
-3.999995456623e-5-j2.571252064208e-8
-3.999996022003e-5-j2.085622262829e-8
-3.999996393985e-5-j1.691712854879e-8
-3.999996638725e-5-j1.372200757820e-8
-3.999996799747e-5-j1.113034657259e-8
-3.999996905690e-5-j9.028170851804e-9
-3.999996975392e-5-j7.323031981534e-9
-3.999997021252e-5-j5.939942175320e-9
-3.999997051426e-5-j4.818076545678e-9
-3.999997071278e-5-j3.908098190291e-9
-3.999997084340e-5-j3.169988483976e-9
-3.999997092934e-5-j2.571287161602e-9
-3.999997098590e-5-j2.085664797083e-9
-3.999997102313e-5-j1.691764900565e-9
-3.999997104766e-5-j1.372264712616e-9
-3.999997106383e-5-j1.113113391741e-9
-3.999997107454e-5-j9.029140927004e-10
-3.999997108168e-5-j7.324227610164e-10
-3.999997108653e-5-j5.941416019038e-10
-3.999997108994e-5-j4.819893453611e-10
-3.999997109252e-5-j3.910338064415e-10
-3.999997109474e-5-j3.172749792514e-10
-3.999997109699e-5-j2.574691254758e-10
-3.999997109966e-5-j2.089861208937e-10
-3.999997110324e-5-j1.696937856139e-10
-3.999997110835e-5-j1.378641098210e-10
-3.999997111590e-5-j1.120972485693e-10
-3.999997112724e-5-j9.125993843867e-11
-3.999997114436e-5-j7.443561908721e-11
-3.999997117029e-5-j6.088405006264e-11
-3.999997120957e-5-j5.000861718631e-11
-3.999997126904e-5-j4.132983627278e-11
-3.999997135896e-5-j3.446379043601e-11
-3.999997149455e-5-j2.910437790111e-11
-3.999997169821e-5-j2.500828881328e-11
-3.999997200232e-5-j2.198155830724e-11
-3.999997245235e-5-j1.986636798464e-11
-3.999997310965e-5-j1.852659190333e-11
-3.999997405140e-5-j1.783075622738e-11
-3.999997536427e-5-j1.763240632552e-11
-3.999997712634e-5-j1.775152910029e-11
-3.999997937448e-5-j1.796689321257e-11
-3.999998206445e-5-j1.803387184891e-11
-3.999998504637e-5-j1.773526451576e-11
-3.999998808428e-5-j1.694761305269e-11
-3.999999092375e-5-j1.568095385214e-11
-3.999999337085e-5-j1.406072604612e-11
-3.999999533496e-5-j1.226515636278e-11
-3.999999682097e-5-j1.046103402604e-11
-3.999999789280e-5-j8.768263152299e-12
-3.999999863617e-5-j7.254567372179e-12
-3.999999913472e-5-j5.946413750222e-12
-3.999999945919e-5-j4.843317649428e-12
-3.999999966492e-5-j3.929445754861e-12
-3.999999979274e-5-j3.181546595786e-12
-3.999999987123e-5-j2.574137610961e-12
-3.999999991931e-5-j2.082785348316e-12
-3.999999994893e-5-j1.685883522251e-12
-3.999999996737e-5-j1.365269373486e-12
-3.999999997898e-5-j1.106109712671e-12
-3.999999998637e-5-j8.964562818186e-13
</dep>
<dep ac.i(pr4) frequency>
1.610108697046e-4+j3.634082392694e-4
2.254856001533e-4+j4.128091255600e-4
3.061420603823e-4+j4.546156454108e-4
4.003654593200e-4+j4.822462675832e-4
5.020234695284e-4+j4.904866391337e-4
6.027110693137e-4+j4.776427677578e-4
6.943335232929e-4+j4.463268706318e-4
7.714964125736e-4+j4.022625915894e-4
8.323563440569e-4+j3.520268819897e-4
8.779217423759e-4+j3.011709515254e-4
9.107232745981e-4+j2.534161951277e-4
9.336750290050e-4+j2.107337986253e-4
9.494173378712e-4+j1.738144706854e-4
9.600675013034e-4+j1.425675066800e-4
9.672058845755e-4+j1.165003590515e-4
9.719606444810e-4+j9.496112578112e-5
9.751145386160e-4+j7.727527710386e-5
9.772007775841e-4+j6.281377200268e-5
9.785782591714e-4+j5.102115418147e-5
9.794866700912e-4+j4.142219563702e-5
9.800852642296e-4+j3.361805431279e-5
9.804794983983e-4+j2.727800699144e-5
9.807390511772e-4+j2.212991413797e-5
9.809098945296e-4+j1.795094658168e-5
9.810223305055e-4+j1.455923168822e-5
9.810963199156e-4+j1.180662921394e-5
9.811450060739e-4+j9.572630548324e-6
9.811770409197e-4+j7.759280355836e-6
9.811981188032e-4+j6.286986964935e-6
9.812119870658e-4+j5.091085254510e-6
9.812211115621e-4+j4.119026546428e-6
9.812271147994e-4+j3.328085636038e-6
9.812310643187e-4+j2.683491445932e-6
9.812336624760e-4+j2.156903004679e-6
9.812353713199e-4+j1.725165815701e-6
9.812364947504e-4+j1.369295038932e-6
9.812372325596e-4+j1.073641362964e-6
9.812377159612e-4+j8.252032022555e-7
9.812380309248e-4+j6.130551409659e-7
9.812382334646e-4+j4.278675782162e-7
9.812383596009e-4+j2.614964982302e-7
9.812384317664e-4+j1.066253502393e-7
9.812384627954e-4-j4.355669727062e-8
9.812384582059e-4-j1.956542700818e-7
9.812384171820e-4-j3.563562372169e-7
9.812383324276e-4-j5.327298659843e-7
9.812381888698e-4-j7.325316172171e-7
9.812379609776e-4-j9.645482462784e-7
9.812376082218e-4-j1.238983206837e-6
9.812370678669e-4-j1.567905343845e-6
9.812362438145e-4-j1.965779595856e-6
9.812349895125e-4-j2.450103022824e-6
9.812330818930e-4-j3.042174087505e-6
9.812301817024e-4-j3.768028941424e-6
9.812257731716e-4-j4.659585740766e-6
9.812190722991e-4-j5.756047034940e-6
9.812088874437e-4-j7.105621374104e-6
9.811934074500e-4-j8.767638859623e-6
9.811698796668e-4-j1.081515182298e-5
9.811341206837e-4-j1.333813153649e-5
9.810797729829e-4-j1.644739504288e-5
9.809971757874e-4-j2.027942262920e-5
9.808716504009e-4-j2.500225502511e-5
9.806808976638e-4-j3.082268703399e-5
9.803910505922e-4-j3.799499420855e-5
9.799506938362e-4-j4.683142733094e-5
9.792818178089e-4-j5.771465816014e-5
9.782661711494e-4-j7.111220608016e-5
9.767247507869e-4-j8.759251946390e-5
9.743871633325e-4-j1.078416456079e-4
9.708462789092e-4-j1.326779745267e-4
9.654920851448e-4-j1.630598295234e-4
9.574174046120e-4-j2.000758121450e-4
9.452884948934e-4-j2.448995357944e-4
9.271786521834e-4-j2.986774114165e-4
9.003792237174e-4-j3.623006308094e-4
8.612408480137e-4-j4.359962643944e-4
8.051709908605e-4-j5.186780896781e-4
7.270196073093e-4-j6.070730846791e-4
6.221604403030e-4-j6.948545869000e-4
4.884389752536e-4-j7.723816559399e-4
3.285654234903e-4-j8.279230871703e-4
