<Qucs Dataset 0.0.23>
<indep frequency 78>
1.000000000000e+0
1.232846739442e+0
1.519911082953e+0
1.873817422860e+0
2.310129700083e+0
2.848035868436e+0
3.511191734215e+0
4.328761281083e+0
5.336699231206e+0
6.579332246576e+0
8.111308307897e+0
1.000000000000e+1
1.232846739442e+1
1.519911082953e+1
1.873817422860e+1
2.310129700083e+1
2.848035868436e+1
3.511191734215e+1
4.328761281083e+1
5.336699231206e+1
6.579332246576e+1
8.111308307897e+1
1.000000000000e+2
1.232846739442e+2
1.519911082953e+2
1.873817422860e+2
2.310129700083e+2
2.848035868436e+2
3.511191734215e+2
4.328761281083e+2
5.336699231206e+2
6.579332246576e+2
8.111308307897e+2
1.000000000000e+3
1.232846739442e+3
1.519911082953e+3
1.873817422860e+3
2.310129700083e+3
2.848035868436e+3
3.511191734215e+3
4.328761281083e+3
5.336699231206e+3
6.579332246576e+3
8.111308307897e+3
1.000000000000e+4
1.232846739442e+4
1.519911082953e+4
1.873817422860e+4
2.310129700083e+4
2.848035868436e+4
3.511191734215e+4
4.328761281083e+4
5.336699231206e+4
6.579332246576e+4
8.111308307897e+4
1.000000000000e+5
1.232846739442e+5
1.519911082953e+5
1.873817422860e+5
2.310129700083e+5
2.848035868436e+5
3.511191734215e+5
4.328761281083e+5
5.336699231206e+5
6.579332246576e+5
8.111308307897e+5
1.000000000000e+6
1.232846739442e+6
1.519911082953e+6
1.873817422860e+6
2.310129700083e+6
2.848035868436e+6
3.511191734215e+6
4.328761281083e+6
5.336699231206e+6
6.579332246576e+6
8.111308307897e+6
1.000000000000e+7
</indep>
<dep ac.v(d) frequency>
0.000000000000e+0+j0.000000000000e+0
0.000000000000e+0+j0.000000000000e+0
0.000000000000e+0+j0.000000000000e+0
0.000000000000e+0+j0.000000000000e+0
0.000000000000e+0+j0.000000000000e+0
0.000000000000e+0+j0.000000000000e+0
0.000000000000e+0+j0.000000000000e+0
0.000000000000e+0+j0.000000000000e+0
0.000000000000e+0+j0.000000000000e+0
0.000000000000e+0+j0.000000000000e+0
0.000000000000e+0+j0.000000000000e+0
0.000000000000e+0+j0.000000000000e+0
0.000000000000e+0+j0.000000000000e+0
0.000000000000e+0+j0.000000000000e+0
0.000000000000e+0+j0.000000000000e+0
0.000000000000e+0+j0.000000000000e+0
0.000000000000e+0+j0.000000000000e+0
0.000000000000e+0+j0.000000000000e+0
0.000000000000e+0+j0.000000000000e+0
0.000000000000e+0+j0.000000000000e+0
0.000000000000e+0+j0.000000000000e+0
0.000000000000e+0+j0.000000000000e+0
0.000000000000e+0+j0.000000000000e+0
0.000000000000e+0+j0.000000000000e+0
0.000000000000e+0+j0.000000000000e+0
0.000000000000e+0+j0.000000000000e+0
0.000000000000e+0+j0.000000000000e+0
0.000000000000e+0+j0.000000000000e+0
0.000000000000e+0+j0.000000000000e+0
0.000000000000e+0+j0.000000000000e+0
0.000000000000e+0+j0.000000000000e+0
0.000000000000e+0+j0.000000000000e+0
0.000000000000e+0+j0.000000000000e+0
0.000000000000e+0+j0.000000000000e+0
0.000000000000e+0+j0.000000000000e+0
0.000000000000e+0+j0.000000000000e+0
0.000000000000e+0+j0.000000000000e+0
0.000000000000e+0+j0.000000000000e+0
0.000000000000e+0+j0.000000000000e+0
0.000000000000e+0+j0.000000000000e+0
0.000000000000e+0+j0.000000000000e+0
0.000000000000e+0+j0.000000000000e+0
0.000000000000e+0+j0.000000000000e+0
0.000000000000e+0+j0.000000000000e+0
0.000000000000e+0+j0.000000000000e+0
0.000000000000e+0+j0.000000000000e+0
0.000000000000e+0+j0.000000000000e+0
0.000000000000e+0+j0.000000000000e+0
0.000000000000e+0+j0.000000000000e+0
0.000000000000e+0+j0.000000000000e+0
0.000000000000e+0+j0.000000000000e+0
0.000000000000e+0+j0.000000000000e+0
0.000000000000e+0+j0.000000000000e+0
0.000000000000e+0+j0.000000000000e+0
0.000000000000e+0+j0.000000000000e+0
0.000000000000e+0+j0.000000000000e+0
0.000000000000e+0+j0.000000000000e+0
0.000000000000e+0+j0.000000000000e+0
0.000000000000e+0+j0.000000000000e+0
0.000000000000e+0+j0.000000000000e+0
0.000000000000e+0+j0.000000000000e+0
0.000000000000e+0+j0.000000000000e+0
0.000000000000e+0+j0.000000000000e+0
0.000000000000e+0+j0.000000000000e+0
0.000000000000e+0+j0.000000000000e+0
0.000000000000e+0+j0.000000000000e+0
0.000000000000e+0+j0.000000000000e+0
0.000000000000e+0+j0.000000000000e+0
0.000000000000e+0+j0.000000000000e+0
0.000000000000e+0+j0.000000000000e+0
0.000000000000e+0+j0.000000000000e+0
0.000000000000e+0+j0.000000000000e+0
0.000000000000e+0+j0.000000000000e+0
0.000000000000e+0+j0.000000000000e+0
0.000000000000e+0+j0.000000000000e+0
0.000000000000e+0+j0.000000000000e+0
0.000000000000e+0+j0.000000000000e+0
0.000000000000e+0+j0.000000000000e+0
</dep>
<dep ac.v(g) frequency>
-9.305711464963e-2-j2.247001563617e-2
-9.484450624493e-2-j1.857620012221e-2
-9.605841873599e-2-j1.526058012334e-2
-9.687418374827e-2-j1.248344854324e-2
-9.741850201235e-2-j1.018260449287e-2
-9.777997561996e-2-j8.290071225470e-3
-9.801926775151e-2-j6.740788486136e-3
-9.817734581199e-2-j5.476479192403e-3
-9.828162900239e-2-j4.446859519918e-3
-9.835036129025e-2-j3.609507361223e-3
-9.839563500237e-2-j2.929130447563e-3
-9.842544482210e-2-j2.376627808188e-3
-9.844506754615e-2-j1.928140409168e-3
-9.845798225618e-2-j1.564179293766e-3
-9.846648112126e-2-j1.268863554701e-3
-9.847207360725e-2-j1.029272787303e-3
-9.847575343607e-2-j8.349060686905e-4
-9.847817466772e-2-j6.772346780015e-4
-9.847976774141e-2-j5.493347814236e-4
-9.848081590563e-2-j4.455870807364e-4
-9.848150553986e-2-j3.614319013621e-4
-9.848195927840e-2-j2.931698492186e-4
-9.848225781034e-2-j2.377997503153e-4
-9.848245422542e-2-j1.928870026333e-4
-9.848258345384e-2-j1.564566876854e-4
-9.848266847771e-2-j1.269068141658e-4
-9.848272441781e-2-j1.029379173754e-4
-9.848276122270e-2-j8.349593919357e-5
-9.848278543787e-2-j6.772588772480e-5
-9.848280136984e-2-j5.493424459661e-5
-9.848281185202e-2-j4.455846985483e-5
-9.848281874860e-2-j3.614226503385e-5
-9.848282328608e-2-j2.931550744222e-5
-9.848282627144e-2-j2.377797369257e-5
-9.848282823561e-2-j1.928613695046e-5
-9.848282952791e-2-j1.564245737818e-5
-9.848283037815e-2-j1.268669493139e-5
-9.848283093755e-2-j1.028886242563e-5
-9.848283130560e-2-j8.343509049964e-6
-9.848283154775e-2-j6.765082902339e-6
-9.848283170707e-2-j5.484168663079e-6
-9.848283181189e-2-j4.444434817685e-6
-9.848283188086e-2-j3.600156414371e-6
-9.848283192623e-2-j2.914204156823e-6
-9.848283195608e-2-j2.356411503123e-6
-9.848283197572e-2-j1.902248096262e-6
-9.848283198864e-2-j1.531740938975e-6
-9.848283199713e-2-j1.228596063074e-6
-9.848283200271e-2-j9.794818161652e-7
-9.848283200637e-2-j7.734428132313e-7
-9.848283200876e-2-j6.014179390131e-7
-9.848283201031e-2-j4.558419634724e-7
-9.848283201129e-2-j3.303127728279e-7
-9.848283201187e-2-j2.193100096512e-7
-9.848283201217e-2-j1.179519662928e-7
-9.848283201222e-2-j2.178103919275e-8
-9.848283201204e-2+j7.343179982602e-8
-9.848283201161e-2+j1.718740288270e-7
-9.848283201084e-2+j2.778752421469e-7
-9.848283200959e-2+j3.960963528876e-7
-9.848283200764e-2+j5.317365448091e-7
-9.848283200465e-2+j6.907618529202e-7
-9.848283200009e-2+j8.801650072624e-7
-9.848283199314e-2+j1.108275426155e-6
-9.848283198257e-2+j1.385124896228e-6
-9.848283196650e-2+j1.722890513769e-6
-9.848283194206e-2+j2.136422056768e-6
-9.848283190492e-2+j2.643910960675e-6
-9.848283184847e-2+j3.267671286514e-6
-9.848283176267e-2+j4.035136083186e-6
-9.848283163225e-2+j4.980056419651e-6
-9.848283143403e-2+j6.143986222341e-6
-9.848283113276e-2+j7.578116345280e-6
-9.848283067484e-2+j9.345507144876e-6
-9.848282997886e-2+j1.152389998709e-5
-9.848282892102e-2+j1.420908620246e-5
-9.848282731320e-2+j1.751914387889e-5
-9.848282486947e-2+j2.159964202267e-5
</dep>
<dep ac.i(pr1) frequency>
-1.287977150334e-4-j3.110011181261e-5
-1.312715930836e-4-j2.571079211490e-5
-1.329517349587e-4-j2.112173644278e-5
-1.340808121924e-4-j1.727798732955e-5
-1.348341876750e-4-j1.409345428753e-5
-1.353344930507e-4-j1.147405262803e-5
-1.356656905082e-4-j9.329734296089e-6
-1.358844818716e-4-j7.579839633474e-6
-1.360288172799e-4-j6.154772223946e-6
-1.361239476915e-4-j4.995816830801e-6
-1.361866097534e-4-j4.054126424997e-6
-1.362278686800e-4-j3.289423177576e-6
-1.362550279362e-4-j2.668684475743e-6
-1.362729028204e-4-j2.164936206663e-6
-1.362846658587e-4-j1.756198056464e-6
-1.362924062600e-4-j1.424587258982e-6
-1.362974994068e-4-j1.155569784177e-6
-1.363008505649e-4-j9.373412708588e-7
-1.363030554931e-4-j7.603186364353e-7
-1.363045062274e-4-j6.167243689516e-7
-1.363054607306e-4-j5.002475513782e-7
-1.363060887373e-4-j4.057679563820e-7
-1.363065019269e-4-j3.291317430770e-7
-1.363067737794e-4-j2.669692465475e-7
-1.363069526408e-4-j2.165470365327e-7
-1.363070703200e-4-j1.756478403522e-7
-1.363071477451e-4-j1.424731033818e-7
-1.363071986857e-4-j1.155639307374e-7
-1.363072322012e-4-j9.373694877726e-8
-1.363072542522e-4-j7.603227395000e-8
-1.363072687603e-4-j6.167130519039e-8
-1.363072783056e-4-j5.002248599559e-8
-1.363072845858e-4-j4.057353174268e-8
-1.363072887178e-4-j3.290890152298e-8
-1.363072914363e-4-j2.669152413854e-8
-1.363072932250e-4-j2.164797475445e-8
-1.363072944018e-4-j1.755645050335e-8
-1.363072951760e-4-j1.423701618163e-8
-1.363072956854e-4-j1.154369118380e-8
-1.363072960206e-4-j9.358029638112e-9
-1.363072962411e-4-j7.583911497935e-9
-1.363072963862e-4-j6.143315332438e-9
-1.363072964816e-4-j4.972887245308e-9
-1.363072965444e-4-j4.021154675927e-9
-1.363072965857e-4-j3.246262699166e-9
-1.363072966129e-4-j2.614133460588e-9
-1.363072966308e-4-j2.096967460313e-9
-1.363072966425e-4-j1.672021044547e-9
-1.363072966503e-4-j1.320605995422e-9
-1.363072966553e-4-j1.027268008052e-9
-1.363072966586e-4-j7.791067620703e-10
-1.363072966607e-4-j5.652087370873e-10
-1.363072966620e-4-j3.761671677318e-10
-1.363072966627e-4-j2.036686192539e-10
-1.363072966630e-4-j4.012691966068e-11
-1.363072966629e-4+j1.216502679921e-10
-1.363072966624e-4+j2.887770469472e-10
-1.363072966614e-4+j4.686035911492e-10
-1.363072966598e-4+j6.690387116060e-10
-1.363072966571e-4+j8.988960022689e-10
-1.363072966530e-4+j1.168284175764e-9
-1.363072966468e-4+j1.489051527445e-9
-1.363072966372e-4+j1.875303495785e-9
-1.363072966227e-4+j2.344026403889e-9
-1.363072966007e-4+j2.915833608143e-9
-1.363072965671e-4+j3.615874470206e-9
-1.363072965161e-4+j4.474929088671e-9
-1.363072964386e-4+j5.530783965457e-9
-1.363072963208e-4+j6.829867401780e-9
-1.363072961418e-4+j8.429312123970e-9
-1.363072958696e-4+j1.039945759020e-8
-1.363072954560e-4+j1.282694410586e-8
-1.363072948273e-4+j1.581853222781e-8
-1.363072938717e-4+j1.950577198465e-8
-1.363072924194e-4+j2.405084108519e-8
-1.363072902119e-4+j2.965360799592e-8
-1.363072868568e-4+j3.656045504088e-8
-1.363072817573e-4+j4.507512940683e-8
</dep>
<dep ac.v(vin) frequency>
-1.000000000000e-1+j0.000000000000e+0
-1.000000000000e-1+j0.000000000000e+0
-1.000000000000e-1+j0.000000000000e+0
-1.000000000000e-1+j0.000000000000e+0
-1.000000000000e-1+j0.000000000000e+0
-1.000000000000e-1+j0.000000000000e+0
-1.000000000000e-1+j0.000000000000e+0
-1.000000000000e-1+j0.000000000000e+0
-1.000000000000e-1+j0.000000000000e+0
-1.000000000000e-1+j0.000000000000e+0
-1.000000000000e-1+j0.000000000000e+0
-1.000000000000e-1+j0.000000000000e+0
-1.000000000000e-1+j0.000000000000e+0
-1.000000000000e-1+j0.000000000000e+0
-1.000000000000e-1+j0.000000000000e+0
-1.000000000000e-1+j0.000000000000e+0
-1.000000000000e-1+j0.000000000000e+0
-1.000000000000e-1+j0.000000000000e+0
-1.000000000000e-1+j0.000000000000e+0
-1.000000000000e-1+j0.000000000000e+0
-1.000000000000e-1+j0.000000000000e+0
-1.000000000000e-1+j0.000000000000e+0
-1.000000000000e-1+j0.000000000000e+0
-1.000000000000e-1+j0.000000000000e+0
-1.000000000000e-1+j0.000000000000e+0
-1.000000000000e-1+j0.000000000000e+0
-1.000000000000e-1+j0.000000000000e+0
-1.000000000000e-1+j0.000000000000e+0
-1.000000000000e-1+j0.000000000000e+0
-1.000000000000e-1+j0.000000000000e+0
-1.000000000000e-1+j0.000000000000e+0
-1.000000000000e-1+j0.000000000000e+0
-1.000000000000e-1+j0.000000000000e+0
-1.000000000000e-1+j0.000000000000e+0
-1.000000000000e-1+j0.000000000000e+0
-1.000000000000e-1+j0.000000000000e+0
-1.000000000000e-1+j0.000000000000e+0
-1.000000000000e-1+j0.000000000000e+0
-1.000000000000e-1+j0.000000000000e+0
-1.000000000000e-1+j0.000000000000e+0
-1.000000000000e-1+j0.000000000000e+0
-1.000000000000e-1+j0.000000000000e+0
-1.000000000000e-1+j0.000000000000e+0
-1.000000000000e-1+j0.000000000000e+0
-1.000000000000e-1+j0.000000000000e+0
-1.000000000000e-1+j0.000000000000e+0
-1.000000000000e-1+j0.000000000000e+0
-1.000000000000e-1+j0.000000000000e+0
-1.000000000000e-1+j0.000000000000e+0
-1.000000000000e-1+j0.000000000000e+0
-1.000000000000e-1+j0.000000000000e+0
-1.000000000000e-1+j0.000000000000e+0
-1.000000000000e-1+j0.000000000000e+0
-1.000000000000e-1+j0.000000000000e+0
-1.000000000000e-1+j0.000000000000e+0
-1.000000000000e-1+j0.000000000000e+0
-1.000000000000e-1+j0.000000000000e+0
-1.000000000000e-1+j0.000000000000e+0
-1.000000000000e-1+j0.000000000000e+0
-1.000000000000e-1+j0.000000000000e+0
-1.000000000000e-1+j0.000000000000e+0
-1.000000000000e-1+j0.000000000000e+0
-1.000000000000e-1+j0.000000000000e+0
-1.000000000000e-1+j0.000000000000e+0
-1.000000000000e-1+j0.000000000000e+0
-1.000000000000e-1+j0.000000000000e+0
-1.000000000000e-1+j0.000000000000e+0
-1.000000000000e-1+j0.000000000000e+0
-1.000000000000e-1+j0.000000000000e+0
-1.000000000000e-1+j0.000000000000e+0
-1.000000000000e-1+j0.000000000000e+0
-1.000000000000e-1+j0.000000000000e+0
-1.000000000000e-1+j0.000000000000e+0
-1.000000000000e-1+j0.000000000000e+0
-1.000000000000e-1+j0.000000000000e+0
-1.000000000000e-1+j0.000000000000e+0
-1.000000000000e-1+j0.000000000000e+0
-1.000000000000e-1+j0.000000000000e+0
</dep>
<dep ac.v(vout) frequency>
-6.439885751644e-2-j1.555005590734e-2
-6.563579654153e-2-j1.285539605875e-2
-6.647586747908e-2-j1.056086822302e-2
-6.704040609593e-2-j8.638993666798e-3
-6.741709383726e-2-j7.046727146273e-3
-6.766724652510e-2-j5.737026317115e-3
-6.783284525382e-2-j4.664867151877e-3
-6.794224093552e-2-j3.789919821470e-3
-6.801440863968e-2-j3.077386117814e-3
-6.806197384551e-2-j2.497908422607e-3
-6.809330487642e-2-j2.027063221387e-3
-6.811393433975e-2-j1.644711599749e-3
-6.812751396786e-2-j1.334342251387e-3
-6.813645140993e-2-j1.082468119997e-3
-6.814233292907e-2-j8.780990487793e-4
-6.814620312975e-2-j7.122936548244e-4
-6.814874970314e-2-j5.777849233217e-4
-6.815042528219e-2-j4.686706739363e-4
-6.815152774626e-2-j3.801593656915e-4
-6.815225311346e-2-j3.083622430044e-4
-6.815273036506e-2-j2.501238478464e-4
-6.815304436838e-2-j2.028840671502e-4
-6.815325096319e-2-j1.645659812120e-4
-6.815338688945e-2-j1.334847584846e-4
-6.815347632015e-2-j1.082736849608e-4
-6.815353515971e-2-j8.782412568495e-5
-6.815357387227e-2-j7.123680505197e-5
-6.815359934257e-2-j5.778227772421e-5
-6.815361610034e-2-j4.686885947517e-5
-6.815362712583e-2-j3.801661172777e-5
-6.815363437988e-2-j3.083623789266e-5
-6.815363915255e-2-j2.501196457991e-5
-6.815364229266e-2-j2.028765547154e-5
-6.815364435863e-2-j1.645554750224e-5
-6.815364571791e-2-j1.334711418255e-5
-6.815364661222e-2-j1.082565432569e-5
-6.815364720062e-2-j8.780280343676e-6
-6.815364758775e-2-j7.121041704302e-6
-6.815364784245e-2-j5.774969149038e-6
-6.815364801003e-2-j4.682865686299e-6
-6.815364812028e-2-j3.796703278100e-6
-6.815364819282e-2-j3.077510642036e-6
-6.815364824055e-2-j2.493659444812e-6
-6.815364827195e-2-j2.019473340787e-6
-6.815364829261e-2-j1.634098757662e-6
-6.815364830620e-2-j1.320587863587e-6
-6.815364831514e-2-j1.065153215252e-6
-6.815364832102e-2-j8.565614426233e-7
-6.815364832488e-2-j6.856391328586e-7
-6.815364832742e-2-j5.448695756337e-7
-6.815364832908e-2-j4.280620536472e-7
-6.815364833016e-2-j3.300796600144e-7
-6.815364833084e-2-j2.466133421602e-7
-6.815364833126e-2-j1.739925313008e-7
-6.815364833149e-2-j1.090234881451e-7
-6.815364833157e-2-j4.884894685237e-8
-6.815364833150e-2+j9.177190498859e-9
-6.815364833129e-2+j6.760694458227e-8
-6.815364833089e-2+j1.290101522779e-7
-6.815364833023e-2+j1.960866496481e-7
-6.815364832919e-2+j2.717863718107e-7
-6.815364832760e-2+j3.594390376358e-7
-6.815364832516e-2+j4.628988332668e-7
-6.815364832143e-2+j5.867156191703e-7
-6.815364831577e-2+j7.363345876618e-7
-6.815364830716e-2+j9.183369525815e-7
-6.815364829407e-2+j1.140723737033e-6
-6.815364827418e-2+j1.413278655201e-6
-6.815364824394e-2+j1.747985195132e-6
-6.815364819798e-2+j2.159564034543e-6
-6.815364812811e-2+j2.666115294874e-6
-6.815364802193e-2+j3.289914919648e-6
-6.815364786054e-2+j4.058398904437e-6
-6.815364761525e-2+j5.005356942394e-6
-6.815364724242e-2+j6.172444895341e-6
-6.815364667576e-2+j7.610982172067e-6
-6.815364581448e-2+j9.384225328965e-6
-6.815364450542e-2+j1.157015781790e-5
</dep>
<dep ac.av frequency>
6.439885751644e-1+j1.555005590734e-1
6.563579654153e-1+j1.285539605875e-1
6.647586747908e-1+j1.056086822302e-1
6.704040609593e-1+j8.638993666798e-2
6.741709383726e-1+j7.046727146273e-2
6.766724652510e-1+j5.737026317115e-2
6.783284525382e-1+j4.664867151877e-2
6.794224093552e-1+j3.789919821470e-2
6.801440863968e-1+j3.077386117814e-2
6.806197384551e-1+j2.497908422607e-2
6.809330487642e-1+j2.027063221387e-2
6.811393433975e-1+j1.644711599749e-2
6.812751396786e-1+j1.334342251387e-2
6.813645140993e-1+j1.082468119997e-2
6.814233292907e-1+j8.780990487793e-3
6.814620312975e-1+j7.122936548244e-3
6.814874970314e-1+j5.777849233217e-3
6.815042528219e-1+j4.686706739363e-3
6.815152774626e-1+j3.801593656915e-3
6.815225311346e-1+j3.083622430044e-3
6.815273036506e-1+j2.501238478464e-3
6.815304436838e-1+j2.028840671502e-3
6.815325096319e-1+j1.645659812120e-3
6.815338688945e-1+j1.334847584846e-3
6.815347632015e-1+j1.082736849608e-3
6.815353515971e-1+j8.782412568495e-4
6.815357387227e-1+j7.123680505197e-4
6.815359934257e-1+j5.778227772421e-4
6.815361610034e-1+j4.686885947517e-4
6.815362712583e-1+j3.801661172777e-4
6.815363437988e-1+j3.083623789266e-4
6.815363915255e-1+j2.501196457991e-4
6.815364229266e-1+j2.028765547154e-4
6.815364435863e-1+j1.645554750224e-4
6.815364571791e-1+j1.334711418255e-4
6.815364661222e-1+j1.082565432569e-4
6.815364720062e-1+j8.780280343676e-5
6.815364758775e-1+j7.121041704302e-5
6.815364784245e-1+j5.774969149038e-5
6.815364801003e-1+j4.682865686299e-5
6.815364812028e-1+j3.796703278100e-5
6.815364819282e-1+j3.077510642036e-5
6.815364824055e-1+j2.493659444812e-5
6.815364827195e-1+j2.019473340787e-5
6.815364829261e-1+j1.634098757662e-5
6.815364830620e-1+j1.320587863587e-5
6.815364831514e-1+j1.065153215252e-5
6.815364832102e-1+j8.565614426233e-6
6.815364832488e-1+j6.856391328586e-6
6.815364832742e-1+j5.448695756337e-6
6.815364832908e-1+j4.280620536472e-6
6.815364833016e-1+j3.300796600144e-6
6.815364833084e-1+j2.466133421602e-6
6.815364833126e-1+j1.739925313008e-6
6.815364833149e-1+j1.090234881451e-6
6.815364833157e-1+j4.884894685237e-7
6.815364833150e-1-j9.177190498859e-8
6.815364833129e-1-j6.760694458227e-7
6.815364833089e-1-j1.290101522779e-6
6.815364833023e-1-j1.960866496481e-6
6.815364832919e-1-j2.717863718107e-6
6.815364832760e-1-j3.594390376358e-6
6.815364832516e-1-j4.628988332668e-6
6.815364832143e-1-j5.867156191703e-6
6.815364831577e-1-j7.363345876618e-6
6.815364830716e-1-j9.183369525815e-6
6.815364829407e-1-j1.140723737033e-5
6.815364827418e-1-j1.413278655201e-5
6.815364824394e-1-j1.747985195132e-5
6.815364819798e-1-j2.159564034543e-5
6.815364812811e-1-j2.666115294874e-5
6.815364802193e-1-j3.289914919648e-5
6.815364786054e-1-j4.058398904437e-5
6.815364761525e-1-j5.005356942394e-5
6.815364724242e-1-j6.172444895341e-5
6.815364667576e-1-j7.610982172067e-5
6.815364581448e-1-j9.384225328965e-5
6.815364450542e-1-j1.157015781790e-4
</dep>
<indep time 209>
0.000000000000e+0
9.950250000000e-8
1.990050000000e-7
3.980100000000e-7
7.960200000000e-7
1.592040000000e-6
3.184080000000e-6
6.368160000000e-6
1.273632000000e-5
2.268657000000e-5
3.263682000000e-5
4.258707000000e-5
5.253732000000e-5
6.248757000000e-5
7.243782000000e-5
8.238807000000e-5
9.233832000000e-5
1.022885700000e-4
1.122388200000e-4
1.221890700000e-4
1.321393200000e-4
1.420895700000e-4
1.520398200000e-4
1.619900700000e-4
1.719403200000e-4
1.818905700000e-4
1.918408200000e-4
2.017910700000e-4
2.117413200000e-4
2.216915700000e-4
2.316418200000e-4
2.415920700000e-4
2.515423200000e-4
2.614925700000e-4
2.714428200000e-4
2.813930700000e-4
2.913433200000e-4
3.012935700000e-4
