<Qucs Dataset 0.0.23>
<indep frequency 100>
1.000000000000e+0
1.232846739442e+0
1.519911082953e+0
1.873817422860e+0
2.310129700083e+0
2.848035868436e+0
3.511191734215e+0
4.328761281083e+0
5.336699231206e+0
6.579332246576e+0
8.111308307897e+0
1.000000000000e+1
1.232846739442e+1
1.519911082953e+1
1.873817422860e+1
2.310129700083e+1
2.848035868436e+1
3.511191734215e+1
4.328761281083e+1
5.336699231206e+1
6.579332246576e+1
8.111308307897e+1
1.000000000000e+2
1.232846739442e+2
1.519911082953e+2
1.873817422860e+2
2.310129700083e+2
2.848035868436e+2
3.511191734215e+2
4.328761281083e+2
5.336699231206e+2
6.579332246576e+2
8.111308307897e+2
1.000000000000e+3
1.232846739442e+3
1.519911082953e+3
1.873817422860e+3
2.310129700083e+3
2.848035868436e+3
3.511191734215e+3
4.328761281083e+3
5.336699231206e+3
6.579332246576e+3
8.111308307897e+3
1.000000000000e+4
1.232846739442e+4
1.519911082953e+4
1.873817422860e+4
2.310129700083e+4
2.848035868436e+4
3.511191734215e+4
4.328761281083e+4
5.336699231206e+4
6.579332246576e+4
8.111308307897e+4
1.000000000000e+5
1.232846739442e+5
1.519911082953e+5
1.873817422860e+5
2.310129700083e+5
2.848035868436e+5
3.511191734215e+5
4.328761281083e+5
5.336699231206e+5
6.579332246576e+5
8.111308307897e+5
1.000000000000e+6
1.232846739442e+6
1.519911082953e+6
1.873817422860e+6
2.310129700083e+6
2.848035868436e+6
3.511191734215e+6
4.328761281083e+6
5.336699231206e+6
6.579332246576e+6
8.111308307897e+6
1.000000000000e+7
1.232846739442e+7
1.519911082953e+7
1.873817422860e+7
2.310129700083e+7
2.848035868436e+7
3.511191734215e+7
4.328761281083e+7
5.336699231206e+7
6.579332246576e+7
8.111308307897e+7
1.000000000000e+8
1.232846739442e+8
1.519911082953e+8
1.873817422860e+8
2.310129700083e+8
2.848035868436e+8
3.511191734215e+8
4.328761281083e+8
5.336699231206e+8
6.579332246576e+8
8.111308307897e+8
1.000000000000e+9
</indep>
<dep ac.v(b) frequency>
3.208985535039e-3+j5.655684844121e-2
4.869248860093e-3+j6.960978972319e-2
7.382136801311e-3+j8.560149483312e-2
1.117729233544e-2+j1.051300276325e-1
1.689033707069e-2+j1.288603760736e-1
2.544833586809e-2+j1.574821643701e-1
3.817412901289e-2+j1.916161160213e-1
5.689213113675e-2+j2.316359737745e-1
8.398674107945e-2+j2.773674181669e-1
1.223115487916e-1+j3.276446559996e-1
1.747876940898e-1+j3.797846305209e-1
2.435310257623e-1+j4.292118853265e-1
3.285466069797e-1+j4.696835360712e-1
4.265074957183e-1+j4.945679032214e-1
5.305956279043e-1+j4.990612337008e-1
6.320881413864e-1+j4.822349919402e-1
7.230886222258e-1+j4.474695785668e-1
7.987470149231e-1+j4.009333143788e-1
8.577987715152e-1+j3.492522599860e-1
9.016565397275e-1+j2.977733667199e-1
9.330431679681e-1+j2.499409179642e-1
9.549131908383e-1+j2.074867771981e-1
9.698701361289e-1+j1.709350126634e-1
9.799690152764e-1+j1.400943740355e-1
9.867288994463e-1+j1.144187260370e-1
9.912275482636e-1+j9.323168481173e-2
9.942097986321e-1+j7.585061691663e-2
9.961817269639e-1+j6.164680296449e-2
9.974833960211e-1+j5.006896018828e-2
9.983416642262e-1+j4.064742166150e-2
9.989071533942e-1+j3.298905232218e-2
9.992795570325e-1+j2.676841333184e-2
9.995247252401e-1+j2.171801253315e-2
9.996860951732e-1+j1.761899372911e-2
9.997922942351e-1+j1.429282735872e-2
9.998621784335e-1+j1.159416345967e-2
9.999081628982e-1+j9.404816163314e-3
9.999384199123e-1+j7.628767443344e-3
9.999583280060e-1+j6.188051989056e-3
9.999714266347e-1+j5.019385891096e-3
9.999800448450e-1+j4.071414219312e-3
9.999857151331e-1+j3.302468919159e-3
9.999894458393e-1+j2.678745085001e-3
9.999919004105e-1+j2.172818963615e-3
9.999935153616e-1+j1.762444411843e-3
9.999945778954e-1+j1.429575892927e-3
9.999952769743e-1+j1.159575586211e-3
9.999957369242e-1+j9.405700294980e-4
9.999960395440e-1+j7.629281548370e-4
9.999962386527e-1+j6.188378452538e-4
9.999963696604e-1+j5.019624343018e-4
9.999964558662e-1+j4.071620655375e-4
9.999965126012e-1+j3.302676704827e-4
9.999965499553e-1+j2.678976318416e-4
9.999965745719e-1+j2.173090728196e-4
9.999965908289e-1+j1.762772344946e-4
9.999966016173e-1+j1.429976375422e-4
9.999966088559e-1+j1.160067261193e-4
9.999966138320e-1+j9.411750422232e-5
9.999966174303e-1+j7.636733395839e-5
9.999966202907e-1+j6.197559981059e-5
9.999966229211e-1+j5.030937656597e-5
9.999966257880e-1+j4.085559006033e-5
9.999966293980e-1+j3.319844454148e-5
9.999966343856e-1+j2.700112044647e-5
9.999966416206e-1+j2.199093126261e-5
9.999966523503e-1+j1.794727505339e-5
9.999966683926e-1+j1.469183012417e-5
9.999966923959e-1+j1.208052815377e-5
9.999967281683e-1+j9.996893864701e-6
9.999967810479e-1+j8.346372036923e-6
9.999968582082e-1+j7.051285309456e-6
9.999969686482e-1+j6.046123720970e-6
9.999971224090e-1+j5.273055968024e-6
9.999973284230e-1+j4.678010341371e-6
9.999975906902e-1+j4.208417059181e-6
9.999979036661e-1+j3.814234504773e-6
9.999982495805e-1+j3.452999360881e-6
9.999986009418e-1+j3.096694757535e-6
9.999989285159e-1+j2.735488685333e-6
9.999992103879e-1+j2.374851725473e-6
9.999994366752e-1+j2.027779199097e-6
9.999996084205e-1+j1.707094289741e-6
9.999997332788e-1+j1.421212144805e-6
9.999998212115e-1+j1.173416945938e-6
9.999998817253e-1+j9.630282468500e-7
9.999999226628e-1+j7.869944948086e-7
9.999999499795e-1+j6.411964870067e-7
9.999999679801e-1+j5.212935373663e-7
9.999999796892e-1+j4.231841888448e-7
9.999999872021e-1+j3.432071520605e-7
9.999999919595e-1+j2.781928775325e-7
9.999999949418e-1+j2.254452181995e-7
9.999999968022e-1+j1.826998122691e-7
9.999999979643e-1+j1.480775530475e-7
9.999999986945e-1+j1.200361414560e-7
9.999999991572e-1+j9.732033788117e-8
9.999999994529e-1+j7.891365943973e-8
9.999999996434e-1+j6.399472678715e-8
9.999999997669e-1+j5.190003156276e-8
</dep>
<dep ac.v(uin) frequency>
1.000000000000e+0+j0.000000000000e+0
1.000000000000e+0+j0.000000000000e+0
1.000000000000e+0+j0.000000000000e+0
1.000000000000e+0+j0.000000000000e+0
1.000000000000e+0+j0.000000000000e+0
1.000000000000e+0+j0.000000000000e+0
1.000000000000e+0+j0.000000000000e+0
1.000000000000e+0+j0.000000000000e+0
1.000000000000e+0+j0.000000000000e+0
1.000000000000e+0+j0.000000000000e+0
1.000000000000e+0+j0.000000000000e+0
1.000000000000e+0+j0.000000000000e+0
1.000000000000e+0+j0.000000000000e+0
1.000000000000e+0+j0.000000000000e+0
1.000000000000e+0+j0.000000000000e+0
1.000000000000e+0+j0.000000000000e+0
1.000000000000e+0+j0.000000000000e+0
1.000000000000e+0+j0.000000000000e+0
1.000000000000e+0+j0.000000000000e+0
1.000000000000e+0+j0.000000000000e+0
1.000000000000e+0+j0.000000000000e+0
1.000000000000e+0+j0.000000000000e+0
1.000000000000e+0+j0.000000000000e+0
1.000000000000e+0+j0.000000000000e+0
1.000000000000e+0+j0.000000000000e+0
1.000000000000e+0+j0.000000000000e+0
1.000000000000e+0+j0.000000000000e+0
1.000000000000e+0+j0.000000000000e+0
1.000000000000e+0+j0.000000000000e+0
1.000000000000e+0+j0.000000000000e+0
1.000000000000e+0+j0.000000000000e+0
1.000000000000e+0+j0.000000000000e+0
1.000000000000e+0+j0.000000000000e+0
1.000000000000e+0+j0.000000000000e+0
1.000000000000e+0+j0.000000000000e+0
1.000000000000e+0+j0.000000000000e+0
1.000000000000e+0+j0.000000000000e+0
1.000000000000e+0+j0.000000000000e+0
1.000000000000e+0+j0.000000000000e+0
1.000000000000e+0+j0.000000000000e+0
1.000000000000e+0+j0.000000000000e+0
1.000000000000e+0+j0.000000000000e+0
1.000000000000e+0+j0.000000000000e+0
1.000000000000e+0+j0.000000000000e+0
1.000000000000e+0+j0.000000000000e+0
1.000000000000e+0+j0.000000000000e+0
1.000000000000e+0+j0.000000000000e+0
1.000000000000e+0+j0.000000000000e+0
1.000000000000e+0+j0.000000000000e+0
1.000000000000e+0+j0.000000000000e+0
1.000000000000e+0+j0.000000000000e+0
1.000000000000e+0+j0.000000000000e+0
1.000000000000e+0+j0.000000000000e+0
1.000000000000e+0+j0.000000000000e+0
1.000000000000e+0+j0.000000000000e+0
1.000000000000e+0+j0.000000000000e+0
1.000000000000e+0+j0.000000000000e+0
1.000000000000e+0+j0.000000000000e+0
1.000000000000e+0+j0.000000000000e+0
1.000000000000e+0+j0.000000000000e+0
1.000000000000e+0+j0.000000000000e+0
1.000000000000e+0+j0.000000000000e+0
1.000000000000e+0+j0.000000000000e+0
1.000000000000e+0+j0.000000000000e+0
1.000000000000e+0+j0.000000000000e+0
1.000000000000e+0+j0.000000000000e+0
1.000000000000e+0+j0.000000000000e+0
1.000000000000e+0+j0.000000000000e+0
1.000000000000e+0+j0.000000000000e+0
1.000000000000e+0+j0.000000000000e+0
1.000000000000e+0+j0.000000000000e+0
1.000000000000e+0+j0.000000000000e+0
1.000000000000e+0+j0.000000000000e+0
1.000000000000e+0+j0.000000000000e+0
1.000000000000e+0+j0.000000000000e+0
1.000000000000e+0+j0.000000000000e+0
1.000000000000e+0+j0.000000000000e+0
1.000000000000e+0+j0.000000000000e+0
1.000000000000e+0+j0.000000000000e+0
1.000000000000e+0+j0.000000000000e+0
1.000000000000e+0+j0.000000000000e+0
1.000000000000e+0+j0.000000000000e+0
1.000000000000e+0+j0.000000000000e+0
1.000000000000e+0+j0.000000000000e+0
1.000000000000e+0+j0.000000000000e+0
1.000000000000e+0+j0.000000000000e+0
1.000000000000e+0+j0.000000000000e+0
1.000000000000e+0+j0.000000000000e+0
1.000000000000e+0+j0.000000000000e+0
1.000000000000e+0+j0.000000000000e+0
1.000000000000e+0+j0.000000000000e+0
1.000000000000e+0+j0.000000000000e+0
1.000000000000e+0+j0.000000000000e+0
1.000000000000e+0+j0.000000000000e+0
1.000000000000e+0+j0.000000000000e+0
1.000000000000e+0+j0.000000000000e+0
1.000000000000e+0+j0.000000000000e+0
1.000000000000e+0+j0.000000000000e+0
1.000000000000e+0+j0.000000000000e+0
1.000000000000e+0+j0.000000000000e+0
</dep>
<dep ac.i(pr2) frequency>
2.368750291955e-8+j4.176932788134e-7
3.594293128787e-8+j5.140945218996e-7
5.449210821454e-8+j6.322001035668e-7
8.250649370008e-8+j7.764273821235e-7
1.246780031603e-7+j9.516883478850e-7
1.878498745485e-7+j1.163077615894e-6
2.817868085098e-7+j1.415182150895e-6
4.199559355294e-7+j1.710766969490e-6
6.199579751770e-7+j2.048552944319e-6
9.028570362191e-7+j2.419944045541e-6
1.290215854696e-6+j2.805146575471e-6
1.797652816550e-6+j3.170400567629e-6
2.425205296292e-6+j3.469641070744e-6
3.148315081565e-6+j3.653937301687e-6
3.916653833448e-6+j3.687856592082e-6
4.665832722876e-6+j3.564577885693e-6
5.337563445373e-6+j3.309094736707e-6
5.896044748728e-6+j2.966989542872e-6
6.331942225455e-6+j2.587235254344e-6
6.655683502668e-6+j2.209377341045e-6
6.887367608625e-6+j1.858934277703e-6
7.048803792217e-6+j1.548806020070e-6
7.159210307226e-6+j1.283004052569e-6
7.233756473921e-6+j1.060292951938e-6
7.283655513108e-6+j8.768587240443e-7
7.316863062571e-6+j7.279765429017e-7
7.338877266953e-6+j6.089378489066e-7
7.353433855075e-6+j5.155089830899e-7
7.363043141089e-6+j4.441227340502e-7
7.369379860565e-6+j3.919312705587e-7
7.373556079438e-6+j3.567958387949e-7
7.376308051696e-6+j3.372551055187e-7
7.378122396631e-6+j3.324945705505e-7
7.379320570047e-6+j3.423288536166e-7
7.380115133803e-6+j3.672032517714e-7
7.380647168516e-6+j4.082185209159e-7
7.381011194783e-6+j4.671820642725e-7
7.381271909852e-6+j5.466889028526e-7
7.381475661899e-6+j6.502365908974e-7
7.381658679049e-6+j7.823794519203e-7
7.381853506380e-6+j9.489290898930e-7
7.382094791302e-6+j1.157210084348e-6
7.382425444266e-6+j1.416382161008e-6
7.382904269623e-6+j1.737843027982e-6
7.383616423351e-6+j2.135729598859e-6
7.384688557279e-6+j2.627539636953e-6
7.386311342892e-6+j3.234901133498e-6
7.388773380120e-6+j3.984523201810e-6
7.392512520763e-6+j4.909370202632e-6
7.398193732376e-6+j6.050110541626e-6
7.406827346085e-6+j7.456903488980e-6
7.419948708489e-6+j9.191601917368e-6
7.439891165638e-6+j1.133046654810e-5
7.470200876665e-6+j1.396750867084e-5
7.516267111501e-6+j1.721860384423e-5
7.586279855266e-6+j2.122654906376e-5
7.692684395132e-6+j2.616727002164e-5
7.854390127901e-6+j3.225742189881e-5
8.100123060657e-6+j3.976366266806e-5
8.473510493115e-6+j4.901390332230e-5
9.040784323372e-6+j6.041083657086e-5
9.902431849832e-6+j7.444797846013e-5
1.121077145317e-5+j9.172825726336e-5
1.319636143647e-5+j1.129847220053e-4
1.620744046990e-5+j1.391019833478e-4
2.076827735584e-5+j1.711351227332e-4
2.766423160813e-5+j2.103192951305e-4
3.806287380966e-5+j2.580569628345e-4
5.367994097502e-5+j3.158590295405e-4
7.699210683307e-5+j3.851994845972e-4
1.114771875884e-4+j4.672208531128e-4
1.618124258821e-4+j5.622076253151e-4
2.338670034811e-4+j6.687540615626e-4
3.341905090750e-4+j7.826531689602e-4
4.686085822272e-4+j8.958139017730e-4
6.397270676294e-4+j9.959839116253e-4
8.439213213492e-4+j1.068389324145e-3
1.069585410460e-3+j1.099817180027e-3
1.298764631524e-3+j1.083735701076e-3
1.512360863703e-3+j1.023251765834e-3
1.696042545603e-3+j9.296505431515e-4
1.843316649961e-3+j8.176621819912e-4
1.954800786625e-3+j7.007192743189e-4
2.035402963560e-3+j5.884246175374e-4
2.091507631791e-3+j4.862750661889e-4
2.129175426045e-3+j3.965913497984e-4
2.153369510476e-3+j3.197046402899e-4
2.167848537145e-3+j2.549278582006e-4
2.175383929930e-3+j2.011861959075e-4
2.178071298454e-3+j1.573312972192e-4
2.177588155743e-3+j1.222183708436e-4
2.175315564297e-3+j9.466455797203e-5
2.172331258284e-3+j7.341995983345e-5
2.169365116472e-3+j5.722288756137e-5
2.166808246976e-3+j4.491016230224e-5
2.164792105098e-3+j3.550786023097e-5
2.163294010283e-3+j2.826172034229e-5
2.162224686563e-3+j2.261660308213e-5
2.161481855533e-3+j1.817366092280e-5
2.160975157829e-3+j1.464704314389e-5
</dep>
<dep ac.i(pr3) frequency>
-3.208985535039e-7-j5.655684844121e-6
-4.869248860093e-7-j6.960978972319e-6
-7.382136801311e-7-j8.560149483312e-6
-1.117729233544e-6-j1.051300276325e-5
-1.689033707069e-6-j1.288603760736e-5
-2.544833586809e-6-j1.574821643701e-5
-3.817412901289e-6-j1.916161160213e-5
-5.689213113675e-6-j2.316359737745e-5
-8.398674107945e-6-j2.773674181669e-5
-1.223115487916e-5-j3.276446559996e-5
-1.747876940898e-5-j3.797846305209e-5
-2.435310257623e-5-j4.292118853265e-5
-3.285466069797e-5-j4.696835360712e-5
-4.265074957183e-5-j4.945679032214e-5
-5.305956279043e-5-j4.990612337008e-5
-6.320881413864e-5-j4.822349919402e-5
-7.230886222258e-5-j4.474695785668e-5
-7.987470149231e-5-j4.009333143788e-5
-8.577987715152e-5-j3.492522599860e-5
-9.016565397275e-5-j2.977733667199e-5
-9.330431679681e-5-j2.499409179642e-5
-9.549131908383e-5-j2.074867771981e-5
-9.698701361289e-5-j1.709350126634e-5
-9.799690152764e-5-j1.400943740355e-5
-9.867288994463e-5-j1.144187260370e-5
-9.912275482636e-5-j9.323168481173e-6
-9.942097986321e-5-j7.585061691663e-6
-9.961817269639e-5-j6.164680296449e-6
-9.974833960211e-5-j5.006896018828e-6
-9.983416642262e-5-j4.064742166150e-6
-9.989071533942e-5-j3.298905232218e-6
-9.992795570325e-5-j2.676841333184e-6
-9.995247252401e-5-j2.171801253315e-6
-9.996860951732e-5-j1.761899372911e-6
-9.997922942351e-5-j1.429282735872e-6
-9.998621784335e-5-j1.159416345967e-6
-9.999081628982e-5-j9.404816163314e-7
-9.999384199123e-5-j7.628767443344e-7
-9.999583280060e-5-j6.188051989056e-7
-9.999714266347e-5-j5.019385891096e-7
-9.999800448450e-5-j4.071414219312e-7
-9.999857151331e-5-j3.302468919159e-7
-9.999894458393e-5-j2.678745085001e-7
-9.999919004105e-5-j2.172818963615e-7
-9.999935153616e-5-j1.762444411843e-7
-9.999945778954e-5-j1.429575892927e-7
-9.999952769743e-5-j1.159575586211e-7
-9.999957369242e-5-j9.405700294980e-8
-9.999960395440e-5-j7.629281548370e-8
-9.999962386527e-5-j6.188378452538e-8
-9.999963696604e-5-j5.019624343018e-8
-9.999964558662e-5-j4.071620655375e-8
-9.999965126012e-5-j3.302676704827e-8
-9.999965499553e-5-j2.678976318416e-8
-9.999965745719e-5-j2.173090728196e-8
-9.999965908289e-5-j1.762772344946e-8
-9.999966016173e-5-j1.429976375422e-8
-9.999966088559e-5-j1.160067261193e-8
-9.999966138320e-5-j9.411750422232e-9
-9.999966174303e-5-j7.636733395839e-9
-9.999966202907e-5-j6.197559981059e-9
-9.999966229211e-5-j5.030937656597e-9
-9.999966257880e-5-j4.085559006033e-9
-9.999966293980e-5-j3.319844454148e-9
-9.999966343856e-5-j2.700112044647e-9
-9.999966416206e-5-j2.199093126261e-9
-9.999966523503e-5-j1.794727505339e-9
-9.999966683926e-5-j1.469183012417e-9
-9.999966923959e-5-j1.208052815377e-9
-9.999967281683e-5-j9.996893864701e-10
-9.999967810479e-5-j8.346372036923e-10
-9.999968582082e-5-j7.051285309456e-10
-9.999969686482e-5-j6.046123720970e-10
-9.999971224090e-5-j5.273055968024e-10
-9.999973284230e-5-j4.678010341371e-10
-9.999975906902e-5-j4.208417059181e-10
-9.999979036661e-5-j3.814234504773e-10
-9.999982495805e-5-j3.452999360881e-10
-9.999986009418e-5-j3.096694757535e-10
-9.999989285159e-5-j2.735488685333e-10
-9.999992103879e-5-j2.374851725473e-10
-9.999994366752e-5-j2.027779199097e-10
-9.999996084205e-5-j1.707094289741e-10
-9.999997332788e-5-j1.421212144805e-10
-9.999998212115e-5-j1.173416945938e-10
-9.999998817253e-5-j9.630282468500e-11
-9.999999226628e-5-j7.869944948086e-11
-9.999999499795e-5-j6.411964870067e-11
-9.999999679801e-5-j5.212935373663e-11
-9.999999796892e-5-j4.231841888448e-11
-9.999999872021e-5-j3.432071520605e-11
-9.999999919595e-5-j2.781928775325e-11
-9.999999949418e-5-j2.254452181995e-11
-9.999999968022e-5-j1.826998122691e-11
-9.999999979643e-5-j1.480775530475e-11
-9.999999986945e-5-j1.200361414560e-11
-9.999999991572e-5-j9.732033788117e-12
-9.999999994529e-5-j7.891365943973e-12
-9.999999996434e-5-j6.399472678715e-12
-9.999999997669e-5-j5.190003156276e-12
</dep>
<dep ac.i(pr4) frequency>
1.401786039111e-5+j2.470576752620e-4
2.127041396262e-5+j3.040769286871e-4
3.224750063187e-5+j3.739336035715e-4
4.882593635838e-5+j4.592402254921e-4
7.378231669490e-5+j5.629016641781e-4
1.111663531947e-4+j6.879304066206e-4
1.667566292250e-4+j8.370379576832e-4
2.485227630101e-4+j1.011856929875e-3
3.668805603205e-4+j1.211625824032e-3
5.342954016022e-4+j1.431252067254e-3
7.635277464105e-4+j1.659015196333e-3
1.063820289235e-3+j1.874928143886e-3
1.435195147600e-3+j2.051719984327e-3
1.863119189988e-3+j2.160421403093e-3
2.317808963254e-3+j2.180048033465e-3
2.761160255798e-3+j2.106543666650e-3
3.158679042332e-3+j1.954674868544e-3
3.489178751542e-3+j1.751386698313e-3
3.747135439295e-3+j1.525623741179e-3
3.938719996163e-3+j1.300742998091e-3
4.075826682313e-3+j1.091789977503e-3
4.171361836233e-3+j9.063297496913e-4
4.236698488012e-3+j7.466512951457e-4
4.280813575381e-3+j6.119187840680e-4
4.310342880008e-3+j4.997460469479e-4
4.329994395616e-3+j4.071778360184e-4
4.343021804501e-3+j3.312314659984e-4
4.351635807816e-3+j2.691595958681e-4
4.357321906680e-3+j2.185529434180e-4
4.361071089858e-3+j1.773584927924e-4
4.363541320403e-3+j1.438572261525e-4
4.365168090200e-3+j1.166254529305e-4
4.366239052050e-3+j9.449212967228e-5
4.366943951335e-3+j7.649807558181e-5
4.367407838830e-3+j6.185953633477e-5
4.367713079343e-3+j4.993679289330e-5
4.367913899728e-3+j4.020767346994e-5
4.368045989443e-3+j3.224546891934e-5
4.368132828940e-3+j2.570063675842e-5
4.368189857386e-3+j2.028567992891e-5
4.368227214912e-3+j1.576263727292e-5
4.368251544454e-3+j1.193269006442e-5
4.368267172496e-3+j8.627456618002e-6
4.368276878231e-3+j5.701607678414e-6
4.368282387698e-3+j3.026486145590e-6
4.368284680694e-3+j4.844550080076e-7
4.368284165004e-3-j2.036272651546e-6
4.368280748917e-3-j4.646547558065e-6
4.368273824917e-3-j7.461157253238e-6
4.368262161645e-3-j1.060387172518e-5
4.368243684944e-3-j1.421288255630e-5
4.368215109040e-3-j1.844687317811e-5
4.368171352344e-3-j2.349198430570e-5
4.368104634065e-3-j2.956997554723e-5
4.368003091252e-3-j3.694793217525e-5
4.367848670904e-3-j4.594992533942e-5
4.367613923661e-3-j5.697110368384e-5
4.367257132059e-3-j7.049477088724e-5
4.366714914333e-3-j8.711307813912e-5
4.365891005459e-3-j1.075520133461e-4
4.364639259596e-3-j1.327013596093e-4
4.362737941739e-3-j1.636501448481e-4
4.359850945388e-3-j2.017276603893e-4
4.355469518952e-3-j2.485491044337e-4
4.348825236816e-3-j3.060627860664e-4
4.338761245856e-3-j3.765916808813e-4
4.323544573878e-3-j4.628543788841e-4
4.300598873511e-3-j5.679365850377e-4
4.266138244878e-3-j6.951607847768e-4
4.214697783104e-3-j8.477649160694e-4
4.138603645301e-3-j1.028251638266e-3
4.027535745906e-3-j1.237225374579e-3
3.868544753573e-3-j1.471554658312e-3
3.647181766789e-3-j1.721918897327e-3
3.350598833100e-3-j1.970417208882e-3
2.973058953649e-3-j2.189954899611e-3
2.522583182886e-3-j2.347860687570e-3
2.024818323729e-3-j2.414894901315e-3
1.519439316203e-3-j2.376548476467e-3
1.048668753697e-3-j2.239569600184e-3
6.442445287650e-4-j2.028742329359e-3
3.206549376128e-4-j1.776446260896e-3
