<Qucs Dataset 0.0.22>
<indep frequency 19>
1.000000000000e-01
5.555650000000e+03
1.111120000000e+04
1.666675000000e+04
2.222230000000e+04
2.777785000000e+04
3.333340000000e+04
3.888895000000e+04
4.444450000000e+04
5.000005000000e+04
5.555560000000e+04
6.111115000000e+04
6.666670000000e+04
7.222225000000e+04
7.777780000000e+04
8.333335000000e+04
8.888890000000e+04
9.444445000000e+04
1.000000000000e+05
</indep>
<dep ac.v(vin) frequency>
1.000000000000e+00+j0.000000000000e+00
1.000000000000e+00+j0.000000000000e+00
1.000000000000e+00+j0.000000000000e+00
1.000000000000e+00+j0.000000000000e+00
1.000000000000e+00+j0.000000000000e+00
1.000000000000e+00+j0.000000000000e+00
1.000000000000e+00+j0.000000000000e+00
1.000000000000e+00+j0.000000000000e+00
1.000000000000e+00+j0.000000000000e+00
1.000000000000e+00+j0.000000000000e+00
1.000000000000e+00+j0.000000000000e+00
1.000000000000e+00+j0.000000000000e+00
1.000000000000e+00+j0.000000000000e+00
1.000000000000e+00+j0.000000000000e+00
1.000000000000e+00+j0.000000000000e+00
1.000000000000e+00+j0.000000000000e+00
1.000000000000e+00+j0.000000000000e+00
1.000000000000e+00+j0.000000000000e+00
1.000000000000e+00+j0.000000000000e+00
</dep>
<dep ac.v(vout) frequency>
-9.999848518448e-01+j3.022411210240e-08
-9.999820392756e-01+j1.679141172948e-03
-9.999736018653e-01+j3.358223856722e-03
-9.999595398980e-01+j5.037250012465e-03
-9.999398538470e-01+j6.716191380382e-03
-9.999145443749e-01+j8.395019705434e-03
-9.998836123339e-01+j1.007370673892e-02
-9.998470587648e-01+j1.175222424008e-02
-9.998048848979e-01+j1.343054397763e-02
-9.997570921524e-01+j1.510863773142e-02
-9.997036821364e-01+j1.678647729394e-02
-9.996446566464e-01+j1.846403447194e-02
-9.995800176679e-01+j2.014128108800e-02
-9.995097673746e-01+j2.181818898211e-02
-9.994339081284e-01+j2.349473001322e-02
-9.993524424793e-01+j2.517087606084e-02
-9.992653731651e-01+j2.684659902660e-02
-9.991727031112e-01+j2.852187083582e-02
-9.990744354302e-01+j3.019666343904e-02
</dep>
<indep time 222>
0.000000000000e+00
1.000000000000e-11
1.084011670428e-11
1.252035011283e-11
1.588081692994e-11
2.260175056416e-11
3.604361783260e-11
6.292735236949e-11
1.166948214433e-10
2.242297595908e-10
4.392996358858e-10
8.694393884759e-10
1.000000000000e-09
1.086027950518e-09
1.258083851554e-09
1.602195653626e-09
2.290419257770e-09
3.666866466059e-09
6.419760882635e-09
1.192554971579e-08
2.293712738210e-08
4.496028271471e-08
8.900659337994e-08
1.396307038391e-07
2.098918870591e-07
2.963561008081e-07
4.465362319640e-07
7.016119014613e-07
1.211763240456e-06
2.232065918445e-06
4.272671274424e-06
8.353881986381e-06
1.651630341029e-05
3.284114625812e-05
5.264314625812e-05
7.244514625812e-05
9.224714625812e-05
1.120491462581e-04
1.318511462581e-04
1.516531462581e-04
1.714551462581e-04
1.912571462581e-04
2.110591462581e-04
2.308611462581e-04
2.506631462581e-04
2.704651462581e-04
2.902671462581e-04
3.100691462581e-04
3.298711462581e-04
3.496731462581e-04
3.694751462581e-04
3.892771462581e-04
4.090791462581e-04
4.288811462581e-04
4.486831462581e-04
4.684851462581e-04
4.882871462581e-04
5.000010000000e-04
5.000011000000e-04
5.000013000000e-04
5.000017000000e-04
5.000020000000e-04
5.000020800000e-04
5.000022400000e-04
5.000025600000e-04
5.000032000000e-04
5.000044800000e-04
5.000070400000e-04
5.000121600000e-04
5.000224000000e-04
5.000428800000e-04
5.000785500823e-04
5.001114125977e-04
5.001407359543e-04
5.001726305662e-04
5.002042349518e-04
5.002361216771e-04
5.002650528801e-04
5.002928077589e-04
5.003218598454e-04
5.003682282506e-04
5.004300400174e-04
5.005254666784e-04
5.006679505245e-04
5.009529182168e-04
5.015228536013e-04
5.026627243703e-04
5.049424659083e-04
5.095019489843e-04
5.186209151363e-04
5.368588474403e-04
5.566608474403e-04
5.764628474403e-04
5.962648474403e-04
6.160668474403e-04
6.358688474403e-04
6.556708474403e-04
6.754728474403e-04
6.952748474403e-04
7.150768474403e-04
7.348788474403e-04
7.546808474403e-04
7.744828474403e-04
7.942848474403e-04
8.140868474403e-04
8.338888474403e-04
8.536908474403e-04
8.734928474403e-04
8.932948474403e-04
9.130968474403e-04
9.328988474403e-04
9.527008474403e-04
9.725028474403e-04
9.923048474403e-04
1.000000000000e-03
1.000000100000e-03
1.000000300000e-03
1.000000700000e-03
1.000001000000e-03
1.000001049952e-03
1.000001149856e-03
1.000001349664e-03
1.000001749281e-03
1.000002548513e-03
1.000004146978e-03
1.000007343909e-03
1.000013737770e-03
1.000026525492e-03
1.000052100936e-03
1.000100913398e-03
1.000153240386e-03
1.000228687470e-03
1.000321720459e-03
1.000495585307e-03
1.000796679755e-03
1.001398868652e-03
1.002603246445e-03
1.005012002031e-03
1.009829513204e-03
1.019464535549e-03
1.038734580240e-03
1.058536580240e-03
1.078338580240e-03
1.098140580240e-03
1.117942580240e-03
1.137744580240e-03
1.157546580240e-03
1.177348580240e-03
1.197150580240e-03
1.216952580240e-03
1.236754580240e-03
1.256556580240e-03
1.276358580240e-03
1.296160580240e-03
1.315962580240e-03
1.335764580240e-03
1.355566580240e-03
1.375368580240e-03
1.395170580240e-03
1.414972580240e-03
1.434774580240e-03
1.454576580240e-03
1.474378580240e-03
1.494180580240e-03
1.500001000000e-03
1.500001100000e-03
1.500001300000e-03
1.500001700000e-03
1.500002000000e-03
1.500002080000e-03
1.500002240000e-03
1.500002560000e-03
1.500003200000e-03
1.500004480000e-03
1.500007040000e-03
1.500012160000e-03
1.500022400000e-03
1.500042880000e-03
1.500078550082e-03
1.500111412597e-03
1.500140735953e-03
1.500172630564e-03
1.500204234946e-03
1.500236121662e-03
1.500265052841e-03
1.500292807732e-03
1.500321859843e-03
1.500368228481e-03
1.500430040421e-03
1.500525467569e-03
1.500667952109e-03
1.500952921188e-03
1.501522859346e-03
1.502662735662e-03
1.504942488294e-03
1.509501993559e-03
1.518621004088e-03
1.536859025147e-03
1.556661025147e-03
1.576463025147e-03
1.596265025147e-03
1.616067025147e-03
1.635869025147e-03
1.655671025147e-03
1.675473025147e-03
1.695275025147e-03
1.715077025147e-03
1.734879025147e-03
1.754681025147e-03
1.774483025147e-03
1.794285025147e-03
1.814087025147e-03
1.833889025147e-03
1.853691025147e-03
1.873493025147e-03
1.893295025147e-03
1.913097025147e-03
1.932899025147e-03
1.952701025147e-03
1.972503025147e-03
1.992305025147e-03
2.000000000000e-03
</indep>
<dep tran.v(vin) time>
0.000000000000e+00
3.141592653590e-07
3.405523100221e-07
3.933383993485e-07
4.989105780011e-07
7.100549353064e-07
1.132343649917e-06
1.976921079137e-06
3.666075937573e-06
7.044385654408e-06
1.380100508780e-05
2.731424395238e-05
3.141592653073e-05
3.411857430279e-05
3.952386984613e-05
5.033446092920e-05
7.195564307643e-05
1.151980072599e-04
2.016827348996e-04
3.746521850068e-04
7.205910464191e-04
1.412468469137e-03
2.796220954949e-03
4.386613865694e-03
6.593900320123e-03
9.310166986554e-03
1.402788934632e-02
2.204000319780e-02
3.805947060827e-02
7.006496592639e-02
1.338272046856e-01
2.594425493511e-01
4.959035049685e-01
8.581909287146e-01
9.965544180527e-01
7.615240175218e-01
2.411620686277e-01
-3.695596652038e-01
-8.418129738000e-01
-9.986516746885e-01
-7.813106753207e-01
-2.712243657427e-01
3.404856174826e-01
8.246207820595e-01
9.997829935270e-01
8.003416166552e-01
3.010243232721e-01
-3.110822377873e-01
-8.066309825023e-01
-9.999472803090e-01
-8.185984340003e-01
-3.305331174468e-01
2.813779663004e-01
7.878609756173e-01
9.991443761295e-01
8.360634685965e-01
3.597222061230e-01
-3.141592653177e-05
-3.455751918363e-05
-4.084070448454e-05
-5.340707508659e-05
-6.283185302959e-05
-6.534512715013e-05
-7.037167538286e-05
-8.042477184639e-05
-1.005309647481e-04
-1.407433504196e-04
-2.211681210149e-04
-3.820176573900e-04
-7.037166963328e-04
-1.347114522442e-03
-2.467721109942e-03
-3.500122836580e-03
-4.421335997193e-03
-5.423322600996e-03
-6.416186217576e-03
-7.417913229977e-03
-8.326785583731e-03
-9.198697312121e-03
-1.011135295298e-02
-1.156797365205e-02
-1.350969461228e-02
-1.650727279546e-02
-2.098274460432e-02
-2.993233726920e-02
-4.782360853210e-02
-8.355442615924e-02
-1.546489768386e-01
-2.940988470716e-01
-5.521937980744e-01
-9.159844801197e-01
-9.781855940524e-01
-6.738753390518e-01
-1.170741717867e-01
4.835929195210e-01
9.030650474008e-01
9.841723406610e-01
6.965251214492e-01
1.479004585795e-01
-4.561402724366e-01
-8.892721322806e-01
-9.892071544915e-01
-7.185011955270e-01
-1.785836898438e-01
4.282464273437e-01
8.746190758453e-01
9.932851656609e-01
7.397823051044e-01
2.090941874708e-01
-3.999383643395e-01
-8.591200511460e-01
-9.964024297454e-01
-7.603478661992e-01
-2.394024404274e-01
-1.224646799147e-15
3.141592655900e-06
9.424777962920e-06
2.199114857204e-05
3.141592652938e-05
3.298521610863e-05
3.612379527398e-05
4.240095359293e-05
5.495527023267e-05
8.006390347709e-05
1.302811698235e-04
2.307157013900e-04
4.315847565351e-04
8.333228064687e-04
1.636798438026e-03
3.170282596233e-03
4.814170123636e-03
7.184366941175e-03
1.010697421580e-02
1.556864260079e-02
2.502581968522e-02
4.393261031269e-02
8.169226118053e-02
1.568068666751e-01
3.039187270673e-01
5.740933550032e-01
9.380235577279e-01
9.642535381249e-01
6.291922805342e-01
5.838217787456e-02
-5.343028451112e-01
-9.267926614028e-01
-9.720272644572e-01
-6.530579316708e-01
-8.939765476834e-02
5.077585732377e-01
9.146653323326e-01
9.788608052387e-01
6.762919177774e-01
1.203266624998e-01
-4.807231759695e-01
-9.016533005790e-01
-9.847475507820e-01
-6.988717659679e-01
-1.511392852351e-01
4.532228030772e-01
8.877691519249e-01
9.896818071799e-01
7.207756360656e-01
1.818057197128e-01
-3.141592652521e-05
-3.455751918063e-05
-4.084070448331e-05
-5.340707508359e-05
-6.283185302481e-05
-6.534512713825e-05
-7.037167537097e-05
-8.042477183806e-05
-1.005309647326e-04
-1.407433504059e-04
-2.211681209906e-04
-3.820176573480e-04
-7.037166962569e-04
-1.347114522299e-03
-2.467721110764e-03
-3.500122826226e-03
-4.421335948211e-03
-5.423322526812e-03
-6.416186036287e-03
-7.417912759126e-03
-8.326784345165e-03
-9.198696473944e-03
-1.011135288105e-02
-1.156798087617e-02
-1.350970728027e-02
-1.650730077503e-02
-2.098279436040e-02
-2.993243056170e-02
-4.782378879452e-02
-8.355477965688e-02
-1.546496716542e-01
-2.941001854939e-01
-5.521961278965e-01
-9.159867200067e-01
-9.781844343033e-01
-6.738712142071e-01
-1.170686273635e-01
4.835978061112e-01
9.030674452263e-01
9.841713512929e-01
6.965211155888e-01
1.478949371622e-01
-4.561452406192e-01
-8.892746857254e-01
-9.892063364614e-01
-7.184973125255e-01
-1.785781967728e-01
4.282514723133e-01
8.746217824397e-01
9.932845197600e-01
7.397785487175e-01
2.090887280594e-01
-3.999434812164e-01
-8.591229082720e-01
-9.964019565985e-01
-7.603442400603e-01
-2.393970199561e-01
-2.449293598295e-15
</dep>
<dep tran.v(vout) time>
0.000000000000e+00
4.557451527494e-05
4.937382224667e-05
5.691346885162e-05
7.163897041891e-05
9.967493085859e-05
1.500876718064e-04
2.282843582631e-04
2.942259037855e-04
6.480788198892e-05
-1.835193225990e-03
-1.136770281982e-02
-1.576776209805e-02
-1.931878050580e-02
-2.640811705967e-02
-4.051086085388e-02
-6.841533436502e-02
-1.230415064906e-01
-2.277276615025e-01
-4.200739684874e-01
-7.454250508795e-01
-1.214141342404e+00
-1.709877797917e+00
-1.912714863185e+00
-1.991113484180e+00
-2.007042351876e+00
-2.012646231909e+00
-2.020425986634e+00
-2.036567891781e+00
-2.068484745421e+00
-2.132333496738e+00
-2.257909459493e+00
-2.494575066024e+00
-2.857300605785e+00
-2.996678896792e+00
-2.762450321041e+00
-2.242685263429e+00
-1.631826341793e+00
-1.159055721062e+00
-1.001213778651e+00
-1.217738250351e+00
-1.727206805332e+00
-2.339020316904e+00
-2.823653263177e+00
-2.999806457105e+00
-2.801195252166e+00
-2.302516245426e+00
-1.690339651932e+00
-1.194313398574e+00
-1.000019077269e+00
-1.180525166483e+00
-1.667932028070e+00
-2.279879831808e+00
-2.786819366065e+00
-2.999067131511e+00
-2.836840507079e+00
-2.361177472663e+00
-2.001402169045e+00
-2.001479675814e+00
-2.000802498143e+00
-1.994475720664e+00
-1.985402365626e+00
-1.982097701788e+00
-1.975499366502e+00
-1.962368431087e+00
-1.936367323523e+00
-1.885391000519e+00
-1.787408648431e+00
-1.606319674616e+00
-1.296473533430e+00
-8.400902702330e-01
-3.837823492753e-01
-1.864706634739e-01
-9.733556633512e-02
-4.632257996892e-02
-2.043999126435e-02
-6.796439253266e-03
-2.638339145550e-06
3.928279045832e-03
6.588000818691e-03
9.355526905519e-03
1.184660687820e-02
1.499555758831e-02
1.947159060703e-02
2.842123527696e-02
4.631327242652e-02
8.204678007853e-02
1.531522795067e-01
2.926453623827e-01
5.509097022371e-01
9.153240045799e-01
9.785103979186e-01
6.750001203677e-01
1.186404813129e-01
-4.822343360388e-01
-9.023614506864e-01
-9.844485418290e-01
-6.976170382299e-01
-1.494589756139e-01
4.547585384542e-01
8.885260389686e-01
9.894345412393e-01
7.195591367282e-01
1.801329612905e-01
-4.268429331748e-01
-8.738311542652e-01
-9.934635708592e-01
-7.408051951414e-01
-2.106327666046e-01
3.985145187980e-01
8.582910126079e-01
9.965317311441e-01
7.613346658646e-01
2.409288884146e-01
1.463809133329e-03
1.541316051294e-03
8.641386789580e-04
-5.462638209790e-03
-1.453599280399e-02
-1.660071623352e-02
-2.072587206128e-02
-2.895049101578e-02
-4.529749082615e-02
-7.758676009752e-02
-1.405795310706e-01
-2.604776139906e-01
-4.778251383031e-01
-8.359232796815e-01
-1.326319693977e+00
-1.782174182133e+00
-1.938689281206e+00
-1.997910851995e+00
-2.008445263241e+00
-2.014061725571e+00
-2.023466430790e+00
-2.042404726547e+00
-2.080143042839e+00
-2.155290430865e+00
-2.302429167957e+00
-2.572809222753e+00
-2.937403921186e+00
-2.964651396775e+00
-2.630333977823e+00
-2.059940726595e+00
-1.466966179435e+00
-1.073809991144e+00
-1.027562932593e+00
-1.345769881685e+00
-1.908988788149e+00
-2.506402674872e+00
-2.913958991108e+00
-2.979161098856e+00
-2.677372206316e+00
-2.121872608098e+00
-1.520597032939e+00
-1.099034985116e+00
-1.014940705435e+00
-1.300019825670e+00
-1.847262627805e+00
-2.451818495972e+00
-2.886978341119e+00
-2.989883633228e+00
-2.721789847508e+00
-2.183333334209e+00
-2.001385105903e+00
-2.001462648157e+00
-2.000785541312e+00
-1.994458904600e+00
-1.985385654373e+00
-1.982081018351e+00
-1.975482738604e+00
-1.962351913710e+00
-1.936351024991e+00
-1.885375131038e+00
-1.787393603608e+00
-1.606306153805e+00
-1.296462619829e+00
-8.400831954426e-01
-3.837791082898e-01
-1.864690775112e-01
-9.733472560460e-02
-4.632215965954e-02
-2.043978136929e-02
-6.796337175091e-03
-2.588355948891e-06
3.928307537914e-03
6.588017571594e-03
9.355544419780e-03
1.184662271072e-02
1.499558596472e-02
1.947164028742e-02
2.842132860964e-02
4.631345267143e-02
8.204713363498e-02
1.531529744439e-01
2.926467013862e-01
5.509120342063e-01
9.153262520513e-01
9.785092470794e-01
6.749960011152e-01
1.186349383609e-01
-4.822392271095e-01
-9.023638559981e-01
-9.844475614029e-01
-6.976130381740e-01
-1.494534559196e-01
4.547635108599e-01
8.885285997930e-01
9.894337321759e-01
7.195552597367e-01
1.801274701936e-01
-4.268479821072e-01
-8.738338681243e-01
-9.934629339421e-01
-7.408014449631e-01
-2.106273094176e-01
3.985196393746e-01
8.582938768757e-01
9.965312669904e-01
7.613310461260e-01
2.409234704168e-01
1.463808154750e-03
</dep>
