<Qucs Dataset 0.0.22>
<indep time 116>
0.000000000000e+00
9.900990000000e-08
1.057118994597e-07
1.191158983790e-07
1.459238962177e-07
1.995398918950e-07
3.067718832498e-07
5.212358659592e-07
8.988482870199e-07
1.472000401637e-06
2.293064181281e-06
3.424447944909e-06
4.450561718057e-06
6.115810166832e-06
9.446307064382e-06
1.610730085948e-05
2.600829085948e-05
3.590928085948e-05
4.581027085948e-05
5.571126085948e-05
6.561225085948e-05
7.551324085948e-05
8.541423085948e-05
9.531522085948e-05
1.052162108595e-04
1.151172008595e-04
1.250181908595e-04
1.349191808595e-04
1.448201708595e-04
1.547211608595e-04
1.646221508595e-04
1.745231408595e-04
1.844241308595e-04
1.943251208595e-04
2.042261108595e-04
2.141271008595e-04
2.240280908595e-04
2.339290808595e-04
2.438300708595e-04
2.537310608595e-04
2.636320508595e-04
2.735330408595e-04
2.834340308595e-04
2.933350208595e-04
3.032360108595e-04
3.131370008595e-04
3.230379908595e-04
3.329389808595e-04
3.428399708595e-04
3.527409608595e-04
3.626419508595e-04
3.725429408595e-04
3.824439308595e-04
3.923449208595e-04
4.022459108595e-04
4.121469008595e-04
4.220478908595e-04
4.319488808595e-04
4.418498708595e-04
4.517508608595e-04
4.616518508595e-04
4.715528408595e-04
4.814538308595e-04
4.913548208595e-04
5.012558108595e-04
5.111568008595e-04
5.210577908595e-04
5.309587808595e-04
5.408597708595e-04
5.507607608595e-04
5.606617508595e-04
5.705627408595e-04
5.804637308595e-04
5.903647208595e-04
6.002657108595e-04
6.101667008595e-04
6.200676908595e-04
6.299686808595e-04
6.398696708595e-04
6.497706608595e-04
6.596716508595e-04
6.695726408595e-04
6.794736308595e-04
6.893746208595e-04
6.992756108595e-04
7.091766008595e-04
7.190775908595e-04
7.289785808595e-04
7.388795708595e-04
7.487805608595e-04
7.586815508595e-04
7.685825408595e-04
7.784835308595e-04
7.883845208595e-04
7.982855108595e-04
8.081865008595e-04
8.180874908595e-04
8.279884808595e-04
8.378894708595e-04
8.477904608595e-04
8.576914508595e-04
8.675924408595e-04
8.774934308595e-04
8.873944208595e-04
8.972954108595e-04
9.071964008595e-04
9.170973908595e-04
9.269983808595e-04
9.368993708595e-04
9.468003608595e-04
9.567013508595e-04
9.666023408595e-04
9.765033308595e-04
9.864043208595e-04
9.963053108595e-04
1.000000000000e-03
</indep>
<dep tran.v(vout) time>
0.000000000000e+00
-5.347246520608e-02
-5.735252091199e-02
-6.566248552613e-02
-8.588185606712e-02
-1.429529210300e-01
-3.317286596811e-01
-9.963667257282e-01
-2.827163469095e+00
-6.340707279793e+00
-1.172428858217e+01
-1.398973192510e+01
-1.398949186924e+01
-1.398910464541e+01
-1.398834243230e+01
-1.398689572327e+01
-1.398504980123e+01
-1.398372264375e+01
-1.398304270063e+01
-1.398307428103e+01
-1.398381518819e+01
-1.398519357933e+01
-1.398707781372e+01
-1.398928648105e+01
-1.399160811446e+01
-1.399381944826e+01
-1.399570865186e+01
-1.399709405568e+01
-1.399784301447e+01
-1.399788336415e+01
-1.399721148659e+01
1.398503089524e+01
1.398687103138e+01
1.398905729078e+01
1.399137688624e+01
1.399360980957e+01
1.399553945335e+01
-1.398393987110e+01
-1.398312260476e+01
-1.398301037156e+01
-1.398361256974e+01
-1.398487259669e+01
-1.398666848777e+01
-1.398882878216e+01
-1.399114537050e+01
-1.399339659419e+01
-1.399536581286e+01
-1.399686453548e+01
-1.399774849103e+01
-1.399793321538e+01
-1.399740066019e+01
1.398472032046e+01
1.398646906786e+01
1.398860233649e+01
1.399091276266e+01
1.399318092197e+01
1.399518708522e+01
1.399674052245e+01
-1.398323198927e+01
-1.398297433179e+01
-1.398343728564e+01
-1.398457249775e+01
-1.398627448258e+01
-1.398837682781e+01
-1.399068048166e+01
-1.399296193960e+01
-1.399500439002e+01
-1.399660989472e+01
-1.399762608110e+01
-1.399795388535e+01
1.398335930235e+01
1.398443136300e+01
1.398608306594e+01
1.398815412139e+01
1.399044728611e+01
1.399274116698e+01
1.399481673409e+01
1.399647382787e+01
-1.398336830266e+01
-1.398296816874e+01
-1.398328837403e+01
-1.398429588489e+01
-1.398589605453e+01
-1.398793348308e+01
-1.399021426212e+01
-1.399251803509e+01
-1.399462501338e+01
-1.399633179883e+01
-1.399747565485e+01
-1.399794583039e+01
1.398322444591e+01
1.398416633257e+01
1.398571347859e+01
1.398771528783e+01
1.398998146441e+01
1.399229293836e+01
1.399442922813e+01
1.399618413589e+01
1.399739024141e+01
-1.398299160164e+01
-1.398316667722e+01
-1.398404359561e+01
-1.398553487111e+01
-1.398750028530e+01
-1.398974867118e+01
-1.399206646188e+01
-1.399422926987e+01
-1.399603121933e+01
-1.399729788568e+01
-1.399790900149e+01
1.398311775278e+01
1.398392550556e+01
1.398536239390e+01
1.398728695461e+01
1.398951760957e+01
1.399038524198e+01
</dep>
<indep frequency 127>
1.000000000000e-01
1.115883992508e-01
1.245197084735e-01
1.389495494373e-01
1.550515779833e-01
1.730195738846e-01
1.930697728883e-01
2.154434690032e-01
2.404099183510e-01
2.682695795280e-01
2.993577294720e-01
3.340484983513e-01
3.727593720315e-01
4.159562163072e-01
4.641588833613e-01
5.179474679231e-01
5.779692884153e-01
6.449466771038e-01
7.196856730012e-01
8.030857221392e-01
8.961505019466e-01
1.000000000000e+00
1.115883992508e+00
1.245197084735e+00
1.389495494373e+00
1.550515779833e+00
1.730195738846e+00
1.930697728883e+00
2.154434690032e+00
2.404099183510e+00
2.682695795280e+00
2.993577294720e+00
3.340484983513e+00
3.727593720315e+00
4.159562163072e+00
4.641588833613e+00
5.179474679231e+00
5.779692884153e+00
6.449466771038e+00
7.196856730011e+00
8.030857221391e+00
8.961505019466e+00
1.000000000000e+01
1.115883992508e+01
1.245197084735e+01
1.389495494373e+01
1.550515779833e+01
1.730195738846e+01
1.930697728883e+01
2.154434690032e+01
2.404099183510e+01
2.682695795280e+01
2.993577294720e+01
3.340484983513e+01
3.727593720315e+01
4.159562163072e+01
4.641588833613e+01
5.179474679231e+01
5.779692884153e+01
6.449466771038e+01
7.196856730011e+01
8.030857221391e+01
8.961505019466e+01
1.000000000000e+02
1.115883992508e+02
1.245197084735e+02
1.389495494373e+02
1.550515779833e+02
1.730195738846e+02
1.930697728883e+02
2.154434690032e+02
2.404099183510e+02
2.682695795280e+02
2.993577294720e+02
3.340484983513e+02
3.727593720315e+02
4.159562163072e+02
4.641588833613e+02
5.179474679231e+02
5.779692884153e+02
6.449466771038e+02
7.196856730011e+02
8.030857221391e+02
8.961505019466e+02
1.000000000000e+03
1.115883992508e+03
1.245197084735e+03
1.389495494373e+03
1.550515779833e+03
1.730195738846e+03
1.930697728883e+03
2.154434690032e+03
2.404099183510e+03
2.682695795280e+03
2.993577294720e+03
3.340484983513e+03
3.727593720315e+03
4.159562163072e+03
4.641588833613e+03
5.179474679231e+03
5.779692884153e+03
6.449466771038e+03
7.196856730011e+03
8.030857221391e+03
8.961505019466e+03
1.000000000000e+04
1.115883992508e+04
1.245197084735e+04
1.389495494373e+04
1.550515779833e+04
1.730195738846e+04
1.930697728883e+04
2.154434690032e+04
2.404099183510e+04
2.682695795280e+04
2.993577294720e+04
3.340484983513e+04
3.727593720315e+04
4.159562163072e+04
4.641588833613e+04
5.179474679231e+04
5.779692884153e+04
6.449466771038e+04
7.196856730011e+04
8.030857221391e+04
8.961505019466e+04
1.000000000000e+05
</indep>
<dep ac.v(vout) frequency>
-2.099659925482e+02+j6.784530745946e-05
-2.099659925485e+02+j7.570749252292e-05
-2.099659925483e+02+j8.448077887381e-05
-2.099659925478e+02+j9.427074803267e-05
-2.099659925475e+02+j1.051952176574e-04
-2.099659925477e+02+j1.173856607896e-04
-2.099659925480e+02+j1.309887790152e-04
-2.099659925475e+02+j1.461682815635e-04
-2.099659925480e+02+j1.631068449129e-04
-2.099659925481e+02+j1.820083247035e-04
-2.099659925479e+02+j2.031001732129e-04
-2.099659925478e+02+j2.266362273914e-04
-2.099659925478e+02+j2.528997432973e-04
-2.099659925475e+02+j2.822067678692e-04
-2.099659925482e+02+j3.149100262097e-04
-2.099659925476e+02+j3.514030505485e-04
-2.099659925469e+02+j3.921250359590e-04
-2.099659925472e+02+j4.375660526548e-04
-2.099659925477e+02+j4.882729626866e-04
-2.099659925467e+02+j5.448559768824e-04
-2.099659925465e+02+j6.079960579916e-04
-2.099659925459e+02+j6.784530559344e-04
-2.099659925461e+02+j7.570749199705e-04
-2.099659925464e+02+j8.448078167950e-04
-2.099659925442e+02+j9.427074753815e-04
-2.099659925446e+02+j1.051952210925e-03
-2.099659925432e+02+j1.173856633479e-03
-2.099659925415e+02+j1.309887817291e-03
-2.099659925402e+02+j1.461682819547e-03
-2.099659925379e+02+j1.631068479036e-03
-2.099659925363e+02+j1.820083201074e-03
-2.099659925335e+02+j2.031001741576e-03
-2.099659925292e+02+j2.266362256266e-03
-2.099659925244e+02+j2.528997413268e-03
-2.099659925193e+02+j2.822067757990e-03
-2.099659925123e+02+j3.149100254350e-03
-2.099659925023e+02+j3.514030495889e-03
-2.099659924911e+02+j3.921250345115e-03
-2.099659924770e+02+j4.375660564607e-03
-2.099659924601e+02+j4.882729580905e-03
-2.099659924382e+02+j5.448559821137e-03
-2.099659924113e+02+j6.079960579242e-03
-2.099659923780e+02+j6.784530830448e-03
-2.099659923360e+02+j7.570749172536e-03
-2.099659922842e+02+j8.448077892357e-03
-2.099659922192e+02+j9.427074862640e-03
-2.099659921386e+02+j1.051952190406e-02
-2.099659920383e+02+j1.173856610272e-02
-2.099659919129e+02+j1.309887808356e-02
-2.099659917582e+02+j1.461682845258e-02
-2.099659915635e+02+j1.631068459597e-02
-2.099659913222e+02+j1.820083182841e-02
-2.099659910210e+02+j2.031001672175e-02
-2.099659906475e+02+j2.266362277904e-02
-2.099659901815e+02+j2.528997404264e-02
-2.099659896013e+02+j2.822067717160e-02
-2.099659888789e+02+j3.149100198514e-02
-2.099659879790e+02+j3.514030458547e-02
-2.099659868587e+02+j3.921250303426e-02
-2.099659854637e+02+j4.375660427379e-02
-2.099659837266e+02+j4.882729416654e-02
-2.099659815638e+02+j5.448559576748e-02
-2.099659788705e+02+j6.079960363693e-02
-2.099659755167e+02+j6.784530370837e-02
-2.099659713405e+02+j7.570748693805e-02
-2.099659661405e+02+j8.448077140212e-02
-2.099659596653e+02+j9.427073809500e-02
-2.099659516027e+02+j1.051952051870e-01
-2.099659415629e+02+j1.173856414703e-01
-2.099659290615e+02+j1.309887527481e-01
-2.099659134948e+02+j1.461682445550e-01
-2.099658941111e+02+j1.631067937243e-01
-2.099658699747e+02+j1.820082451138e-01
-2.099658399200e+02+j2.031000665710e-01
-2.099658024960e+02+j2.266360842811e-01
-2.099657558958e+02+j2.528995385843e-01
-2.099656978694e+02+j2.822064912917e-01
-2.099656256151e+02+j3.149096288431e-01
-2.099655356443e+02+j3.514025066832e-01
-2.099654236130e+02+j3.921242830510e-01
-2.099652841121e+02+j4.375650032130e-01
-2.099651104061e+02+j4.882714948185e-01
-2.099648941081e+02+j5.448539449967e-01
-2.099646247750e+02+j6.079932394985e-01
-2.099642894027e+02+j6.784491510150e-01
-2.099638717990e+02+j7.570694740384e-01
-2.099633518016e+02+j8.448002158272e-01
-2.099627043047e+02+j9.426969654427e-01
-2.099618980469e+02+j1.051937574097e+00
-2.099608941024e+02+j1.173836299097e+00
-2.099596440022e+02+j1.309859576706e+00
-2.099580873942e+02+j1.461643609570e+00
-2.099561491308e+02+j1.631013973583e+00
-2.099537356423e+02+j1.820007471310e+00
-2.099507304225e+02+j2.030896481717e+00
-2.099469884073e+02+j2.266216082176e+00
-2.099423289784e+02+j2.528794243951e+00
-2.099365272533e+02+j2.821785431078e+00
-2.099293032448e+02+j3.148707959062e+00
-2.099203083684e+02+j3.513485497559e+00
-2.099091086538e+02+j3.920493125006e+00
-2.098951638547e+02+j4.374608362490e+00
-2.098778014640e+02+j4.881267625100e+00
-2.098561843964e+02+j5.446528525629e+00
-2.098292708102e+02+j6.077138441225e+00
-2.097957641727e+02+j6.780609697993e+00
-2.097540512325e+02+j7.565301626079e+00
-2.097021250126e+02+j8.440509569430e+00
-2.096374892807e+02+j9.416560670237e+00
-2.095570401489e+02+j1.050491585025e+01
-2.094569195002e+02+j1.171827682456e+01
-2.093323337992e+02+j1.307069613515e+01
-2.091773305235e+02+j1.457768698126e+01
-2.089845229362e+02+j1.625632791725e+01
-2.087447522449e+02+j1.812535510707e+01
-2.084466744245e+02+j2.020523153459e+01
-2.080762572602e+02+j2.251817806907e+01
-2.076161717528e+02+j2.508814519872e+01
-2.070450613494e+02+j2.794069611970e+01
-2.063366732381e+02+j3.110276118930e+01
-2.054588392513e+02+j3.460220999971e+01
-2.043723014508e+02+j3.846717009057e+01
-2.030293916048e+02+j4.272500051697e+01
-2.013725979081e+02+j4.740080478435e+01
-1.993330908983e+02+j5.251534311972e+01
-1.968293390289e+02+j5.808218317007e+01
-1.937660286196e+02+j6.410391940803e+01
</dep>
<dep ac.vout_db frequency>
4.644297918566e+01+j0.000000000000e+00
4.644297918568e+01+j0.000000000000e+00
4.644297918567e+01+j0.000000000000e+00
4.644297918565e+01+j0.000000000000e+00
4.644297918564e+01+j0.000000000000e+00
4.644297918565e+01+j0.000000000000e+00
4.644297918565e+01+j0.000000000000e+00
4.644297918564e+01+j0.000000000000e+00
4.644297918566e+01+j0.000000000000e+00
4.644297918566e+01+j0.000000000000e+00
4.644297918566e+01+j0.000000000000e+00
4.644297918565e+01+j0.000000000000e+00
4.644297918565e+01+j0.000000000000e+00
4.644297918564e+01+j0.000000000000e+00
4.644297918567e+01+j0.000000000000e+00
4.644297918565e+01+j0.000000000000e+00
4.644297918562e+01+j0.000000000000e+00
4.644297918564e+01+j0.000000000000e+00
4.644297918566e+01+j0.000000000000e+00
4.644297918563e+01+j0.000000000000e+00
4.644297918563e+01+j0.000000000000e+00
4.644297918561e+01+j0.000000000000e+00
4.644297918563e+01+j0.000000000000e+00
4.644297918566e+01+j0.000000000000e+00
4.644297918558e+01+j0.000000000000e+00
4.644297918562e+01+j0.000000000000e+00
4.644297918559e+01+j0.000000000000e+00
4.644297918556e+01+j0.000000000000e+00
4.644297918554e+01+j0.000000000000e+00
4.644297918550e+01+j0.000000000000e+00
4.644297918550e+01+j0.000000000000e+00
4.644297918546e+01+j0.000000000000e+00
4.644297918538e+01+j0.000000000000e+00
4.644297918531e+01+j0.000000000000e+00
4.644297918525e+01+j0.000000000000e+00
4.644297918515e+01+j0.000000000000e+00
4.644297918498e+01+j0.000000000000e+00
4.644297918481e+01+j0.000000000000e+00
4.644297918460e+01+j0.000000000000e+00
4.644297918437e+01+j0.000000000000e+00
4.644297918404e+01+j0.000000000000e+00
4.644297918364e+01+j0.000000000000e+00
4.644297918316e+01+j0.000000000000e+00
4.644297918253e+01+j0.000000000000e+00
4.644297918177e+01+j0.000000000000e+00
4.644297918081e+01+j0.000000000000e+00
4.644297917962e+01+j0.000000000000e+00
4.644297917814e+01+j0.000000000000e+00
4.644297917628e+01+j0.000000000000e+00
4.644297917403e+01+j0.000000000000e+00
4.644297917114e+01+j0.000000000000e+00
4.644297916758e+01+j0.000000000000e+00
4.644297916312e+01+j0.000000000000e+00
4.644297915763e+01+j0.000000000000e+00
4.644297915076e+01+j0.000000000000e+00
4.644297914221e+01+j0.000000000000e+00
4.644297913156e+01+j0.000000000000e+00
4.644297911829e+01+j0.000000000000e+00
4.644297910177e+01+j0.000000000000e+00
4.644297908121e+01+j0.000000000000e+00
4.644297905559e+01+j0.000000000000e+00
4.644297902371e+01+j0.000000000000e+00
4.644297898400e+01+j0.000000000000e+00
4.644297893455e+01+j0.000000000000e+00
4.644297887297e+01+j0.000000000000e+00
4.644297879630e+01+j0.000000000000e+00
4.644297870083e+01+j0.000000000000e+00
4.644297858196e+01+j0.000000000000e+00
4.644297843393e+01+j0.000000000000e+00
4.644297824961e+01+j0.000000000000e+00
4.644297802009e+01+j0.000000000000e+00
4.644297773429e+01+j0.000000000000e+00
4.644297737842e+01+j0.000000000000e+00
4.644297693529e+01+j0.000000000000e+00
4.644297638350e+01+j0.000000000000e+00
4.644297569642e+01+j0.000000000000e+00
4.644297484087e+01+j0.000000000000e+00
4.644297377554e+01+j0.000000000000e+00
4.644297244900e+01+j0.000000000000e+00
4.644297079719e+01+j0.000000000000e+00
4.644296874036e+01+j0.000000000000e+00
4.644296617920e+01+j0.000000000000e+00
4.644296299006e+01+j0.000000000000e+00
4.644295901895e+01+j0.000000000000e+00
4.644295407414e+01+j0.000000000000e+00
4.644294791688e+01+j0.000000000000e+00
4.644294024989e+01+j0.000000000000e+00
4.644293070299e+01+j0.000000000000e+00
4.644291881524e+01+j0.000000000000e+00
4.644290401267e+01+j0.000000000000e+00
4.644288558061e+01+j0.000000000000e+00
4.644286262913e+01+j0.000000000000e+00
4.644283405014e+01+j0.000000000000e+00
4.644279846383e+01+j0.000000000000e+00
4.644275415214e+01+j0.000000000000e+00
4.644269897577e+01+j0.000000000000e+00
4.644263027099e+01+j0.000000000000e+00
4.644254472102e+01+j0.000000000000e+00
4.644243819604e+01+j0.000000000000e+00
4.644230555391e+01+j0.000000000000e+00
4.644214039214e+01+j0.000000000000e+00
4.644193473911e+01+j0.000000000000e+00
4.644167866976e+01+j0.000000000000e+00
4.644135982720e+01+j0.000000000000e+00
4.644096282748e+01+j0.000000000000e+00
4.644046851884e+01+j0.000000000000e+00
4.643985306027e+01+j0.000000000000e+00
4.643908677539e+01+j0.000000000000e+00
4.643813272731e+01+j0.000000000000e+00
4.643694494723e+01+j0.000000000000e+00
4.643546623352e+01+j0.000000000000e+00
4.643362541862e+01+j0.000000000000e+00
4.643133397744e+01+j0.000000000000e+00
4.642848182210e+01+j0.000000000000e+00
4.642493209318e+01+j0.000000000000e+00
4.642051471677e+01+j0.000000000000e+00
4.641501844765e+01+j0.000000000000e+00
4.640818106313e+01+j0.000000000000e+00
4.639967730895e+01+j0.000000000000e+00
4.638910412940e+01+j0.000000000000e+00
4.637596264325e+01+j0.000000000000e+00
4.635963626062e+01+j0.000000000000e+00
4.633936428607e+01+j0.000000000000e+00
4.631421033736e+01+j0.000000000000e+00
4.628302495724e+01+j0.000000000000e+00
4.624440194650e+01+j0.000000000000e+00
4.619662825872e+01+j0.000000000000e+00
</dep>
