<Qucs Dataset 0.0.22>
<indep frequency 127>
1.000000000000e-01
1.115883992508e-01
1.245197084735e-01
1.389495494373e-01
1.550515779833e-01
1.730195738846e-01
1.930697728883e-01
2.154434690032e-01
2.404099183510e-01
2.682695795280e-01
2.993577294720e-01
3.340484983513e-01
3.727593720315e-01
4.159562163072e-01
4.641588833613e-01
5.179474679231e-01
5.779692884153e-01
6.449466771038e-01
7.196856730012e-01
8.030857221392e-01
8.961505019466e-01
1.000000000000e+00
1.115883992508e+00
1.245197084735e+00
1.389495494373e+00
1.550515779833e+00
1.730195738846e+00
1.930697728883e+00
2.154434690032e+00
2.404099183510e+00
2.682695795280e+00
2.993577294720e+00
3.340484983513e+00
3.727593720315e+00
4.159562163072e+00
4.641588833613e+00
5.179474679231e+00
5.779692884153e+00
6.449466771038e+00
7.196856730011e+00
8.030857221391e+00
8.961505019466e+00
1.000000000000e+01
1.115883992508e+01
1.245197084735e+01
1.389495494373e+01
1.550515779833e+01
1.730195738846e+01
1.930697728883e+01
2.154434690032e+01
2.404099183510e+01
2.682695795280e+01
2.993577294720e+01
3.340484983513e+01
3.727593720315e+01
4.159562163072e+01
4.641588833613e+01
5.179474679231e+01
5.779692884153e+01
6.449466771038e+01
7.196856730011e+01
8.030857221391e+01
8.961505019466e+01
1.000000000000e+02
1.115883992508e+02
1.245197084735e+02
1.389495494373e+02
1.550515779833e+02
1.730195738846e+02
1.930697728883e+02
2.154434690032e+02
2.404099183510e+02
2.682695795280e+02
2.993577294720e+02
3.340484983513e+02
3.727593720315e+02
4.159562163072e+02
4.641588833613e+02
5.179474679231e+02
5.779692884153e+02
6.449466771038e+02
7.196856730011e+02
8.030857221391e+02
8.961505019466e+02
1.000000000000e+03
1.115883992508e+03
1.245197084735e+03
1.389495494373e+03
1.550515779833e+03
1.730195738846e+03
1.930697728883e+03
2.154434690032e+03
2.404099183510e+03
2.682695795280e+03
2.993577294720e+03
3.340484983513e+03
3.727593720315e+03
4.159562163072e+03
4.641588833613e+03
5.179474679231e+03
5.779692884153e+03
6.449466771038e+03
7.196856730011e+03
8.030857221391e+03
8.961505019466e+03
1.000000000000e+04
1.115883992508e+04
1.245197084735e+04
1.389495494373e+04
1.550515779833e+04
1.730195738846e+04
1.930697728883e+04
2.154434690032e+04
2.404099183510e+04
2.682695795280e+04
2.993577294720e+04
3.340484983513e+04
3.727593720315e+04
4.159562163072e+04
4.641588833613e+04
5.179474679231e+04
5.779692884153e+04
6.449466771038e+04
7.196856730011e+04
8.030857221391e+04
8.961505019466e+04
1.000000000000e+05
</indep>
<dep ac.v(vout1) frequency>
-9.999892146031e-01+j9.992260532870e-05
-9.999892121552e-01+j1.115020355031e-04
-9.999892091071e-01+j1.244233361707e-04
-9.999892053116e-01+j1.388420086003e-04
-9.999892005854e-01+j1.549315741526e-04
-9.999891947004e-01+j1.728856625136e-04
-9.999891873725e-01+j1.929203419194e-04
-9.999891782477e-01+j2.152767194129e-04
-9.999891668855e-01+j2.402238424232e-04
-9.999891527374e-01+j2.680619365866e-04
-9.999891351202e-01+j2.991260187684e-04
-9.999891131833e-01+j3.337899287647e-04
-9.999890858676e-01+j3.724708281956e-04
-9.999890518541e-01+j4.156342207238e-04
-9.999890095006e-01+j4.637995540027e-04
-9.999889567622e-01+j5.175464707521e-04
-9.999888910924e-01+j5.775217841694e-04
-9.999888093207e-01+j6.444472615870e-04
-9.999887074988e-01+j7.191283100050e-04
-9.999885807104e-01+j8.024636679613e-04
-9.999884228340e-01+j8.954562202904e-04
-9.999882262468e-01+j9.992250657990e-04
-9.999879814571e-01+j1.115018982921e-03
-9.999876766459e-01+j1.244231455167e-03
-9.999872970961e-01+j1.388417436876e-03
-9.999868244822e-01+j1.549312060577e-03
-9.999862359853e-01+j1.728851510477e-03
-9.999855031918e-01+j1.929196312404e-03
-9.999845907208e-01+j2.152757319285e-03
-9.999834545170e-01+j2.402224703197e-03
-9.999820397230e-01+j2.680600300576e-03
-9.999802780311e-01+j2.991233696597e-03
-9.999780843862e-01+j3.337862478482e-03
-9.999753528795e-01+j3.724657135929e-03
-9.999719516361e-01+j4.156271140308e-03
-9.999677164501e-01+j4.637896793270e-03
-9.999624428590e-01+j5.175327500078e-03
-9.999558762764e-01+j5.775027193835e-03
-9.999476997075e-01+j6.444207713717e-03
-9.999375184547e-01+j7.190915023486e-03
-9.999248410781e-01+j8.024125245434e-03
-9.999090556949e-01+j8.953851578745e-03
-9.998894004785e-01+j9.991263268526e-03
-9.998649269403e-01+j1.114881788991e-02
-9.998344542364e-01+j1.244040830687e-02
-9.997965123103e-01+j1.388152575170e-02
-9.997492711592e-01+j1.548944053992e-02
-9.996904528552e-01+j1.728340197367e-02
-9.996172221471e-01+j1.928485897700e-02
-9.995260504773e-01+j2.151770292177e-02
-9.994125470223e-01+j2.400853390760e-02
-9.992712488763e-01+j2.678695140182e-02
-9.990953606708e-01+j2.988586955378e-02
-9.988764317147e-01+j3.334185657331e-02
-9.986039560853e-01+j3.719549616928e-02
-9.982648779285e-01+j4.149176699297e-02
-9.978429805089e-01+j4.628043306892e-02
-9.973181332506e-01+j5.161643397946e-02
-9.966653661709e-01+j5.756025764085e-02
-9.958537358747e-01+j6.417827026741e-02
-9.948449419445e-01+j7.154296678728e-02
-9.935916477208e-01+j7.973308956952e-02
-9.920354561270e-01+j8.883354265487e-02
-9.901044910256e-01+j9.893500137816e-02
-9.877105402245e-01+j1.101330818881e-01
-9.847457317019e-01+j1.225268903664e-01
-9.810787457567e-01+j1.362167172030e-01
-9.765506208979e-01+j1.513005781471e-01
-9.709703013896e-01+j1.678692369373e-01
-9.641102131253e-01+j1.859992822475e-01
-9.557023568221e-01+j2.057437953424e-01
-9.454356858508e-01+j2.271201666582e-01
-9.329558926078e-01+j2.500947507531e-01
-9.178691405556e-01+j2.745643608942e-01
-8.997516827645e-01+j3.003351826548e-01
-8.781675657475e-01+j3.271006092183e-01
-8.526965026404e-01+j3.544207946738e-01
-8.229732010399e-01+j3.817082774702e-01
-7.887376220288e-01+j4.082255035622e-01
-7.498926572102e-01+j4.331008322502e-01
-7.065617945985e-01+j4.553687416256e-01
-6.591354545909e-01+j4.740366182683e-01
-6.082925047032e-01+j4.881744987759e-01
-5.549849549305e-01+j4.970164903180e-01
-5.003801289298e-01+j5.000558919029e-01
-4.457648192341e-01+j4.971135571917e-01
-3.924268010454e-01+j4.883630654864e-01
-3.415361554303e-01+j4.743063281130e-01
-2.940489140140e-01+j4.557058087175e-01
-2.506485546807e-01+j4.334896713647e-01
-2.117300369506e-01+j4.086503054785e-01
-1.774208107978e-01+j3.821542875625e-01
-1.476268629442e-01+j3.548751759257e-01
-1.220902995273e-01+j3.275528854753e-01
-1.004470927024e-01+j3.007773340583e-01
-8.227749583061e-02+j2.749906756242e-01
-6.714555709864e-02+j2.505015357582e-01
-5.462716953077e-02+j2.275054001209e-01
-4.432792245869e-02+j2.061067780282e-01
-3.589283200128e-02+j1.863403214684e-01
-2.901015118286e-02+j1.681893789871e-01
-2.341120628499e-02+j1.516013931646e-01
-1.886780336395e-02+j1.365001334951e-01
-1.518833511979e-02+j1.227950718736e-01
-1.221336055070e-02+j1.103883414056e-01
-9.811150219198e-03+j9.917974237614e-02
-7.873486504844e-03+j8.907022340370e-02
-6.311868561083e-03+j7.996420436010e-02
-5.054180922363e-03+j7.177104011671e-02
-4.041829135674e-03+j6.440586082696e-02
-3.227314337944e-03+j5.778996975750e-02
-2.572203053291e-03+j5.185093482140e-02
-2.045442727341e-03+j4.652247444608e-02
-1.621973614908e-03+j4.174421098875e-02
-1.281590939835e-03+j3.746134415183e-02
-1.008016070906e-03+j3.362428137571e-02
-7.881407840127e-04+j3.018825079970e-02
-6.114139201488e-04+j2.711291410092e-02
-4.693445903048e-04+j2.436199056496e-02
-3.551003818627e-04+j2.190289950649e-02
-2.631827480410e-04+j1.970642518339e-02
-1.891649306889e-04+j1.774640628988e-02
-1.294804245213e-04+j1.599945071673e-02
-8.125219718727e-05+j1.444467534196e-02
-4.215469604317e-05+j1.306347002587e-02
-1.030215776807e-05+j1.183928463008e-02
1.584205613776e-05+j1.075743768988e-02
</dep>
<dep ac.v(vout2) frequency>
-3.947903504310e-07-j6.283151100123e-04
-4.915917458533e-07-j7.011267056438e-04
-6.121285350351e-07-j7.823759732431e-04
-7.622205529098e-07-j8.730406936288e-04
-9.491146330311e-07-j9.742119527548e-04
-1.181834499103e-06-j1.087107270398e-03
-1.471616446491e-06-j1.213085249648e-03
-1.832451847829e-06-j1.353661923182e-03
-2.281762673649e-06-j1.510528992652e-03
-2.841242639723e-06-j1.685574180077e-03
-3.537904587370e-06-j1.880903935381e-03
-4.405384656808e-06-j2.098868772212e-03
-5.485566206579e-06-j2.342091535403e-03
-6.830601861437e-06-j2.613498938092e-03
-8.505431280121e-06-j2.916356745040e-03
-1.059091614783e-05-j3.254309021389e-03
-1.318774366651e-05-j3.631421913396e-03
-1.642128686997e-05-j4.052232479995e-03
-2.044765620972e-05-j4.521803151632e-03
-2.546123425172e-05-j5.045782456259e-03
-3.170405674244e-05-j5.630472721669e-03
-3.947749215378e-05-j6.282905538963e-03
-4.915678233447e-05-j7.010925853648e-03
-6.120914432595e-05-j7.823285638462e-03
-7.621630423983e-05-j8.729748194841e-03
-9.490254637585e-05-j9.741204226549e-03
-1.181696243988e-04-j1.086980092726e-02
-1.471402086026e-04-j1.212908542016e-02
-1.832119490656e-04-j1.353416397670e-02
-2.281247371989e-04-j1.510187851537e-02
-2.840443701501e-04-j1.685100192812e-02
-3.536665908179e-04-j1.880245378536e-02
-4.403464233372e-04-j2.097953790580e-02
-5.482588884408e-04-j2.340820311171e-02
-6.825986103118e-04-j2.611732817538e-02
-8.498275683592e-04-j2.913903143245e-02
-1.057982361696e-03-j3.250900470090e-02
-1.317054902737e-03-j3.626686987283e-02
-1.639463500345e-03-j4.045655466654e-02
-2.040634884108e-03-j4.512668130088e-02
-2.539721887530e-03-j5.033095796246e-02
-3.160486228005e-03-j5.612855745034e-02
-3.932380986047e-03-j6.258445973611e-02
-4.891872734595e-03-j6.976972463661e-02
-6.084048294100e-03-j7.776164642881e-02
-7.564554893878e-03-j8.664372289871e-02
-9.401923612006e-03-j9.650534566979e-02
-1.168032196631e-02-j1.074410852601e-01
-1.450276878702e-02-j1.195494018471e-01
-1.799481761555e-02-j1.329305604212e-01
-2.230866616546e-02-j1.476834675393e-01
-2.762756846737e-02-j1.639010797204e-01
-3.417030008986e-02-j1.816639691993e-01
-4.219524044366e-02-j2.010315881509e-01
-5.200337611078e-02-j2.220307770865e-01
-6.393918983121e-02-j2.446411635533e-01
-7.838799577086e-02-j2.687773602210e-01
-9.576786671434e-02-j2.942683804058e-01
-1.165139906916e-01-j3.208355276324e-01
-1.410532984005e-01-j3.480712272636e-01
-1.697678136811e-01-j3.754227837483e-01
-2.029467308282e-01-j4.021865880959e-01
-2.407299422685e-01-j4.275192932966e-01
-2.830494983056e-01-j4.504720666698e-01
-3.295795022740e-01-j4.700513174285e-01
-3.797076891545e-01-j4.853038604910e-01
-4.325414380183e-01-j4.954170351949e-01
-4.869557918184e-01-j4.998170895065e-01
-5.416815384090e-01-j4.982454149635e-01
-5.954203064233e-01-j4.907946667781e-01
-6.469653095421e-01-j4.778956900586e-01
-6.953045597670e-01-j4.602585778299e-01
-7.396889165701e-01-j4.387822841748e-01
-7.796576805378e-01-j4.144529006324e-01
-8.150251952960e-01-j3.882496969670e-01
-8.458393580731e-01-j3.610720620704e-01
-8.723255693675e-01-j3.336927836097e-01
-8.948282114771e-01-j3.067365299438e-01
-9.137580993035e-01-j2.806783852595e-01
-9.295503183528e-01-j2.558558813163e-01
-9.426336004832e-01-j2.324884122485e-01
-9.534102929770e-01-j2.106992897850e-01
-9.622449570501e-01-j1.905372754003e-01
-9.694593799858e-01-j1.719958013066e-01
-9.753319759810e-01-j1.550291078937e-01
-9.800999344725e-01-j1.395651820449e-01
-9.839628939615e-01-j1.255157499401e-01
-9.870872931939e-01-j1.127837463063e-01
-9.896108495688e-01-j1.012687253274e-01
-9.916468347486e-01-j9.087065262792e-02
-9.932879704647e-01-j8.149246005069e-02
-9.946098682507e-01-j7.304167763776e-02
-9.956739994200e-01-j6.543139235115e-02
-9.965302177762e-01-j5.858072617964e-02
-9.972188762259e-01-j5.241497914801e-02
-9.977725860806e-01-j4.686554515881e-02
-9.982176687987e-01-j4.186967942614e-02
-9.985753471795e-01-j3.737017408166e-02
-9.988627184263e-01-j3.331498193929e-02
-9.990935462204e-01-j2.965681615549e-02
-9.992789036464e-01-j2.635274458314e-02
-9.994276938510e-01-j2.336379116417e-02
-9.995470708775e-01-j2.065455209617e-02
-9.996427792470e-01-j1.819283125111e-02
-9.997194275521e-01-j1.594929705174e-02
-9.997807085387e-01-j1.389716144774e-02
-9.998295758327e-01-j1.201188057836e-02
-9.998683855355e-01-j1.027087601158e-02
-9.998990093296e-01-j8.653275005409e-03
-9.999229244268e-01-j7.139667965819e-03
-9.999412846210e-01-j5.711881122375e-03
-9.999549758217e-01-j4.352762366789e-03
-9.999646587161e-01-j3.045978172384e-03
-9.999708005987e-01-j1.775819513890e-03
-9.999736978898e-01-j5.270147227921e-04
-9.999734904223e-01+j7.154527662246e-04
-9.999701681828e-01+j1.966523803850e-03
-9.999635708287e-01+j3.241242063708e-03
-9.999533799586e-01+j4.554933739186e-03
-9.999391037664e-01+j5.923390415249e-03
-9.999200533415e-01+j7.363057144670e-03
-9.998953094817e-01+j8.891227777581e-03
-9.998636784294e-01+j1.052624961409e-02
-9.998236344188e-01+j1.228773946489e-02
-9.997732462944e-01+j1.419681320420e-02
-9.997100847153e-01+j1.627633086787e-02
-9.996311055503e-01+j1.855115926627e-02
</dep>
<dep ac.vout1_db frequency>
-9.363790892577e-05+j0.000000000000e+00
-9.364853883650e-05+j0.000000000000e+00
-9.366177517312e-05+j0.000000000000e+00
-9.367825701779e-05+j0.000000000000e+00
-9.369878016623e-05+j0.000000000000e+00
-9.372433552772e-05+j0.000000000000e+00
-9.375615699190e-05+j0.000000000000e+00
-9.379578098533e-05+j0.000000000000e+00
-9.384512066386e-05+j0.000000000000e+00
-9.390655828745e-05+j0.000000000000e+00
-9.398306023499e-05+j0.000000000000e+00
-9.407832023929e-05+j0.000000000000e+00
-9.419693771455e-05+j0.000000000000e+00
-9.434463984067e-05+j0.000000000000e+00
-9.452855809409e-05+j0.000000000000e+00
-9.475757255551e-05+j0.000000000000e+00
-9.504274067923e-05+j0.000000000000e+00
-9.539783116708e-05+j0.000000000000e+00
-9.583998876916e-05+j0.000000000000e+00
-9.639056206245e-05+j0.000000000000e+00
-9.707613422386e-05+j0.000000000000e+00
-9.792980652857e-05+j0.000000000000e+00
-9.899279656437e-05+j0.000000000000e+00
-1.003164282886e-04+j0.000000000000e+00
-1.019646100937e-04+j0.000000000000e+00
-1.040169203924e-04+j0.000000000000e+00
-1.065724498380e-04+j0.000000000000e+00
-1.097545855557e-04+j0.000000000000e+00
-1.137169684140e-04+j0.000000000000e+00
-1.186509109437e-04+j0.000000000000e+00
-1.247946339607e-04+j0.000000000000e+00
-1.324447678040e-04+j0.000000000000e+00
-1.419706733234e-04+j0.000000000000e+00
-1.538322739031e-04+j0.000000000000e+00
-1.686022590735e-04+j0.000000000000e+00
-1.869937313283e-04+j0.000000000000e+00
-2.098946300933e-04+j0.000000000000e+00
-2.384105936666e-04+j0.000000000000e+00
-2.739183266392e-04+j0.000000000000e+00
-3.181320464006e-04+j0.000000000000e+00
-3.731862121367e-04+j0.000000000000e+00
-4.417385232310e-04+j0.000000000000e+00
-5.270981485431e-04+j0.000000000000e+00
-6.333853599036e-04+j0.000000000000e+00
-7.657302494863e-04+j0.000000000000e+00
-9.305200826304e-04+j0.000000000000e+00
-1.135707162024e-03+j0.000000000000e+00
-1.391191964226e-03+j0.000000000000e+00
-1.709299886789e-03+j0.000000000000e+00
-2.105374375682e-03+j0.000000000000e+00
-2.598514685334e-03+j0.000000000000e+00
-3.212493294955e-03+j0.000000000000e+00
-3.976896351437e-03+j0.000000000000e+00
-4.928540770249e-03+j0.000000000000e+00
-6.113234199109e-03+j0.000000000000e+00
-7.587959391054e-03+j0.000000000000e+00
-9.423583152368e-03+j0.000000000000e+00
-1.170821246903e-02+j0.000000000000e+00
-1.455134720911e-02+j0.000000000000e+00
-1.808901040542e-02+j0.000000000000e+00
-2.249007379495e-02+j0.000000000000e+00
-2.796403786746e-02+j0.000000000000e+00
-3.477057124894e-02+j0.000000000000e+00
-4.323116165522e-02+j0.000000000000e+00
-5.374327571404e-02+j0.000000000000e+00
-6.679746036434e-02+j0.000000000000e+00
-8.299783232217e-02+j0.000000000000e+00
-1.030863755810e-01+j0.000000000000e+00
-1.279713722385e-01+j0.000000000000e+00
-1.587600894608e-01+j0.000000000000e+00
-1.967954816744e-01+j0.000000000000e+00
-2.436960752356e-01+j0.000000000000e+00
-3.013973081476e-01+j0.000000000000e+00
-3.721913330467e-01+j0.000000000000e+00
-4.587606306985e-01+j0.000000000000e+00
-5.641987909966e-01+j0.000000000000e+00
-6.920097382246e-01+j0.000000000000e+00
-8.460750051136e-01+j0.000000000000e+00
-1.030578206523e+00+j0.000000000000e+00
-1.249877693507e+00+j0.000000000000e+00
-1.508323531283e+00+j0.000000000000e+00
-1.810023931261e+00+j0.000000000000e+00
-2.158578296499e+00+j0.000000000000e+00
-2.556806533832e+00+j0.000000000000e+00
-3.006513097048e+00+j0.000000000000e+00
-3.508325007573e+00+j0.000000000000e+00
-4.061633508748e+00+j0.000000000000e+00
-4.664650534155e+00+j0.000000000000e+00
-5.314569149523e+00+j0.000000000000e+00
-6.007798544648e+00+j0.000000000000e+00
-6.740234395365e+00+j0.000000000000e+00
-7.507526040946e+00+j0.000000000000e+00
-8.305310636066e+00+j0.000000000000e+00
-9.129396906083e+00+j0.000000000000e+00
-9.975893195196e+00+j0.000000000000e+00
-1.084128354142e+01+j0.000000000000e+00
-1.172246073295e+01+j0.000000000000e+00
-1.261672717376e+01+j0.000000000000e+00
-1.352177395716e+01+j0.000000000000e+00
-1.443564688234e+01+j0.000000000000e+00
-1.535670606561e+01+j0.000000000000e+00
-1.628358379794e+01+j0.000000000000e+00
-1.721514362582e+01+j0.000000000000e+00
-1.815044235262e+01+j0.000000000000e+00
-1.908869574605e+01+j0.000000000000e+00
-2.002924812715e+01+j0.000000000000e+00
-2.097154563208e+01+j0.000000000000e+00
-2.191511271213e+01+j0.000000000000e+00
-2.285953131503e+01+j0.000000000000e+00
-2.380442213157e+01+j0.000000000000e+00
-2.474942726634e+01+j0.000000000000e+00
-2.569419367983e+01+j0.000000000000e+00
-2.663835673929e+01+j0.000000000000e+00
-2.758152319756e+01+j0.000000000000e+00
-2.852325288989e+01+j0.000000000000e+00
-2.946303839545e+01+j0.000000000000e+00
-3.040028185489e+01+j0.000000000000e+00
-3.133426807237e+01+j0.000000000000e+00
-3.226413296982e+01+j0.000000000000e+00
-3.318882641916e+01+j0.000000000000e+00
-3.410706848167e+01+j0.000000000000e+00
-3.501729817377e+01+j0.000000000000e+00
-3.591761411510e+01+j0.000000000000e+00
-3.680570688361e+01+j0.000000000000e+00
-3.767878371487e+01+j0.000000000000e+00
-3.853348747902e+01+j0.000000000000e+00
-3.936581379723e+01+j0.000000000000e+00
</dep>
<dep ac.vout2_db frequency>
-6.403644820628e+01+j0.000000000000e+00
-6.308406767429e+01+j0.000000000000e+00
-6.213168724537e+01+j0.000000000000e+00
-6.117930694481e+01+j0.000000000000e+00
-6.022692680407e+01+j0.000000000000e+00
-5.927454686234e+01+j0.000000000000e+00
-5.832216716842e+01+j0.000000000000e+00
-5.736978778307e+01+j0.000000000000e+00
-5.641740878195e+01+j0.000000000000e+00
-5.546503025927e+01+j0.000000000000e+00
-5.451265233235e+01+j0.000000000000e+00
-5.356027514726e+01+j0.000000000000e+00
-5.260789888589e+01+j0.000000000000e+00
-5.165552377474e+01+j0.000000000000e+00
-5.070315009583e+01+j0.000000000000e+00
-4.975077820034e+01+j0.000000000000e+00
-4.879840852554e+01+j0.000000000000e+00
-4.784604161593e+01+j0.000000000000e+00
-4.689367814951e+01+j0.000000000000e+00
-4.594131897050e+01+j0.000000000000e+00
-4.498896513009e+01+j0.000000000000e+00
-4.403661793723e+01+j0.000000000000e+00
-4.308427902174e+01+j0.000000000000e+00
-4.213195041300e+01+j0.000000000000e+00
-4.117963463789e+01+j0.000000000000e+00
-4.022733484268e+01+j0.000000000000e+00
-3.927505494486e+01+j0.000000000000e+00
-3.832279982204e+01+j0.000000000000e+00
-3.737057554716e+01+j0.000000000000e+00
-3.641838968125e+01+j0.000000000000e+00
-3.546625163773e+01+j0.000000000000e+00
-3.451417313575e+01+j0.000000000000e+00
-3.356216876429e+01+j0.000000000000e+00
-3.261025668374e+01+j0.000000000000e+00
-3.165845949844e+01+j0.000000000000e+00
-3.070680534145e+01+j0.000000000000e+00
-2.975532922259e+01+j0.000000000000e+00
-2.880407470282e+01+j0.000000000000e+00
-2.785309597275e+01+j0.000000000000e+00
-2.690246043088e+01+j0.000000000000e+00
-2.595225187848e+01+j0.000000000000e+00
-2.500257447411e+01+j0.000000000000e+00
-2.405355762093e+01+j0.000000000000e+00
-2.310536199572e+01+j0.000000000000e+00
-2.215818696869e+01+j0.000000000000e+00
-2.121227970835e+01+j0.000000000000e+00
-2.026794631271e+01+j0.000000000000e+00
-1.932556535413e+01+j0.000000000000e+00
-1.838560426406e+01+j0.000000000000e+00
-1.744863900348e+01+j0.000000000000e+00
-1.651537745011e+01+j0.000000000000e+00
-1.558668685752e+01+j0.000000000000e+00
-1.466362556747e+01+j0.000000000000e+00
-1.374747883622e+01+j0.000000000000e+00
