<Qucs Dataset 0.0.21>
<indep v-sweep 501>
0.000000000000e+00
9.980040000000e-03
1.996008000000e-02
2.994012000000e-02
3.992016000000e-02
4.990020000000e-02
5.988024000000e-02
6.986028000000e-02
7.984032000000e-02
8.982036000000e-02
9.980040000000e-02
1.097804400000e-01
1.197604800000e-01
1.297405200000e-01
1.397205600000e-01
1.497006000000e-01
1.596806400000e-01
1.696606800000e-01
1.796407200000e-01
1.896207600000e-01
1.996008000000e-01
2.095808400000e-01
2.195608800000e-01
2.295409200000e-01
2.395209600000e-01
2.495010000000e-01
2.594810400000e-01
2.694610800000e-01
2.794411200000e-01
2.894211600000e-01
2.994012000000e-01
3.093812400000e-01
3.193612800000e-01
3.293413200000e-01
3.393213600000e-01
3.493014000000e-01
3.592814400000e-01
3.692614800000e-01
3.792415200000e-01
3.892215600000e-01
3.992016000000e-01
4.091816400000e-01
4.191616800000e-01
4.291417200000e-01
4.391217600000e-01
4.491018000000e-01
4.590818400000e-01
4.690618800000e-01
4.790419200000e-01
4.890219600000e-01
4.990020000000e-01
5.089820400000e-01
5.189620800000e-01
5.289421200000e-01
5.389221600000e-01
5.489022000000e-01
5.588822400000e-01
5.688622800000e-01
5.788423200000e-01
5.888223600000e-01
5.988024000000e-01
6.087824400000e-01
6.187624800000e-01
6.287425200000e-01
6.387225600000e-01
6.487026000000e-01
6.586826400000e-01
6.686626800000e-01
6.786427200000e-01
6.886227600000e-01
6.986028000000e-01
7.085828400000e-01
7.185628800000e-01
7.285429200000e-01
7.385229600000e-01
7.485030000000e-01
7.584830400000e-01
7.684630800000e-01
7.784431200000e-01
7.884231600000e-01
7.984032000000e-01
8.083832400000e-01
8.183632800000e-01
8.283433200000e-01
8.383233600000e-01
8.483034000000e-01
8.582834400000e-01
8.682634800000e-01
8.782435200000e-01
8.882235600000e-01
8.982036000000e-01
9.081836400000e-01
9.181636800000e-01
9.281437200000e-01
9.381237600000e-01
9.481038000000e-01
9.580838400000e-01
9.680638800000e-01
9.780439200000e-01
9.880239600000e-01
9.980040000000e-01
1.007984040000e+00
1.017964080000e+00
1.027944120000e+00
1.037924160000e+00
1.047904200000e+00
1.057884240000e+00
1.067864280000e+00
1.077844320000e+00
1.087824360000e+00
1.097804400000e+00
1.107784440000e+00
1.117764480000e+00
1.127744520000e+00
1.137724560000e+00
1.147704600000e+00
1.157684640000e+00
1.167664680000e+00
1.177644720000e+00
1.187624760000e+00
1.197604800000e+00
1.207584840000e+00
1.217564880000e+00
1.227544920000e+00
1.237524960000e+00
1.247505000000e+00
1.257485040000e+00
1.267465080000e+00
1.277445120000e+00
1.287425160000e+00
1.297405200000e+00
1.307385240000e+00
1.317365280000e+00
1.327345320000e+00
1.337325360000e+00
1.347305400000e+00
1.357285440000e+00
1.367265480000e+00
1.377245520000e+00
1.387225560000e+00
1.397205600000e+00
1.407185640000e+00
1.417165680000e+00
1.427145720000e+00
1.437125760000e+00
1.447105800000e+00
1.457085840000e+00
1.467065880000e+00
1.477045920000e+00
1.487025960000e+00
1.497006000000e+00
1.506986040000e+00
1.516966080000e+00
1.526946120000e+00
1.536926160000e+00
1.546906200000e+00
1.556886240000e+00
1.566866280000e+00
1.576846320000e+00
1.586826360000e+00
1.596806400000e+00
1.606786440000e+00
1.616766480000e+00
1.626746520000e+00
1.636726560000e+00
1.646706600000e+00
1.656686640000e+00
1.666666680000e+00
1.676646720000e+00
1.686626760000e+00
1.696606800000e+00
1.706586840000e+00
1.716566880000e+00
1.726546920000e+00
1.736526960000e+00
1.746507000000e+00
1.756487040000e+00
1.766467080000e+00
1.776447120000e+00
1.786427160000e+00
1.796407200000e+00
1.806387240000e+00
1.816367280000e+00
1.826347320000e+00
1.836327360000e+00
1.846307400000e+00
1.856287440000e+00
1.866267480000e+00
1.876247520000e+00
1.886227560000e+00
1.896207600000e+00
1.906187640000e+00
1.916167680000e+00
1.926147720000e+00
1.936127760000e+00
1.946107800000e+00
1.956087840000e+00
1.966067880000e+00
1.976047920000e+00
1.986027960000e+00
1.996008000000e+00
2.005988040000e+00
2.015968080000e+00
2.025948120000e+00
2.035928160000e+00
2.045908200000e+00
2.055888240000e+00
2.065868280000e+00
2.075848320000e+00
2.085828360000e+00
2.095808400000e+00
2.105788440000e+00
2.115768480000e+00
2.125748520000e+00
2.135728560000e+00
2.145708600000e+00
2.155688640000e+00
2.165668680000e+00
2.175648720000e+00
2.185628760000e+00
2.195608800000e+00
2.205588840000e+00
2.215568880000e+00
2.225548920000e+00
2.235528960000e+00
2.245509000000e+00
2.255489040000e+00
2.265469080000e+00
2.275449120000e+00
2.285429160000e+00
2.295409200000e+00
2.305389240000e+00
2.315369280000e+00
2.325349320000e+00
2.335329360000e+00
2.345309400000e+00
2.355289440000e+00
2.365269480000e+00
2.375249520000e+00
2.385229560000e+00
2.395209600000e+00
2.405189640000e+00
2.415169680000e+00
2.425149720000e+00
2.435129760000e+00
2.445109800000e+00
2.455089840000e+00
2.465069880000e+00
2.475049920000e+00
2.485029960000e+00
2.495010000000e+00
2.504990040000e+00
2.514970080000e+00
2.524950120000e+00
2.534930160000e+00
2.544910200000e+00
2.554890240000e+00
2.564870280000e+00
2.574850320000e+00
2.584830360000e+00
2.594810400000e+00
2.604790440000e+00
2.614770480000e+00
2.624750520000e+00
2.634730560000e+00
2.644710600000e+00
2.654690640000e+00
2.664670680000e+00
2.674650720000e+00
2.684630760000e+00
2.694610800000e+00
2.704590840000e+00
2.714570880000e+00
2.724550920000e+00
2.734530960000e+00
2.744511000000e+00
2.754491040000e+00
2.764471080000e+00
2.774451120000e+00
2.784431160000e+00
2.794411200000e+00
2.804391240000e+00
2.814371280000e+00
2.824351320000e+00
2.834331360000e+00
2.844311400000e+00
2.854291440000e+00
2.864271480000e+00
2.874251520000e+00
2.884231560000e+00
2.894211600000e+00
2.904191640000e+00
2.914171680000e+00
2.924151720000e+00
2.934131760000e+00
2.944111800000e+00
2.954091840000e+00
2.964071880000e+00
2.974051920000e+00
2.984031960000e+00
2.994012000000e+00
3.003992040000e+00
3.013972080000e+00
3.023952120000e+00
3.033932160000e+00
3.043912200000e+00
3.053892240000e+00
3.063872280000e+00
3.073852320000e+00
3.083832360000e+00
3.093812400000e+00
3.103792440000e+00
3.113772480000e+00
3.123752520000e+00
3.133732560000e+00
3.143712600000e+00
3.153692640000e+00
3.163672680000e+00
3.173652720000e+00
3.183632760000e+00
3.193612800000e+00
3.203592840000e+00
3.213572880000e+00
3.223552920000e+00
3.233532960000e+00
3.243513000000e+00
3.253493040000e+00
3.263473080000e+00
3.273453120000e+00
3.283433160000e+00
3.293413200000e+00
3.303393240000e+00
3.313373280000e+00
3.323353320000e+00
3.333333360000e+00
3.343313400000e+00
3.353293440000e+00
3.363273480000e+00
3.373253520000e+00
3.383233560000e+00
3.393213600000e+00
3.403193640000e+00
3.413173680000e+00
3.423153720000e+00
3.433133760000e+00
3.443113800000e+00
3.453093840000e+00
3.463073880000e+00
3.473053920000e+00
3.483033960000e+00
3.493014000000e+00
3.502994040000e+00
3.512974080000e+00
3.522954120000e+00
3.532934160000e+00
3.542914200000e+00
3.552894240000e+00
3.562874280000e+00
3.572854320000e+00
3.582834360000e+00
3.592814400000e+00
3.602794440000e+00
3.612774480000e+00
3.622754520000e+00
3.632734560000e+00
3.642714600000e+00
3.652694640000e+00
3.662674680000e+00
3.672654720000e+00
3.682634760000e+00
3.692614800000e+00
3.702594840000e+00
3.712574880000e+00
3.722554920000e+00
3.732534960000e+00
3.742515000000e+00
3.752495040000e+00
3.762475080000e+00
3.772455120000e+00
3.782435160000e+00
3.792415200000e+00
3.802395240000e+00
3.812375280000e+00
3.822355320000e+00
3.832335360000e+00
3.842315400000e+00
3.852295440000e+00
3.862275480000e+00
3.872255520000e+00
3.882235560000e+00
3.892215600000e+00
3.902195640000e+00
3.912175680000e+00
3.922155720000e+00
3.932135760000e+00
3.942115800000e+00
3.952095840000e+00
3.962075880000e+00
3.972055920000e+00
3.982035960000e+00
3.992016000000e+00
4.001996040000e+00
4.011976080000e+00
4.021956120000e+00
4.031936160000e+00
4.041916200000e+00
4.051896240000e+00
4.061876280000e+00
4.071856320000e+00
4.081836360000e+00
4.091816400000e+00
4.101796440000e+00
4.111776480000e+00
4.121756520000e+00
4.131736560000e+00
4.141716600000e+00
4.151696640000e+00
4.161676680000e+00
4.171656720000e+00
4.181636760000e+00
4.191616800000e+00
4.201596840000e+00
4.211576880000e+00
4.221556920000e+00
4.231536960000e+00
4.241517000000e+00
4.251497040000e+00
4.261477080000e+00
4.271457120000e+00
4.281437160000e+00
4.291417200000e+00
4.301397240000e+00
4.311377280000e+00
4.321357320000e+00
4.331337360000e+00
4.341317400000e+00
4.351297440000e+00
4.361277480000e+00
4.371257520000e+00
4.381237560000e+00
4.391217600000e+00
4.401197640000e+00
4.411177680000e+00
4.421157720000e+00
4.431137760000e+00
4.441117800000e+00
4.451097840000e+00
4.461077880000e+00
4.471057920000e+00
4.481037960000e+00
4.491018000000e+00
4.500998040000e+00
4.510978080000e+00
4.520958120000e+00
4.530938160000e+00
4.540918200000e+00
4.550898240000e+00
4.560878280000e+00
4.570858320000e+00
4.580838360000e+00
4.590818400000e+00
4.600798440000e+00
4.610778480000e+00
4.620758520000e+00
4.630738560000e+00
4.640718600000e+00
4.650698640000e+00
4.660678680000e+00
4.670658720000e+00
4.680638760000e+00
4.690618800000e+00
4.700598840000e+00
4.710578880000e+00
4.720558920000e+00
4.730538960000e+00
4.740519000000e+00
4.750499040000e+00
4.760479080000e+00
4.770459120000e+00
4.780439160000e+00
4.790419200000e+00
4.800399240000e+00
4.810379280000e+00
4.820359320000e+00
4.830339360000e+00
4.840319400000e+00
4.850299440000e+00
4.860279480000e+00
4.870259520000e+00
4.880239560000e+00
4.890219600000e+00
4.900199640000e+00
4.910179680000e+00
4.920159720000e+00
4.930139760000e+00
4.940119800000e+00
4.950099840000e+00
4.960079880000e+00
4.970059920000e+00
4.980039960000e+00
4.990020000000e+00
</indep>
<dep i(pr1) v-sweep>
5.009999359817e-12
5.009999359817e-12
5.009999359817e-12
5.009999359817e-12
5.009999359817e-12
5.009999359817e-12
5.009999359817e-12
5.009999359817e-12
5.009999359817e-12
5.009999359817e-12
5.009999359817e-12
5.009999359817e-12
5.009999359817e-12
5.009999359817e-12
5.009999359817e-12
5.009999359817e-12
5.009999359817e-12
5.009999359817e-12
5.009999359817e-12
5.009999359817e-12
5.009999359817e-12
5.009999359817e-12
5.009999359817e-12
5.009999359817e-12
5.009999359817e-12
5.009999359817e-12
5.009999359817e-12
5.009999359817e-12
5.009999359817e-12
5.009999359817e-12
5.009999359817e-12
5.009999359817e-12
5.009999359817e-12
5.009999359817e-12
5.009999359817e-12
5.009999359817e-12
5.009999359817e-12
5.009999359817e-12
5.009999359817e-12
5.009999359817e-12
5.009999359817e-12
5.009999359817e-12
5.009999359817e-12
5.009999359817e-12
5.009999359817e-12
5.009999359817e-12
5.009999359817e-12
5.009999359817e-12
5.009999359817e-12
5.009999359817e-12
5.009999359817e-12
5.009999359817e-12
5.009999359817e-12
5.009999359817e-12
5.009999359817e-12
5.009999359817e-12
5.009999359817e-12
5.009999359817e-12
5.009999359817e-12
5.009999359817e-12
5.009999359817e-12
5.009999359817e-12
5.009999359817e-12
5.009999359817e-12
5.009999359817e-12
5.009999359817e-12
5.009999359817e-12
5.009999359817e-12
5.009999359817e-12
5.009999359817e-12
5.009999359817e-12
5.009999359817e-12
5.009999359817e-12
5.009999359817e-12
5.009999359817e-12
5.009999359817e-12
5.009999359817e-12
5.009999359817e-12
5.009999359817e-12
5.009999359817e-12
5.009999359817e-12
3.513985741364e-07
1.686055270105e-06
4.016723949095e-06
7.343404611104e-06
1.166609725613e-05
1.698480188418e-05
2.329951849525e-05
3.061024708934e-05
3.891698766645e-05
4.821974022658e-05
5.851850476973e-05
6.981328129590e-05
8.210406980509e-05
9.539087029730e-05
1.096736827725e-04
1.249525072308e-04
1.412273436720e-04
1.584981920963e-04
1.767650525036e-04
1.960279248940e-04
2.162868092673e-04
2.375417056237e-04
2.597926139631e-04
2.830395342855e-04
3.072824665909e-04
3.325214108794e-04
3.587563671508e-04
3.859873354053e-04
4.142143156428e-04
4.434373078634e-04
4.736563120669e-04
5.048713282535e-04
5.370823564231e-04
5.702893965757e-04
6.044924487113e-04
6.396915128300e-04
6.758865889316e-04
7.130776770163e-04
7.512647770840e-04
7.904478891348e-04
8.306270131685e-04
8.718021491853e-04
9.139732971851e-04
9.571404571679e-04
1.001303629134e-03
1.046462813083e-03
1.092618009014e-03
1.139769216929e-03
1.187916436827e-03
1.237059668708e-03
1.287198912572e-03
1.338334168419e-03
1.390465436249e-03
1.443592716062e-03
1.497716007858e-03
1.552835311637e-03
1.608950627399e-03
1.666061955144e-03
1.724169294872e-03
1.783272646584e-03
1.843372010278e-03
1.904467385955e-03
1.966558773615e-03
2.029646173258e-03
2.093729584884e-03
2.158809008494e-03
2.224884444086e-03
2.291955891661e-03
2.360023351220e-03
2.429086822761e-03
2.499146306285e-03
2.570201801793e-03
2.642253309283e-03
2.715300828756e-03
2.789344360213e-03
2.864383903652e-03
2.940419459075e-03
3.017451026480e-03
3.095478605869e-03
3.174502197240e-03
3.254521800595e-03
3.335537415932e-03
3.417549043253e-03
3.500556682557e-03
3.584560333843e-03
3.669559997113e-03
3.755555672366e-03
3.842547359601e-03
3.930535058820e-03
4.019518770022e-03
4.108378728568e-03
4.166225975736e-03
4.206094067672e-03
4.236383093797e-03
4.262035380478e-03
4.284358887956e-03
4.304151910634e-03
4.321977618965e-03
4.338221490449e-03
4.353159761570e-03
4.366998368384e-03
4.379895543788e-03
4.391975892485e-03
4.403339558423e-03
4.414068418886e-03
4.424230402420e-03
4.433882580337e-03
4.443073431722e-03
4.451844536555e-03
4.460231863845e-03
4.468266767058e-03
4.475976764135e-03
4.483386156379e-03
4.490516525053e-03
4.497387133943e-03
4.504015258728e-03
4.510416458775e-03
4.516604803166e-03
4.522593060030e-03
4.528392856185e-03
4.534014812582e-03
4.539468659878e-03
4.544763337579e-03
4.549907079508e-03
4.554907487842e-03
4.559771597515e-03
4.564505932476e-03
4.569116555030e-03
4.573609109254e-03
4.577988859352e-03
4.582260723636e-03
4.586429304728e-03
4.590498916484e-03
4.594473608068e-03
4.598357185522e-03
4.602153231155e-03
4.605865121005e-03
4.609496040608e-03
4.613048999262e-03
4.616526842967e-03
4.619932266179e-03
4.623267822510e-03
4.626535934487e-03
4.629738902476e-03
4.632878912837e-03
4.635958045414e-03
4.638978280402e-03
4.641941504669e-03
4.644849517577e-03
4.647704036346e-03
4.650506701019e-03
4.653259079043e-03
4.655962669515e-03
4.658618907123e-03
4.661229165796e-03
4.663794762104e-03
4.666316958415e-03
4.668796965844e-03
4.671235946988e-03
4.673635018498e-03
4.675995253466e-03
4.678317683662e-03
4.680603301635e-03
4.682853062671e-03
4.685067886633e-03
4.687248659693e-03
4.689396235951e-03
4.691511438963e-03
4.693595063175e-03
4.695647875273e-03
4.697670615460e-03
4.699663998654e-03
4.701628715623e-03
4.703565434054e-03
4.705474799564e-03
4.707357436658e-03
4.709213949630e-03
4.711044923424e-03
4.712850924443e-03
4.714632501318e-03
4.716390185638e-03
4.718124492643e-03
4.719835921882e-03
4.721524957834e-03
4.723192070509e-03
4.724837716004e-03
4.726462337048e-03
4.728066363510e-03
4.729650212887e-03
4.731214290768e-03
4.732758991278e-03
4.734284697502e-03
4.735791781883e-03
4.737280606614e-03
4.738751523998e-03
4.740204876807e-03
4.741640998612e-03
4.743060214107e-03
4.744462839418e-03
4.745849182392e-03
4.747219542885e-03
4.748574213026e-03
4.749913477481e-03
4.751237613695e-03
4.752546892135e-03
4.753841576517e-03
4.755121924021e-03
4.756388185505e-03
4.757640605706e-03
4.758879423432e-03
4.760104871750e-03
4.761317178166e-03
4.762516564791e-03
4.763703248516e-03
4.764877441162e-03
4.766039349639e-03
4.767189176093e-03
4.768327118045e-03
4.769453368530e-03
4.770568116228e-03
4.771671545594e-03
4.772763836974e-03
4.773845166732e-03
4.774915707355e-03
4.775975627567e-03
4.777025092439e-03
4.778064263482e-03
4.779093298755e-03
4.780112352956e-03
4.781121577512e-03
4.782121120674e-03
4.783111127600e-03
4.784091740436e-03
4.785063098400e-03
4.786025337859e-03
4.786978592402e-03
4.787922992918e-03
4.788858667658e-03
4.789785742314e-03
4.790704340075e-03
4.791614581697e-03
4.792516585563e-03
4.793410467745e-03
4.794296342057e-03
4.795174320117e-03
4.796044511399e-03
4.796907023286e-03
4.797761961121e-03
4.798609428260e-03
4.799449526115e-03
4.800282354204e-03
4.801108010197e-03
4.801926589958e-03
4.802738187590e-03
4.803542895476e-03
4.804340804316e-03
4.805132003173e-03
4.805916579504e-03
4.806694619204e-03
4.807466206634e-03
4.808231424663e-03
4.808990354698e-03
4.809743076719e-03
4.810489669309e-03
4.811230209688e-03
4.811964773740e-03
4.812693436046e-03
4.813416269911e-03
4.814133347392e-03
4.814844739324e-03
4.815550515349e-03
4.816250743940e-03
4.816945492427e-03
4.817634827022e-03
4.818318812840e-03
4.818997513925e-03
4.819670993271e-03
4.820339312847e-03
4.821002533613e-03
4.821660715545e-03
4.822313917654e-03
4.822962198008e-03
4.823605613748e-03
4.824244221108e-03
4.824878075433e-03
4.825507231201e-03
4.826131742033e-03
4.826751660716e-03
4.827367039220e-03
4.827977928707e-03
4.828584379557e-03
4.829186441375e-03
4.829784163011e-03
4.830377592572e-03
4.830966777440e-03
4.831551764280e-03
4.832132599060e-03
4.832709327061e-03
4.833281992890e-03
4.833850640494e-03
4.834415313173e-03
4.834976053588e-03
4.835532903781e-03
4.836085905177e-03
4.836635098603e-03
4.837180524294e-03
4.837722221909e-03
4.838260230535e-03
4.838794588704e-03
4.839325334398e-03
4.839852505063e-03
4.840376137616e-03
4.840896268454e-03
4.841412933468e-03
4.841926168044e-03
4.842436007080e-03
4.842942484990e-03
4.843445635713e-03
4.843945492724e-03
4.844442089039e-03
4.844935457224e-03
4.845425629402e-03
4.845912637264e-03
4.846396512072e-03
4.846877284669e-03
4.847354985485e-03
4.847829644546e-03
4.848301291479e-03
4.848769955517e-03
4.849235665510e-03
4.849698449929e-03
4.850158336872e-03
4.850615354070e-03
4.851069528894e-03
4.851520888362e-03
4.851969459143e-03
4.852415267562e-03
4.852858339608e-03
4.853298700938e-03
4.853736376883e-03
4.854171392452e-03
4.854603772340e-03
4.855033540929e-03
4.855460722297e-03
4.855885340219e-03
4.856307418176e-03
4.856726979357e-03
4.857144046662e-03
4.857558642711e-03
4.857970789846e-03
4.858380510133e-03
4.858787825371e-03
4.859192757093e-03
4.859595326571e-03
4.859995554818e-03
4.860393462597e-03
4.860789070420e-03
4.861182398554e-03
4.861573467022e-03
4.861962295612e-03
4.862348903877e-03
4.862733311136e-03
4.863115536484e-03
4.863495598791e-03
4.863873516704e-03
4.864249308655e-03
4.864622992860e-03
4.864994587326e-03
4.865364109848e-03
4.865731578021e-03
4.866097009234e-03
4.866460420679e-03
4.866821829350e-03
4.867181252049e-03
4.867538705388e-03
4.867894205790e-03
4.868247769493e-03
4.868599412552e-03
4.868949150844e-03
4.869297000066e-03
4.869642975741e-03
4.869987093222e-03
4.870329367689e-03
4.870669814156e-03
4.871008447470e-03
4.871345282318e-03
4.871680333224e-03
4.872013614553e-03
4.872345140517e-03
4.872674925171e-03
4.873002982418e-03
4.873329326013e-03
4.873653969561e-03
4.873976926523e-03
4.874298210214e-03
4.874617833810e-03
4.874935810345e-03
4.875252152714e-03
4.875566873677e-03
4.875879985861e-03
4.876191501756e-03
4.876501433726e-03
4.876809794003e-03
4.877116594692e-03
4.877421847772e-03
4.877725565098e-03
4.878027758403e-03
4.878328439299e-03
4.878627619278e-03
4.878925309714e-03
4.879221521867e-03
4.879516266878e-03
4.879809555780e-03
4.880101399489e-03
4.880391808815e-03
4.880680794456e-03
4.880968367003e-03
4.881254536942e-03
4.881539314653e-03
4.881822710413e-03
</dep>
<dep v(vin) v-sweep>
0.000000000000e+00
9.980040000000e-03
1.996008000000e-02
2.994012000000e-02
3.992016000000e-02
4.990020000000e-02
5.988024000000e-02
6.986028000000e-02
7.984032000000e-02
8.982036000000e-02
9.980040000000e-02
1.097804400000e-01
1.197604800000e-01
1.297405200000e-01
1.397205600000e-01
1.497006000000e-01
1.596806400000e-01
1.696606800000e-01
1.796407200000e-01
1.896207600000e-01
1.996008000000e-01
2.095808400000e-01
2.195608800000e-01
2.295409200000e-01
2.395209600000e-01
2.495010000000e-01
2.594810400000e-01
2.694610800000e-01
2.794411200000e-01
2.894211600000e-01
2.994012000000e-01
3.093812400000e-01
3.193612800000e-01
3.293413200000e-01
3.393213600000e-01
3.493014000000e-01
3.592814400000e-01
3.692614800000e-01
3.792415200000e-01
3.892215600000e-01
3.992016000000e-01
4.091816400000e-01
4.191616800000e-01
4.291417200000e-01
4.391217600000e-01
