<Qucs Dataset 0.0.22>
<indep frequency 127>
1.000000000000e-01
1.115883992508e-01
1.245197084735e-01
1.389495494373e-01
1.550515779833e-01
1.730195738846e-01
1.930697728883e-01
2.154434690032e-01
2.404099183510e-01
2.682695795280e-01
2.993577294720e-01
3.340484983513e-01
3.727593720315e-01
4.159562163072e-01
4.641588833613e-01
5.179474679231e-01
5.779692884153e-01
6.449466771038e-01
7.196856730012e-01
8.030857221392e-01
8.961505019466e-01
1.000000000000e+00
1.115883992508e+00
1.245197084735e+00
1.389495494373e+00
1.550515779833e+00
1.730195738846e+00
1.930697728883e+00
2.154434690032e+00
2.404099183510e+00
2.682695795280e+00
2.993577294720e+00
3.340484983513e+00
3.727593720315e+00
4.159562163072e+00
4.641588833613e+00
5.179474679231e+00
5.779692884153e+00
6.449466771038e+00
7.196856730011e+00
8.030857221391e+00
8.961505019466e+00
1.000000000000e+01
1.115883992508e+01
1.245197084735e+01
1.389495494373e+01
1.550515779833e+01
1.730195738846e+01
1.930697728883e+01
2.154434690032e+01
2.404099183510e+01
2.682695795280e+01
2.993577294720e+01
3.340484983513e+01
3.727593720315e+01
4.159562163072e+01
4.641588833613e+01
5.179474679231e+01
5.779692884153e+01
6.449466771038e+01
7.196856730011e+01
8.030857221391e+01
8.961505019466e+01
1.000000000000e+02
1.115883992508e+02
1.245197084735e+02
1.389495494373e+02
1.550515779833e+02
1.730195738846e+02
1.930697728883e+02
2.154434690032e+02
2.404099183510e+02
2.682695795280e+02
2.993577294720e+02
3.340484983513e+02
3.727593720315e+02
4.159562163072e+02
4.641588833613e+02
5.179474679231e+02
5.779692884153e+02
6.449466771038e+02
7.196856730011e+02
8.030857221391e+02
8.961505019466e+02
1.000000000000e+03
1.115883992508e+03
1.245197084735e+03
1.389495494373e+03
1.550515779833e+03
1.730195738846e+03
1.930697728883e+03
2.154434690032e+03
2.404099183510e+03
2.682695795280e+03
2.993577294720e+03
3.340484983513e+03
3.727593720315e+03
4.159562163072e+03
4.641588833613e+03
5.179474679231e+03
5.779692884153e+03
6.449466771038e+03
7.196856730011e+03
8.030857221391e+03
8.961505019466e+03
1.000000000000e+04
1.115883992508e+04
1.245197084735e+04
1.389495494373e+04
1.550515779833e+04
1.730195738846e+04
1.930697728883e+04
2.154434690032e+04
2.404099183510e+04
2.682695795280e+04
2.993577294720e+04
3.340484983513e+04
3.727593720315e+04
4.159562163072e+04
4.641588833613e+04
5.179474679231e+04
5.779692884153e+04
6.449466771038e+04
7.196856730011e+04
8.030857221391e+04
8.961505019466e+04
1.000000000000e+05
</indep>
<dep ac.v(vin) frequency>
1.000000000000e-01+j0.000000000000e+00
1.000000000000e-01+j0.000000000000e+00
1.000000000000e-01+j0.000000000000e+00
1.000000000000e-01+j0.000000000000e+00
1.000000000000e-01+j0.000000000000e+00
1.000000000000e-01+j0.000000000000e+00
1.000000000000e-01+j0.000000000000e+00
1.000000000000e-01+j0.000000000000e+00
1.000000000000e-01+j0.000000000000e+00
1.000000000000e-01+j0.000000000000e+00
1.000000000000e-01+j0.000000000000e+00
1.000000000000e-01+j0.000000000000e+00
1.000000000000e-01+j0.000000000000e+00
1.000000000000e-01+j0.000000000000e+00
1.000000000000e-01+j0.000000000000e+00
1.000000000000e-01+j0.000000000000e+00
1.000000000000e-01+j0.000000000000e+00
1.000000000000e-01+j0.000000000000e+00
1.000000000000e-01+j0.000000000000e+00
1.000000000000e-01+j0.000000000000e+00
1.000000000000e-01+j0.000000000000e+00
1.000000000000e-01+j0.000000000000e+00
1.000000000000e-01+j0.000000000000e+00
1.000000000000e-01+j0.000000000000e+00
1.000000000000e-01+j0.000000000000e+00
1.000000000000e-01+j0.000000000000e+00
1.000000000000e-01+j0.000000000000e+00
1.000000000000e-01+j0.000000000000e+00
1.000000000000e-01+j0.000000000000e+00
1.000000000000e-01+j0.000000000000e+00
1.000000000000e-01+j0.000000000000e+00
1.000000000000e-01+j0.000000000000e+00
1.000000000000e-01+j0.000000000000e+00
1.000000000000e-01+j0.000000000000e+00
1.000000000000e-01+j0.000000000000e+00
1.000000000000e-01+j0.000000000000e+00
1.000000000000e-01+j0.000000000000e+00
1.000000000000e-01+j0.000000000000e+00
1.000000000000e-01+j0.000000000000e+00
1.000000000000e-01+j0.000000000000e+00
1.000000000000e-01+j0.000000000000e+00
1.000000000000e-01+j0.000000000000e+00
1.000000000000e-01+j0.000000000000e+00
1.000000000000e-01+j0.000000000000e+00
1.000000000000e-01+j0.000000000000e+00
1.000000000000e-01+j0.000000000000e+00
1.000000000000e-01+j0.000000000000e+00
1.000000000000e-01+j0.000000000000e+00
1.000000000000e-01+j0.000000000000e+00
1.000000000000e-01+j0.000000000000e+00
1.000000000000e-01+j0.000000000000e+00
1.000000000000e-01+j0.000000000000e+00
1.000000000000e-01+j0.000000000000e+00
1.000000000000e-01+j0.000000000000e+00
1.000000000000e-01+j0.000000000000e+00
1.000000000000e-01+j0.000000000000e+00
1.000000000000e-01+j0.000000000000e+00
1.000000000000e-01+j0.000000000000e+00
1.000000000000e-01+j0.000000000000e+00
1.000000000000e-01+j0.000000000000e+00
1.000000000000e-01+j0.000000000000e+00
1.000000000000e-01+j0.000000000000e+00
1.000000000000e-01+j0.000000000000e+00
1.000000000000e-01+j0.000000000000e+00
1.000000000000e-01+j0.000000000000e+00
1.000000000000e-01+j0.000000000000e+00
1.000000000000e-01+j0.000000000000e+00
1.000000000000e-01+j0.000000000000e+00
1.000000000000e-01+j0.000000000000e+00
1.000000000000e-01+j0.000000000000e+00
1.000000000000e-01+j0.000000000000e+00
1.000000000000e-01+j0.000000000000e+00
1.000000000000e-01+j0.000000000000e+00
1.000000000000e-01+j0.000000000000e+00
1.000000000000e-01+j0.000000000000e+00
1.000000000000e-01+j0.000000000000e+00
1.000000000000e-01+j0.000000000000e+00
1.000000000000e-01+j0.000000000000e+00
1.000000000000e-01+j0.000000000000e+00
1.000000000000e-01+j0.000000000000e+00
1.000000000000e-01+j0.000000000000e+00
1.000000000000e-01+j0.000000000000e+00
1.000000000000e-01+j0.000000000000e+00
1.000000000000e-01+j0.000000000000e+00
1.000000000000e-01+j0.000000000000e+00
1.000000000000e-01+j0.000000000000e+00
1.000000000000e-01+j0.000000000000e+00
1.000000000000e-01+j0.000000000000e+00
1.000000000000e-01+j0.000000000000e+00
1.000000000000e-01+j0.000000000000e+00
1.000000000000e-01+j0.000000000000e+00
1.000000000000e-01+j0.000000000000e+00
1.000000000000e-01+j0.000000000000e+00
1.000000000000e-01+j0.000000000000e+00
1.000000000000e-01+j0.000000000000e+00
1.000000000000e-01+j0.000000000000e+00
1.000000000000e-01+j0.000000000000e+00
1.000000000000e-01+j0.000000000000e+00
1.000000000000e-01+j0.000000000000e+00
1.000000000000e-01+j0.000000000000e+00
1.000000000000e-01+j0.000000000000e+00
1.000000000000e-01+j0.000000000000e+00
1.000000000000e-01+j0.000000000000e+00
1.000000000000e-01+j0.000000000000e+00
1.000000000000e-01+j0.000000000000e+00
1.000000000000e-01+j0.000000000000e+00
1.000000000000e-01+j0.000000000000e+00
1.000000000000e-01+j0.000000000000e+00
1.000000000000e-01+j0.000000000000e+00
1.000000000000e-01+j0.000000000000e+00
1.000000000000e-01+j0.000000000000e+00
1.000000000000e-01+j0.000000000000e+00
1.000000000000e-01+j0.000000000000e+00
1.000000000000e-01+j0.000000000000e+00
1.000000000000e-01+j0.000000000000e+00
1.000000000000e-01+j0.000000000000e+00
1.000000000000e-01+j0.000000000000e+00
1.000000000000e-01+j0.000000000000e+00
1.000000000000e-01+j0.000000000000e+00
1.000000000000e-01+j0.000000000000e+00
1.000000000000e-01+j0.000000000000e+00
1.000000000000e-01+j0.000000000000e+00
1.000000000000e-01+j0.000000000000e+00
1.000000000000e-01+j0.000000000000e+00
1.000000000000e-01+j0.000000000000e+00
1.000000000000e-01+j0.000000000000e+00
1.000000000000e-01+j0.000000000000e+00
</dep>
<dep ac.v(vout) frequency>
2.099778210488e+00-j4.424818964880e-07
2.099778210486e+00-j4.937584627419e-07
2.099778210488e+00-j5.509771546346e-07
2.099778210490e+00-j6.148266009895e-07
2.099778210485e+00-j6.860751515259e-07
2.099778210490e+00-j7.655803027250e-07
2.099778210491e+00-j8.542988035062e-07
2.099778210489e+00-j9.532983376815e-07
2.099778210492e+00-j1.063770376032e-06
2.099778210487e+00-j1.187044318317e-06
2.099778210488e+00-j1.324603758516e-06
2.099778210488e+00-j1.478104131576e-06
2.099778210486e+00-j1.649392731032e-06
2.099778210487e+00-j1.840530945259e-06
2.099778210486e+00-j2.053819035299e-06
2.099778210488e+00-j2.291823800891e-06
2.099778210484e+00-j2.557409440236e-06
2.099778210485e+00-j2.853772280718e-06
2.099778210485e+00-j3.184478836807e-06
2.099778210485e+00-j3.553508984768e-06
2.099778210480e+00-j3.965303669296e-06
2.099778210484e+00-j4.424818980019e-06
2.099778210478e+00-j4.937584723916e-06
2.099778210474e+00-j5.509771615402e-06
2.099778210470e+00-j6.148265924875e-06
2.099778210464e+00-j6.860751472309e-06
2.099778210465e+00-j7.655803072456e-06
2.099778210455e+00-j8.542987903382e-06
2.099778210447e+00-j9.532983535927e-06
2.099778210436e+00-j1.063770359167e-05
2.099778210422e+00-j1.187044313979e-05
2.099778210402e+00-j1.324603746274e-05
2.099778210385e+00-j1.478104101010e-05
2.099778210358e+00-j1.649392727238e-05
2.099778210330e+00-j1.840530980299e-05
2.099778210285e+00-j2.053818993505e-05
2.099778210235e+00-j2.291823735691e-05
2.099778210181e+00-j2.557409500258e-05
2.099778210103e+00-j2.853772318568e-05
2.099778210008e+00-j3.184478831192e-05
2.099778209890e+00-j3.553508927917e-05
2.099778209741e+00-j3.965303738453e-05
2.099778209563e+00-j4.424819060590e-05
2.099778209328e+00-j4.937584676487e-05
2.099778209047e+00-j5.509771727251e-05
2.099778208690e+00-j6.148266062675e-05
2.099778208247e+00-j6.860751735905e-05
2.099778207696e+00-j7.655802759819e-05
2.099778207011e+00-j8.542987787009e-05
2.099778206159e+00-j9.532983342201e-05
2.099778205100e+00-j1.063770358123e-04
2.099778203775e+00-j1.187044310456e-04
2.099778202129e+00-j1.324603750070e-04
2.099778200083e+00-j1.478104133721e-04
2.099778197533e+00-j1.649392730187e-04
2.099778194356e+00-j1.840530951850e-04
2.099778190399e+00-j2.053819000549e-04
2.099778185471e+00-j2.291823743026e-04
2.099778179339e+00-j2.557409417294e-04
2.099778171702e+00-j2.853772221258e-04
2.099778162192e+00-j3.184478721388e-04
2.099778150351e+00-j3.553508842913e-04
2.099778135605e+00-j3.965303577659e-04
2.099778117244e+00-j4.424818758382e-04
2.099778094381e+00-j4.937584364100e-04
2.099778065911e+00-j5.509771267278e-04
2.099778030462e+00-j6.148265455573e-04
2.099777986321e+00-j6.860750865457e-04
2.099777931356e+00-j7.655801877568e-04
2.099777862914e+00-j8.542986472663e-04
2.099777777690e+00-j9.532981465935e-04
2.099777671569e+00-j1.063770087661e-03
2.099777539428e+00-j1.187043938301e-03
2.099777374887e+00-j1.324603226073e-03
2.099777170000e+00-j1.478103391698e-03
2.099776914876e+00-j1.649391713603e-03
2.099776597197e+00-j1.840529532091e-03
2.099776201623e+00-j2.053817055338e-03
2.099775709056e+00-j2.291821037954e-03
2.099775095713e+00-j2.557405663069e-03
2.099774331981e+00-j2.853767003480e-03
2.099773380985e+00-j3.184471475504e-03
2.099772196809e+00-j3.553498740137e-03
2.099770722278e+00-j3.965289576739e-03
2.099768886199e+00-j4.424799295350e-03
2.099766599924e+00-j4.937557327274e-03
2.099763753067e+00-j5.509733713691e-03
2.099760208180e+00-j6.148213274594e-03
2.099755794114e+00-j6.860678353109e-03
2.099750297758e+00-j7.655701112256e-03
2.099743453752e+00-j8.542846477511e-03
2.099734931678e+00-j9.532786944537e-03
2.099724320112e+00-j1.063743059615e-02
2.099711106772e+00-j1.187006382609e-02
2.099694653791e+00-j1.324551042325e-02
2.099674166948e+00-j1.478030884011e-02
2.099648657350e+00-j1.649290965904e-02
2.099616893739e+00-j1.840389545894e-02
2.099577343127e+00-j2.053622549304e-02
2.099528096902e+00-j2.291550779135e-02
2.099466778877e+00-j2.557030150619e-02
2.099390430856e+00-j2.853245250158e-02
2.099295370285e+00-j3.183746534518e-02
2.099177013172e+00-j3.552491495270e-02
2.099029653895e+00-j3.963890114043e-02
2.098846191470e+00-j4.422854919766e-02
2.098617789418e+00-j4.934855923494e-02
2.098333453327e+00-j5.505980638736e-02
2.097979506540e+00-j6.142999282181e-02
2.097538939912e+00-j6.853435070945e-02
2.096990606215e+00-j7.645639261687e-02
2.096308223312e+00-j8.528870176688e-02
2.095459142660e+00-j9.513374882084e-02
2.094402830892e+00-j1.061047135593e-01
2.093089002292e+00-j1.183262781760e-01
2.091455329095e+00-j1.319353426516e-01
2.089424645332e+00-j1.470815902879e-01
2.086901549419e+00-j1.639278009746e-01
2.083768302873e+00-j1.826497687321e-01
2.079879920500e+00-j2.034356256776e-01
2.075058356364e+00-j2.264843037963e-01
2.069085717388e+00-j2.520027759812e-01
2.061696494326e+00-j2.802016072497e-01
2.052568904103e+00-j3.112882173608e-01
2.041315610394e+00-j3.454571148399e-01
2.027474358432e+00-j3.828762281156e-01
2.010499456536e+00-j4.236683683000e-01
</dep>
<indep time 63>
0.000000000000e+00
1.000000000000e-07
1.100697432306e-07
1.302092296919e-07
1.704882026144e-07
2.510461484595e-07
4.121620401496e-07
7.343938235299e-07
1.219040012810e-06
2.037656314009e-06
3.489581793160e-06
6.393432751463e-06
1.220113466807e-05
2.381653850128e-05
4.381653850128e-05
6.381653850128e-05
8.381653850128e-05
1.038165385013e-04
1.238165385013e-04
1.438165385013e-04
1.638165385013e-04
1.838165385013e-04
2.038165385013e-04
2.238165385013e-04
2.438165385013e-04
2.638165385013e-04
2.838165385013e-04
3.038165385013e-04
3.238165385013e-04
3.438165385013e-04
3.638165385013e-04
3.838165385013e-04
4.038165385013e-04
4.238165385013e-04
4.438165385013e-04
4.638165385013e-04
4.838165385013e-04
5.038165385013e-04
5.238165385013e-04
5.438165385013e-04
5.638165385013e-04
5.838165385013e-04
6.038165385013e-04
6.238165385013e-04
6.438165385013e-04
6.638165385013e-04
6.838165385013e-04
7.038165385013e-04
7.238165385013e-04
7.438165385013e-04
7.638165385013e-04
7.838165385013e-04
8.038165385013e-04
8.238165385013e-04
8.438165385013e-04
8.638165385013e-04
8.838165385013e-04
9.038165385013e-04
9.238165385013e-04
9.438165385013e-04
9.638165385013e-04
9.838165385013e-04
1.000000000000e-03
</indep>
<dep tran.v(vin) time>
0.000000000000e+00
1.256636730702e-04
1.383176745819e-04
1.636256707583e-04
2.142416300496e-04
3.154733709993e-04
5.179357792721e-04
9.228533965712e-04
1.531830945634e-03
2.560314636726e-03
4.383732550042e-03
8.025584013363e-03
1.527239563033e-02
2.948394062597e-02
5.232113148963e-02
7.187079323814e-02
8.690454872520e-02
9.647777180329e-02
9.998894165856e-02
9.721743857581e-02
8.833740628662e-02
7.390680987818e-02
5.483237679486e-02
3.231262381815e-02
7.762549849427e-03
-1.727527367500e-02
-4.122762822041e-02
-6.258949926013e-02
-8.001864187325e-02
-9.241991892950e-02
-9.901411258272e-02
-9.938688539394e-02
-9.351481467646e-02
-8.176686422943e-02
-6.488120098537e-02
-4.391881326703e-02
-2.019684498903e-02
4.794165338427e-03
2.948394062597e-02
5.232113148963e-02
7.187079323814e-02
8.690454872520e-02
9.647777180329e-02
9.998894165856e-02
9.721743857581e-02
8.833740628662e-02
7.390680987818e-02
5.483237679486e-02
3.231262381815e-02
7.762549849427e-03
-1.727527367500e-02
-4.122762822041e-02
-6.258949926013e-02
-8.001864187325e-02
-9.241991892950e-02
-9.901411258272e-02
-9.938688539394e-02
-9.351481467646e-02
-8.176686422943e-02
-6.488120098537e-02
-4.391881326703e-02
-2.019684498903e-02
-4.898587196589e-17
</dep>
<dep tran.v(vout) time>
0.000000000000e+00
6.060532831472e-04
6.730475184825e-04
8.186206137178e-04
1.175337076946e-03
2.115898048114e-03
4.685580844606e-03
1.146193164776e-02
2.346639087202e-02
4.489838327217e-02
8.321124076673e-02
1.596907022505e-01
3.119319090653e-01
6.106041266619e-01
1.091008948383e+00
1.502930829500e+00
1.820353363891e+00
2.023456879516e+00
2.099362604791e+00
2.043410539260e+00
1.859014023926e+00
1.557855061633e+00
1.158767096345e+00
6.869099665415e-01
1.718539476250e-01
-3.539649310684e-01
-8.575759525425e-01
-1.307271407459e+00
-1.674855101131e+00
-1.937174456223e+00
-2.077799294253e+00
-2.087844723137e+00
-1.966725293286e+00
-1.722008610910e+00
-1.369111122208e+00
-9.301692730342e-01
-4.327983679696e-01
9.178265389076e-02
6.105818560958e-01
1.091029773586e+00
1.502911355855e+00
1.820371573693e+00
2.023439851532e+00
2.099378527657e+00
2.043395649790e+00
1.859027947067e+00
1.557842042106e+00
1.158779270903e+00
6.868985821138e-01
1.718645932018e-01
-3.539748857459e-01
-8.575666439250e-01
-1.307280111946e+00
-1.674846961567e+00
-1.937182067529e+00
-2.077792176922e+00
-2.087851378552e+00
-1.966719069808e+00
-1.722014430483e+00
-1.369105680326e+00
-9.301743617376e-01
-4.327936095237e-01
-8.866172269140e-03
</dep>
