<Qucs Dataset 0.0.22>
<indep v-sweep 17>
5.000000000000e-01
5.187500000000e-01
5.375000000000e-01
5.562500000000e-01
5.750000000000e-01
5.937500000000e-01
6.125000000000e-01
6.312500000000e-01
6.500000000000e-01
6.687500000000e-01
6.875000000000e-01
7.062500000000e-01
7.250000000000e-01
7.437500000000e-01
7.625000000000e-01
7.812500000000e-01
8.000000000000e-01
</indep>
<dep i(pr1) v-sweep>
1.444752760109e-05
2.970963149378e-05
6.101777423208e-05
1.250059643447e-04
2.548332362157e-04
5.145086447050e-04
1.020112516496e-03
1.958973806681e-03
3.577033724534e-03
6.106905524620e-03
9.636300844262e-03
1.408393526233e-02
1.914982230276e-02
2.149136410855e-02
2.204800495732e-02
2.233002372285e-02
2.251035009501e-02
</dep>
<dep i(pr2) v-sweep>
4.961622730444e-08
9.110650097039e-08
1.688959369709e-07
3.158600720915e-07
5.947391660687e-07
1.123098355817e-06
2.112043711524e-06
3.910318892595e-06
7.017608347181e-06
1.202837377287e-05
1.945279891549e-05
2.964685085933e-05
4.365952487451e-05
8.586488365171e-05
1.435312171127e-04
2.037438138371e-04
2.650552327339e-04
</dep>
