<Qucs Dataset 0.0.22>
<indep frequency 78>
1.000000000000e+00
1.232846739442e+00
1.519911082953e+00
1.873817422860e+00
2.310129700083e+00
2.848035868436e+00
3.511191734215e+00
4.328761281083e+00
5.336699231206e+00
6.579332246576e+00
8.111308307897e+00
1.000000000000e+01
1.232846739442e+01
1.519911082953e+01
1.873817422860e+01
2.310129700083e+01
2.848035868436e+01
3.511191734215e+01
4.328761281083e+01
5.336699231206e+01
6.579332246576e+01
8.111308307897e+01
1.000000000000e+02
1.232846739442e+02
1.519911082953e+02
1.873817422860e+02
2.310129700083e+02
2.848035868436e+02
3.511191734215e+02
4.328761281083e+02
5.336699231206e+02
6.579332246576e+02
8.111308307897e+02
1.000000000000e+03
1.232846739442e+03
1.519911082953e+03
1.873817422860e+03
2.310129700083e+03
2.848035868436e+03
3.511191734215e+03
4.328761281083e+03
5.336699231206e+03
6.579332246576e+03
8.111308307897e+03
1.000000000000e+04
1.232846739442e+04
1.519911082953e+04
1.873817422860e+04
2.310129700083e+04
2.848035868436e+04
3.511191734215e+04
4.328761281083e+04
5.336699231206e+04
6.579332246576e+04
8.111308307897e+04
1.000000000000e+05
1.232846739442e+05
1.519911082953e+05
1.873817422860e+05
2.310129700083e+05
2.848035868436e+05
3.511191734215e+05
4.328761281083e+05
5.336699231206e+05
6.579332246576e+05
8.111308307897e+05
1.000000000000e+06
1.232846739442e+06
1.519911082953e+06
1.873817422860e+06
2.310129700083e+06
2.848035868436e+06
3.511191734215e+06
4.328761281083e+06
5.336699231206e+06
6.579332246576e+06
8.111308307897e+06
1.000000000000e+07
</indep>
<dep ac.v(d) frequency>
0.000000000000e+00+j0.000000000000e+00
0.000000000000e+00+j0.000000000000e+00
0.000000000000e+00+j0.000000000000e+00
0.000000000000e+00+j0.000000000000e+00
0.000000000000e+00+j0.000000000000e+00
0.000000000000e+00+j0.000000000000e+00
0.000000000000e+00+j0.000000000000e+00
0.000000000000e+00+j0.000000000000e+00
0.000000000000e+00+j0.000000000000e+00
0.000000000000e+00+j0.000000000000e+00
0.000000000000e+00+j0.000000000000e+00
0.000000000000e+00+j0.000000000000e+00
0.000000000000e+00+j0.000000000000e+00
0.000000000000e+00+j0.000000000000e+00
0.000000000000e+00+j0.000000000000e+00
0.000000000000e+00+j0.000000000000e+00
0.000000000000e+00+j0.000000000000e+00
0.000000000000e+00+j0.000000000000e+00
0.000000000000e+00+j0.000000000000e+00
0.000000000000e+00+j0.000000000000e+00
0.000000000000e+00+j0.000000000000e+00
0.000000000000e+00+j0.000000000000e+00
0.000000000000e+00+j0.000000000000e+00
0.000000000000e+00+j0.000000000000e+00
0.000000000000e+00+j0.000000000000e+00
0.000000000000e+00+j0.000000000000e+00
0.000000000000e+00+j0.000000000000e+00
0.000000000000e+00+j0.000000000000e+00
0.000000000000e+00+j0.000000000000e+00
0.000000000000e+00+j0.000000000000e+00
0.000000000000e+00+j0.000000000000e+00
0.000000000000e+00+j0.000000000000e+00
0.000000000000e+00+j0.000000000000e+00
0.000000000000e+00+j0.000000000000e+00
0.000000000000e+00+j0.000000000000e+00
0.000000000000e+00+j0.000000000000e+00
0.000000000000e+00+j0.000000000000e+00
0.000000000000e+00+j0.000000000000e+00
0.000000000000e+00+j0.000000000000e+00
0.000000000000e+00+j0.000000000000e+00
0.000000000000e+00+j0.000000000000e+00
0.000000000000e+00+j0.000000000000e+00
0.000000000000e+00+j0.000000000000e+00
0.000000000000e+00+j0.000000000000e+00
0.000000000000e+00+j0.000000000000e+00
0.000000000000e+00+j0.000000000000e+00
0.000000000000e+00+j0.000000000000e+00
0.000000000000e+00+j0.000000000000e+00
0.000000000000e+00+j0.000000000000e+00
0.000000000000e+00+j0.000000000000e+00
0.000000000000e+00+j0.000000000000e+00
0.000000000000e+00+j0.000000000000e+00
0.000000000000e+00+j0.000000000000e+00
0.000000000000e+00+j0.000000000000e+00
0.000000000000e+00+j0.000000000000e+00
0.000000000000e+00+j0.000000000000e+00
0.000000000000e+00+j0.000000000000e+00
0.000000000000e+00+j0.000000000000e+00
0.000000000000e+00+j0.000000000000e+00
0.000000000000e+00+j0.000000000000e+00
0.000000000000e+00+j0.000000000000e+00
0.000000000000e+00+j0.000000000000e+00
0.000000000000e+00+j0.000000000000e+00
0.000000000000e+00+j0.000000000000e+00
0.000000000000e+00+j0.000000000000e+00
0.000000000000e+00+j0.000000000000e+00
0.000000000000e+00+j0.000000000000e+00
0.000000000000e+00+j0.000000000000e+00
0.000000000000e+00+j0.000000000000e+00
0.000000000000e+00+j0.000000000000e+00
0.000000000000e+00+j0.000000000000e+00
0.000000000000e+00+j0.000000000000e+00
0.000000000000e+00+j0.000000000000e+00
0.000000000000e+00+j0.000000000000e+00
0.000000000000e+00+j0.000000000000e+00
0.000000000000e+00+j0.000000000000e+00
0.000000000000e+00+j0.000000000000e+00
0.000000000000e+00+j0.000000000000e+00
</dep>
<dep ac.v(g) frequency>
-9.305711464963e-02-j2.247001563617e-02
-9.484450624493e-02-j1.857620012221e-02
-9.605841873599e-02-j1.526058012334e-02
-9.687418374827e-02-j1.248344854324e-02
-9.741850201235e-02-j1.018260449287e-02
-9.777997561996e-02-j8.290071225470e-03
-9.801926775151e-02-j6.740788486136e-03
-9.817734581199e-02-j5.476479192403e-03
-9.828162900239e-02-j4.446859519918e-03
-9.835036129025e-02-j3.609507361223e-03
-9.839563500237e-02-j2.929130447563e-03
-9.842544482210e-02-j2.376627808188e-03
-9.844506754615e-02-j1.928140409168e-03
-9.845798225618e-02-j1.564179293766e-03
-9.846648112126e-02-j1.268863554701e-03
-9.847207360725e-02-j1.029272787303e-03
-9.847575343607e-02-j8.349060686905e-04
-9.847817466772e-02-j6.772346780015e-04
-9.847976774141e-02-j5.493347814236e-04
-9.848081590563e-02-j4.455870807364e-04
-9.848150553986e-02-j3.614319013621e-04
-9.848195927840e-02-j2.931698492186e-04
-9.848225781034e-02-j2.377997503153e-04
-9.848245422542e-02-j1.928870026333e-04
-9.848258345384e-02-j1.564566876854e-04
-9.848266847771e-02-j1.269068141658e-04
-9.848272441781e-02-j1.029379173754e-04
-9.848276122270e-02-j8.349593919357e-05
-9.848278543787e-02-j6.772588772480e-05
-9.848280136984e-02-j5.493424459661e-05
-9.848281185202e-02-j4.455846985483e-05
-9.848281874860e-02-j3.614226503385e-05
-9.848282328608e-02-j2.931550744222e-05
-9.848282627144e-02-j2.377797369257e-05
-9.848282823561e-02-j1.928613695046e-05
-9.848282952791e-02-j1.564245737818e-05
-9.848283037815e-02-j1.268669493139e-05
-9.848283093755e-02-j1.028886242563e-05
-9.848283130560e-02-j8.343509049964e-06
-9.848283154775e-02-j6.765082902339e-06
-9.848283170707e-02-j5.484168663079e-06
-9.848283181189e-02-j4.444434817685e-06
-9.848283188086e-02-j3.600156414371e-06
-9.848283192623e-02-j2.914204156823e-06
-9.848283195608e-02-j2.356411503123e-06
-9.848283197572e-02-j1.902248096262e-06
-9.848283198864e-02-j1.531740938975e-06
-9.848283199713e-02-j1.228596063074e-06
-9.848283200271e-02-j9.794818161652e-07
-9.848283200637e-02-j7.734428132313e-07
-9.848283200876e-02-j6.014179390131e-07
-9.848283201031e-02-j4.558419634724e-07
-9.848283201129e-02-j3.303127728279e-07
-9.848283201187e-02-j2.193100096512e-07
-9.848283201217e-02-j1.179519662928e-07
-9.848283201222e-02-j2.178103919275e-08
-9.848283201204e-02+j7.343179982602e-08
-9.848283201161e-02+j1.718740288270e-07
-9.848283201084e-02+j2.778752421469e-07
-9.848283200959e-02+j3.960963528876e-07
-9.848283200764e-02+j5.317365448091e-07
-9.848283200465e-02+j6.907618529202e-07
-9.848283200009e-02+j8.801650072624e-07
-9.848283199314e-02+j1.108275426155e-06
-9.848283198257e-02+j1.385124896228e-06
-9.848283196650e-02+j1.722890513769e-06
-9.848283194206e-02+j2.136422056768e-06
-9.848283190492e-02+j2.643910960675e-06
-9.848283184847e-02+j3.267671286514e-06
-9.848283176267e-02+j4.035136083186e-06
-9.848283163225e-02+j4.980056419651e-06
-9.848283143403e-02+j6.143986222341e-06
-9.848283113276e-02+j7.578116345280e-06
-9.848283067484e-02+j9.345507144876e-06
-9.848282997886e-02+j1.152389998709e-05
-9.848282892102e-02+j1.420908620246e-05
-9.848282731320e-02+j1.751914387889e-05
-9.848282486947e-02+j2.159964202267e-05
</dep>
<dep ac.i(pr1) frequency>
-1.287977150334e-04-j3.110011181261e-05
-1.312715930836e-04-j2.571079211490e-05
-1.329517349587e-04-j2.112173644278e-05
-1.340808121924e-04-j1.727798732955e-05
-1.348341876750e-04-j1.409345428753e-05
-1.353344930507e-04-j1.147405262803e-05
-1.356656905082e-04-j9.329734296089e-06
-1.358844818716e-04-j7.579839633474e-06
-1.360288172799e-04-j6.154772223946e-06
-1.361239476915e-04-j4.995816830801e-06
-1.361866097534e-04-j4.054126424997e-06
-1.362278686800e-04-j3.289423177576e-06
-1.362550279362e-04-j2.668684475743e-06
-1.362729028204e-04-j2.164936206663e-06
-1.362846658587e-04-j1.756198056464e-06
-1.362924062600e-04-j1.424587258982e-06
-1.362974994068e-04-j1.155569784177e-06
-1.363008505649e-04-j9.373412708588e-07
-1.363030554931e-04-j7.603186364353e-07
-1.363045062274e-04-j6.167243689516e-07
-1.363054607306e-04-j5.002475513782e-07
-1.363060887373e-04-j4.057679563820e-07
-1.363065019269e-04-j3.291317430770e-07
-1.363067737794e-04-j2.669692465475e-07
-1.363069526408e-04-j2.165470365327e-07
-1.363070703200e-04-j1.756478403522e-07
-1.363071477451e-04-j1.424731033818e-07
-1.363071986857e-04-j1.155639307374e-07
-1.363072322012e-04-j9.373694877726e-08
-1.363072542522e-04-j7.603227395000e-08
-1.363072687603e-04-j6.167130519039e-08
-1.363072783056e-04-j5.002248599559e-08
-1.363072845858e-04-j4.057353174268e-08
-1.363072887178e-04-j3.290890152298e-08
-1.363072914363e-04-j2.669152413854e-08
-1.363072932250e-04-j2.164797475445e-08
-1.363072944018e-04-j1.755645050335e-08
-1.363072951760e-04-j1.423701618163e-08
-1.363072956854e-04-j1.154369118380e-08
-1.363072960206e-04-j9.358029638112e-09
-1.363072962411e-04-j7.583911497935e-09
-1.363072963862e-04-j6.143315332438e-09
-1.363072964816e-04-j4.972887245308e-09
-1.363072965444e-04-j4.021154675927e-09
-1.363072965857e-04-j3.246262699166e-09
-1.363072966129e-04-j2.614133460588e-09
-1.363072966308e-04-j2.096967460313e-09
-1.363072966425e-04-j1.672021044547e-09
-1.363072966503e-04-j1.320605995422e-09
-1.363072966553e-04-j1.027268008052e-09
-1.363072966586e-04-j7.791067620703e-10
-1.363072966607e-04-j5.652087370873e-10
-1.363072966620e-04-j3.761671677318e-10
-1.363072966627e-04-j2.036686192539e-10
-1.363072966630e-04-j4.012691966068e-11
-1.363072966629e-04+j1.216502679921e-10
-1.363072966624e-04+j2.887770469472e-10
-1.363072966614e-04+j4.686035911492e-10
-1.363072966598e-04+j6.690387116060e-10
-1.363072966571e-04+j8.988960022689e-10
-1.363072966530e-04+j1.168284175764e-09
-1.363072966468e-04+j1.489051527445e-09
-1.363072966372e-04+j1.875303495785e-09
-1.363072966227e-04+j2.344026403889e-09
-1.363072966007e-04+j2.915833608143e-09
-1.363072965671e-04+j3.615874470206e-09
-1.363072965161e-04+j4.474929088671e-09
-1.363072964386e-04+j5.530783965457e-09
-1.363072963208e-04+j6.829867401780e-09
-1.363072961418e-04+j8.429312123970e-09
-1.363072958696e-04+j1.039945759020e-08
-1.363072954560e-04+j1.282694410586e-08
-1.363072948273e-04+j1.581853222781e-08
-1.363072938717e-04+j1.950577198465e-08
-1.363072924194e-04+j2.405084108519e-08
-1.363072902119e-04+j2.965360799592e-08
-1.363072868568e-04+j3.656045504088e-08
-1.363072817573e-04+j4.507512940683e-08
</dep>
<dep ac.v(vin) frequency>
-1.000000000000e-01+j0.000000000000e+00
-1.000000000000e-01+j0.000000000000e+00
-1.000000000000e-01+j0.000000000000e+00
-1.000000000000e-01+j0.000000000000e+00
-1.000000000000e-01+j0.000000000000e+00
-1.000000000000e-01+j0.000000000000e+00
-1.000000000000e-01+j0.000000000000e+00
-1.000000000000e-01+j0.000000000000e+00
-1.000000000000e-01+j0.000000000000e+00
-1.000000000000e-01+j0.000000000000e+00
-1.000000000000e-01+j0.000000000000e+00
-1.000000000000e-01+j0.000000000000e+00
-1.000000000000e-01+j0.000000000000e+00
-1.000000000000e-01+j0.000000000000e+00
-1.000000000000e-01+j0.000000000000e+00
-1.000000000000e-01+j0.000000000000e+00
-1.000000000000e-01+j0.000000000000e+00
-1.000000000000e-01+j0.000000000000e+00
-1.000000000000e-01+j0.000000000000e+00
-1.000000000000e-01+j0.000000000000e+00
-1.000000000000e-01+j0.000000000000e+00
-1.000000000000e-01+j0.000000000000e+00
-1.000000000000e-01+j0.000000000000e+00
-1.000000000000e-01+j0.000000000000e+00
-1.000000000000e-01+j0.000000000000e+00
-1.000000000000e-01+j0.000000000000e+00
-1.000000000000e-01+j0.000000000000e+00
-1.000000000000e-01+j0.000000000000e+00
-1.000000000000e-01+j0.000000000000e+00
-1.000000000000e-01+j0.000000000000e+00
-1.000000000000e-01+j0.000000000000e+00
-1.000000000000e-01+j0.000000000000e+00
-1.000000000000e-01+j0.000000000000e+00
-1.000000000000e-01+j0.000000000000e+00
-1.000000000000e-01+j0.000000000000e+00
-1.000000000000e-01+j0.000000000000e+00
-1.000000000000e-01+j0.000000000000e+00
-1.000000000000e-01+j0.000000000000e+00
-1.000000000000e-01+j0.000000000000e+00
-1.000000000000e-01+j0.000000000000e+00
-1.000000000000e-01+j0.000000000000e+00
-1.000000000000e-01+j0.000000000000e+00
-1.000000000000e-01+j0.000000000000e+00
-1.000000000000e-01+j0.000000000000e+00
-1.000000000000e-01+j0.000000000000e+00
-1.000000000000e-01+j0.000000000000e+00
-1.000000000000e-01+j0.000000000000e+00
-1.000000000000e-01+j0.000000000000e+00
-1.000000000000e-01+j0.000000000000e+00
-1.000000000000e-01+j0.000000000000e+00
-1.000000000000e-01+j0.000000000000e+00
-1.000000000000e-01+j0.000000000000e+00
-1.000000000000e-01+j0.000000000000e+00
-1.000000000000e-01+j0.000000000000e+00
-1.000000000000e-01+j0.000000000000e+00
-1.000000000000e-01+j0.000000000000e+00
-1.000000000000e-01+j0.000000000000e+00
-1.000000000000e-01+j0.000000000000e+00
-1.000000000000e-01+j0.000000000000e+00
-1.000000000000e-01+j0.000000000000e+00
-1.000000000000e-01+j0.000000000000e+00
-1.000000000000e-01+j0.000000000000e+00
-1.000000000000e-01+j0.000000000000e+00
-1.000000000000e-01+j0.000000000000e+00
-1.000000000000e-01+j0.000000000000e+00
-1.000000000000e-01+j0.000000000000e+00
-1.000000000000e-01+j0.000000000000e+00
-1.000000000000e-01+j0.000000000000e+00
-1.000000000000e-01+j0.000000000000e+00
-1.000000000000e-01+j0.000000000000e+00
-1.000000000000e-01+j0.000000000000e+00
-1.000000000000e-01+j0.000000000000e+00
-1.000000000000e-01+j0.000000000000e+00
-1.000000000000e-01+j0.000000000000e+00
-1.000000000000e-01+j0.000000000000e+00
-1.000000000000e-01+j0.000000000000e+00
-1.000000000000e-01+j0.000000000000e+00
-1.000000000000e-01+j0.000000000000e+00
</dep>
<dep ac.v(vout) frequency>
-6.439885751644e-02-j1.555005590734e-02
-6.563579654153e-02-j1.285539605875e-02
-6.647586747908e-02-j1.056086822302e-02
-6.704040609593e-02-j8.638993666798e-03
-6.741709383726e-02-j7.046727146273e-03
-6.766724652510e-02-j5.737026317115e-03
-6.783284525382e-02-j4.664867151877e-03
-6.794224093552e-02-j3.789919821470e-03
-6.801440863968e-02-j3.077386117814e-03
-6.806197384551e-02-j2.497908422607e-03
-6.809330487642e-02-j2.027063221387e-03
-6.811393433975e-02-j1.644711599749e-03
-6.812751396786e-02-j1.334342251387e-03
-6.813645140993e-02-j1.082468119997e-03
-6.814233292907e-02-j8.780990487793e-04
-6.814620312975e-02-j7.122936548244e-04
-6.814874970314e-02-j5.777849233217e-04
-6.815042528219e-02-j4.686706739363e-04
-6.815152774626e-02-j3.801593656915e-04
-6.815225311346e-02-j3.083622430044e-04
-6.815273036506e-02-j2.501238478464e-04
-6.815304436838e-02-j2.028840671502e-04
-6.815325096319e-02-j1.645659812120e-04
-6.815338688945e-02-j1.334847584846e-04
-6.815347632015e-02-j1.082736849608e-04
-6.815353515971e-02-j8.782412568495e-05
-6.815357387227e-02-j7.123680505197e-05
-6.815359934257e-02-j5.778227772421e-05
-6.815361610034e-02-j4.686885947517e-05
-6.815362712583e-02-j3.801661172777e-05
-6.815363437988e-02-j3.083623789266e-05
-6.815363915255e-02-j2.501196457991e-05
-6.815364229266e-02-j2.028765547154e-05
-6.815364435863e-02-j1.645554750224e-05
-6.815364571791e-02-j1.334711418255e-05
-6.815364661222e-02-j1.082565432569e-05
-6.815364720062e-02-j8.780280343676e-06
-6.815364758775e-02-j7.121041704302e-06
-6.815364784245e-02-j5.774969149038e-06
-6.815364801003e-02-j4.682865686299e-06
-6.815364812028e-02-j3.796703278100e-06
-6.815364819282e-02-j3.077510642036e-06
-6.815364824055e-02-j2.493659444812e-06
-6.815364827195e-02-j2.019473340787e-06
-6.815364829261e-02-j1.634098757662e-06
-6.815364830620e-02-j1.320587863587e-06
-6.815364831514e-02-j1.065153215252e-06
-6.815364832102e-02-j8.565614426233e-07
-6.815364832488e-02-j6.856391328586e-07
-6.815364832742e-02-j5.448695756337e-07
-6.815364832908e-02-j4.280620536472e-07
-6.815364833016e-02-j3.300796600144e-07
-6.815364833084e-02-j2.466133421602e-07
-6.815364833126e-02-j1.739925313008e-07
-6.815364833149e-02-j1.090234881451e-07
-6.815364833157e-02-j4.884894685237e-08
-6.815364833150e-02+j9.177190498859e-09
-6.815364833129e-02+j6.760694458227e-08
-6.815364833089e-02+j1.290101522779e-07
-6.815364833023e-02+j1.960866496481e-07
-6.815364832919e-02+j2.717863718107e-07
-6.815364832760e-02+j3.594390376358e-07
-6.815364832516e-02+j4.628988332668e-07
-6.815364832143e-02+j5.867156191703e-07
-6.815364831577e-02+j7.363345876618e-07
-6.815364830716e-02+j9.183369525815e-07
-6.815364829407e-02+j1.140723737033e-06
-6.815364827418e-02+j1.413278655201e-06
-6.815364824394e-02+j1.747985195132e-06
-6.815364819798e-02+j2.159564034543e-06
-6.815364812811e-02+j2.666115294874e-06
-6.815364802193e-02+j3.289914919648e-06
-6.815364786054e-02+j4.058398904437e-06
-6.815364761525e-02+j5.005356942394e-06
-6.815364724242e-02+j6.172444895341e-06
-6.815364667576e-02+j7.610982172067e-06
-6.815364581448e-02+j9.384225328965e-06
-6.815364450542e-02+j1.157015781790e-05
</dep>
<dep ac.av frequency>
6.439885751644e-01+j1.555005590734e-01
6.563579654153e-01+j1.285539605875e-01
6.647586747908e-01+j1.056086822302e-01
6.704040609593e-01+j8.638993666798e-02
6.741709383726e-01+j7.046727146273e-02
6.766724652510e-01+j5.737026317115e-02
6.783284525382e-01+j4.664867151877e-02
6.794224093552e-01+j3.789919821470e-02
6.801440863968e-01+j3.077386117814e-02
6.806197384551e-01+j2.497908422607e-02
6.809330487642e-01+j2.027063221387e-02
6.811393433975e-01+j1.644711599749e-02
6.812751396786e-01+j1.334342251387e-02
6.813645140993e-01+j1.082468119997e-02
6.814233292907e-01+j8.780990487793e-03
6.814620312975e-01+j7.122936548244e-03
6.814874970314e-01+j5.777849233217e-03
6.815042528219e-01+j4.686706739363e-03
6.815152774626e-01+j3.801593656915e-03
6.815225311346e-01+j3.083622430044e-03
6.815273036506e-01+j2.501238478464e-03
6.815304436838e-01+j2.028840671502e-03
6.815325096319e-01+j1.645659812120e-03
6.815338688945e-01+j1.334847584846e-03
6.815347632015e-01+j1.082736849608e-03
6.815353515971e-01+j8.782412568495e-04
6.815357387227e-01+j7.123680505197e-04
6.815359934257e-01+j5.778227772421e-04
6.815361610034e-01+j4.686885947517e-04
6.815362712583e-01+j3.801661172777e-04
6.815363437988e-01+j3.083623789266e-04
6.815363915255e-01+j2.501196457991e-04
6.815364229266e-01+j2.028765547154e-04
6.815364435863e-01+j1.645554750224e-04
6.815364571791e-01+j1.334711418255e-04
6.815364661222e-01+j1.082565432569e-04
6.815364720062e-01+j8.780280343676e-05
6.815364758775e-01+j7.121041704302e-05
6.815364784245e-01+j5.774969149038e-05
6.815364801003e-01+j4.682865686299e-05
6.815364812028e-01+j3.796703278100e-05
6.815364819282e-01+j3.077510642036e-05
6.815364824055e-01+j2.493659444812e-05
6.815364827195e-01+j2.019473340787e-05
6.815364829261e-01+j1.634098757662e-05
6.815364830620e-01+j1.320587863587e-05
6.815364831514e-01+j1.065153215252e-05
6.815364832102e-01+j8.565614426233e-06
6.815364832488e-01+j6.856391328586e-06
6.815364832742e-01+j5.448695756337e-06
6.815364832908e-01+j4.280620536472e-06
6.815364833016e-01+j3.300796600144e-06
6.815364833084e-01+j2.466133421602e-06
6.815364833126e-01+j1.739925313008e-06
6.815364833149e-01+j1.090234881451e-06
6.815364833157e-01+j4.884894685237e-07
6.815364833150e-01-j9.177190498859e-08
6.815364833129e-01-j6.760694458227e-07
6.815364833089e-01-j1.290101522779e-06
6.815364833023e-01-j1.960866496481e-06
6.815364832919e-01-j2.717863718107e-06
6.815364832760e-01-j3.594390376358e-06
6.815364832516e-01-j4.628988332668e-06
6.815364832143e-01-j5.867156191703e-06
6.815364831577e-01-j7.363345876618e-06
6.815364830716e-01-j9.183369525815e-06
6.815364829407e-01-j1.140723737033e-05
6.815364827418e-01-j1.413278655201e-05
6.815364824394e-01-j1.747985195132e-05
6.815364819798e-01-j2.159564034543e-05
