<Qucs Dataset 0.0.22>
<indep frequency 100>
1.000000000000e+00
1.232846739442e+00
1.519911082953e+00
1.873817422860e+00
2.310129700083e+00
2.848035868436e+00
3.511191734215e+00
4.328761281083e+00
5.336699231206e+00
6.579332246576e+00
8.111308307897e+00
1.000000000000e+01
1.232846739442e+01
1.519911082953e+01
1.873817422860e+01
2.310129700083e+01
2.848035868436e+01
3.511191734215e+01
4.328761281083e+01
5.336699231206e+01
6.579332246576e+01
8.111308307897e+01
1.000000000000e+02
1.232846739442e+02
1.519911082953e+02
1.873817422860e+02
2.310129700083e+02
2.848035868436e+02
3.511191734215e+02
4.328761281083e+02
5.336699231206e+02
6.579332246576e+02
8.111308307897e+02
1.000000000000e+03
1.232846739442e+03
1.519911082953e+03
1.873817422860e+03
2.310129700083e+03
2.848035868436e+03
3.511191734215e+03
4.328761281083e+03
5.336699231206e+03
6.579332246576e+03
8.111308307897e+03
1.000000000000e+04
1.232846739442e+04
1.519911082953e+04
1.873817422860e+04
2.310129700083e+04
2.848035868436e+04
3.511191734215e+04
4.328761281083e+04
5.336699231206e+04
6.579332246576e+04
8.111308307897e+04
1.000000000000e+05
1.232846739442e+05
1.519911082953e+05
1.873817422860e+05
2.310129700083e+05
2.848035868436e+05
3.511191734215e+05
4.328761281083e+05
5.336699231206e+05
6.579332246576e+05
8.111308307897e+05
1.000000000000e+06
1.232846739442e+06
1.519911082953e+06
1.873817422860e+06
2.310129700083e+06
2.848035868436e+06
3.511191734215e+06
4.328761281083e+06
5.336699231206e+06
6.579332246576e+06
8.111308307897e+06
1.000000000000e+07
1.232846739442e+07
1.519911082953e+07
1.873817422860e+07
2.310129700083e+07
2.848035868436e+07
3.511191734215e+07
4.328761281083e+07
5.336699231206e+07
6.579332246576e+07
8.111308307897e+07
1.000000000000e+08
1.232846739442e+08
1.519911082953e+08
1.873817422860e+08
2.310129700083e+08
2.848035868436e+08
3.511191734215e+08
4.328761281083e+08
5.336699231206e+08
6.579332246576e+08
8.111308307897e+08
1.000000000000e+09
</indep>
<dep ac.v(b) frequency>
3.208986248668e-04+j5.655685471010e-03
4.869249941136e-04+j6.960979741311e-03
7.382138436113e-04+j8.560150424169e-03
1.117729480123e-03+j1.051300390984e-02
1.689034077529e-03+j1.288603899634e-02
2.544834140116e-03+j1.574821810445e-02
3.817413720447e-03+j1.916161357658e-02
5.689214310735e-03+j2.316359966755e-02
8.398675824334e-03+j2.773674439126e-02
1.223115727420e-02+j3.276446836109e-02
1.747877262696e-02+j3.797846580801e-02
2.435310668635e-02+j4.292119098902e-02
3.285466561981e-02+j4.696835540432e-02
4.265075502912e-02+j4.945679113374e-02
5.305956834748e-02+j4.990612303021e-02
6.320881932749e-02+j4.822349777375e-02
7.230886669053e-02+j4.474695563040e-02
7.987470507960e-02+j4.009332876642e-02
8.577987987399e-02+j3.492522321141e-02
9.016565595224e-02+j2.977733400427e-02
9.330431819189e-02+j2.499408938223e-02
9.549132004572e-02+j2.074867561445e-02
9.698701426623e-02+j1.709349947483e-02
9.799690196701e-02+j1.400943590372e-02
9.867289023823e-02+j1.144187136149e-02
9.912275502181e-02+j9.323167459627e-03
9.942097999311e-02+j7.585060855517e-03
9.961817278272e-02+j6.164679614168e-03
9.974833965959e-02+j5.006895463232e-03
9.983416646103e-02+j4.064741714322e-03
9.989071536525e-02+j3.298904865103e-03
9.992795572079e-02+j2.676841035072e-03
9.995247253609e-02+j2.171801011329e-03
9.996860952580e-02+j1.761899176534e-03
9.997922942963e-02+j1.429282576534e-03
9.998621784791e-02+j1.159416216695e-03
9.999081629335e-02+j9.404815114603e-04
9.999384199409e-02+j7.628766592623e-04
9.999583280301e-02+j6.188051298966e-04
9.999714266559e-02+j5.019385331316e-04
9.999800448643e-02+j4.071413765241e-04
9.999857151511e-02+j3.302468550836e-04
9.999894458565e-02+j2.678744786232e-04
9.999919004271e-02+j2.172818721264e-04
9.999935153779e-02+j1.762444215253e-04
9.999945779114e-02+j1.429575733452e-04
9.999952769902e-02+j1.159575456840e-04
9.999957369400e-02+j9.405699245407e-05
9.999960395597e-02+j7.629280696778e-05
9.999962386683e-02+j6.188377761475e-05
9.999963696760e-02+j5.019623782096e-05
9.999964558818e-02+j4.071620199925e-05
9.999965126168e-02+j3.302676334819e-05
9.999965499709e-02+j2.678976017578e-05
9.999965745875e-02+j2.173090483298e-05
9.999965908444e-02+j1.762772145219e-05
9.999966016329e-02+j1.429976212082e-05
9.999966088715e-02+j1.160067127057e-05
9.999966138475e-02+j9.411749313933e-06
9.999966174459e-02+j7.636732471875e-06
9.999966203062e-02+j6.197559200824e-06
9.999966229366e-02+j5.030936985828e-06
9.999966258035e-02+j4.085558415327e-06
9.999966294134e-02+j3.319843917706e-06
9.999966344010e-02+j2.700111539212e-06
9.999966416359e-02+j2.199092630224e-06
9.999966523654e-02+j1.794726998034e-06
9.999966684075e-02+j1.469182473660e-06
9.999966924105e-02+j1.208052225360e-06
9.999967281823e-02+j9.996887262812e-07
9.999967810611e-02+j8.346364568083e-07
9.999968582204e-02+j7.051276861916e-07
9.999969686590e-02+j6.046114284462e-07
9.999971224179e-02+j5.273045696969e-07
9.999973284295e-02+j4.677999612999e-07
9.999975906941e-02+j4.208406481758e-07
9.999979036675e-02+j3.814224822570e-07
9.999982495800e-02+j3.452991249067e-07
9.999986009399e-02+j3.096688598506e-07
9.999989285135e-02+j2.735484469063e-07
9.999992103855e-02+j2.374849130879e-07
9.999994366732e-02+j2.027777773766e-07
9.999996084191e-02+j1.707093605687e-07
9.999997332778e-02+j1.421211874153e-07
9.999998212109e-02+j1.173416870439e-07
9.999998817250e-02+j9.630282367051e-08
9.999999226627e-02+j7.869944822379e-08
9.999999499795e-02+j6.411964449611e-08
9.999999679801e-02+j5.212934643912e-08
9.999999796892e-02+j4.231840975972e-08
9.999999872021e-02+j3.432070595030e-08
9.999999919595e-02+j2.781927972629e-08
9.999999949417e-02+j2.254451567356e-08
9.999999968022e-02+j1.826997696322e-08
9.999999979643e-02+j1.480775256406e-08
9.999999986945e-02+j1.200361248103e-08
9.999999991571e-02+j9.732032817624e-09
9.999999994529e-02+j7.891365394140e-09
9.999999996434e-02+j6.399472373292e-09
9.999999997669e-02+j5.190002988873e-09
</dep>
<dep ac.v(uin) frequency>
1.000000000000e-01+j0.000000000000e+00
1.000000000000e-01+j0.000000000000e+00
1.000000000000e-01+j0.000000000000e+00
1.000000000000e-01+j0.000000000000e+00
1.000000000000e-01+j0.000000000000e+00
1.000000000000e-01+j0.000000000000e+00
1.000000000000e-01+j0.000000000000e+00
1.000000000000e-01+j0.000000000000e+00
1.000000000000e-01+j0.000000000000e+00
1.000000000000e-01+j0.000000000000e+00
1.000000000000e-01+j0.000000000000e+00
1.000000000000e-01+j0.000000000000e+00
1.000000000000e-01+j0.000000000000e+00
1.000000000000e-01+j0.000000000000e+00
1.000000000000e-01+j0.000000000000e+00
1.000000000000e-01+j0.000000000000e+00
1.000000000000e-01+j0.000000000000e+00
1.000000000000e-01+j0.000000000000e+00
1.000000000000e-01+j0.000000000000e+00
1.000000000000e-01+j0.000000000000e+00
1.000000000000e-01+j0.000000000000e+00
1.000000000000e-01+j0.000000000000e+00
1.000000000000e-01+j0.000000000000e+00
1.000000000000e-01+j0.000000000000e+00
1.000000000000e-01+j0.000000000000e+00
1.000000000000e-01+j0.000000000000e+00
1.000000000000e-01+j0.000000000000e+00
1.000000000000e-01+j0.000000000000e+00
1.000000000000e-01+j0.000000000000e+00
1.000000000000e-01+j0.000000000000e+00
1.000000000000e-01+j0.000000000000e+00
1.000000000000e-01+j0.000000000000e+00
1.000000000000e-01+j0.000000000000e+00
1.000000000000e-01+j0.000000000000e+00
1.000000000000e-01+j0.000000000000e+00
1.000000000000e-01+j0.000000000000e+00
1.000000000000e-01+j0.000000000000e+00
1.000000000000e-01+j0.000000000000e+00
1.000000000000e-01+j0.000000000000e+00
1.000000000000e-01+j0.000000000000e+00
1.000000000000e-01+j0.000000000000e+00
1.000000000000e-01+j0.000000000000e+00
1.000000000000e-01+j0.000000000000e+00
1.000000000000e-01+j0.000000000000e+00
1.000000000000e-01+j0.000000000000e+00
1.000000000000e-01+j0.000000000000e+00
1.000000000000e-01+j0.000000000000e+00
1.000000000000e-01+j0.000000000000e+00
1.000000000000e-01+j0.000000000000e+00
1.000000000000e-01+j0.000000000000e+00
1.000000000000e-01+j0.000000000000e+00
1.000000000000e-01+j0.000000000000e+00
1.000000000000e-01+j0.000000000000e+00
1.000000000000e-01+j0.000000000000e+00
1.000000000000e-01+j0.000000000000e+00
1.000000000000e-01+j0.000000000000e+00
1.000000000000e-01+j0.000000000000e+00
1.000000000000e-01+j0.000000000000e+00
1.000000000000e-01+j0.000000000000e+00
1.000000000000e-01+j0.000000000000e+00
1.000000000000e-01+j0.000000000000e+00
1.000000000000e-01+j0.000000000000e+00
1.000000000000e-01+j0.000000000000e+00
1.000000000000e-01+j0.000000000000e+00
1.000000000000e-01+j0.000000000000e+00
1.000000000000e-01+j0.000000000000e+00
1.000000000000e-01+j0.000000000000e+00
1.000000000000e-01+j0.000000000000e+00
1.000000000000e-01+j0.000000000000e+00
1.000000000000e-01+j0.000000000000e+00
1.000000000000e-01+j0.000000000000e+00
1.000000000000e-01+j0.000000000000e+00
1.000000000000e-01+j0.000000000000e+00
1.000000000000e-01+j0.000000000000e+00
1.000000000000e-01+j0.000000000000e+00
1.000000000000e-01+j0.000000000000e+00
1.000000000000e-01+j0.000000000000e+00
1.000000000000e-01+j0.000000000000e+00
1.000000000000e-01+j0.000000000000e+00
1.000000000000e-01+j0.000000000000e+00
1.000000000000e-01+j0.000000000000e+00
1.000000000000e-01+j0.000000000000e+00
1.000000000000e-01+j0.000000000000e+00
1.000000000000e-01+j0.000000000000e+00
1.000000000000e-01+j0.000000000000e+00
1.000000000000e-01+j0.000000000000e+00
1.000000000000e-01+j0.000000000000e+00
1.000000000000e-01+j0.000000000000e+00
1.000000000000e-01+j0.000000000000e+00
1.000000000000e-01+j0.000000000000e+00
1.000000000000e-01+j0.000000000000e+00
1.000000000000e-01+j0.000000000000e+00
1.000000000000e-01+j0.000000000000e+00
1.000000000000e-01+j0.000000000000e+00
1.000000000000e-01+j0.000000000000e+00
1.000000000000e-01+j0.000000000000e+00
1.000000000000e-01+j0.000000000000e+00
1.000000000000e-01+j0.000000000000e+00
1.000000000000e-01+j0.000000000000e+00
1.000000000000e-01+j0.000000000000e+00
</dep>
<dep ac.i(pr2) frequency>
2.368711181293e-09+j4.176863382004e-08
3.594233781739e-09+j5.140859792474e-08
5.449120843942e-09+j6.321895980228e-08
8.250513128081e-09+j7.764144792534e-08
1.246759442094e-08+j9.516725313048e-08
1.878467720094e-08+j1.163058283975e-07
2.817821537030e-08+j1.415158624759e-07
4.199489965676e-08+j1.710738522597e-07
6.199477278201e-08+j2.048518868685e-07
9.028421050719e-08+j2.419903772213e-07
1.290194502435e-07+j2.805099859924e-07
1.797623038958e-07+j3.170347722863e-07
2.425165077482e-07+j3.469583175981e-07
3.148262802138e-07+j3.653876257645e-07
3.916588704407e-07+j3.687794904565e-07
4.665755030290e-07+j3.564518192538e-07
5.337474459182e-07+j3.309039273024e-07
5.895946352199e-07+j2.966939788007e-07
6.331836471009e-07+j2.587191866589e-07
6.655572276062e-07+j2.209340310931e-07
6.887252461999e-07+j1.858903162418e-07
7.048685912228e-07+j1.548780156539e-07
7.159090556977e-07+j1.282982708610e-07
7.233635460462e-07+j1.060275416174e-07
7.283533653906e-07+j8.768443506794e-08
7.316740640449e-07+j7.279647682370e-08
7.338754471621e-07+j6.089281921649e-08
7.353310812947e-07+j5.155010395522e-08
7.362919936041e-07+j4.441161650993e-08
7.369256548084e-07+j3.919257930543e-08
7.373432696160e-07+j3.567912149235e-08
7.376184621776e-07+j3.372511335779e-08
7.377998935980e-07+j3.324910767423e-08
7.379197089131e-07+j3.423256847608e-08
7.379991639490e-07+j3.672002687602e-08
7.380523665298e-07+j4.082155926971e-08
7.380887685572e-07+j4.671790621417e-08
7.381148396490e-07+j5.466856948217e-08
7.381352145493e-07+j6.502330359054e-08
7.381535160163e-07+j7.823753936383e-08
7.381729985140e-07+j9.489243498539e-08
7.381971267413e-07+j1.157204454100e-07
7.382301916963e-07+j1.416375392950e-07
7.382780737534e-07+j1.737834824476e-07
7.383492884252e-07+j2.135719599140e-07
7.384565007699e-07+j2.627527401269e-07
7.386187777497e-07+j3.234886123773e-07
7.388649790762e-07+j3.984504757992e-07
7.392388895037e-07+j4.909347513675e-07
7.398070051403e-07+j6.050082609859e-07
7.406703581165e-07+j7.456869086279e-07
7.419824815995e-07+j9.191559531249e-07
7.439767079257e-07+j1.133041431540e-06
7.470076495612e-07+j1.396744429611e-06
7.516142282613e-07+j1.721852449948e-06
7.586154345784e-07+j2.122645126532e-06
7.692557851379e-07+j2.616714947930e-06
7.854262012547e-07+j3.225727333148e-06
8.099992557525e-07+j3.976347957969e-06
8.473376362892e-07+j4.901367773152e-06
9.040644685177e-07+j6.041055868856e-06
9.902283851282e-07+j7.444763631235e-06
1.121061077361e-06+j9.172783626448e-06
1.319618154277e-06+j1.129842045022e-05
1.620723151011e-06+j1.391013481883e-05
2.076802453416e-06+j1.711343449721e-05
2.766391284299e-06+j2.103183460997e-05
3.806245646068e-06+j2.580558109953e-05
5.367937749966e-06+j3.158576428586e-05
7.699132954147e-06+j3.851978356426e-05
1.114761034736e-05+j4.672189286332e-05
1.618109142036e-05+j5.622054422718e-05
2.338649216372e-05+j6.687516905305e-05
3.341877155017e-05+j7.826507613923e-05
4.686049848392e-05+j8.958117080674e-05
6.397226950072e-05+j9.959822650138e-05
8.439163868266e-05+j1.068388565686e-04
1.069580313658e-04+j1.099817533135e-04
1.298759860617e-04+j1.083737160794e-04
1.512356837218e-04+j1.023254084643e-04
1.696039490849e-04+j9.296533274359e-05
1.843314581099e-04+j8.176650282698e-05
1.954799562529e-04+j7.007218657701e-05
2.035402366463e-04+j5.884267564165e-05
2.091507426446e-04+j4.862766637254e-05
2.129175392027e-04+j3.965924033779e-05
2.153369458510e-04+j3.197052147625e-05
2.167848322860e-04+j2.549280729107e-05
2.175383471413e-04+j2.011862088258e-05
2.178070591631e-04+j1.573312760447e-05
2.177587271830e-04+j1.222184518830e-05
2.175314619240e-04+j9.466481113142e-06
2.172330366137e-04+j7.342038190919e-06
2.169364353496e-04+j5.722342611679e-06
2.166807642340e-04+j4.491075034117e-06
2.164791652363e-04+j3.550844123943e-06
2.163293684863e-04+j2.826225767199e-06
2.162224459267e-04+j2.261707857931e-06
2.161481699875e-04+j1.817406951317e-06
2.160975052647e-04+j1.464738744611e-06
</dep>
<dep ac.i(pr3) frequency>
-3.208986248668e-08-j5.655685471010e-07
-4.869249941136e-08-j6.960979741311e-07
-7.382138436113e-08-j8.560150424169e-07
-1.117729480123e-07-j1.051300390984e-06
-1.689034077529e-07-j1.288603899634e-06
-2.544834140116e-07-j1.574821810445e-06
-3.817413720447e-07-j1.916161357658e-06
-5.689214310735e-07-j2.316359966755e-06
-8.398675824334e-07-j2.773674439126e-06
-1.223115727420e-06-j3.276446836109e-06
-1.747877262696e-06-j3.797846580801e-06
-2.435310668635e-06-j4.292119098902e-06
-3.285466561981e-06-j4.696835540432e-06
-4.265075502912e-06-j4.945679113374e-06
-5.305956834748e-06-j4.990612303021e-06
-6.320881932749e-06-j4.822349777375e-06
-7.230886669053e-06-j4.474695563040e-06
-7.987470507960e-06-j4.009332876642e-06
-8.577987987399e-06-j3.492522321141e-06
-9.016565595224e-06-j2.977733400427e-06
-9.330431819189e-06-j2.499408938223e-06
-9.549132004572e-06-j2.074867561445e-06
-9.698701426623e-06-j1.709349947483e-06
-9.799690196701e-06-j1.400943590372e-06
-9.867289023823e-06-j1.144187136149e-06
-9.912275502181e-06-j9.323167459627e-07
-9.942097999311e-06-j7.585060855517e-07
-9.961817278272e-06-j6.164679614168e-07
-9.974833965959e-06-j5.006895463232e-07
-9.983416646103e-06-j4.064741714322e-07
-9.989071536525e-06-j3.298904865103e-07
-9.992795572079e-06-j2.676841035072e-07
-9.995247253609e-06-j2.171801011329e-07
-9.996860952580e-06-j1.761899176534e-07
-9.997922942963e-06-j1.429282576534e-07
-9.998621784791e-06-j1.159416216695e-07
-9.999081629335e-06-j9.404815114603e-08
-9.999384199409e-06-j7.628766592623e-08
-9.999583280301e-06-j6.188051298966e-08
-9.999714266559e-06-j5.019385331316e-08
-9.999800448643e-06-j4.071413765241e-08
-9.999857151511e-06-j3.302468550836e-08
-9.999894458565e-06-j2.678744786232e-08
-9.999919004271e-06-j2.172818721264e-08
-9.999935153779e-06-j1.762444215253e-08
-9.999945779114e-06-j1.429575733452e-08
-9.999952769902e-06-j1.159575456840e-08
-9.999957369400e-06-j9.405699245407e-09
-9.999960395597e-06-j7.629280696778e-09
-9.999962386683e-06-j6.188377761475e-09
-9.999963696760e-06-j5.019623782096e-09
-9.999964558818e-06-j4.071620199925e-09
-9.999965126168e-06-j3.302676334819e-09
-9.999965499709e-06-j2.678976017578e-09
-9.999965745875e-06-j2.173090483298e-09
-9.999965908444e-06-j1.762772145219e-09
-9.999966016329e-06-j1.429976212082e-09
-9.999966088715e-06-j1.160067127057e-09
-9.999966138475e-06-j9.411749313933e-10
-9.999966174459e-06-j7.636732471875e-10
-9.999966203062e-06-j6.197559200824e-10
-9.999966229366e-06-j5.030936985828e-10
-9.999966258035e-06-j4.085558415327e-10
-9.999966294134e-06-j3.319843917706e-10
-9.999966344010e-06-j2.700111539212e-10
-9.999966416359e-06-j2.199092630224e-10
-9.999966523654e-06-j1.794726998034e-10
-9.999966684075e-06-j1.469182473660e-10
-9.999966924105e-06-j1.208052225360e-10
-9.999967281823e-06-j9.996887262812e-11
-9.999967810611e-06-j8.346364568083e-11
-9.999968582204e-06-j7.051276861916e-11
-9.999969686590e-06-j6.046114284462e-11
-9.999971224179e-06-j5.273045696969e-11
-9.999973284295e-06-j4.677999612999e-11
-9.999975906941e-06-j4.208406481758e-11
-9.999979036675e-06-j3.814224822570e-11
-9.999982495800e-06-j3.452991249067e-11
-9.999986009399e-06-j3.096688598506e-11
-9.999989285135e-06-j2.735484469063e-11
-9.999992103855e-06-j2.374849130879e-11
-9.999994366732e-06-j2.027777773766e-11
-9.999996084191e-06-j1.707093605687e-11
-9.999997332778e-06-j1.421211874153e-11
-9.999998212109e-06-j1.173416870439e-11
-9.999998817250e-06-j9.630282367051e-12
-9.999999226627e-06-j7.869944822379e-12
-9.999999499795e-06-j6.411964449611e-12
-9.999999679801e-06-j5.212934643912e-12
-9.999999796892e-06-j4.231840975972e-12
-9.999999872021e-06-j3.432070595030e-12
-9.999999919595e-06-j2.781927972629e-12
-9.999999949417e-06-j2.254451567356e-12
-9.999999968022e-06-j1.826997696322e-12
-9.999999979643e-06-j1.480775256406e-12
-9.999999986945e-06-j1.200361248103e-12
-9.999999991571e-06-j9.732032817624e-13
-9.999999994529e-06-j7.891365394140e-13
-9.999999996434e-06-j6.399472373292e-13
-9.999999997669e-06-j5.190002988873e-13
</dep>
<dep ac.i(pr4) frequency>
1.401770882057e-06+j2.470549763517e-05
2.127018396472e-06+j3.040736067737e-05
3.224715192018e-06+j3.739295182935e-05
4.882540833272e-06+j4.592352078383e-05
7.378151868567e-06+j5.628955132031e-05
1.111651506378e-05+j6.879228881103e-05
1.667548248394e-05+j8.370288071744e-05
2.485200728385e-05+j1.011845864018e-04
3.668765867498e-05+j1.211612566141e-04
5.342896102448e-05+j1.431236393926e-04
7.635194614099e-05+j1.658997009400e-04
1.063808729461e-04+j1.874907561256e-04
1.435179525142e-04+j2.051697421997e-04
1.863098868754e-04+j2.160397598185e-04
2.317783628852e-04+j2.180023961678e-04
2.761130012906e-04+j2.106520358795e-04
3.158644381307e-04+j1.954653201364e-04
3.489140404965e-04+j1.751367254986e-04
3.747094208375e-04+j1.525606784107e-04
3.938676618641e-04+j1.300728527814e-04
4.075781766282e-04+j1.091777824115e-04
4.171315847044e-04+j9.063196563656e-05
4.236651764351e-04+j7.466429776000e-05
4.280766355561e-04+j6.119119660553e-05
4.310295327963e-04+j4.997404780357e-05
4.329946622428e-04+j4.071732982584e-05
4.342973884692e-04+j3.312277744313e-05
4.351587791047e-04+j2.691565960155e-05
4.357273825905e-04+j2.185505075797e-05
4.361022966877e-04+j1.773565161109e-05
4.363493169614e-04+j1.438556229101e-05
4.365119921097e-04+j1.166241532686e-05
4.366190870890e-04+j9.449107678104e-06
4.366895762240e-04+j7.649722334259e-06
4.367359644512e-04+j6.185884736690e-06
4.367664881589e-04+j4.993623695036e-06
4.367865699713e-04+j4.020722613105e-06
4.367997787942e-04+j3.224511052664e-06
4.368084626462e-04+j2.570035155869e-06
4.368141654267e-04+j2.028545538403e-06
4.368179011374e-04+j1.576246351024e-06
4.368203340644e-04+j1.193255944349e-06
4.368218968514e-04+j8.627363395068e-07
4.368228674146e-04+j5.701547754102e-07
4.368234183560e-04+j3.026456884740e-07
4.368236476542e-04+j4.844551238637e-08
4.368235960878e-04-j2.036243153902e-07
4.368232544861e-04-j4.646487381492e-07
4.368225620984e-04-j7.461063751532e-07
4.368213957914e-04-j1.060374078679e-06
4.368195481528e-04-j1.421270842366e-06
4.368166906108e-04-j1.844664819482e-06
4.368123150152e-04-j2.349169858036e-06
4.368056432999e-04-j2.956961651963e-06
4.367954891899e-04-j3.694748406618e-06
4.367800474155e-04-j4.594936846074e-06
