<Qucs Dataset 0.0.22>
<indep frequency 19>
1.000000000000e-01
5.555650000000e+03
1.111120000000e+04
1.666675000000e+04
2.222230000000e+04
2.777785000000e+04
3.333340000000e+04
3.888895000000e+04
4.444450000000e+04
5.000005000000e+04
5.555560000000e+04
6.111115000000e+04
6.666670000000e+04
7.222225000000e+04
7.777780000000e+04
8.333335000000e+04
8.888890000000e+04
9.444445000000e+04
1.000000000000e+05
</indep>
<dep ac.v(v1) frequency>
1.000000000000e+00+j0.000000000000e+00
1.000000000000e+00+j0.000000000000e+00
1.000000000000e+00+j0.000000000000e+00
1.000000000000e+00+j0.000000000000e+00
1.000000000000e+00+j0.000000000000e+00
1.000000000000e+00+j0.000000000000e+00
1.000000000000e+00+j0.000000000000e+00
1.000000000000e+00+j0.000000000000e+00
1.000000000000e+00+j0.000000000000e+00
1.000000000000e+00+j0.000000000000e+00
1.000000000000e+00+j0.000000000000e+00
1.000000000000e+00+j0.000000000000e+00
1.000000000000e+00+j0.000000000000e+00
1.000000000000e+00+j0.000000000000e+00
1.000000000000e+00+j0.000000000000e+00
1.000000000000e+00+j0.000000000000e+00
1.000000000000e+00+j0.000000000000e+00
1.000000000000e+00+j0.000000000000e+00
1.000000000000e+00+j0.000000000000e+00
</dep>
<dep ac.v(v2) frequency>
0.000000000000e+00+j0.000000000000e+00
0.000000000000e+00+j0.000000000000e+00
0.000000000000e+00+j0.000000000000e+00
0.000000000000e+00+j0.000000000000e+00
0.000000000000e+00+j0.000000000000e+00
0.000000000000e+00+j0.000000000000e+00
0.000000000000e+00+j0.000000000000e+00
0.000000000000e+00+j0.000000000000e+00
0.000000000000e+00+j0.000000000000e+00
0.000000000000e+00+j0.000000000000e+00
0.000000000000e+00+j0.000000000000e+00
0.000000000000e+00+j0.000000000000e+00
0.000000000000e+00+j0.000000000000e+00
0.000000000000e+00+j0.000000000000e+00
0.000000000000e+00+j0.000000000000e+00
0.000000000000e+00+j0.000000000000e+00
0.000000000000e+00+j0.000000000000e+00
0.000000000000e+00+j0.000000000000e+00
0.000000000000e+00+j0.000000000000e+00
</dep>
<dep ac.v(vout) frequency>
-9.999848518448e-01+j3.022411210240e-08
-9.999820392756e-01+j1.679141172948e-03
-9.999736018653e-01+j3.358223856722e-03
-9.999595398980e-01+j5.037250012465e-03
-9.999398538470e-01+j6.716191380382e-03
-9.999145443749e-01+j8.395019705434e-03
-9.998836123339e-01+j1.007370673892e-02
-9.998470587648e-01+j1.175222424008e-02
-9.998048848979e-01+j1.343054397763e-02
-9.997570921524e-01+j1.510863773142e-02
-9.997036821364e-01+j1.678647729394e-02
-9.996446566464e-01+j1.846403447194e-02
-9.995800176679e-01+j2.014128108800e-02
-9.995097673746e-01+j2.181818898211e-02
-9.994339081284e-01+j2.349473001322e-02
-9.993524424793e-01+j2.517087606084e-02
-9.992653731651e-01+j2.684659902660e-02
-9.991727031112e-01+j2.852187083582e-02
-9.990744354302e-01+j3.019666343904e-02
</dep>
<indep time 318>
0.000000000000e+00
1.000000000000e-11
1.084011670428e-11
1.252035011283e-11
1.588081692994e-11
2.260175056416e-11
3.604361783260e-11
6.292735236949e-11
1.166948214433e-10
2.242297595908e-10
4.392996358858e-10
8.694393884759e-10
1.000000000000e-09
1.086027950518e-09
1.258083851554e-09
1.602195653626e-09
2.290419257770e-09
3.666866466059e-09
6.419760882635e-09
1.192554971579e-08
2.293712738210e-08
4.496028271471e-08
8.900659337994e-08
1.396307038391e-07
2.098918870591e-07
2.963561008081e-07
4.465362319640e-07
7.016119014613e-07
1.211763240456e-06
2.232065918445e-06
4.272671274424e-06
8.353881986381e-06
1.651630341029e-05
2.646655341029e-05
3.641680341029e-05
4.636705341029e-05
5.631730341029e-05
6.626755341029e-05
7.621780341029e-05
8.616805341029e-05
9.611830341029e-05
1.060685534103e-04
1.160188034103e-04
1.259690534103e-04
1.359193034103e-04
1.458695534103e-04
1.558198034103e-04
1.657700534103e-04
1.757203034103e-04
1.856705534103e-04
1.956208034103e-04
2.055710534103e-04
2.155213034103e-04
2.254715534103e-04
2.354218034103e-04
2.453720534103e-04
2.553223034103e-04
2.652725534103e-04
2.752228034103e-04
2.851730534103e-04
2.951233034103e-04
3.050735534103e-04
3.150238034103e-04
3.249740534103e-04
3.349243034103e-04
3.448745534103e-04
3.548248034103e-04
3.647750534103e-04
3.747253034103e-04
3.846755534103e-04
3.946258034103e-04
4.045760534103e-04
4.145263034103e-04
4.244765534103e-04
4.344268034103e-04
4.443770534103e-04
4.543273034103e-04
4.642775534103e-04
4.742278034103e-04
4.841780534103e-04
4.941283034103e-04
5.000010000000e-04
5.000011000000e-04
5.000013000000e-04
5.000017000000e-04
5.000020000000e-04
5.000020800000e-04
5.000022400000e-04
5.000025600000e-04
5.000032000000e-04
5.000044800000e-04
5.000070400000e-04
5.000121600000e-04
5.000224000000e-04
5.000428800000e-04
5.000785500822e-04
5.001114125983e-04
5.001407359572e-04
5.001726305705e-04
5.002042349623e-04
5.002361217043e-04
5.002650529518e-04
5.002928078074e-04
5.003218598495e-04
5.003682278326e-04
5.004300392844e-04
5.005254650595e-04
5.006679476454e-04
5.009529128173e-04
5.015228431610e-04
5.026627038483e-04
5.049424252231e-04
5.095018679726e-04
5.186207534716e-04
5.285710034716e-04
5.385212534716e-04
5.484715034716e-04
5.584217534716e-04
5.683720034716e-04
5.783222534716e-04
5.882725034716e-04
5.982227534716e-04
6.081730034716e-04
6.181232534716e-04
6.280735034716e-04
6.380237534716e-04
6.479740034716e-04
6.579242534716e-04
6.678745034716e-04
6.778247534716e-04
6.877750034716e-04
6.977252534716e-04
7.076755034716e-04
7.176257534716e-04
7.275760034716e-04
7.375262534716e-04
7.474765034716e-04
7.574267534716e-04
7.673770034716e-04
7.773272534716e-04
7.872775034716e-04
7.972277534716e-04
8.071780034716e-04
8.171282534716e-04
8.270785034716e-04
8.370287534716e-04
8.469790034716e-04
8.569292534716e-04
8.668795034716e-04
8.768297534716e-04
8.867800034716e-04
8.967302534716e-04
9.066805034716e-04
9.166307534716e-04
9.265810034716e-04
9.365312534716e-04
9.464815034716e-04
9.564317534716e-04
9.663820034716e-04
9.763322534716e-04
9.862825034716e-04
9.962327534716e-04
1.000000000000e-03
1.000000100000e-03
1.000000300000e-03
1.000000700000e-03
1.000001000000e-03
1.000001049953e-03
1.000001149858e-03
1.000001349669e-03
1.000001749292e-03
1.000002548536e-03
1.000004147024e-03
1.000007344001e-03
1.000013737956e-03
1.000026525864e-03
1.000052101681e-03
1.000100913436e-03
1.000153240477e-03
1.000228686688e-03
1.000321719764e-03
1.000495581720e-03
1.000796673670e-03
1.001398857569e-03
1.002603225366e-03
1.005011960962e-03
1.009829432153e-03
1.019464374535e-03
1.029414624535e-03
1.039364874535e-03
1.049315124535e-03
1.059265374535e-03
1.069215624535e-03
1.079165874535e-03
1.089116124535e-03
1.099066374535e-03
1.109016624535e-03
1.118966874535e-03
1.128917124535e-03
1.138867374535e-03
1.148817624535e-03
1.158767874535e-03
1.168718124535e-03
1.178668374535e-03
1.188618624535e-03
1.198568874535e-03
1.208519124535e-03
1.218469374535e-03
1.228419624535e-03
1.238369874535e-03
1.248320124535e-03
1.258270374535e-03
1.268220624535e-03
1.278170874535e-03
1.288121124535e-03
1.298071374535e-03
1.308021624535e-03
1.317971874535e-03
1.327922124535e-03
1.337872374535e-03
1.347822624535e-03
1.357772874535e-03
1.367723124535e-03
1.377673374535e-03
1.387623624535e-03
1.397573874535e-03
1.407524124535e-03
1.417474374535e-03
1.427424624535e-03
1.437374874535e-03
1.447325124535e-03
1.457275374535e-03
1.467225624535e-03
1.477175874535e-03
1.487126124535e-03
1.497076374535e-03
1.500001000000e-03
1.500001100000e-03
1.500001300000e-03
1.500001700000e-03
1.500002000000e-03
1.500002080000e-03
1.500002240000e-03
1.500002560000e-03
1.500003200000e-03
1.500004480000e-03
1.500007040000e-03
1.500012160000e-03
1.500022400000e-03
1.500042880000e-03
1.500078550082e-03
1.500111412598e-03
1.500140735958e-03
1.500172630571e-03
1.500204234964e-03
1.500236121709e-03
1.500265052964e-03
1.500292807816e-03
1.500321859850e-03
1.500368227760e-03
1.500430039157e-03
1.500525464778e-03
1.500667947144e-03
1.500952911877e-03
1.501522841343e-03
1.502662700275e-03
1.504942418139e-03
1.509501853867e-03
1.518620725324e-03
1.528570975324e-03
1.538521225324e-03
1.548471475324e-03
1.558421725324e-03
1.568371975324e-03
1.578322225324e-03
1.588272475324e-03
1.598222725324e-03
1.608172975324e-03
1.618123225324e-03
1.628073475324e-03
1.638023725324e-03
1.647973975324e-03
1.657924225324e-03
1.667874475324e-03
1.677824725324e-03
1.687774975324e-03
1.697725225324e-03
1.707675475324e-03
1.717625725324e-03
1.727575975324e-03
1.737526225324e-03
1.747476475324e-03
1.757426725324e-03
1.767376975324e-03
1.777327225324e-03
1.787277475324e-03
1.797227725324e-03
1.807177975324e-03
1.817128225324e-03
1.827078475324e-03
1.837028725324e-03
1.846978975324e-03
1.856929225324e-03
1.866879475324e-03
1.876829725324e-03
1.886779975324e-03
1.896730225324e-03
1.906680475324e-03
1.916630725324e-03
1.926580975324e-03
1.936531225324e-03
1.946481475324e-03
1.956431725324e-03
1.966381975324e-03
1.976332225324e-03
1.986282475324e-03
1.996232725324e-03
2.000000000000e-03
</indep>
<dep tran.v(v1) time>
0.000000000000e+00
3.141592653590e-07
3.405523100221e-07
3.933383993485e-07
4.989105780011e-07
7.100549353064e-07
1.132343649917e-06
1.976921079137e-06
3.666075937573e-06
7.044385654408e-06
1.380100508780e-05
2.731424395238e-05
3.141592653073e-05
3.411857430279e-05
3.952386984613e-05
5.033446092920e-05
7.195564307643e-05
1.151980072599e-04
2.016827348996e-04
3.746521850068e-04
7.205910464191e-04
1.412468469137e-03
2.796220954949e-03
4.386613865694e-03
6.593900320123e-03
9.310166986554e-03
1.402788934632e-02
2.204000319780e-02
3.805947060827e-02
7.006496592639e-02
1.338272046856e-01
2.594425493511e-01
4.959035049685e-01
7.389235151293e-01
9.103245905384e-01
9.934939665663e-01
9.803705895408e-01
8.722264209894e-01
6.795431548799e-01
4.209962968372e-01
1.216450717708e-01
-1.894963998904e-01
-4.822712476432e-01
-7.283027555099e-01
-9.037447281157e-01
-9.915927435801e-01
-9.833322788721e-01
-8.797639658175e-01
-6.909259911881e-01
-4.351211621172e-01
-1.371429369089e-01
1.741276397390e-01
4.685211840371e-01
7.175040905326e-01
8.969441044394e-01
9.894493003625e-01
9.860537657880e-01
8.870866072664e-01
7.021400523066e-01
4.491397386518e-01
1.526073016063e-01
-1.587163447492e-01
-4.546566729318e-01
-7.065301580294e-01
-8.899243807244e-01
-9.870641605007e-01
-9.885343855001e-01
-8.941925566059e-01
-7.131825989327e-01
-4.630486020686e-01
-1.680343883223e-01
1.432662794980e-01
4.406811010657e-01
6.953836386456e-01
8.826872717058e-01
9.844379066221e-01
9.907735320579e-01
9.010800780379e-01
7.240509336607e-01
4.768443547953e-01
1.834204286220e-01
-3.141592653177e-05
-3.455751918363e-05
-4.084070448454e-05
-5.340707508659e-05
-6.283185302959e-05
-6.534512715013e-05
-7.037167538286e-05
-8.042477184639e-05
-1.005309647481e-04
-1.407433504196e-04
-2.211681210149e-04
-3.820176573900e-04
-7.037166963328e-04
-1.347114522442e-03
-2.467721108301e-03
-3.500122855299e-03
-4.421336086074e-03
-5.423322735651e-03
-6.416186546897e-03
-7.417914085575e-03
-8.326787834597e-03
-9.198698835316e-03
-1.011135308354e-02
-1.156796052240e-02
-1.350967158869e-02
-1.650722194388e-02
-2.098265417527e-02
-2.993216771533e-02
-4.782328091570e-02
-8.355378369834e-02
-1.546477140529e-01
-2.940964145688e-01
-5.521895637532e-01
-7.818231557508e-01
-9.356798365626e-01
-9.988473028737e-01
-9.652031528989e-01
-8.380082900097e-01
-6.295908650897e-01
-3.601513909809e-01
-5.580484131784e-02
2.539504999283e-01
5.390921106432e-01
7.719831136745e-01
9.300509352593e-01
9.979751142556e-01
9.691722123995e-01
8.464339031274e-01
6.416563932636e-01
3.746874029269e-01
7.140245821457e-02
-2.388030511993e-01
-5.258629713984e-01
-7.619544962686e-01
-9.241948467823e-01
-9.968591463594e-01
-9.729045284194e-01
-8.546527545305e-01
-6.535651815247e-01
-3.891318885179e-01
-8.698263335402e-02
2.235972691166e-01
5.125053775521e-01
7.517397532627e-01
9.181130016214e-01
9.954996717870e-01
9.763991892511e-01
8.626628365680e-01
6.653143208669e-01
4.034813193430e-01
1.025415609060e-01
-2.083368680558e-01
-4.990225920161e-01
-7.413413798518e-01
-9.118068854124e-01
-9.938970226225e-01
-9.796553412403e-01
-8.704621925859e-01
-6.769009412820e-01
-4.177321902107e-01
-1.180754402304e-01
-1.224646799147e-15
3.141592655900e-06
9.424777962920e-06
2.199114857204e-05
3.141592652938e-05
3.298523899876e-05
3.612386393017e-05
4.240111380255e-05
5.495561353495e-05
8.006461297888e-05
1.302826116924e-04
2.307186080106e-04
4.315905926484e-04
8.333345015789e-04
1.636821851110e-03
3.170283787396e-03
4.814172986205e-03
7.184342379391e-03
1.010695238069e-02
1.556852993694e-02
2.502562856362e-02
4.393226245947e-02
8.169160118864e-02
1.568055923993e-01
3.039163012113e-01
5.740892132073e-01
7.980713672671e-01
9.447017792193e-01
9.997685398594e-01
9.579343948484e-01
8.232540492276e-01
6.087811718651e-01
3.353031902758e-01
2.932650372623e-02
-2.794926055015e-01
-5.612223580271e-01
-7.885565653877e-01
-9.394612370140e-01
-9.993101881796e-01
-9.623026586697e-01
-8.320255418324e-01
-6.211057308973e-01
-3.499862783157e-01
-4.494498684628e-02
2.644525228439e-01
5.482184108701e-01
7.788491397169e-01
9.339912089438e-01
9.986077310980e-01
9.664358570629e-01
8.405937923091e-01
6.332785700074e-01
3.645838738408e-01
6.055249107889e-02
-2.493478413359e-01
-5.350805482612e-01
-7.689514615256e-01
-9.282930311940e-01
-9.976613402066e-01
-9.703329803955e-01
-8.489567076578e-01
-6.452967156883e-01
-3.790924110394e-01
-7.614520391805e-02
2.341822506571e-01
5.218119794374e-01
7.588659485581e-01
9.223680956807e-01
9.964712466840e-01
9.739930767021e-01
8.571122450366e-01
6.571572322207e-01
3.935083458545e-01
9.171931647093e-02
-3.141592652521e-05
-3.455751918063e-05
-4.084070448331e-05
-5.340707508359e-05
-6.283185302481e-05
-6.534512713825e-05
-7.037167537097e-05
-8.042477183806e-05
-1.005309647326e-04
-1.407433504059e-04
-2.211681209906e-04
-3.820176573480e-04
-7.037166962569e-04
-1.347114522299e-03
-2.467721107936e-03
-3.500122858499e-03
-4.421336101460e-03
-5.423322758992e-03
-6.416186604127e-03
-7.417914234457e-03
-8.326788226413e-03
-9.198699100432e-03
-1.011135310618e-02
-1.156795823625e-02
-1.350966757987e-02
-1.650721308984e-02
-2.098263843030e-02
-2.993213819373e-02
-4.782322387341e-02
-8.355367183764e-02
-1.546474941858e-01
-2.940959910389e-01
-5.521888265027e-01
-7.818226043946e-01
-9.356795245399e-01
-9.988472604268e-01
-9.652033841418e-01
-8.380087725296e-01
-6.295915521193e-01
-3.601522159308e-01
-5.580572423128e-02
2.539496446262e-01
5.390913658514e-01
7.719825515805e-01
9.300506103432e-01
9.979750580093e-01
9.691724302747e-01
8.464343740068e-01
6.416570715080e-01
3.746882227986e-01
7.140334024893e-02
-2.388021924921e-01
-5.258622192470e-01
-7.619539235742e-01
-9.241945090522e-01
-9.968590763276e-01
-9.729047328736e-01
-8.546532136543e-01
-6.535658508183e-01
-3.891327031111e-01
-8.698351429383e-02
2.235964072138e-01
5.125046182250e-01
7.517391701076e-01
9.181126511598e-01
9.954995879867e-01
9.763993802344e-01
8.626632838241e-01
6.653149810462e-01
4.034821284588e-01
1.025424405360e-01
-2.083360031681e-01
-4.990218256986e-01
-7.413407863787e-01
-9.118065223050e-01
-9.938969250743e-01
-9.796555187060e-01
-8.704626278650e-01
-6.769015921858e-01
-4.177329936514e-01
-1.180763183359e-01
-2.449293598295e-15
</dep>
<dep tran.v(v2) time>
0.000000000000e+00
2.000000000000e-02
2.168023340856e-02
2.504070022567e-02
3.176163385989e-02
4.520350112833e-02
7.208723566521e-02
1.258547047390e-01
2.333896428865e-01
4.484595191816e-01
8.785992717717e-01
1.738878776952e+00
2.000000000000e+00
2.000000000000e+00
2.000000000000e+00
2.000000000000e+00
2.000000000000e+00
2.000000000000e+00
2.000000000000e+00
2.000000000000e+00
2.000000000000e+00
2.000000000000e+00
2.000000000000e+00
2.000000000000e+00
2.000000000000e+00
2.000000000000e+00
2.000000000000e+00
2.000000000000e+00
2.000000000000e+00
2.000000000000e+00
2.000000000000e+00
2.000000000000e+00
2.000000000000e+00
2.000000000000e+00
2.000000000000e+00
2.000000000000e+00
2.000000000000e+00
2.000000000000e+00
2.000000000000e+00
2.000000000000e+00
2.000000000000e+00
2.000000000000e+00
2.000000000000e+00
2.000000000000e+00
2.000000000000e+00
2.000000000000e+00
2.000000000000e+00
2.000000000000e+00
2.000000000000e+00
2.000000000000e+00
2.000000000000e+00
2.000000000000e+00
2.000000000000e+00
2.000000000000e+00
2.000000000000e+00
2.000000000000e+00
2.000000000000e+00
2.000000000000e+00
2.000000000000e+00
2.000000000000e+00
2.000000000000e+00
2.000000000000e+00
2.000000000000e+00
2.000000000000e+00
2.000000000000e+00
2.000000000000e+00
2.000000000000e+00
2.000000000000e+00
2.000000000000e+00
2.000000000000e+00
2.000000000000e+00
2.000000000000e+00
2.000000000000e+00
2.000000000000e+00
2.000000000000e+00
2.000000000000e+00
2.000000000000e+00
2.000000000000e+00
2.000000000000e+00
2.000000000000e+00
2.000000000000e+00
2.000000000000e+00
1.799999999932e+00
1.400000000012e+00
5.999999999563e-01
0.000000000000e+00
0.000000000000e+00
0.000000000000e+00
0.000000000000e+00
0.000000000000e+00
0.000000000000e+00
0.000000000000e+00
0.000000000000e+00
0.000000000000e+00
0.000000000000e+00
0.000000000000e+00
0.000000000000e+00
0.000000000000e+00
0.000000000000e+00
0.000000000000e+00
0.000000000000e+00
0.000000000000e+00
0.000000000000e+00
0.000000000000e+00
0.000000000000e+00
0.000000000000e+00
0.000000000000e+00
0.000000000000e+00
0.000000000000e+00
0.000000000000e+00
0.000000000000e+00
0.000000000000e+00
0.000000000000e+00
0.000000000000e+00
0.000000000000e+00
0.000000000000e+00
0.000000000000e+00
0.000000000000e+00
0.000000000000e+00
0.000000000000e+00
0.000000000000e+00
0.000000000000e+00
0.000000000000e+00
0.000000000000e+00
0.000000000000e+00
0.000000000000e+00
0.000000000000e+00
0.000000000000e+00
0.000000000000e+00
0.000000000000e+00
0.000000000000e+00
0.000000000000e+00
0.000000000000e+00
0.000000000000e+00
0.000000000000e+00
0.000000000000e+00
0.000000000000e+00
0.000000000000e+00
0.000000000000e+00
0.000000000000e+00
0.000000000000e+00
0.000000000000e+00
0.000000000000e+00
0.000000000000e+00
0.000000000000e+00
0.000000000000e+00
0.000000000000e+00
0.000000000000e+00
0.000000000000e+00
0.000000000000e+00
0.000000000000e+00
0.000000000000e+00
0.000000000000e+00
0.000000000000e+00
0.000000000000e+00
0.000000000000e+00
0.000000000000e+00
0.000000000000e+00
0.000000000000e+00
0.000000000000e+00
0.000000000000e+00
0.000000000000e+00
0.000000000000e+00
2.000000000682e-01
6.000000002046e-01
1.400000000044e+00
1.999999999815e+00
2.000000000000e+00
2.000000000000e+00
2.000000000000e+00
2.000000000000e+00
2.000000000000e+00
2.000000000000e+00
2.000000000000e+00
2.000000000000e+00
2.000000000000e+00
2.000000000000e+00
2.000000000000e+00
2.000000000000e+00
2.000000000000e+00
2.000000000000e+00
2.000000000000e+00
2.000000000000e+00
2.000000000000e+00
2.000000000000e+00
2.000000000000e+00
2.000000000000e+00
2.000000000000e+00
2.000000000000e+00
2.000000000000e+00
2.000000000000e+00
2.000000000000e+00
2.000000000000e+00
2.000000000000e+00
2.000000000000e+00
2.000000000000e+00
2.000000000000e+00
2.000000000000e+00
2.000000000000e+00
2.000000000000e+00
2.000000000000e+00
2.000000000000e+00
2.000000000000e+00
2.000000000000e+00
2.000000000000e+00
2.000000000000e+00
2.000000000000e+00
2.000000000000e+00
2.000000000000e+00
2.000000000000e+00
2.000000000000e+00
2.000000000000e+00
2.000000000000e+00
2.000000000000e+00
2.000000000000e+00
2.000000000000e+00
2.000000000000e+00
2.000000000000e+00
2.000000000000e+00
2.000000000000e+00
2.000000000000e+00
2.000000000000e+00
2.000000000000e+00
2.000000000000e+00
2.000000000000e+00
2.000000000000e+00
2.000000000000e+00
2.000000000000e+00
2.000000000000e+00
2.000000000000e+00
2.000000000000e+00
2.000000000000e+00
2.000000000000e+00
2.000000000000e+00
2.000000000000e+00
2.000000000000e+00
2.000000000000e+00
1.800000000149e+00
1.400000000012e+00
6.000000001731e-01
4.021905031237e-10
0.000000000000e+00
0.000000000000e+00
0.000000000000e+00
0.000000000000e+00
0.000000000000e+00
0.000000000000e+00
0.000000000000e+00
0.000000000000e+00
0.000000000000e+00
0.000000000000e+00
0.000000000000e+00
0.000000000000e+00
0.000000000000e+00
0.000000000000e+00
0.000000000000e+00
0.000000000000e+00
0.000000000000e+00
0.000000000000e+00
