<Qucs Dataset 0.0.22>
<indep frequency 190>
1.000000000000e-01
1.115883992508e-01
1.245197084735e-01
1.389495494373e-01
1.550515779833e-01
1.730195738846e-01
1.930697728883e-01
2.154434690032e-01
2.404099183510e-01
2.682695795280e-01
2.993577294720e-01
3.340484983513e-01
3.727593720315e-01
4.159562163072e-01
4.641588833613e-01
5.179474679231e-01
5.779692884153e-01
6.449466771038e-01
7.196856730012e-01
8.030857221392e-01
8.961505019466e-01
1.000000000000e+00
1.115883992508e+00
1.245197084735e+00
1.389495494373e+00
1.550515779833e+00
1.730195738846e+00
1.930697728883e+00
2.154434690032e+00
2.404099183510e+00
2.682695795280e+00
2.993577294720e+00
3.340484983513e+00
3.727593720315e+00
4.159562163072e+00
4.641588833613e+00
5.179474679231e+00
5.779692884153e+00
6.449466771038e+00
7.196856730011e+00
8.030857221391e+00
8.961505019466e+00
1.000000000000e+01
1.115883992508e+01
1.245197084735e+01
1.389495494373e+01
1.550515779833e+01
1.730195738846e+01
1.930697728883e+01
2.154434690032e+01
2.404099183510e+01
2.682695795280e+01
2.993577294720e+01
3.340484983513e+01
3.727593720315e+01
4.159562163072e+01
4.641588833613e+01
5.179474679231e+01
5.779692884153e+01
6.449466771038e+01
7.196856730011e+01
8.030857221391e+01
8.961505019466e+01
1.000000000000e+02
1.115883992508e+02
1.245197084735e+02
1.389495494373e+02
1.550515779833e+02
1.730195738846e+02
1.930697728883e+02
2.154434690032e+02
2.404099183510e+02
2.682695795280e+02
2.993577294720e+02
3.340484983513e+02
3.727593720315e+02
4.159562163072e+02
4.641588833613e+02
5.179474679231e+02
5.779692884153e+02
6.449466771038e+02
7.196856730011e+02
8.030857221391e+02
8.961505019466e+02
1.000000000000e+03
1.115883992508e+03
1.245197084735e+03
1.389495494373e+03
1.550515779833e+03
1.730195738846e+03
1.930697728883e+03
2.154434690032e+03
2.404099183510e+03
2.682695795280e+03
2.993577294720e+03
3.340484983513e+03
3.727593720315e+03
4.159562163072e+03
4.641588833613e+03
5.179474679231e+03
5.779692884153e+03
6.449466771038e+03
7.196856730011e+03
8.030857221391e+03
8.961505019466e+03
1.000000000000e+04
1.115883992508e+04
1.245197084735e+04
1.389495494373e+04
1.550515779833e+04
1.730195738846e+04
1.930697728883e+04
2.154434690032e+04
2.404099183510e+04
2.682695795280e+04
2.993577294720e+04
3.340484983513e+04
3.727593720315e+04
4.159562163072e+04
4.641588833613e+04
5.179474679231e+04
5.779692884153e+04
6.449466771038e+04
7.196856730011e+04
8.030857221391e+04
8.961505019466e+04
1.000000000000e+05
1.115883992508e+05
1.245197084735e+05
1.389495494373e+05
1.550515779833e+05
1.730195738846e+05
1.930697728883e+05
2.154434690032e+05
2.404099183510e+05
2.682695795280e+05
2.993577294720e+05
3.340484983513e+05
3.727593720315e+05
4.159562163072e+05
4.641588833613e+05
5.179474679231e+05
5.779692884153e+05
6.449466771038e+05
7.196856730011e+05
8.030857221391e+05
8.961505019466e+05
1.000000000000e+06
1.115883992508e+06
1.245197084735e+06
1.389495494373e+06
1.550515779833e+06
1.730195738846e+06
1.930697728883e+06
2.154434690032e+06
2.404099183510e+06
2.682695795280e+06
2.993577294720e+06
3.340484983513e+06
3.727593720315e+06
4.159562163072e+06
4.641588833613e+06
5.179474679231e+06
5.779692884153e+06
6.449466771038e+06
7.196856730011e+06
8.030857221391e+06
8.961505019466e+06
1.000000000000e+07
1.115883992508e+07
1.245197084735e+07
1.389495494373e+07
1.550515779833e+07
1.730195738846e+07
1.930697728883e+07
2.154434690032e+07
2.404099183510e+07
2.682695795280e+07
2.993577294720e+07
3.340484983513e+07
3.727593720315e+07
4.159562163072e+07
4.641588833613e+07
5.179474679231e+07
5.779692884153e+07
6.449466771038e+07
7.196856730011e+07
8.030857221391e+07
8.961505019466e+07
1.000000000000e+08
</indep>
<dep ac.v(vout) frequency>
9.090909090939e-02+j5.192715129899e-07
9.090909090946e-02+j5.794467691106e-07
9.090909090955e-02+j6.465953741608e-07
9.090909090966e-02+j7.215254276555e-07
9.090909090980e-02+j8.051386749080e-07
9.090909090998e-02+j8.984413590786e-07
9.090909091020e-02+j1.002556330802e-06
9.090909091047e-02+j1.118736561129e-06
9.090909091081e-02+j1.248380220397e-06
9.090909091123e-02+j1.393047504504e-06
9.090909091175e-02+j1.554479411078e-06
9.090909091240e-02+j1.734618691503e-06
9.090909091321e-02+j1.935633230951e-06
9.090909091422e-02+j2.159942137782e-06
9.090909091548e-02+j2.410244856291e-06
9.090909091705e-02+j2.689553653154e-06
9.090909091900e-02+j3.001229868539e-06
9.090909092143e-02+j3.349024368130e-06
9.090909092445e-02+j3.737122682903e-06
9.090909092822e-02+j4.170195379871e-06
9.090909093291e-02+j4.653454270004e-06
9.090909093875e-02+j5.192715129731e-06
9.090909094602e-02+j5.794467690873e-06
9.090909095508e-02+j6.465953741284e-06
9.090909096636e-02+j7.215254276105e-06
9.090909098040e-02+j8.051386748455e-06
9.090909099788e-02+j8.984413589917e-06
9.090909101965e-02+j1.002556330682e-05
9.090909104676e-02+j1.118736560962e-05
9.090909108052e-02+j1.248380220164e-05
9.090909112255e-02+j1.393047504180e-05
9.090909117490e-02+j1.554479410628e-05
9.090909124007e-02+j1.734618690878e-05
9.090909132123e-02+j1.935633230083e-05
9.090909142228e-02+j2.159942136575e-05
9.090909154811e-02+j2.410244854614e-05
9.090909170480e-02+j2.689553650824e-05
9.090909189990e-02+j3.001229865301e-05
9.090909214285e-02+j3.349024363631e-05
9.090909244536e-02+j3.737122676650e-05
9.090909282205e-02+j4.170195371184e-05
9.090909329110e-02+j4.653454257933e-05
9.090909387516e-02+j5.192715112958e-05
9.090909460244e-02+j5.794467667568e-05
9.090909550803e-02+j6.465953708901e-05
9.090909663568e-02+j7.215254231109e-05
9.090909803982e-02+j8.051386685933e-05
9.090909978826e-02+j8.984413503043e-05
9.090910196540e-02+j1.002556318611e-04
9.090910467638e-02+j1.118736544189e-04
9.090910805208e-02+j1.248380196858e-04
9.090911225549e-02+j1.393047471797e-04
9.090911748956e-02+j1.554479365631e-04
9.090912400701e-02+j1.734618628356e-04
9.090913212253e-02+j1.935633143209e-04
9.090914222794e-02+j2.159942015864e-04
9.090915481117e-02+j2.410244686886e-04
9.090917047977e-02+j2.689553417767e-04
9.090918999027e-02+j3.001229541470e-04
9.090921428468e-02+j3.349023913669e-04
9.090924453601e-02+j3.737122051431e-04
9.090928220488e-02+j4.170194502444e-04
9.090932911003e-02+j4.653453050823e-04
9.090938751619e-02+j5.192713435685e-04
9.090946024335e-02+j5.794465337004e-04
9.090955080299e-02+j6.465950470594e-04
9.090966356757e-02+j7.215249731496e-04
9.090980398165e-02+j8.051380433741e-04
9.090997882479e-02+j8.984404815652e-04
9.091019653886e-02+j1.002555111502e-03
9.091046763565e-02+j1.118734866917e-03
9.091080520435e-02+j1.248377866298e-03
9.091122554356e-02+j1.393044233495e-03
9.091174894818e-02+j1.554474866028e-03
9.091240068925e-02+j1.734612376182e-03
9.091321223401e-02+j1.935624455849e-03
9.091422276516e-02+j2.159929944831e-03
9.091548107247e-02+j2.410227914264e-03
9.091704790818e-02+j2.689530112324e-03
9.091899891990e-02+j3.001197158732e-03
9.092142830230e-02+j3.348978918122e-03
9.092445334402e-02+j3.737059530531e-03
9.092822008902e-02+j4.170107630299e-03
9.093291038528e-02+j4.653332342999e-03
9.093875066085e-02+j5.192545713795e-03
9.094602285007e-02+j5.794232290076e-03
9.095507799625e-02+j6.465626656195e-03
9.096635318570e-02+j7.214799798485e-03
9.098039262777e-02+j8.050755263602e-03
9.099787389391e-02+j8.983536161433e-03
9.101964057571e-02+j1.002434415309e-02
9.104674292730e-02+j1.118567165151e-02
9.108048843739e-02+j1.248144854187e-02
9.112250474579e-02+j1.392720479333e-02
9.117481790081e-02+j1.554025037231e-02
9.123994967152e-02+j1.733987386337e-02
9.132103851408e-02+j1.934756113539e-02
9.142198987810e-02+j2.158723522489e-02
9.154766287164e-02+j2.408551830041e-02
9.170410192765e-02+j2.687201605910e-02
9.189882408540e-02+j2.997962410124e-02
9.214117487297e-02+j3.344485461035e-02
9.244276860690e-02+j3.730817987082e-02
9.281803225726e-02+j4.161438655729e-02
9.328487588195e-02+j4.641293102726e-02
9.386551698563e-02+j5.175828063641e-02
9.458749089292e-02+j5.771021884261e-02
9.548488408094e-02+j6.433408187933e-02
9.659983189512e-02+j7.170088119000e-02
9.798432529962e-02+j7.988724755826e-02
9.970237184417e-02+j8.897510870779e-02
1.018325515718e-01+j9.905098076978e-02
1.044709956448e-01+j1.102047142598e-01
1.077347888754e-01+j1.225274865010e-01
1.117657498328e-01+j1.361087756174e-01
1.167344639728e-01+j1.510319899300e-01
1.228443241179e-01+j1.673683693824e-01
1.303351550321e-01+j1.851687391090e-01
1.394857530306e-01+j2.044527080422e-01
1.506143541014e-01+j2.251950122454e-01
1.640756716592e-01+j2.473089664176e-01
1.802527729086e-01+j2.706274848888e-01
1.995418073246e-01+j2.948829392273e-01
2.223276597062e-01+j3.196882637110e-01
2.489492505633e-01+j3.445231201957e-01
2.796547485253e-01+j3.687303055084e-01
3.145495721973e-01+j3.915283687972e-01
3.535435617333e-01+j4.120458039770e-01
3.963072977668e-01+j4.293793995467e-01
4.422497569812e-01+j4.426740808813e-01
4.905285353299e-01+j4.512146979651e-01
5.400985840623e-01+j4.545138984954e-01
5.897963735605e-01+j4.523774668661e-01
6.384464029959e-01+j4.449315505546e-01
6.849700312886e-01+j4.326048999496e-01
7.284758588829e-01+j4.160706299162e-01
7.683166915057e-01+j3.961616262404e-01
8.041078032838e-01+j3.737780925392e-01
8.357107564702e-01+j3.498040911922e-01
8.631932509553e-01+j3.250441281959e-01
8.867773113574e-01+j3.001838432101e-01
9.067864426283e-01+j2.757731501302e-01
9.235989406241e-01+j2.522268555285e-01
9.376109292301e-01+j2.298367701479e-01
9.492098587791e-01+j2.087898877104e-01
9.587574353919e-01+j1.891885076250e-01
9.665801330210e-01+j1.710696049704e-01
9.729652794391e-01+j1.544219627383e-01
9.781609149695e-01+j1.392004598740e-01
9.823779821934e-01+j1.253374671687e-01
9.857937835555e-01+j1.127516103504e-01
9.885559754559e-01+j1.013542943280e-01
9.907866288024e-01+j9.105441114511e-02
9.925860774047e-01+j8.176162537446e-02
9.940364076981e-01+j7.338857618226e-02
9.952045296298e-01+j6.585227393385e-02
9.961448217399e-01+j5.907491100053e-02
9.969013738641e-01+j5.298425583955e-02
9.975098662638e-01+j4.751375775460e-02
9.979991299266e-01+j4.260245665387e-02
9.983924330929e-01+j3.819476652153e-02
9.987085362713e-01+j3.424018190089e-02
9.989625537053e-01+j3.069294219214e-02
9.991666544265e-01+j2.751167788756e-02
9.993306312423e-01+j2.465905509040e-02
9.994623615561e-01+j2.210142906292e-02
9.995681799542e-01+j1.980851355991e-02
9.996531790469e-01+j1.775306989734e-02
9.997214521190e-01+j1.591061775925e-02
9.997762886762e-01+j1.425916841902e-02
9.998203319237e-01+j1.277898016900e-02
9.998557055177e-01+j1.145233518483e-02
9.998841155395e-01+j1.026333670502e-02
9.999069325083e-01+j9.197725214117e-03
9.999252573195e-01+j8.242712231820e-03
9.999399742486e-01+j7.386830294447e-03
9.999517935493e-01+j6.619797746245e-03
9.999612856835e-01+j5.932397017940e-03
9.999689088245e-01+j5.316365147039e-03
9.999750309527e-01+j4.764295380322e-03
9.999799476062e-01+j4.269548788088e-03
9.999838961389e-01+j3.826174908379e-03
9.999870671739e-01+j3.428840525120e-03
9.999896138029e-01+j3.072765765494e-03
9.999916589747e-01+j2.753666778062e-03
9.999933014295e-01+j2.467704323789e-03
9.999946204659e-01+j2.211437677102e-03
9.999956797679e-01+j1.981783293607e-03
9.999965304801e-01+j1.775977755252e-03
9.999972136760e-01+j1.591544552889e-03
</dep>
<dep ac.vout_db frequency>
-2.082785370299e+01+j0.000000000000e+00
-2.082785370295e+01+j0.000000000000e+00
-2.082785370290e+01+j0.000000000000e+00
-2.082785370284e+01+j0.000000000000e+00
-2.082785370276e+01+j0.000000000000e+00
-2.082785370266e+01+j0.000000000000e+00
-2.082785370253e+01+j0.000000000000e+00
-2.082785370238e+01+j0.000000000000e+00
-2.082785370218e+01+j0.000000000000e+00
-2.082785370194e+01+j0.000000000000e+00
-2.082785370164e+01+j0.000000000000e+00
-2.082785370127e+01+j0.000000000000e+00
-2.082785370080e+01+j0.000000000000e+00
-2.082785370022e+01+j0.000000000000e+00
-2.082785369950e+01+j0.000000000000e+00
-2.082785369860e+01+j0.000000000000e+00
-2.082785369748e+01+j0.000000000000e+00
-2.082785369609e+01+j0.000000000000e+00
-2.082785369436e+01+j0.000000000000e+00
-2.082785369220e+01+j0.000000000000e+00
-2.082785368951e+01+j0.000000000000e+00
-2.082785368616e+01+j0.000000000000e+00
-2.082785368199e+01+j0.000000000000e+00
-2.082785367680e+01+j0.000000000000e+00
-2.082785367034e+01+j0.000000000000e+00
-2.082785366229e+01+j0.000000000000e+00
-2.082785365226e+01+j0.000000000000e+00
-2.082785363978e+01+j0.000000000000e+00
-2.082785362424e+01+j0.000000000000e+00
-2.082785360489e+01+j0.000000000000e+00
-2.082785358079e+01+j0.000000000000e+00
-2.082785355079e+01+j0.000000000000e+00
-2.082785351342e+01+j0.000000000000e+00
-2.082785346690e+01+j0.000000000000e+00
-2.082785340897e+01+j0.000000000000e+00
-2.082785333683e+01+j0.000000000000e+00
-2.082785324701e+01+j0.000000000000e+00
-2.082785313516e+01+j0.000000000000e+00
-2.082785299589e+01+j0.000000000000e+00
-2.082785282247e+01+j0.000000000000e+00
-2.082785260653e+01+j0.000000000000e+00
-2.082785233763e+01+j0.000000000000e+00
-2.082785200281e+01+j0.000000000000e+00
-2.082785158589e+01+j0.000000000000e+00
-2.082785106674e+01+j0.000000000000e+00
-2.082785042029e+01+j0.000000000000e+00
-2.082784961534e+01+j0.000000000000e+00
-2.082784861302e+01+j0.000000000000e+00
-2.082784736493e+01+j0.000000000000e+00
-2.082784581082e+01+j0.000000000000e+00
-2.082784387564e+01+j0.000000000000e+00
-2.082784146596e+01+j0.000000000000e+00
-2.082783846544e+01+j0.000000000000e+00
-2.082783472920e+01+j0.000000000000e+00
-2.082783007686e+01+j0.000000000000e+00
-2.082782428377e+01+j0.000000000000e+00
-2.082781707026e+01+j0.000000000000e+00
-2.082780808802e+01+j0.000000000000e+00
-2.082779690340e+01+j0.000000000000e+00
-2.082778297637e+01+j0.000000000000e+00
-2.082776563455e+01+j0.000000000000e+00
-2.082774404066e+01+j0.000000000000e+00
-2.082771715216e+01+j0.000000000000e+00
-2.082768367092e+01+j0.000000000000e+00
-2.082764198055e+01+j0.000000000000e+00
-2.082759006838e+01+j0.000000000000e+00
-2.082752542838e+01+j0.000000000000e+00
-2.082744494021e+01+j0.000000000000e+00
-2.082734471870e+01+j0.000000000000e+00
-2.082721992645e+01+j0.000000000000e+00
-2.082706454060e+01+j0.000000000000e+00
-2.082687106250e+01+j0.000000000000e+00
-2.082663015637e+01+j0.000000000000e+00
-2.082633019976e+01+j0.000000000000e+00
-2.082595672410e+01+j0.000000000000e+00
-2.082549171894e+01+j0.000000000000e+00
-2.082491276661e+01+j0.000000000000e+00
-2.082419196653e+01+j0.000000000000e+00
-2.082329459836e+01+j0.000000000000e+00
-2.082217746158e+01+j0.000000000000e+00
-2.082078681438e+01+j0.000000000000e+00
-2.081905581716e+01+j0.000000000000e+00
-2.081690136454e+01+j0.000000000000e+00
-2.081422016451e+01+j0.000000000000e+00
-2.081088389286e+01+j0.000000000000e+00
-2.080673321641e+01+j0.000000000000e+00
-2.080157043788e+01+j0.000000000000e+00
-2.079515047191e+01+j0.000000000000e+00
-2.078716981438e+01+j0.000000000000e+00
-2.077725312273e+01+j0.000000000000e+00
-2.076493698716e+01+j0.000000000000e+00
-2.074965045428e+01+j0.000000000000e+00
-2.073069188144e+01+j0.000000000000e+00
-2.070720177861e+01+j0.000000000000e+00
-2.067813147035e+01+j0.000000000000e+00
-2.064220773571e+01+j0.000000000000e+00
-2.059789412048e+01+j0.000000000000e+00
-2.054335044031e+01+j0.000000000000e+00
-2.047639317438e+01+j0.000000000000e+00
-2.039446102868e+01+j0.000000000000e+00
-2.029459188585e+01+j0.000000000000e+00
-2.017341946394e+01+j0.000000000000e+00
-2.002719984769e+01+j0.000000000000e+00
-1.985187889627e+01+j0.000000000000e+00
-1.964321034905e+01+j0.000000000000e+00
-1.939693015710e+01+j0.000000000000e+00
-1.910898448074e+01+j0.000000000000e+00
-1.877579734168e+01+j0.000000000000e+00
-1.839455124833e+01+j0.000000000000e+00
-1.796344408898e+01+j0.000000000000e+00
-1.748188268660e+01+j0.000000000000e+00
-1.695058063242e+01+j0.000000000000e+00
-1.637154483641e+01+j0.000000000000e+00
-1.574795706417e+01+j0.000000000000e+00
-1.508397666730e+01+j0.000000000000e+00
-1.438450271037e+01+j0.000000000000e+00
-1.365493518848e+01+j0.000000000000e+00
-1.290096748444e+01+j0.000000000000e+00
-1.212842963668e+01+j0.000000000000e+00
-1.134318867281e+01+j0.000000000000e+00
-1.055110116537e+01+j0.000000000000e+00
-9.758005448921e+00+j0.000000000000e+00
-8.969736408889e+00+j0.000000000000e+00
-8.192143660165e+00+j0.000000000000e+00
-7.431093649169e+00+j0.000000000000e+00
-6.692437630846e+00+j0.000000000000e+00
-5.981931067610e+00+j0.000000000000e+00
-5.305096545520e+00+j0.000000000000e+00
-4.667032279960e+00+j0.000000000000e+00
-4.072181074521e+00+j0.000000000000e+00
-3.524087870675e+00+j0.000000000000e+00
-3.025183823814e+00+j0.000000000000e+00
-2.576636814401e+00+j0.000000000000e+00
-2.178299865661e+00+j0.000000000000e+00
-1.828771201152e+00+j0.000000000000e+00
-1.525557690925e+00+j0.000000000000e+00
-1.265314187739e+00+j0.000000000000e+00
-1.044120437089e+00+j0.000000000000e+00
-8.577568406930e-01+j0.000000000000e+00
-7.019483958342e-01+j0.000000000000e+00
-5.725583913538e-01+j0.000000000000e+00
-4.657256536105e-01+j0.000000000000e+00
-3.779485120646e-01+j0.000000000000e+00
-3.061242231336e-01+j0.000000000000e+00
-2.475547335284e-01+j0.000000000000e+00
-1.999293973167e-01+j0.000000000000e+00
-1.612936660178e-01+j0.000000000000e+00
-1.300106935965e-01+j0.000000000000e+00
-1.047207704345e-01+j0.000000000000e+00
-8.430178665439e-02+j0.000000000000e+00
-6.783260806185e-02+j0.000000000000e+00
-5.456030785607e-02+j0.000000000000e+00
-4.387156963908e-02+j0.000000000000e+00
-3.526818706657e-02+j0.000000000000e+00
-2.834636434626e-02+j0.000000000000e+00
-2.277941449095e-02+j0.000000000000e+00
-1.830341749301e-02+j0.000000000000e+00
-1.470540923255e-02+j0.000000000000e+00
-1.181370428572e-02+j0.000000000000e+00
-9.489999168176e-03+j0.000000000000e+00
-7.622949123543e-03+j0.000000000000e+00
-6.122956829281e-03+j0.000000000000e+00
-4.917952961786e-03+j0.000000000000e+00
-3.949985391235e-03+j0.000000000000e+00
-3.172465617136e-03+j0.000000000000e+00
-2.547948107797e-03+j0.000000000000e+00
-2.046340899156e-03+j0.000000000000e+00
-1.643464661891e-03+j0.000000000000e+00
-1.319892995826e-03+j0.000000000000e+00
-1.060019464153e-03+j0.000000000000e+00
-8.513072943137e-04+j0.000000000000e+00
-6.836861472509e-04+j0.000000000000e+00
-5.490672350237e-04+j0.000000000000e+00
-4.409536370637e-04+j0.000000000000e+00
-3.541271690412e-04+j0.000000000000e+00
-2.843967944920e-04+j0.000000000000e+00
-2.283965021671e-04+j0.000000000000e+00
-1.834229354327e-04+j0.000000000000e+00
-1.473049632995e-04+j0.000000000000e+00
-1.182989144648e-04+j0.000000000000e+00
-9.500442818752e-05+j0.000000000000e+00
-7.629686688379e-05+j0.000000000000e+00
-6.127303218749e-05+j0.000000000000e+00
-4.920756679641e-05+j0.000000000000e+00
-3.951793913342e-05+j0.000000000000e+00
-3.173632159238e-05+j0.000000000000e+00
-2.548700538859e-05+j0.000000000000e+00
-2.046826215072e-05+j0.000000000000e+00
-1.643777684558e-05+j0.000000000000e+00
-1.320094888898e-05+j0.000000000000e+00
</dep>
