<Qucs Dataset 0.0.22>
<indep frequency 190>
1.000000000000e-01
1.115883992508e-01
1.245197084735e-01
1.389495494373e-01
1.550515779833e-01
1.730195738846e-01
1.930697728883e-01
2.154434690032e-01
2.404099183510e-01
2.682695795280e-01
2.993577294720e-01
3.340484983513e-01
3.727593720315e-01
4.159562163072e-01
4.641588833613e-01
5.179474679231e-01
5.779692884153e-01
6.449466771038e-01
7.196856730012e-01
8.030857221392e-01
8.961505019466e-01
1.000000000000e+00
1.115883992508e+00
1.245197084735e+00
1.389495494373e+00
1.550515779833e+00
1.730195738846e+00
1.930697728883e+00
2.154434690032e+00
2.404099183510e+00
2.682695795280e+00
2.993577294720e+00
3.340484983513e+00
3.727593720315e+00
4.159562163072e+00
4.641588833613e+00
5.179474679231e+00
5.779692884153e+00
6.449466771038e+00
7.196856730011e+00
8.030857221391e+00
8.961505019466e+00
1.000000000000e+01
1.115883992508e+01
1.245197084735e+01
1.389495494373e+01
1.550515779833e+01
1.730195738846e+01
1.930697728883e+01
2.154434690032e+01
2.404099183510e+01
2.682695795280e+01
2.993577294720e+01
3.340484983513e+01
3.727593720315e+01
4.159562163072e+01
4.641588833613e+01
5.179474679231e+01
5.779692884153e+01
6.449466771038e+01
7.196856730011e+01
8.030857221391e+01
8.961505019466e+01
1.000000000000e+02
1.115883992508e+02
1.245197084735e+02
1.389495494373e+02
1.550515779833e+02
1.730195738846e+02
1.930697728883e+02
2.154434690032e+02
2.404099183510e+02
2.682695795280e+02
2.993577294720e+02
3.340484983513e+02
3.727593720315e+02
4.159562163072e+02
4.641588833613e+02
5.179474679231e+02
5.779692884153e+02
6.449466771038e+02
7.196856730011e+02
8.030857221391e+02
8.961505019466e+02
1.000000000000e+03
1.115883992508e+03
1.245197084735e+03
1.389495494373e+03
1.550515779833e+03
1.730195738846e+03
1.930697728883e+03
2.154434690032e+03
2.404099183510e+03
2.682695795280e+03
2.993577294720e+03
3.340484983513e+03
3.727593720315e+03
4.159562163072e+03
4.641588833613e+03
5.179474679231e+03
5.779692884153e+03
6.449466771038e+03
7.196856730011e+03
8.030857221391e+03
8.961505019466e+03
1.000000000000e+04
1.115883992508e+04
1.245197084735e+04
1.389495494373e+04
1.550515779833e+04
1.730195738846e+04
1.930697728883e+04
2.154434690032e+04
2.404099183510e+04
2.682695795280e+04
2.993577294720e+04
3.340484983513e+04
3.727593720315e+04
4.159562163072e+04
4.641588833613e+04
5.179474679231e+04
5.779692884153e+04
6.449466771038e+04
7.196856730011e+04
8.030857221391e+04
8.961505019466e+04
1.000000000000e+05
1.115883992508e+05
1.245197084735e+05
1.389495494373e+05
1.550515779833e+05
1.730195738846e+05
1.930697728883e+05
2.154434690032e+05
2.404099183510e+05
2.682695795280e+05
2.993577294720e+05
3.340484983513e+05
3.727593720315e+05
4.159562163072e+05
4.641588833613e+05
5.179474679231e+05
5.779692884153e+05
6.449466771038e+05
7.196856730011e+05
8.030857221391e+05
8.961505019466e+05
1.000000000000e+06
1.115883992508e+06
1.245197084735e+06
1.389495494373e+06
1.550515779833e+06
1.730195738846e+06
1.930697728883e+06
2.154434690032e+06
2.404099183510e+06
2.682695795280e+06
2.993577294720e+06
3.340484983513e+06
3.727593720315e+06
4.159562163072e+06
4.641588833613e+06
5.179474679231e+06
5.779692884153e+06
6.449466771038e+06
7.196856730011e+06
8.030857221391e+06
8.961505019466e+06
1.000000000000e+07
1.115883992508e+07
1.245197084735e+07
1.389495494373e+07
1.550515779833e+07
1.730195738846e+07
1.930697728883e+07
2.154434690032e+07
2.404099183510e+07
2.682695795280e+07
2.993577294720e+07
3.340484983513e+07
3.727593720315e+07
4.159562163072e+07
4.641588833613e+07
5.179474679231e+07
5.779692884153e+07
6.449466771038e+07
7.196856730011e+07
8.030857221391e+07
8.961505019466e+07
1.000000000000e+08
</indep>
<dep ac.v(vout) frequency>
5.000000000000e-01-j1.570796326795e-07
4.999999999999e-01-j1.752826476560e-07
4.999999999999e-01-j1.955951006837e-07
4.999999999999e-01-j2.182614418659e-07
4.999999999999e-01-j2.435544491598e-07
4.999999999999e-01-j2.717785111215e-07
4.999999999998e-01-j3.032732900680e-07
4.999999999998e-01-j3.384178097420e-07
4.999999999997e-01-j3.776350166706e-07
4.999999999996e-01-j4.213968701131e-07
4.999999999996e-01-j4.702300218519e-07
4.999999999994e-01-j5.247221541810e-07
4.999999999993e-01-j5.855290523646e-07
4.999999999991e-01-j6.533824966817e-07
4.999999999989e-01-j7.290990690316e-07
4.999999999987e-01-j8.135899800842e-07
4.999999999984e-01-j9.078720352401e-07
4.999999999979e-01-j1.013079871369e-06
4.999999999974e-01-j1.130479611591e-06
4.999999999968e-01-j1.261484102430e-06
4.999999999960e-01-j1.407669916702e-06
4.999999999951e-01-j1.570796326779e-06
4.999999999939e-01-j1.752826476539e-06
4.999999999923e-01-j1.955951006808e-06
4.999999999905e-01-j2.182614418618e-06
4.999999999881e-01-j2.435544491541e-06
4.999999999852e-01-j2.717785111135e-06
4.999999999816e-01-j3.032732900569e-06
4.999999999771e-01-j3.384178097267e-06
4.999999999715e-01-j3.776350166493e-06
4.999999999645e-01-j4.213968700834e-06
4.999999999558e-01-j4.702300218108e-06
4.999999999449e-01-j5.247221541238e-06
4.999999999314e-01-j5.855290522851e-06
4.999999999146e-01-j6.533824965713e-06
4.999999998937e-01-j7.290990688781e-06
4.999999998676e-01-j8.135899798709e-06
4.999999998352e-01-j9.078720349437e-06
4.999999997947e-01-j1.013079870957e-05
4.999999997444e-01-j1.130479611019e-05
4.999999996817e-01-j1.261484101635e-05
4.999999996037e-01-j1.407669915597e-05
4.999999995065e-01-j1.570796325245e-05
4.999999993855e-01-j1.752826474406e-05
4.999999992349e-01-j1.955951003844e-05
4.999999990472e-01-j2.182614414500e-05
4.999999988136e-01-j2.435544485820e-05
4.999999985227e-01-j2.717785103185e-05
4.999999981605e-01-j3.032732889524e-05
4.999999977095e-01-j3.384178081918e-05
4.999999971478e-01-j3.776350145167e-05
4.999999964485e-01-j4.213968671202e-05
4.999999955777e-01-j4.702300176933e-05
4.999999944933e-01-j5.247221484027e-05
4.999999931431e-01-j5.855290443356e-05
4.999999914618e-01-j6.533824855254e-05
4.999999893683e-01-j7.290990535300e-05
4.999999867614e-01-j8.135899585448e-05
4.999999835154e-01-j9.078720053112e-05
4.999999794734e-01-j1.013079829783e-04
4.999999744403e-01-j1.130479553808e-04
4.999999681732e-01-j1.261484022139e-04
4.999999603693e-01-j1.407669805139e-04
4.999999506520e-01-j1.570796171764e-04
4.999999385520e-01-j1.752826261145e-04
4.999999234851e-01-j1.955950707519e-04
4.999999047239e-01-j2.182614002757e-04
4.999998813625e-01-j2.435543913705e-04
4.999998522729e-01-j2.717784308234e-04
4.999998160507e-01-j3.032731784943e-04
4.999997709469e-01-j3.384176547108e-04
4.999997147838e-01-j3.776348012555e-04
4.999996448496e-01-j4.213965707948e-04
4.999995577678e-01-j4.702296059507e-04
4.999994493339e-01-j5.247215762882e-04
4.999993143124e-01-j5.855282493854e-04
4.999991461841e-01-j6.533813809461e-04
4.999989368314e-01-j7.290975187226e-04
4.999986761462e-01-j8.135878259380e-04
4.999983515422e-01-j9.078690420655e-04
4.999979473468e-01-j1.013075712370e-03
4.999974440448e-01-j1.130473832687e-03
4.999968173360e-01-j1.261476072677e-03
4.999960369622e-01-j1.407658759415e-03
4.999950652465e-01-j1.570780823810e-03
4.999938552742e-01-j1.752804935284e-03
4.999923486284e-01-j1.955921075422e-03
4.999904725701e-01-j2.182572829248e-03
4.999881365275e-01-j2.435486703569e-03
4.999852277246e-01-j2.717704815475e-03
4.999816057390e-01-j3.032621330920e-03
4.999770957265e-01-j3.384023073140e-03
4.999714799857e-01-j3.776134763587e-03
4.999644874580e-01-j4.213669403653e-03
4.999557806564e-01-j4.701884353265e-03
4.999449393962e-01-j5.246643711443e-03
4.999314405479e-01-j5.854487652633e-03
4.999146328402e-01-j6.532709418668e-03
4.998937055113e-01-j7.289440706077e-03
4.998676493115e-01-j8.133746216984e-03
4.998352080042e-01-j9.075728151539e-03
4.997948180687e-01-j1.012664140004e-02
4.997445337623e-01-j1.129902012851e-02
4.996819340326e-01-j1.260681632115e-02
4.996040069507e-01-j1.406555061708e-02
4.995070063452e-01-j1.569247541551e-02
4.993862741133e-01-j1.750674966593e-02
4.992360202483e-01-j1.952962392908e-02
4.990490509146e-01-j2.178463308289e-02
4.988164329156e-01-j2.429779231013e-02
4.985270806206e-01-j2.709778954496e-02
4.981672488991e-01-j3.021616411556e-02
4.977199129470e-01-j3.368745656091e-02
4.971640132828e-01-j3.754930808883e-02
4.964735420335e-01-j4.184247934141e-02
4.956164455400e-01-j4.661074640334e-02
4.945533193293e-01-j5.190061661522e-02
4.932358762202e-01-j5.776078703917e-02
4.916051791386e-01-j6.424124386556e-02
4.895896505633e-01-j7.139187168679e-02
4.871029051523e-01-j7.926040858057e-02
4.840415071374e-01-j8.788954964538e-02
4.802828367807e-01-j9.731297490171e-02
4.756833677798e-01-j1.075500697702e-01
4.700778145706e-01-j1.185991379979e-01
4.632798018310e-01-j1.304290080117e-01
4.550849188231e-01-j1.429691437734e-01
4.452772013609e-01-j1.560987335908e-01
4.336401465324e-01-j1.696357762430e-01
4.199731756673e-01-j1.833279017323e-01
4.041138535466e-01-j1.968474539968e-01
3.859650043509e-01-j2.097939884550e-01
3.655241285831e-01-j2.217074101493e-01
3.429104905271e-01-j2.320940342836e-01
3.183835644500e-01-j2.404655653376e-01
2.923461517236e-01-j2.463875066520e-01
2.653272812766e-01-j2.495297065455e-01
2.379441598296e-01-j2.497091442414e-01
2.108479512749e-01-j2.469152022064e-01
1.846630164539e-01-j2.413111654713e-01
1.599313288212e-01-j2.332115659055e-01
1.370721264423e-01-j2.230410172451e-01
1.163622409103e-01-j2.112840489613e-01
9.793699053180e-02-j1.984359875413e-01
8.180713119113e-02-j1.849625877896e-01
6.788526544681e-02-j1.712723663018e-01
5.601526425475e-02-j1.577020047363e-01
4.599983417519e-02-j1.445127411111e-01
3.762339732844e-02-j1.318945739509e-01
3.066924456915e-02-j1.199750795879e-01
2.493116156985e-02-j1.088302254326e-01
2.022039594048e-02-j9.849534790157e-02
1.636906417944e-02-j8.897519782281e-02
1.323105712504e-02-j8.025252450779e-02
1.068133100499e-02-j7.229505287677e-02
8.614261288472e-03-j6.506093410557e-02
6.941539713137e-03-j5.850286217767e-02
5.589933061256e-03-j5.257108691095e-02
4.499100086760e-03-j4.721554978806e-02
3.619576475923e-03-j4.238734367823e-02
2.910979768053e-03-j3.803966457287e-02
2.340449443494e-03-j3.412839020742e-02
1.881315607451e-03-j3.061239055204e-02
1.511977951548e-03-j2.745365000228e-02
1.214971372043e-03-j2.461726082623e-02
9.761932608197e-04-j2.207133156670e-02
7.842683839749e-04-j1.978684196857e-02
6.300293369461e-04-j1.773746688531e-02
5.060931386533e-04-j1.589938486425e-02
4.065171982654e-04-j1.425108216593e-02
3.265204330257e-04-j1.277315939459e-02
2.622576222626e-04-j1.144814535507e-02
2.106371075181e-04-j1.026032093884e-02
1.691736873881e-04-j9.195554575857e-03
1.358700253018e-04-j8.241149918980e-03
1.091211164024e-04-j7.385705841907e-03
8.763737678398e-05-j6.618988448561e-03
7.038275521850e-05-j5.931814551806e-03
5.652495260119e-05-j5.315945939372e-03
4.539539293183e-05-j4.763993673822e-03
3.645704369355e-05-j4.269331649186e-03
2.927855163801e-05-j3.826018633700e-03
2.351345791273e-05-j3.428728054784e-03
1.888349719414e-05-j3.072684821227e-03
1.516517976199e-05-j2.753608523069e-03
1.217901207944e-05-j2.467662398179e-03
9.780837623989e-06-j2.211407503652e-03
7.854881303179e-06-j1.981761578099e-03
6.308162537834e-06-j1.775962126849e-03
5.066007852726e-06-j1.591533305315e-03
</dep>
<dep ac.vout_db frequency>
-6.020599913280e+00+j0.000000000000e+00
-6.020599913280e+00+j0.000000000000e+00
-6.020599913280e+00+j0.000000000000e+00
-6.020599913280e+00+j0.000000000000e+00
-6.020599913281e+00+j0.000000000000e+00
-6.020599913281e+00+j0.000000000000e+00
-6.020599913281e+00+j0.000000000000e+00
-6.020599913282e+00+j0.000000000000e+00
-6.020599913282e+00+j0.000000000000e+00
-6.020599913283e+00+j0.000000000000e+00
-6.020599913283e+00+j0.000000000000e+00
-6.020599913284e+00+j0.000000000000e+00
-6.020599913286e+00+j0.000000000000e+00
-6.020599913287e+00+j0.000000000000e+00
-6.020599913289e+00+j0.000000000000e+00
-6.020599913291e+00+j0.000000000000e+00
-6.020599913294e+00+j0.000000000000e+00
-6.020599913297e+00+j0.000000000000e+00
-6.020599913302e+00+j0.000000000000e+00
-6.020599913307e+00+j0.000000000000e+00
-6.020599913314e+00+j0.000000000000e+00
-6.020599913322e+00+j0.000000000000e+00
-6.020599913333e+00+j0.000000000000e+00
-6.020599913346e+00+j0.000000000000e+00
-6.020599913362e+00+j0.000000000000e+00
-6.020599913383e+00+j0.000000000000e+00
-6.020599913408e+00+j0.000000000000e+00
-6.020599913439e+00+j0.000000000000e+00
-6.020599913479e+00+j0.000000000000e+00
-6.020599913527e+00+j0.000000000000e+00
-6.020599913588e+00+j0.000000000000e+00
-6.020599913664e+00+j0.000000000000e+00
-6.020599913758e+00+j0.000000000000e+00
-6.020599913875e+00+j0.000000000000e+00
-6.020599914021e+00+j0.000000000000e+00
-6.020599914203e+00+j0.000000000000e+00
-6.020599914430e+00+j0.000000000000e+00
-6.020599914711e+00+j0.000000000000e+00
-6.020599915063e+00+j0.000000000000e+00
-6.020599915500e+00+j0.000000000000e+00
-6.020599916044e+00+j0.000000000000e+00
-6.020599916722e+00+j0.000000000000e+00
-6.020599917566e+00+j0.000000000000e+00
-6.020599918617e+00+j0.000000000000e+00
-6.020599919926e+00+j0.000000000000e+00
-6.020599921555e+00+j0.000000000000e+00
-6.020599923584e+00+j0.000000000000e+00
-6.020599926111e+00+j0.000000000000e+00
-6.020599929257e+00+j0.000000000000e+00
-6.020599933175e+00+j0.000000000000e+00
-6.020599938053e+00+j0.000000000000e+00
-6.020599944128e+00+j0.000000000000e+00
-6.020599951691e+00+j0.000000000000e+00
-6.020599961110e+00+j0.000000000000e+00
-6.020599972838e+00+j0.000000000000e+00
-6.020599987441e+00+j0.000000000000e+00
-6.020600005625e+00+j0.000000000000e+00
-6.020600028268e+00+j0.000000000000e+00
-6.020600056463e+00+j0.000000000000e+00
-6.020600091572e+00+j0.000000000000e+00
-6.020600135288e+00+j0.000000000000e+00
-6.020600189724e+00+j0.000000000000e+00
-6.020600257507e+00+j0.000000000000e+00
-6.020600341911e+00+j0.000000000000e+00
-6.020600447010e+00+j0.000000000000e+00
-6.020600577879e+00+j0.000000000000e+00
-6.020600740837e+00+j0.000000000000e+00
-6.020600943752e+00+j0.000000000000e+00
-6.020601196421e+00+j0.000000000000e+00
-6.020601511043e+00+j0.000000000000e+00
-6.020601902810e+00+j0.000000000000e+00
-6.020602390637e+00+j0.000000000000e+00
-6.020602998078e+00+j0.000000000000e+00
-6.020603754461e+00+j0.000000000000e+00
-6.020604696307e+00+j0.000000000000e+00
-6.020605869091e+00+j0.000000000000e+00
-6.020607329437e+00+j0.000000000000e+00
-6.020609147855e+00+j0.000000000000e+00
-6.020611412143e+00+j0.000000000000e+00
-6.020614231626e+00+j0.000000000000e+00
-6.020617742436e+00+j0.000000000000e+00
-6.020622114081e+00+j0.000000000000e+00
-6.020627557636e+00+j0.000000000000e+00
-6.020634335925e+00+j0.000000000000e+00
-6.020642776215e+00+j0.000000000000e+00
-6.020653286018e+00+j0.000000000000e+00
-6.020666372757e+00+j0.000000000000e+00
-6.020682668272e+00+j0.000000000000e+00
-6.020702959315e+00+j0.000000000000e+00
-6.020728225529e+00+j0.000000000000e+00
-6.020759686739e+00+j0.000000000000e+00
-6.020798861829e+00+j0.000000000000e+00
-6.020847642042e+00+j0.000000000000e+00
-6.020908382255e+00+j0.000000000000e+00
-6.020984014603e+00+j0.000000000000e+00
-6.021078189942e+00+j0.000000000000e+00
-6.021195453945e+00+j0.000000000000e+00
-6.021341466314e+00+j0.000000000000e+00
-6.021523273629e+00+j0.000000000000e+00
-6.021749648928e+00+j0.000000000000e+00
-6.022031514297e+00+j0.000000000000e+00
-6.022382466664e+00+j0.000000000000e+00
-6.022819431887e+00+j0.000000000000e+00
-6.023363478260e+00+j0.000000000000e+00
-6.024040827962e+00+j0.000000000000e+00
-6.024884114189e+00+j0.000000000000e+00
-6.025933942901e+00+j0.000000000000e+00
-6.027240831909e+00+j0.000000000000e+00
-6.028867616747e+00+j0.000000000000e+00
-6.030892433053e+00+j0.000000000000e+00
-6.033412409508e+00+j0.000000000000e+00
-6.036548234269e+00+j0.000000000000e+00
-6.040449791715e+00+j0.000000000000e+00
-6.045303105261e+00+j0.000000000000e+00
-6.051338865486e+00+j0.000000000000e+00
-6.058842869656e+00+j0.000000000000e+00
-6.068168745697e+00+j0.000000000000e+00
-6.079753375582e+00+j0.000000000000e+00
-6.094135460641e+00+j0.000000000000e+00
-6.111977669814e+00+j0.000000000000e+00
-6.134092758893e+00+j0.000000000000e+00
-6.161473911522e+00+j0.000000000000e+00
-6.195329285432e+00+j0.000000000000e+00
-6.237120290407e+00+j0.000000000000e+00
-6.288602406190e+00+j0.000000000000e+00
-6.351866295090e+00+j0.000000000000e+00
-6.429375521163e+00+j0.000000000000e+00
-6.523995362764e+00+j0.000000000000e+00
-6.639005131614e+00+j0.000000000000e+00
-6.778084434368e+00+j0.000000000000e+00
-6.945262567885e+00+j0.000000000000e+00
-7.144820669153e+00+j0.000000000000e+00
-7.381139452467e+00+j0.000000000000e+00
-7.658492241439e+00+j0.000000000000e+00
-7.980793551062e+00+j0.000000000000e+00
-8.351326142555e+00+j0.000000000000e+00
-8.772480886942e+00+j0.000000000000e+00
-9.245549458480e+00+j0.000000000000e+00
-9.770606101581e+00+j0.000000000000e+00
-1.034650070220e+01+j0.000000000000e+00
-1.097096449983e+01+j0.000000000000e+00
-1.164080845492e+01+j0.000000000000e+00
-1.235217919342e+01+j0.000000000000e+00
-1.310083241045e+01+j0.000000000000e+00
-1.388238832555e+01+j0.000000000000e+00
-1.469254475133e+01+j0.000000000000e+00
-1.552723606545e+01+j0.000000000000e+00
-1.638273729568e+01+j0.000000000000e+00
-1.725571986630e+01+j0.000000000000e+00
-1.814326916893e+01+j0.000000000000e+00
-1.904287482438e+01+j0.000000000000e+00
-1.995240340300e+01+j0.000000000000e+00
-2.087006144189e+01+j0.000000000000e+00
-2.179435451157e+01+j0.000000000000e+00
-2.272404621988e+01+j0.000000000000e+00
-2.365811954982e+01+j0.000000000000e+00
-2.459574183026e+01+j0.000000000000e+00
-2.553623388368e+01+j0.000000000000e+00
-2.647904341097e+01+j0.000000000000e+00
-2.742372238647e+01+j0.000000000000e+00
-2.836990808657e+01+j0.000000000000e+00
-2.931730731379e+01+j0.000000000000e+00
-3.026568337234e+01+j0.000000000000e+00
-3.121484537562e+01+j0.000000000000e+00
-3.216463950742e+01+j0.000000000000e+00
-3.311494190498e+01+j0.000000000000e+00
-3.406565287911e+01+j0.000000000000e+00
-3.501669223072e+01+j0.000000000000e+00
-3.596799546253e+01+j0.000000000000e+00
-3.691951071924e+01+j0.000000000000e+00
-3.787119631882e+01+j0.000000000000e+00
-3.882301876269e+01+j0.000000000000e+00
-3.977495113284e+01+j0.000000000000e+00
-4.072697180169e+01+j0.000000000000e+00
-4.167906339387e+01+j0.000000000000e+00
-4.263121195124e+01+j0.000000000000e+00
-4.358340626151e+01+j0.000000000000e+00
-4.453563731847e+01+j0.000000000000e+00
-4.548789788823e+01+j0.000000000000e+00
-4.644018216063e+01+j0.000000000000e+00
-4.739248546914e+01+j0.000000000000e+00
-4.834480406583e+01+j0.000000000000e+00
-4.929713494060e+01+j0.000000000000e+00
-5.024947567595e+01+j0.000000000000e+00
-5.120182433033e+01+j0.000000000000e+00
-5.215417934448e+01+j0.000000000000e+00
-5.310653946613e+01+j0.000000000000e+00
-5.405890368957e+01+j0.000000000000e+00
-5.501127120713e+01+j0.000000000000e+00
-5.596364137017e+01+j0.000000000000e+00
</dep>
