<Qucs Dataset 0.0.22>
<indep frequency 19>
1.000000000000e-01
5.555650000000e+03
1.111120000000e+04
1.666675000000e+04
2.222230000000e+04
2.777785000000e+04
3.333340000000e+04
3.888895000000e+04
4.444450000000e+04
5.000005000000e+04
5.555560000000e+04
6.111115000000e+04
6.666670000000e+04
7.222225000000e+04
7.777780000000e+04
8.333335000000e+04
8.888890000000e+04
9.444445000000e+04
1.000000000000e+05
</indep>
<dep ac.v(vin) frequency>
1.000000000000e+00+j0.000000000000e+00
1.000000000000e+00+j0.000000000000e+00
1.000000000000e+00+j0.000000000000e+00
1.000000000000e+00+j0.000000000000e+00
1.000000000000e+00+j0.000000000000e+00
1.000000000000e+00+j0.000000000000e+00
1.000000000000e+00+j0.000000000000e+00
1.000000000000e+00+j0.000000000000e+00
1.000000000000e+00+j0.000000000000e+00
1.000000000000e+00+j0.000000000000e+00
1.000000000000e+00+j0.000000000000e+00
1.000000000000e+00+j0.000000000000e+00
1.000000000000e+00+j0.000000000000e+00
1.000000000000e+00+j0.000000000000e+00
1.000000000000e+00+j0.000000000000e+00
1.000000000000e+00+j0.000000000000e+00
1.000000000000e+00+j0.000000000000e+00
1.000000000000e+00+j0.000000000000e+00
1.000000000000e+00+j0.000000000000e+00
</dep>
<dep ac.v(vout) frequency>
-1.499981111744e+00+j3.768658459261e-08
-1.499978195045e+00+j2.093730673762e-03
-1.499969445227e+00+j4.187399283140e-03
-1.499954862494e+00+j6.281019138301e-03
-1.499934447185e+00+j8.374565864723e-03
-1.499908199776e+00+j1.046801509072e-02
-1.499876120877e+00+j1.256134244839e-02
-1.499838211236e+00+j1.465452357456e-02
-1.499794471735e+00+j1.674753411174e-02
-1.499744903392e+00+j1.884034970903e-02
-1.499689507361e+00+j2.093294602313e-02
-1.499628284932e+00+j2.302529871921e-02
-1.499561237529e+00+j2.511738347193e-02
-1.499488366712e+00+j2.720917596629e-02
-1.499409674176e+00+j2.930065189867e-02
-1.499325161753e+00+j3.139178697768e-02
-1.499234831408e+00+j3.348255692516e-02
-1.499138685240e+00+j3.557293747711e-02
-1.499036725487e+00+j3.766290438459e-02
</dep>
<indep time 112>
0.000000000000e+00
9.900990000000e-08
1.210832904593e-07
1.652300713779e-07
2.535236332151e-07
4.301107568895e-07
7.367863097731e-07
1.350137415540e-06
2.576839627075e-06
5.030244050143e-06
9.937052896281e-06
1.975067058856e-05
2.965166058856e-05
3.955265058856e-05
4.945364058856e-05
5.935463058856e-05
6.925562058856e-05
7.915661058856e-05
8.905760058856e-05
9.895859058856e-05
1.088595805886e-04
1.187605705886e-04
1.286615605886e-04
1.385625505886e-04
1.484635405886e-04
1.583645305886e-04
1.682655205886e-04
1.781665105886e-04
1.880675005886e-04
1.979684905886e-04
2.078694805886e-04
2.177704705886e-04
2.276714605886e-04
2.375724505886e-04
2.474734405886e-04
2.573744305886e-04
2.672754205886e-04
2.771764105886e-04
2.870774005886e-04
2.969783905886e-04
3.068793805886e-04
3.167803705886e-04
3.266813605886e-04
3.365823505886e-04
3.464833405886e-04
3.563843305886e-04
3.662853205886e-04
3.761863105886e-04
3.860873005886e-04
3.959882905886e-04
4.058892805886e-04
4.157902705886e-04
4.256912605886e-04
4.355922505886e-04
4.454932405886e-04
4.553942305886e-04
4.652952205886e-04
4.751962105886e-04
4.850972005886e-04
4.949981905886e-04
5.048991805886e-04
5.148001705886e-04
5.247011605886e-04
5.346021505886e-04
5.445031405886e-04
5.544041305886e-04
5.643051205886e-04
5.742061105886e-04
5.841071005886e-04
5.940080905886e-04
6.039090805886e-04
6.138100705886e-04
6.237110605886e-04
6.336120505886e-04
6.435130405886e-04
6.534140305886e-04
6.633150205886e-04
6.732160105886e-04
6.831170005886e-04
6.930179905886e-04
7.029189805886e-04
7.128199705886e-04
7.227209605886e-04
7.326219505886e-04
7.425229405886e-04
7.524239305886e-04
7.623249205886e-04
7.722259105886e-04
7.821269005886e-04
7.920278905886e-04
8.019288805886e-04
8.118298705886e-04
8.217308605886e-04
8.316318505886e-04
8.415328405886e-04
8.514338305886e-04
8.613348205886e-04
8.712358105886e-04
8.811368005886e-04
8.910377905886e-04
9.009387805886e-04
9.108397705886e-04
9.207407605886e-04
9.306417505886e-04
9.405427405886e-04
9.504437305886e-04
9.603447205886e-04
9.702457105886e-04
9.801467005886e-04
9.900476905886e-04
9.999486805886e-04
1.000000000000e-03
</indep>
<dep tran.v(vin) time>
0.000000000000e+00
3.110482728998e-03
3.803934583964e-03
5.190832472707e-03
7.964595628396e-03
1.351191675758e-02
2.314475771898e-02
4.240310060969e-02
8.086541134641e-02
1.573728412840e-01
3.071356375574e-01
5.814303246109e-01
8.025363077881e-01
9.466198454876e-01
9.998526955238e-01
9.571258998972e-01
8.225401108210e-01
6.090120356150e-01
3.370347714398e-01
3.271100523669e-02
-2.747521598857e-01
-5.558463208281e-01
-7.835938075769e-01
-9.361368322533e-01
-9.988352637041e-01
-9.656716962728e-01
-8.398289629848e-01
-6.333846670204e-01
-3.661520484485e-01
-6.377843262266e-02
2.447162406578e-01
5.297245705532e-01
7.638932294485e-01
9.247481652821e-01
9.968515213431e-01
9.732832657809e-01
8.563053332415e-01
6.571445384416e-01
3.949150962895e-01
9.478415837074e-02
-2.144435737983e-01
-5.030903449433e-01
-7.434536324779e-01
-9.124648623958e-01
-9.939033875871e-01
-9.799532447048e-01
-8.719532817351e-01
-6.802686636914e-01
-4.232960885160e-01
-1.256981863837e-01
1.839634462159e-01
4.759694109428e-01
7.222947906947e-01
8.992988069204e-01
9.899937145711e-01
9.856751802578e-01
8.867576700559e-01
7.027346716274e-01
4.512675682961e-01
1.564906092763e-01
-1.533053455244e-01
-4.483880063564e-01
-7.004371739528e-01
-8.852627361897e-01
-9.851262846585e-01
-9.904435368258e-01
-9.007041758857e-01
-7.245208277945e-01
-4.788024749753e-01
-1.871316373084e-01
1.224989315156e-01
4.203728144650e-01
6.779019281269e-01
8.703702292228e-01
9.793058067830e-01
9.942537013224e-01
9.137793068537e-01
7.456060554513e-01
5.058741702567e-01
2.175916272051e-01
-9.157400746510e-02
-3.919509382116e-01
-6.547108546556e-01
-8.546356935871e-01
-9.725379118921e-01
-9.971019876522e-01
-9.259704135900e-01
-7.659699559612e-01
-5.324564639710e-01
-2.478411108345e-01
6.056049129937e-02
3.631498739810e-01
6.308863894496e-01
8.380743514602e-01
9.648291475003e-01
9.989856402767e-01
9.372657019625e-01
7.855928285261e-01
5.585236394144e-01
2.778508237161e-01
-2.948838665238e-02
-3.339974849984e-01
-6.064515811864e-01
-8.207022249031e-01
-9.561869713542e-01
-9.999028368799e-01
-9.476542444873e-01
-8.044556892462e-01
-5.840504782278e-01
-3.075917333330e-01
-1.612246161278e-03
-1.224646799147e-15
</dep>
<dep tran.v(vout) time>
0.000000000000e+00
-3.322660307461e-03
-4.170046460068e-03
-6.002124652306e-03
-1.005739860205e-02
-1.838533650442e-02
-3.283168323798e-02
-6.172189268065e-02
-1.194171265725e-01
-2.341943239025e-01
-4.588972651057e-01
-8.705799599353e-01
-1.202661493830e+00
-1.419289907705e+00
-1.499732380506e+00
-1.436211641341e+00
-1.234880008226e+00
-9.150049427847e-01
-5.073402807900e-01
-5.095779352757e-02
4.102892699006e-01
8.321849395993e-01
1.174187462578e+00
1.403523579471e+00
1.498133818937e+00
1.448986507839e+00
1.260750844660e+00
9.515394108062e-01
5.509822546207e-01
9.756776642723e-02
-3.652328285938e-01
-7.929588425946e-01
-1.144603052717e+00
-1.386374264931e+00
-1.495110669441e+00
-1.460335204031e+00
-1.285425960562e+00
-9.871297306177e-01
-5.941144037344e-01
-1.440605038423e-01
3.198005679977e-01
7.529877274672e-01
1.113889545012e+00
1.367905138123e+00
1.490620018616e+00
1.470291855750e+00
1.308837100713e+00
1.021785144543e+00
6.366520252569e-01
1.904333148489e-01
-2.740780525229e-01
-7.122693177467e-01
-1.082116943997e+00
-1.348094420037e+00
-1.484705223518e+00
-1.478808441886e+00
-1.330999390998e+00
-1.055434955105e+00
-6.785905427444e-01
-2.366053456059e-01
2.280741004189e-01
6.708778549378e-01
1.049281696044e+00
1.326995019478e+00
1.477338802845e+00
1.485909395623e+00
1.351859240896e+00
1.088078243914e+00
7.198582535869e-01
2.825625594067e-01
-1.818633595496e-01
-6.288237228476e-01
-1.015444752667e+00
-1.304598630111e+00
-1.468556142511e+00
-1.491560039842e+00
-1.371423832455e+00
-1.119656505619e+00
-7.604417282414e-01
-3.282344248889e-01
1.354648822418e-01
5.861728495859e-01
9.806140093535e-01
1.280951361395e+00
1.458341687758e+00
1.495778574658e+00
1.389650949920e+00
1.150162106004e+00
8.002791554761e-01
3.735989459993e-01
-8.894538985165e-02
-5.429450126676e-01
-9.448443035799e-01
-1.256055287791e+00
-1.446725790507e+00
-1.498540776220e+00
-1.406542780224e+00
-1.179546029287e+00
-8.393511866635e-01
-4.185933507637e-01
4.233130446789e-02
4.992003177168e-01
9.081522473477e-01
1.229952199863e+00
1.433702266412e+00
1.499861115628e+00
1.422066112408e+00
1.207796447736e+00
8.776036881775e-01
4.631901825579e-01
4.316462120615e-03
1.887326079560e-03
</dep>
