<Qucs Dataset 0.0.22>
<indep frequency 190>
1.000000000000e-01
1.115883992508e-01
1.245197084735e-01
1.389495494373e-01
1.550515779833e-01
1.730195738846e-01
1.930697728883e-01
2.154434690032e-01
2.404099183510e-01
2.682695795280e-01
2.993577294720e-01
3.340484983513e-01
3.727593720315e-01
4.159562163072e-01
4.641588833613e-01
5.179474679231e-01
5.779692884153e-01
6.449466771038e-01
7.196856730012e-01
8.030857221392e-01
8.961505019466e-01
1.000000000000e+00
1.115883992508e+00
1.245197084735e+00
1.389495494373e+00
1.550515779833e+00
1.730195738846e+00
1.930697728883e+00
2.154434690032e+00
2.404099183510e+00
2.682695795280e+00
2.993577294720e+00
3.340484983513e+00
3.727593720315e+00
4.159562163072e+00
4.641588833613e+00
5.179474679231e+00
5.779692884153e+00
6.449466771038e+00
7.196856730011e+00
8.030857221391e+00
8.961505019466e+00
1.000000000000e+01
1.115883992508e+01
1.245197084735e+01
1.389495494373e+01
1.550515779833e+01
1.730195738846e+01
1.930697728883e+01
2.154434690032e+01
2.404099183510e+01
2.682695795280e+01
2.993577294720e+01
3.340484983513e+01
3.727593720315e+01
4.159562163072e+01
4.641588833613e+01
5.179474679231e+01
5.779692884153e+01
6.449466771038e+01
7.196856730011e+01
8.030857221391e+01
8.961505019466e+01
1.000000000000e+02
1.115883992508e+02
1.245197084735e+02
1.389495494373e+02
1.550515779833e+02
1.730195738846e+02
1.930697728883e+02
2.154434690032e+02
2.404099183510e+02
2.682695795280e+02
2.993577294720e+02
3.340484983513e+02
3.727593720315e+02
4.159562163072e+02
4.641588833613e+02
5.179474679231e+02
5.779692884153e+02
6.449466771038e+02
7.196856730011e+02
8.030857221391e+02
8.961505019466e+02
1.000000000000e+03
1.115883992508e+03
1.245197084735e+03
1.389495494373e+03
1.550515779833e+03
1.730195738846e+03
1.930697728883e+03
2.154434690032e+03
2.404099183510e+03
2.682695795280e+03
2.993577294720e+03
3.340484983513e+03
3.727593720315e+03
4.159562163072e+03
4.641588833613e+03
5.179474679231e+03
5.779692884153e+03
6.449466771038e+03
7.196856730011e+03
8.030857221391e+03
8.961505019466e+03
1.000000000000e+04
1.115883992508e+04
1.245197084735e+04
1.389495494373e+04
1.550515779833e+04
1.730195738846e+04
1.930697728883e+04
2.154434690032e+04
2.404099183510e+04
2.682695795280e+04
2.993577294720e+04
3.340484983513e+04
3.727593720315e+04
4.159562163072e+04
4.641588833613e+04
5.179474679231e+04
5.779692884153e+04
6.449466771038e+04
7.196856730011e+04
8.030857221391e+04
8.961505019466e+04
1.000000000000e+05
1.115883992508e+05
1.245197084735e+05
1.389495494373e+05
1.550515779833e+05
1.730195738846e+05
1.930697728883e+05
2.154434690032e+05
2.404099183510e+05
2.682695795280e+05
2.993577294720e+05
3.340484983513e+05
3.727593720315e+05
4.159562163072e+05
4.641588833613e+05
5.179474679231e+05
5.779692884153e+05
6.449466771038e+05
7.196856730011e+05
8.030857221391e+05
8.961505019466e+05
1.000000000000e+06
1.115883992508e+06
1.245197084735e+06
1.389495494373e+06
1.550515779833e+06
1.730195738846e+06
1.930697728883e+06
2.154434690032e+06
2.404099183510e+06
2.682695795280e+06
2.993577294720e+06
3.340484983513e+06
3.727593720315e+06
4.159562163072e+06
4.641588833613e+06
5.179474679231e+06
5.779692884153e+06
6.449466771038e+06
7.196856730011e+06
8.030857221391e+06
8.961505019466e+06
1.000000000000e+07
1.115883992508e+07
1.245197084735e+07
1.389495494373e+07
1.550515779833e+07
1.730195738846e+07
1.930697728883e+07
2.154434690032e+07
2.404099183510e+07
2.682695795280e+07
2.993577294720e+07
3.340484983513e+07
3.727593720315e+07
4.159562163072e+07
4.641588833613e+07
5.179474679231e+07
5.779692884153e+07
6.449466771038e+07
7.196856730011e+07
8.030857221391e+07
8.961505019466e+07
1.000000000000e+08
</indep>
<dep ac.v(vout) frequency>
9.999999999992e-01-j6.283185307170e-07
9.999999999990e-01-j7.011305906228e-07
9.999999999988e-01-j7.823804027331e-07
9.999999999985e-01-j8.730457674611e-07
9.999999999981e-01-j9.742177966357e-07
9.999999999976e-01-j1.087114044481e-06
9.999999999971e-01-j1.213093160265e-06
9.999999999963e-01-j1.353671238959e-06
9.999999999954e-01-j1.510540066669e-06
9.999999999943e-01-j1.685587480434e-06
9.999999999929e-01-j1.880920087383e-06
9.999999999912e-01-j2.098888616689e-06
9.999999999890e-01-j2.342116209410e-06
9.999999999863e-01-j2.613529986660e-06
9.999999999830e-01-j2.916396276033e-06
9.999999999788e-01-j3.254359920208e-06
9.999999999736e-01-j3.631488140781e-06
9.999999999672e-01-j4.052319485226e-06
9.999999999591e-01-j4.521918446019e-06
9.999999999491e-01-j5.045936409237e-06
9.999999999366e-01-j5.630679666138e-06
9.999999999210e-01-j6.283185306187e-06
9.999999999017e-01-j7.011305904863e-06
9.999999998776e-01-j7.823804025434e-06
9.999999998476e-01-j8.730457671976e-06
9.999999998102e-01-j9.742177962696e-06
9.999999997636e-01-j1.087114043972e-05
9.999999997057e-01-j1.213093159558e-05
9.999999996335e-01-j1.353671237976e-05
9.999999995437e-01-j1.510540065305e-05
9.999999994318e-01-j1.685587478538e-05
9.999999992924e-01-j1.880920084748e-05
9.999999991189e-01-j2.098888613028e-05
9.999999989029e-01-j2.342116204323e-05
9.999999986339e-01-j2.613529979591e-05
9.999999982989e-01-j2.916396266210e-05
9.999999978818e-01-j3.254359906559e-05
9.999999973625e-01-j3.631488121816e-05
9.999999967157e-01-j4.052319458875e-05
9.999999959105e-01-j4.521918409403e-05
9.999999949077e-01-j5.045936358360e-05
9.999999936591e-01-j5.630679595445e-05
9.999999921043e-01-j6.283185207959e-05
9.999999901683e-01-j7.011305768376e-05
9.999999877576e-01-j7.823803835786e-05
9.999999847558e-01-j8.730457408460e-05
9.999999810180e-01-j9.742177596542e-05
9.999999763637e-01-j1.087113993095e-04
9.999999705681e-01-j1.213093088865e-04
9.999999633515e-01-j1.353671139749e-04
9.999999543654e-01-j1.510539928817e-04
9.999999431759e-01-j1.685587288889e-04
9.999999292428e-01-j1.880919821232e-04
9.999999118933e-01-j2.098888246874e-04
9.999998902899e-01-j2.342115695554e-04
9.999998633893e-01-j2.613529272659e-04
9.999998298927e-01-j2.916395283932e-04
9.999997881829e-01-j3.254358541687e-04
9.999997362460e-01-j3.631486225333e-04
9.999996715744e-01-j4.052316823721e-04
9.999995910454e-01-j4.521914747870e-04
9.999994907710e-01-j5.045931270676e-04
9.999993659097e-01-j5.630672526134e-04
9.999992104329e-01-j6.283175385187e-04
9.999990168337e-01-j7.011292119683e-04
9.999987757648e-01-j7.823784870998e-04
9.999984755868e-01-j8.730431056988e-04
9.999981018066e-01-j9.742140981318e-04
9.999976363773e-01-j1.087108905431e-03
9.999970568273e-01-j1.213086019587e-03
9.999963351752e-01-j1.353661317033e-03
9.999954365791e-01-j1.510526280223e-03
9.999943176543e-01-j1.685568324272e-03
9.999929243794e-01-j1.880893470055e-03
9.999911894884e-01-j2.098851632161e-03
9.999890292240e-01-j2.342064819797e-03
9.999863392953e-01-j2.613458581408e-03
9.999829898442e-01-j2.916297059423e-03
9.999788191803e-01-j3.254222060324e-03
9.999736259790e-01-j3.631296587083e-03
9.999671595707e-01-j4.052053325670e-03
9.999591078517e-01-j4.521548624469e-03
9.999490822373e-01-j5.045422554165e-03
9.999365989334e-01-j5.629965684659e-03
9.999210556312e-01-j6.282193262983e-03
9.999017025076e-01-j7.009927518663e-03
9.998776061489e-01-j7.821888856340e-03
9.998476046804e-01-j8.727796712863e-03
9.998102519729e-01-j9.738480848297e-03
9.997637482934e-01-j1.086600379389e-02
9.997058541423e-01-j1.212379507616e-02
9.996337832614e-01-j1.352679764836e-02
9.995440698654e-01-j1.509162665211e-02
9.994324040318e-01-j1.683674015137e-02
9.992934278264e-01-j1.878262075820e-02
9.991204831409e-01-j2.095196600879e-02
9.989053003260e-01-j2.336988381760e-02
9.986376145325e-01-j2.606408716186e-02
9.983046942314e-01-j2.906507909271e-02
9.978907637508e-01-j3.240631492522e-02
9.973762990154e-01-j3.612432262950e-02
9.967371732911e-01-j4.025875452992e-02
9.959436281778e-01-j4.485233281252e-02
9.949590452060e-01-j4.995063735081e-02
9.937384965661e-01-j5.560166626714e-02
9.922270617992e-01-j6.185507684986e-02
9.903579137514e-01-j6.876098673715e-02
9.880502059919e-01-j7.636818334376e-02
9.852068408674e-01-j8.472155575275e-02
9.817122693319e-01-j9.385853312855e-02
9.774305780961e-01-j1.038042973431e-01
9.722042624436e-01-j1.145655522044e-01
9.658542646259e-01-j1.261227039150e-01
9.581820657101e-01-j1.384204736182e-01
9.489748173881e-01-j1.513572662457e-01
9.380146176219e-01-j1.647740985728e-01
9.250929523279e-01-j1.784445517383e-01
9.100308861887e-01-j1.920679969845e-01
8.927046288258e-01-j2.052690646729e-01
8.730745558069e-01-j2.176066490550e-01
8.512137815700e-01-j2.285952108429e-01
8.273304754511e-01-j2.377393479559e-01
8.017771544667e-01-j2.445794886644e-01
7.750411402172e-01-j2.487427210927e-01
7.477137298400e-01-j2.499895457189e-01
7.204408504449e-01-j2.482463628688e-01
6.938633183696e-01-j2.436158307162e-01
6.685580895529e-01-j2.363624657655e-01
6.449915687813e-01-j2.268771239526e-01
6.234922934460e-01-j2.156288482148e-01
6.042448228945e-01-j2.031143233426e-01
5.873016626698e-01-j1.898137271906e-01
5.726070875407e-01-j1.761583225658e-01
5.600261476816e-01-j1.625113394053e-01
5.493733281817e-01-j1.491607808880e-01
5.404373031753e-01-j1.363212239513e-01
5.330001604119e-01-j1.241413292128e-01
5.268509231406e-01-j1.127141938569e-01
5.217940577574e-01-j1.020884318871e-01
5.176540232529e-01-j9.227863831598e-02
5.142769568176e-01-j8.327452739490e-02
5.115304521410e-01-j7.504848262252e-02
5.093021828951e-01-j6.756153373718e-02
5.074979186321e-01-j6.076792354737e-02
5.060393048290e-01-j5.461848781964e-02
5.048616426572e-01-j4.906307939058e-02
5.039118055572e-01-j4.405224802285e-02
5.031463624161e-01-j3.953835620734e-02
5.025299336430e-01-j3.547627738751e-02
5.020337799639e-01-j3.182379174474e-02
5.016346089084e-01-j2.854176777808e-02
5.013135766980e-01-j2.559419592940e-02
5.010554607063e-01-j2.294812314423e-02
5.008479779030e-01-j2.057352388274e-02
5.006812264475e-01-j1.844313298452e-02
5.005472300479e-01-j1.653225826206e-02
5.004395673715e-01-j1.481858516457e-02
5.003530714016e-01-j1.328198183280e-02
5.002835860341e-01-j1.190430997585e-02
5.002277693332e-01-j1.066924494711e-02
5.001829347091e-01-j9.562106955506e-03
5.001469228380e-01-j8.569704351442e-03
5.001179984611e-01-j7.680189250331e-03
5.000947672833e-01-j6.882925309276e-03
5.000761090927e-01-j6.168367186954e-03
5.000611239578e-01-j5.527951045220e-03
5.000490889595e-01-j4.953995358270e-03
5.000394234046e-01-j4.439611256334e-03
5.000316608649e-01-j3.978621628140e-03
5.000254267056e-01-j3.565488227017e-03
5.000204200287e-01-j3.195246060762e-03
5.000163991654e-01-j2.863444388987e-03
5.000131700206e-01-j2.566093699500e-03
5.000105767104e-01-j2.299618084347e-03
5.000084940405e-01-j2.060812484703e-03
5.000068214655e-01-j1.846804320507e-03
5.000054782362e-01-j1.655019065008e-03
5.000043995028e-01-j1.483149365712e-03
5.000035331840e-01-j1.329127351457e-03
5.000028374536e-01-j1.191099800537e-03
5.000022787210e-01-j1.067405876914e-03
5.000018300099e-01-j9.565571708159e-04
5.000014696559e-01-j8.572198065744e-04
5.000011802604e-01-j7.681984045676e-04
5.000009478507e-01-j6.884217058402e-04
5.000007612056e-01-j6.169296875337e-04
5.000006113136e-01-j5.528620148886e-04
5.000004909373e-01-j4.954476914300e-04
5.000003942648e-01-j4.439957832077e-04
5.000003166285e-01-j3.978871057648e-04
</dep>
<dep ac.vout_db frequency>
-5.142758379130e-12+j0.000000000000e+00
-6.405063032849e-12+j0.000000000000e+00
-7.976916803332e-12+j0.000000000000e+00
-9.930644250571e-12+j0.000000000000e+00
-1.236653543109e-11+j0.000000000000e+00
-1.539838098594e-11+j0.000000000000e+00
-1.917372301750e-11+j0.000000000000e+00
-2.387481941696e-11+j0.000000000000e+00
-2.972828713896e-11+j0.000000000000e+00
-3.701763845866e-11+j0.000000000000e+00
-4.609388857390e-11+j0.000000000000e+00
-5.739677080944e-11+j0.000000000000e+00
-7.147016585642e-11+j0.000000000000e+00
-8.899392457879e-11+j0.000000000000e+00
-1.108147264922e-10+j0.000000000000e+00
-1.379865815177e-10+j0.000000000000e+00
-1.718200106823e-10+j0.000000000000e+00
-2.139495490420e-10+j0.000000000000e+00
-2.664108918789e-10+j0.000000000000e+00
-3.317334701380e-10+j0.000000000000e+00
-4.130735276178e-10+j0.000000000000e+00
-5.143578057628e-10+j0.000000000000e+00
-6.404773734843e-10+j0.000000000000e+00
-7.975200300804e-10+j0.000000000000e+00
-9.930702110781e-10+j0.000000000000e+00
-1.236566753724e-09+j0.000000000000e+00
-1.539769631479e-09+j0.000000000000e+00
-1.917317335294e-09+j0.000000000000e+00
-2.387436618630e-09+j0.000000000000e+00
-2.972830643054e-09+j0.000000000000e+00
-3.701759025010e-09+j0.000000000000e+00
-4.609419717080e-09+j0.000000000000e+00
-5.739636581068e-09+j0.000000000000e+00
-7.146978979782e-09+j0.000000000000e+00
-8.899396319703e-09+j0.000000000000e+00
-1.108150158604e-08+j0.000000000000e+00
-1.379865430531e-08+j0.000000000000e+00
-1.718204447979e-08+j0.000000000000e+00
-2.139503111216e-08+j0.000000000000e+00
-2.664103136869e-08+j0.000000000000e+00
-3.317333357593e-08+j0.000000000000e+00
-4.130733742978e-08+j0.000000000000e+00
-5.143577686974e-08+j0.000000000000e+00
-6.404767875823e-08+j0.000000000000e+00
-7.975198215531e-08+j0.000000000000e+00
-9.930693488036e-08+j0.000000000000e+00
-1.236567051736e-07+j0.000000000000e+00
-1.539769683563e-07+j0.000000000000e+00
-1.917316710144e-07+j0.000000000000e+00
-2.387437162206e-07+j0.000000000000e+00
-2.972829758022e-07+j0.000000000000e+00
-3.701758890950e-07+j0.000000000000e+00
-4.609419307783e-07+j0.000000000000e+00
-5.739635370534e-07+j0.000000000000e+00
-7.146977023995e-07+j0.000000000000e+00
-8.899394659174e-07+j0.000000000000e+00
-1.108149981719e-06+j0.000000000000e+00
-1.379865054947e-06+j0.000000000000e+00
-1.718203832225e-06+j0.000000000000e+00
-2.139502231282e-06+j0.000000000000e+00
-2.664101671514e-06+j0.000000000000e+00
-3.317331219048e-06+j0.000000000000e+00
-4.130730518624e-06+j0.000000000000e+00
-5.143572599658e-06+j0.000000000000e+00
-6.404760056303e-06+j0.000000000000e+00
-7.975186146769e-06+j0.000000000000e+00
-9.930674814853e-06+j0.000000000000e+00
-1.236564155040e-05+j0.000000000000e+00
-1.539765185187e-05+j0.000000000000e+00
-1.917309730683e-05+j0.000000000000e+00
-2.387426333597e-05+j0.000000000000e+00
-2.972812971367e-05+j0.000000000000e+00
-3.701732867959e-05+j0.000000000000e+00
-4.609378947758e-05+j0.000000000000e+00
-5.739572781090e-05+j0.000000000000e+00
-7.146879995173e-05+j0.000000000000e+00
-8.899244211076e-05+j0.000000000000e+00
-1.108126655096e-04+j0.000000000000e+00
-1.379828886572e-04+j0.000000000000e+00
-1.718147752948e-04+j0.000000000000e+00
-2.139415278892e-04+j0.000000000000e+00
-2.663966853862e-04+j0.000000000000e+00
-3.317122185089e-04+j0.000000000000e+00
-4.130406413660e-04+j0.000000000000e+00
-5.143070081301e-04+j0.000000000000e+00
-6.403980915015e-04+j0.000000000000e+00
-7.973978117705e-04+j0.000000000000e+00
-9.928801825245e-04+j0.000000000000e+00
-1.236273760504e-03+j0.000000000000e+00
-1.539314953432e-03+j0.000000000000e+00
-1.916611696547e-03+j0.000000000000e+00
-2.386344130969e-03+j0.000000000000e+00
-2.971135212181e-03+j0.000000000000e+00
-3.699131887006e-03+j0.000000000000e+00
-4.605346879485e-03+j0.000000000000e+00
-5.733322527054e-03+j0.000000000000e+00
-7.137191832890e-03+j0.000000000000e+00
-8.884228263953e-03+j0.000000000000e+00
-1.105799508556e-02+j0.000000000000e+00
-1.376222730038e-02+j0.000000000000e+00
-1.712560439329e-02+j0.000000000000e+00
-2.130759941655e-02+j0.000000000000e+00
-2.650561798884e-02+j0.000000000000e+00
-3.296366667887e-02+j0.000000000000e+00
-4.098280904219e-02+j0.000000000000e+00
-5.093367112988e-02+j0.000000000000e+00
-6.327123378075e-02+j0.000000000000e+00
-7.855207708167e-02+j0.000000000000e+00
-9.745409490800e-02+j0.000000000000e+00
-1.207984354046e-01+j0.000000000000e+00
-1.495729955413e-01+j0.000000000000e+00
-1.849561429948e-01+j0.000000000000e+00
-2.283383924755e-01+j0.000000000000e+00
-2.813384783277e-01+j0.000000000000e+00
-3.458086453297e-01+j0.000000000000e+00
-4.238221413758e-01+j0.000000000000e+00
-5.176341487161e-01+j0.000000000000e+00
-6.296063240432e-01+j0.000000000000e+00
-7.620856444522e-01+j0.000000000000e+00
-9.172315258243e-01+j0.000000000000e+00
-1.096792257233e+00+j0.000000000000e+00
-1.301843045026e+00+j0.000000000000e+00
-1.532512260508e+00+j0.000000000000e+00
-1.787736657597e+00+j0.000000000000e+00
-2.065095393094e+00+j0.000000000000e+00
-2.360771361240e+00+j0.000000000000e+00
-2.669673504069e+00+j0.000000000000e+00
-2.985726573209e+00+j0.000000000000e+00
-3.302301335015e+00+j0.000000000000e+00
-3.612727548172e+00+j0.000000000000e+00
-3.910813167632e+00+j0.000000000000e+00
-4.191291788598e+00+j0.000000000000e+00
-4.450136772161e+00+j0.000000000000e+00
-4.684709867568e+00+j0.000000000000e+00
-4.893745826912e+00+j0.000000000000e+00
-5.077203172612e+00+j0.000000000000e+00
-5.236028243634e+00+j0.000000000000e+00
-5.371882945400e+00+j0.000000000000e+00
-5.486878847747e+00+j0.000000000000e+00
-5.583346536168e+00+j0.000000000000e+00
-5.663654579178e+00+j0.000000000000e+00
-5.730080631067e+00+j0.000000000000e+00
-5.784729462029e+00+j0.000000000000e+00
-5.829488909209e+00+j0.000000000000e+00
-5.866013869159e+00+j0.000000000000e+00
-5.895729339502e+00+j0.000000000000e+00
-5.919845205861e+00+j0.000000000000e+00
-5.939377320585e+00+j0.000000000000e+00
-5.955171084917e+00+j0.000000000000e+00
-5.967925085690e+00+j0.000000000000e+00
-5.978213333874e+00+j0.000000000000e+00
-5.986505348271e+00+j0.000000000000e+00
-5.993183786242e+00+j0.000000000000e+00
-5.998559607490e+00+j0.000000000000e+00
-6.002884919209e+00+j0.000000000000e+00
-6.006363732500e+00+j0.000000000000e+00
-6.009160890289e+00+j0.000000000000e+00
-6.011409426853e+00+j0.000000000000e+00
-6.013216601927e+00+j0.000000000000e+00
-6.014668827242e+00+j0.000000000000e+00
-6.015835675353e+00+j0.000000000000e+00
-6.016773133088e+00+j0.000000000000e+00
-6.017526236387e+00+j0.000000000000e+00
-6.018131200581e+00+j0.000000000000e+00
-6.018617140428e+00+j0.000000000000e+00
-6.019007457418e+00+j0.000000000000e+00
-6.019320957765e+00+j0.000000000000e+00
-6.019572752732e+00+j0.000000000000e+00
-6.019774983295e+00+j0.000000000000e+00
-6.019937403138e+00+j0.000000000000e+00
-6.020067847525e+00+j0.000000000000e+00
-6.020172610279e+00+j0.000000000000e+00
-6.020256746800e+00+j0.000000000000e+00
-6.020324317606e+00+j0.000000000000e+00
-6.020378584025e+00+j0.000000000000e+00
-6.020422165429e+00+j0.000000000000e+00
-6.020457165560e+00+j0.000000000000e+00
-6.020485274006e+00+j0.000000000000e+00
-6.020507847717e+00+j0.000000000000e+00
-6.020525976483e+00+j0.000000000000e+00
-6.020540535528e+00+j0.000000000000e+00
-6.020552227748e+00+j0.000000000000e+00
-6.020561617641e+00+j0.000000000000e+00
-6.020569158555e+00+j0.000000000000e+00
-6.020575214570e+00+j0.000000000000e+00
-6.020580078080e+00+j0.000000000000e+00
-6.020583983902e+00+j0.000000000000e+00
-6.020587120617e+00+j0.000000000000e+00
-6.020589639670e+00+j0.000000000000e+00
-6.020591662687e+00+j0.000000000000e+00
</dep>
