<Qucs Dataset 0.0.21>
<indep frequency 19>
1.000000000000e-01
5.555650000000e+03
1.111120000000e+04
1.666675000000e+04
2.222230000000e+04
2.777785000000e+04
3.333340000000e+04
3.888895000000e+04
4.444450000000e+04
5.000005000000e+04
5.555560000000e+04
6.111115000000e+04
6.666670000000e+04
7.222225000000e+04
7.777780000000e+04
8.333335000000e+04
8.888890000000e+04
9.444445000000e+04
1.000000000000e+05
</indep>
<dep ac.v(vin) frequency>
1.000000000000e+00+j0.000000000000e+00
1.000000000000e+00+j0.000000000000e+00
1.000000000000e+00+j0.000000000000e+00
1.000000000000e+00+j0.000000000000e+00
1.000000000000e+00+j0.000000000000e+00
1.000000000000e+00+j0.000000000000e+00
1.000000000000e+00+j0.000000000000e+00
1.000000000000e+00+j0.000000000000e+00
1.000000000000e+00+j0.000000000000e+00
1.000000000000e+00+j0.000000000000e+00
1.000000000000e+00+j0.000000000000e+00
1.000000000000e+00+j0.000000000000e+00
1.000000000000e+00+j0.000000000000e+00
1.000000000000e+00+j0.000000000000e+00
1.000000000000e+00+j0.000000000000e+00
1.000000000000e+00+j0.000000000000e+00
1.000000000000e+00+j0.000000000000e+00
1.000000000000e+00+j0.000000000000e+00
1.000000000000e+00+j0.000000000000e+00
</dep>
<dep ac.v(vout) frequency>
1.099938946257e+01-j1.218115773109e-06
1.099897310936e+01-j6.767168873312e-02
1.099772426888e+01-j1.353267924374e-01
1.099564350815e+01-j2.029511742226e-01
1.099273177152e+01-j2.705295023223e-01
1.098899037959e+01-j3.380464797847e-01
1.098442102770e+01-j4.054868559910e-01
1.097902578402e+01-j4.728354381011e-01
1.097280708720e+01-j5.400771024069e-01
1.096576774363e+01-j6.071968055776e-01
1.095791092430e+01-j6.741795957779e-01
1.094924016120e+01-j7.410106236423e-01
1.093975934341e+01-j8.076751530901e-01
1.092947271276e+01-j8.741585719620e-01
1.091838485908e+01-j9.404464024663e-01
1.090650071519e+01-j1.006524311416e+00
1.089382555137e+01-j1.072378120242e+00
1.088036496970e+01-j1.137993814777e+00
1.086612489783e+01-j1.203357554774e+00
</dep>
