<Qucs Dataset 0.0.21>
<indep frequency 56>
1.000000000000e-01
1.232846739442e-01
1.519911082953e-01
1.873817422860e-01
2.310129700083e-01
2.848035868436e-01
3.511191734215e-01
4.328761281083e-01
5.336699231206e-01
6.579332246576e-01
8.111308307897e-01
1.000000000000e+00
1.232846739442e+00
1.519911082953e+00
1.873817422860e+00
2.310129700083e+00
2.848035868436e+00
3.511191734215e+00
4.328761281083e+00
5.336699231206e+00
6.579332246576e+00
8.111308307897e+00
1.000000000000e+01
1.232846739442e+01
1.519911082953e+01
1.873817422860e+01
2.310129700083e+01
2.848035868436e+01
3.511191734215e+01
4.328761281083e+01
5.336699231206e+01
6.579332246576e+01
8.111308307897e+01
1.000000000000e+02
1.232846739442e+02
1.519911082953e+02
1.873817422860e+02
2.310129700083e+02
2.848035868436e+02
3.511191734215e+02
4.328761281083e+02
5.336699231206e+02
6.579332246576e+02
8.111308307897e+02
1.000000000000e+03
1.232846739442e+03
1.519911082953e+03
1.873817422860e+03
2.310129700083e+03
2.848035868436e+03
3.511191734215e+03
4.328761281083e+03
5.336699231206e+03
6.579332246576e+03
8.111308307897e+03
1.000000000000e+04
</indep>
<dep ac.v(uut) frequency>
5.000000023884e-01+j3.455751902441e-05
5.000000036302e-01+j4.260412454664e-05
5.000000055176e-01+j5.252435583584e-05
5.000000083863e-01+j6.475448046199e-05
5.000000127464e-01+j7.983234940568e-05
5.000000193734e-01+j9.842105036232e-05
5.000000294459e-01+j1.213380685873e-04
5.000000447551e-01+j1.495912376478e-04
5.000000680237e-01+j1.844230610006e-04
5.000001033900e-01+j2.273653533504e-04
5.000001571436e-01+j2.803066044052e-04
5.000002388443e-01+j3.455750268175e-04
5.000003630220e-01+j4.260409392350e-04
5.000005517610e-01+j5.252429845368e-04
5.000008386272e-01+j6.475437293836e-04
5.000012746376e-01+j7.983214792619e-04
5.000019373333e-01+j9.842067282705e-04
5.000029445684e-01+j1.213373611566e-03
5.000044754684e-01+j1.495899120559e-03
5.000068022824e-01+j1.844205770951e-03
5.000103387913e-01+j2.273606989982e-03
5.000157138745e-01+j2.802978830936e-03
5.000238833018e-01+j3.455586849417e-03
5.000362995936e-01+j4.260103183113e-03
5.000551700722e-01+j5.251856087039e-03
5.000838487940e-01+j6.474362237772e-03
5.001274316008e-01+j7.981200511215e-03
5.001936590414e-01+j9.838293392181e-03
5.002942852628e-01+j1.212666597181e-02
5.004471506025e-01+j1.494574714017e-02
5.006793133049e-01+j1.841725239787e-02
5.010317670168e-01+j2.268962241233e-02
5.015665134832e-01+j2.794284840755e-02
5.023770891750e-01+j3.439322657992e-02
5.036040558572e-01+j4.229702956451e-02
5.054573924416e-01+j5.195106436405e-02
5.082479464887e-01+j6.368629855067e-02
5.124295445639e-01+j7.784779190108e-02
5.186507506149e-01+j9.474980110244e-02
5.278081855229e-01+j1.145896922912e-01
5.410781707459e-01+j1.373013811333e-01
5.598775574458e-01+j1.623374782274e-01
5.856743084090e-01+j1.884066535002e-01
6.195656959164e-01+j2.132765629839e-01
6.616337742681e-01+j2.338619467761e-01
7.103203444198e-01+j2.468309642914e-01
7.623035493989e-01+j2.496970618013e-01
8.132416979129e-01+j2.418687405290e-01
8.591264268706e-01+j2.249253719758e-01
8.974291974486e-01+j2.019025302953e-01
9.274223317422e-01+j1.761286921520e-01
9.497538791994e-01+j1.503276014070e-01
9.657645626021e-01+j1.262761003718e-01
9.769351523785e-01+j1.048829662765e-01
9.845815763982e-01+j8.643774646849e-02
9.897475614439e-01+j7.085976842818e-02
</dep>
<dep ac.uut_db frequency>
-6.020599851042e+00+j0.000000000000e+00
-6.020599818684e+00+j0.000000000000e+00
-6.020599769503e+00+j0.000000000000e+00
-6.020599694753e+00+j0.000000000000e+00
-6.020599581138e+00+j0.000000000000e+00
-6.020599408454e+00+j0.000000000000e+00
-6.020599145989e+00+j0.000000000000e+00
-6.020598747067e+00+j0.000000000000e+00
-6.020598140740e+00+j0.000000000000e+00
-6.020597219177e+00+j0.000000000000e+00
-6.020595818485e+00+j0.000000000000e+00
-6.020593689558e+00+j0.000000000000e+00
-6.020590453782e+00+j0.000000000000e+00
-6.020585535698e+00+j0.000000000000e+00
-6.020578060665e+00+j0.000000000000e+00
-6.020566699322e+00+j0.000000000000e+00
-6.020549431184e+00+j0.000000000000e+00
-6.020523185369e+00+j0.000000000000e+00
-6.020483294571e+00+j0.000000000000e+00
-6.020422665274e+00+j0.000000000000e+00
-6.020330516835e+00+j0.000000000000e+00
-6.020190465642e+00+j0.000000000000e+00
-6.019977614696e+00+j0.000000000000e+00
-6.019654133479e+00+j0.000000000000e+00
-6.019162547690e+00+j0.000000000000e+00
-6.018415558587e+00+j0.000000000000e+00
-6.017280611606e+00+j0.000000000000e+00
-6.015556539614e+00+j0.000000000000e+00
-6.012938287457e+00+j0.000000000000e+00
-6.008963813223e+00+j0.000000000000e+00
-6.002934568596e+00+j0.000000000000e+00
-5.993797346639e+00+j0.000000000000e+00
-5.979970863736e+00+j0.000000000000e+00
-5.959096075673e+00+j0.000000000000e+00
-5.927687620329e+00+j0.000000000000e+00
-5.880671616819e+00+j0.000000000000e+00
-5.810826470309e+00+j0.000000000000e+00
-5.708223424715e+00+j0.000000000000e+00
-5.559925020151e+00+j0.000000000000e+00
-5.350452908682e+00+j0.000000000000e+00
-5.063785008400e+00+j0.000000000000e+00
-4.687557468989e+00+j0.000000000000e+00
-4.219209640518e+00+j0.000000000000e+00
-3.671900056621e+00+j0.000000000000e+00
-3.076372749210e+00+j0.000000000000e+00
-2.475823538967e+00+j0.000000000000e+00
-1.914816013177e+00+j0.000000000000e+00
-1.427504213951e+00+j0.000000000000e+00
-1.030938637353e+00+j0.000000000000e+00
-7.255582540345e-01+j0.000000000000e+00
-5.005723094192e-01+j0.000000000000e+00
-3.403163522050e-01+j0.000000000000e+00
-2.289543382040e-01+j0.000000000000e+00
-1.529147804660e-01+j0.000000000000e+00
-1.016217627325e-01+j0.000000000000e+00
-6.730754908563e-02+j0.000000000000e+00
</dep>
<dep ac.uut_fas frequency>
6.911503760861e-05+j0.000000000000e+00
8.520824826842e-05+j0.000000000000e+00
1.050487101260e-04+j0.000000000000e+00
1.295089580277e-04+j0.000000000000e+00
1.596646933843e-04+j0.000000000000e+00
1.968420905553e-04+j0.000000000000e+00
2.426761181191e-04+j0.000000000000e+00
2.991824395891e-04+j0.000000000000e+00
3.688460550939e-04+j0.000000000000e+00
4.547305813286e-04+j0.000000000000e+00
5.606129738857e-04+j0.000000000000e+00
6.911496134295e-04+j0.000000000000e+00
8.520810536057e-04+j0.000000000000e+00
1.050484423431e-03+j0.000000000000e+00
1.295084562522e-03+j0.000000000000e+00
1.596637531507e-03+j0.000000000000e+00
1.968403287355e-03+j0.000000000000e+00
2.426728168083e-03+j0.000000000000e+00
2.991762535862e-03+j0.000000000000e+00
3.688344637987e-03+j0.000000000000e+00
4.547088617700e-03+j0.000000000000e+00
5.605722765725e-03+j0.000000000000e+00
6.910733574385e-03+j0.000000000000e+00
8.519381733230e-03+j0.000000000000e+00
1.050216718981e-02+j0.000000000000e+00
1.294583010457e-02+j0.000000000000e+00
1.595697934279e-02+j0.000000000000e+00
1.966643279207e-02+j0.000000000000e+00
2.423432013884e-02+j0.000000000000e+00
2.985591205931e-02+j0.000000000000e+00
3.676795074617e-02+j0.000000000000e+00
4.525487665979e-02+j0.000000000000e+00
5.565362186574e-02+j0.000000000000e+00
6.835432052815e-02+j0.000000000000e+00
8.379200316733e-02+j0.000000000000e+00
1.024206640356e-01+j0.000000000000e+00
1.246558519804e-01+j0.000000000000e+00
1.507662049394e-01+j0.000000000000e+00
1.806926171517e-01+j0.000000000000e+00
2.137870949870e-01+j0.000000000000e+00
2.485098024843e-01+j0.000000000000e+00
2.822129155306e-01+j0.000000000000e+00
3.112368897174e-01+j0.000000000000e+00
3.315302863863e-01+j0.000000000000e+00
3.397550659767e-01+j0.000000000000e+00
3.344391870416e-01+j0.000000000000e+00
3.165419269609e-01+j0.000000000000e+00
2.890818121125e-01+j0.000000000000e+00
2.560599587547e-01+j0.000000000000e+00
2.212942493331e-01+j0.000000000000e+00
1.876770760790e-01+j0.000000000000e+00
1.569783191004e-01+j0.000000000000e+00
1.300148956809e-01+j0.000000000000e+00
1.069495450044e-01+j0.000000000000e+00
8.756684262363e-02+j0.000000000000e+00
7.147183205802e-02+j0.000000000000e+00
</dep>
