<Qucs Dataset 0.0.19>
<indep acfrequency 51>
  +1.00000000000000000000e+00
  +1.25892541179416728170e+00
  +1.58489319246111359796e+00
  +1.99526231496887973549e+00
  +2.51188643150958013095e+00
  +3.16227766016837952279e+00
  +3.98107170553497269339e+00
  +5.01187233627272377134e+00
  +6.30957344480193338399e+00
  +7.94328234724281756485e+00
  +1.00000000000000017764e+01
  +1.25892541179416745933e+01
  +1.58489319246111364237e+01
  +1.99526231496887973549e+01
  +2.51188643150958093031e+01
  +3.16227766016838032215e+01
  +3.98107170553497340393e+01
  +5.01187233627272377134e+01
  +6.30957344480193640379e+01
  +7.94328234724281969648e+01
  +1.00000000000000042633e+02
  +1.25892541179416767250e+02
  +1.58489319246111392658e+02
  +1.99526231496888016181e+02
  +2.51188643150958057504e+02
  +3.16227766016837961160e+02
  +3.98107170553497269339e+02
  +5.01187233627272689773e+02
  +6.30957344480193796699e+02
  +7.94328234724282083334e+02
  +1.00000000000000068212e+03
  +1.25892541179416798514e+03
  +1.58489319246111426764e+03
  +1.99526231496888044603e+03
  +2.51188643150958114347e+03
  +3.16227766016838040741e+03
  +3.98107170553497689980e+03
  +5.01187233627272416925e+03
  +6.30957344480193842173e+03
  +7.94328234724281537638e+03
  +1.00000000000000090949e+04
  +1.25892541179416712112e+04
  +1.58489319246111463144e+04
  +1.99526231496888285619e+04
  +2.51188643150958159822e+04
  +3.16227766016838395444e+04
  +3.98107170553497417131e+04
  +5.01187233627272944432e+04
  +6.30957344480193423806e+04
  +7.94328234724282374373e+04
  +1.00000000000000014552e+05
</indep>
<dep Uut_fas acfrequency>
  +3.95999558616060079452e-02
  +4.98533582394402249860e-02
  +6.27615947036858495833e-02
  +7.90120370703684266056e-02
  +9.94700031460921674231e-02
  +1.25224799580039569680e-01
  +1.57647654647286750151e-01
  +1.98464587991921737054e-01
  +2.49848021896998340186e-01
  +3.14531861094644593635e-01
  +3.95955867151637108670e-01
  +4.98446412997069265849e-01
  +6.27442041884826551268e-01
  +7.89773449622936496439e-01
  +9.94008039338375670724e-01
  +1.25086794225598851860e+00
  +1.57372503752642911579e+00
  +1.97916239801935067710e+00
  +2.48755972122723001405e+00
  +3.12359379854081176120e+00
  +3.91641407774740857306e+00
  +4.89901014907226795003e+00
  +6.10587153921962322300e+00
  +7.56742039352130912988e+00
  +9.29903040700200911317e+00
  +1.12824419539436124893e+01
  +1.34398144773648056116e+01
  +1.56080199743351446529e+01
  +1.75326908832645358416e+01
  +1.89076239645349879481e+01
  +1.94665313486515110242e+01
  +1.90897596966481657432e+01
  +1.78586945102901246685e+01
  +1.60183578866306781663e+01
  +1.38756510555644254623e+01
  +1.17001418974083772895e+01
  +9.67366702771311359754e+00
  +7.88920122450991012641e+00
  +6.37458593913839166589e+00
  +5.11937244539147773281e+00
  +4.09503433099247526883e+00
  +3.26730891940158452158e+00
  +2.60264706730280970248e+00
  +2.07104972797620678904e+00
  +1.64695064649679956403e+00
  +1.30915224391927309533e+00
  +1.04036473989179567567e+00
  +8.26625913829374225905e-01
  +6.56730057086356233675e-01
  +5.21718263484906241700e-01
  +4.14445141841663922122e-01
</dep>
<dep Uut_dB acfrequency>
  -6.02059368955806917256e+00
  -6.02059004935258901270e+00
  -6.02058428002612266994e+00
  -6.02057513628604645817e+00
  -6.02056064450036387825e+00
  -6.02053767673298700913e+00
  -6.02050127568950088630e+00
  -6.02044358496508458245e+00
  -6.02035215394497313923e+00
  -6.02020725211500185026e+00
  -6.01997761469604242279e+00
  -6.01961370536592266234e+00
  -6.01903705204230021764e+00
  -6.01812337948929965137e+00
  -6.01667596220729450351e+00
  -6.01438360687981532493e+00
  -6.01075459772240972001e+00
  -6.00501335189445040186e+00
  -5.99593997567740188970e+00
  -5.98162425738957459487e+00
  -5.95909607567293964081e+00
  -5.92378873095779034941e+00
  -5.86880447832129803487e+00
  -5.78401542718447014835e+00
  -5.65520981075591855358e+00
  -5.46386182281627164059e+00
  -5.18865432438448515029e+00
  -4.81024147141815472395e+00
  -4.31987715220383261538e+00
  -3.72943455003667256875e+00
  -3.07637274921002923378e+00
  -2.41726494492125176805e+00
  -1.81064874705808520616e+00
  -1.29870081584300112176e+00
  -8.98268973183714125597e-01
  -6.03947325747638208426e-01
  -3.97698986652925190466e-01
  -2.58093060763025461402e-01
  -1.65847771285635603444e-01
  -1.05878637456804008954e-01
  -6.73075490856334390788e-02
  -4.26710599700084666774e-02
  -2.70050881624313253437e-02
  -1.70716718500488265353e-02
  -1.07845256982760165365e-02
  -6.80977408686727746917e-03
  -4.29874938014814401283e-03
  -2.71315326017499466177e-03
  -1.71221290269954495335e-03
  -1.08046430023347453039e-03
  -6.81779046868118848192e-04
</dep>
<dep V1.i acfrequency>
  -5.00000238844312393932e-05-j3.45575026817539006062e-08
  -5.00000378542619095261e-05-j4.35053061389606681835e-08
  -5.00000599949354339714e-05-j5.47699111933388451227e-08
  -5.00000950854980239597e-05-j6.89511846121948614837e-08
  -5.00001507001908811743e-05-j8.68043019294201835094e-08
  -5.00002388432855922524e-05-j1.09279948905622646142e-07
  -5.00003785400397499517e-05-j1.37574920298550037235e-07
  -5.00005999428754715564e-05-j1.73195796259391014530e-07
  -5.00009508387061672404e-05-j2.18039058917838849766e-07
  -5.00015069610309191572e-05-j2.74491858922320393661e-07
  -5.00023883301771915116e-05-j3.45558684941691389802e-07
  -5.00037851424885019299e-05-j4.35020455980623856757e-07
  -5.00059987809480226834e-05-j5.47634058498829710728e-07
  -5.00095067599704549586e-05-j6.89382056654314995204e-07
  -5.00150655237409483321e-05-j8.67784084344438586613e-07
  -5.00238730387661298502e-05-j1.09228293785382270784e-06
  -5.00378256532973140006e-05-j1.37471883846045185909e-06
  -5.00599231056749168823e-05-j1.72990303345357390388e-06
  -5.00949051963385381036e-05-j2.17629336731856909057e-06
  -5.01502477962958379811e-05-j2.73675271343616573249e-06
  -5.02377089175048250507e-05-j3.43932265799240303691e-06
  -5.03756985452480515199e-05-j4.31784412241815660199e-06
  -5.05928366266206286741e-05-j5.41205839447142283884e-06
  -5.09331116769422926824e-05-j6.76645301804930151949e-06
  -5.14629140332193343583e-05-j8.42648112751559526658e-06
  -5.22795525793618711622e-05-j1.04298259336394518728e-05
  -5.35190098161266716512e-05-j1.27893338653871144043e-05
  -5.53567448480381975990e-05-j1.54642338004482463401e-05
  -5.79892427443762185761e-05-j1.83203203462778798152e-05
  -6.15798751875343156146e-05-j2.10926586758958294543e-05
  -6.61633774268111009981e-05-j2.33861946776085837321e-05
  -7.15437916123722131853e-05-j2.47599398945411955809e-05
  -7.72716957007629887035e-05-j2.48965740342548902484e-05
  -8.27688024069171874881e-05-j2.37622749155521088490e-05
  -8.75436374464583146483e-05-j2.16253822997839492519e-05
  -9.13448217428390287680e-05-j1.89168391174322834784e-05
  -9.41662784118640309051e-05-j1.60515971740794998607e-05
  -9.61535507121182004111e-05-j1.33239368157405226392e-05
  -9.75021401373282037674e-05-j1.08928274217506664001e-05
  -9.83943547578000203861e-05-j8.81499662315292885351e-06
  -9.89747561443916120533e-05-j7.08597684281843040455e-06
  -9.93481824423497864073e-05-j5.67150877228044317246e-06
  -9.95867427566851279828e-05-j4.52681793499483051124e-06
  -9.97384545435710354478e-05-j3.60678066919396800305e-06
  -9.98346567900902165859e-05-j2.87050903472266250027e-06
  -9.98955480168687193383e-05-j2.28291238110051031285e-06
  -9.99340444059792419552e-05-j1.81478085747432266173e-06
  -9.99583645650572950783e-05-j1.44223376666047925498e-06
  -9.99737217410911674755e-05-j1.14595916094438476929e-06
  -9.99834163230381856979e-05-j9.10444303486163120098e-07
  -9.99895351263042789312e-05-j7.23280147111454718711e-07
</dep>
<dep Uut.v acfrequency>
  +5.00000238844312439035e-01+j3.45575026817539112788e-04
  +5.00000378542619028366e-01+j4.35053061389606800843e-04
  +5.00000599949354307405e-01+j5.47699111933388246669e-04
  +5.00000950854980086291e-01+j6.89511846121948512346e-04
  +5.00001507001908818140e-01+j8.68043019294202069722e-04
  +5.00002388432855715550e-01+j1.09279948905622605569e-03
  +5.00003785400397582350e-01+j1.37574920298550004878e-03
  +5.00005999428754677183e-01+j1.73195796259391029438e-03
  +5.00009508387061596402e-01+j2.18039058917838873483e-03
  +5.00015069610309281778e-01+j2.74491858922320348599e-03
  +5.00023883301771943088e-01+j3.45558684941691491785e-03
  +5.00037851424885104734e-01+j4.35020455980623943493e-03
  +5.00059987809480133159e-01+j5.47634058498829619926e-03
  +5.00095067599704345973e-01+j6.89382056654314935573e-03
  +5.00150655237409424991e-01+j8.67784084344438814973e-03
  +5.00238730387661312271e-01+j1.09228293785382270242e-02
  +5.00378256532973075821e-01+j1.37471883846045188349e-02
  +5.00599231056749083280e-01+j1.72990303345357358811e-02
  +5.00949051963385350028e-01+j2.17629336731856859455e-02
  +5.01502477962958437274e-01+j2.73675271343616667574e-02
  +5.02377089175048308078e-01+j3.43932265799240383108e-02
  +5.03756985452480487986e-01+j4.31784412241815740430e-02
  +5.05928366266206297475e-01+j5.41205839447142095233e-02
  +5.09331116769422886925e-01+j6.76645301804930099365e-02
  +5.14629140332193313334e-01+j8.42648112751559486000e-02
  +5.22795525793618653942e-01+j1.04298259336394527619e-01
  +5.35190098161266725185e-01+j1.27893338653871146970e-01
  +5.53567448480381973930e-01+j1.54642338004482460256e-01
  +5.79892427443762126238e-01+j1.83203203462778657640e-01
  +6.15798751875343164386e-01+j2.10926586758958090062e-01
  +6.61633774268111096717e-01+j2.33861946776085932731e-01
  +7.15437916123721873163e-01+j2.47599398945411636186e-01
  +7.72716957007629878795e-01+j2.48965740342548924602e-01
  +8.27688024069171746078e-01+j2.37622749155521312270e-01
  +8.75436374464583111354e-01+j2.16253822997839462161e-01
  +9.13448217428390329964e-01+j1.89168391174322936266e-01
  +9.41662784118639906161e-01+j1.60515971740794599620e-01
  +9.61535507121181964862e-01+j1.33239368157404475257e-01
  +9.75021401373282081693e-01+j1.08928274217506476651e-01
  +9.83943547578000066167e-01+j8.81499662315307630500e-02
  +9.89747561443916068491e-01+j7.08597684281826456498e-02
  +9.93481824423497639209e-01+j5.67150877228009622777e-02
  +9.95867427566851315390e-01+j4.52681793499487075683e-02
  +9.97384545435710090366e-01+j3.60678066919387571576e-02
  +9.98346567900902148729e-01+j2.87050903472297683217e-02
  +9.98955480168687515174e-01+j2.28291238110054604815e-02
  +9.99340444059792387677e-01+j1.81478085747444201070e-02
  +9.99583645650572671926e-01+j1.44223376665963912840e-02
  +9.99737217410911371829e-01+j1.14595916094426351212e-02
  +9.99834163230381545162e-01+j9.10444303486080894205e-03
  +9.99895351263042742040e-01+j7.23280147110659955151e-03
</dep>
<dep _net0.v acfrequency>
  +1.00000000000000000000e+00
  +1.00000000000000000000e+00
  +1.00000000000000000000e+00
  +1.00000000000000000000e+00
  +1.00000000000000000000e+00
  +1.00000000000000000000e+00
  +1.00000000000000000000e+00
  +1.00000000000000000000e+00
  +1.00000000000000000000e+00
  +1.00000000000000000000e+00
  +1.00000000000000000000e+00
  +1.00000000000000000000e+00
  +1.00000000000000000000e+00
  +1.00000000000000000000e+00
  +1.00000000000000000000e+00
  +1.00000000000000000000e+00
  +1.00000000000000000000e+00
  +1.00000000000000000000e+00
  +1.00000000000000000000e+00
  +1.00000000000000000000e+00
  +1.00000000000000000000e+00
  +1.00000000000000000000e+00
  +1.00000000000000000000e+00
  +1.00000000000000000000e+00
  +1.00000000000000000000e+00
  +1.00000000000000000000e+00
  +1.00000000000000000000e+00
  +1.00000000000000000000e+00
  +1.00000000000000000000e+00
  +1.00000000000000000000e+00
  +1.00000000000000000000e+00
  +1.00000000000000000000e+00
  +1.00000000000000000000e+00
  +1.00000000000000000000e+00
  +1.00000000000000000000e+00
  +1.00000000000000000000e+00
  +1.00000000000000000000e+00
  +1.00000000000000000000e+00
  +1.00000000000000000000e+00
  +1.00000000000000000000e+00
  +1.00000000000000000000e+00
  +1.00000000000000000000e+00
  +1.00000000000000000000e+00
  +1.00000000000000000000e+00
  +1.00000000000000000000e+00
  +1.00000000000000000000e+00
  +1.00000000000000000000e+00
  +1.00000000000000000000e+00
  +1.00000000000000000000e+00
  +1.00000000000000000000e+00
  +1.00000000000000000000e+00
</dep>
