<Qucs Dataset 0.0.24>
<indep frequency 55>
1.000000000000e-01
1.291549665015e-01
1.668100537200e-01
2.154434690032e-01
2.782559402207e-01
3.593813663805e-01
4.641588833613e-01
5.994842503189e-01
7.742636826811e-01
1.000000000000e+00
1.291549665015e+00
1.668100537200e+00
2.154434690032e+00
2.782559402207e+00
3.593813663805e+00
4.641588833613e+00
5.994842503189e+00
7.742636826811e+00
1.000000000000e+01
1.291549665015e+01
1.668100537200e+01
2.154434690032e+01
2.782559402207e+01
3.593813663805e+01
4.641588833613e+01
5.994842503189e+01
7.742636826811e+01
1.000000000000e+02
1.291549665015e+02
1.668100537200e+02
2.154434690032e+02
2.782559402207e+02
3.593813663805e+02
4.641588833613e+02
5.994842503189e+02
7.742636826811e+02
1.000000000000e+03
1.291549665015e+03
1.668100537200e+03
2.154434690032e+03
2.782559402207e+03
3.593813663805e+03
4.641588833613e+03
5.994842503189e+03
7.742636826811e+03
1.000000000000e+04
1.291549665015e+04
1.668100537200e+04
2.154434690032e+04
2.782559402207e+04
3.593813663805e+04
4.641588833613e+04
5.994842503189e+04
7.742636826811e+04
1.000000000000e+05
</indep>
<dep ac.v(uut) frequency>
5.000000023884e-01+j3.455751902441e-05
5.000000039842e-01+j4.463275197728e-05
5.000000066460e-01+j5.764541555806e-05
5.000000110862e-01+j7.445191649250e-05
5.000000184929e-01+j9.615834638118e-05
5.000000308479e-01+j1.241932769882e-04
5.000000514575e-01+j1.604017786795e-04
5.000000858362e-01+j2.071668492771e-04
5.000001431834e-01+j2.675662440976e-04
5.000002388443e-01+j3.455750268175e-04
5.000003984162e-01+j4.463271676811e-04
5.000006645979e-01+j5.764533970224e-04
5.000011086152e-01+j7.445175306622e-04
5.000018492788e-01+j9.615799429046e-04
5.000030847754e-01+j1.241925184336e-03
5.000051456942e-01+j1.604001444301e-03
5.000085834763e-01+j2.071633284178e-03
5.000143179372e-01+j2.675586587242e-03
5.000238833018e-01+j3.455586849417e-03
5.000398384772e-01+j4.462919613116e-03
5.000664510478e-01+j5.763775512765e-03
5.001108371871e-01+j7.443541406091e-03
5.001848601934e-01+j9.612279823533e-03
5.003082892373e-01+j1.241167097444e-02
5.005140456882e-01+j1.602368874849e-02
5.008568913170e-01+j2.068118458323e-02
5.014277461267e-01+j2.668022871637e-02
5.023770891750e-01+j3.439322657992e-02
5.039526689895e-01+j4.427991534081e-02
5.065588085204e-01+j5.688924582879e-02
5.108457015138e-01+j7.283695158065e-02
5.178332799505e-01+j9.272871238964e-02
5.290553483900e-01+j1.169763263439e-01
5.466558841163e-01+j1.454344200507e-01
5.732595826480e-01+j1.768129657979e-01
6.113084199203e-01+j2.080015519533e-01
6.616337742681e-01+j2.338619467761e-01
7.217326312434e-01+j2.483967710410e-01
7.853337999284e-01+j2.474904494776e-01
8.445870563527e-01+j2.314158351767e-01
8.935846733968e-01+j2.046544442848e-01
9.302609933038e-01+j1.732223261971e-01
9.557188814810e-01+j1.420554180671e-01
9.724779438201e-01+j1.140331728646e-01
9.831290226446e-01+j9.028210675861e-02
9.897475614439e-01+j7.085976842818e-02
9.938029309663e-01+j5.531844947438e-02
9.962664210529e-01+j4.304474255691e-02
9.977550642624e-01+j3.342795435468e-02
9.986517719120e-01+j2.592867765697e-02
9.991908846725e-01+j2.009733803554e-02
9.995146335254e-01+j1.557073076839e-02
9.997089172717e-01+j1.206054041052e-02
9.998254597919e-01+j9.340216258298e-03
9.998953512630e-01+j7.232801471107e-03
</dep>
<dep ac.vuut_db frequency>
-6.020599851042e+00+j0.000000000000e+00
-6.020599809462e+00+j0.000000000000e+00
-6.020599740101e+00+j0.000000000000e+00
-6.020599624400e+00+j0.000000000000e+00
-6.020599431399e+00+j0.000000000000e+00
-6.020599109454e+00+j0.000000000000e+00
-6.020598572418e+00+j0.000000000000e+00
-6.020597676588e+00+j0.000000000000e+00
-6.020596182255e+00+j0.000000000000e+00
-6.020593689558e+00+j0.000000000000e+00
-6.020589531495e+00+j0.000000000000e+00
-6.020582595442e+00+j0.000000000000e+00
-6.020571025449e+00+j0.000000000000e+00
-6.020551725652e+00+j0.000000000000e+00
-6.020519531969e+00+j0.000000000000e+00
-6.020465830553e+00+j0.000000000000e+00
-6.020376253656e+00+j0.000000000000e+00
-6.020226837238e+00+j0.000000000000e+00
-6.019977614696e+00+j0.000000000000e+00
-6.019561939481e+00+j0.000000000000e+00
-6.018868698977e+00+j0.000000000000e+00
-6.017712714476e+00+j0.000000000000e+00
-6.015785557020e+00+j0.000000000000e+00
-6.012574034995e+00+j0.000000000000e+00
-6.007225695222e+00+j0.000000000000e+00
-5.998328526586e+00+j0.000000000000e+00
-5.983554625633e+00+j0.000000000000e+00
-5.959096075673e+00+j0.000000000000e+00
-5.918804943419e+00+j0.000000000000e+00
-5.852969795934e+00+j0.000000000000e+00
-5.746801230158e+00+j0.000000000000e+00
-5.579124961072e+00+j0.000000000000e+00
-5.322690625531e+00+j0.000000000000e+00
-4.948719728698e+00+j0.000000000000e+00
-4.438309760574e+00+j0.000000000000e+00
-3.799028667624e+00+j0.000000000000e+00
-3.076372749210e+00+j0.000000000000e+00
-2.346303047600e+00+j0.000000000000e+00
-1.687698578153e+00+j0.000000000000e+00
-1.152722573257e+00+j0.000000000000e+00
-7.552583694834e-01+j0.000000000000e+00
-4.798703758584e-01+j0.000000000000e+00
-2.984924120531e-01+j0.000000000000e+00
-1.830960981088e-01+j0.000000000000e+00
-1.113191499805e-01+j0.000000000000e+00
-6.730754908563e-02+j0.000000000000e+00
-4.055909734320e-02+j0.000000000000e+00
-2.439045270553e-02+j0.000000000000e+00
-1.464912667312e-02+j0.000000000000e+00
-8.791813311413e-03+j0.000000000000e+00
-5.274116002926e-03+j0.000000000000e+00
-3.163031285757e-03+j0.000000000000e+00
-1.896648431491e-03+j0.000000000000e+00
-1.137176607318e-03+j0.000000000000e+00
-6.817790468689e-04+j0.000000000000e+00
</dep>
<dep ac.vuut_phase frequency>
3.960000779716e-03+j0.000000000000e+00
5.114537642415e-03+j0.000000000000e+00
6.605679296712e-03+j0.000000000000e+00
8.531562706083e-03+j0.000000000000e+00
1.101893657423e-02+j0.000000000000e+00
1.423150302072e-02+j0.000000000000e+00
1.838069119126e-02+j0.000000000000e+00
2.373957174217e-02+j0.000000000000e+00
3.066082772574e-02+j0.000000000000e+00
3.959996410014e-02+j0.000000000000e+00
5.114528228186e-02+j0.000000000000e+00
6.605659014399e-02+j0.000000000000e+00
8.531519009268e-02+j0.000000000000e+00
1.101884243267e-01+j0.000000000000e+00
1.423130020023e-01+j0.000000000000e+00
1.838025423258e-01+j0.000000000000e+00
2.373863036061e-01+j0.000000000000e+00
3.065879964307e-01+j0.000000000000e+00
3.959559495279e-01+j0.000000000000e+00
5.113587004526e-01+j0.000000000000e+00
6.603631499093e-01+j0.000000000000e+00
8.527151900284e-01+j0.000000000000e+00
1.100943751773e+00+j0.000000000000e+00
1.421105133674e+00+j0.000000000000e+00
1.833667748447e+00+j0.000000000000e+00
2.364491943291e+00+j0.000000000000e+00
3.045752159822e+00+j0.000000000000e+00
3.916414892534e+00+j0.000000000000e+00
5.021411915503e+00+j0.000000000000e+00
6.407772526410e+00+j0.000000000000e+00
8.114604722253e+00+j0.000000000000e+00
1.015238756528e+01+j0.000000000000e+00
1.246774897770e+01+j0.000000000000e+00
1.489809789676e+01+j0.000000000000e+00
1.714156501044e+01+j0.000000000000e+00
1.879120025140e+01+j0.000000000000e+00
1.946653539855e+01+j0.000000000000e+00
1.899179186248e+01+j0.000000000000e+00
1.749175161188e+01+j0.000000000000e+00
1.532290914589e+01+j0.000000000000e+00
1.289977321243e+01+j0.000000000000e+00
1.054814581042e+01+j0.000000000000e+00
8.454389975755e+00+j0.000000000000e+00
6.687986916496e+00+j0.000000000000e+00
5.246836444806e+00+j0.000000000000e+00
4.095035182940e+00+j0.000000000000e+00
3.185990730887e+00+j0.000000000000e+00
2.473986477033e+00+j0.000000000000e+00
1.918872718715e+00+j0.000000000000e+00
1.487275607285e+00+j0.000000000000e+00
1.152269963760e+00+j0.000000000000e+00
8.924983729534e-01+j0.000000000000e+00
6.911858792229e-01+j0.000000000000e+00
5.352329354794e-01+j0.000000000000e+00
4.144452280645e-01+j0.000000000000e+00
</dep>
