<Qucs Dataset 0.0.19>
<indep acfrequency 51>
  +1.00000000000000005551e-01
  +1.25892541179416728170e-01
  +1.58489319246111370898e-01
  +1.99526231496887973549e-01
  +2.51188643150958013095e-01
  +3.16227766016837996688e-01
  +3.98107170553497313747e-01
  +5.01187233627272354930e-01
  +6.30957344480193360603e-01
  +7.94328234724281823098e-01
  +1.00000000000000022204e+00
  +1.25892541179416750374e+00
  +1.58489319246111382000e+00
  +1.99526231496887973549e+00
  +2.51188643150958101913e+00
  +3.16227766016838041097e+00
  +3.98107170553497358156e+00
  +5.01187233627272377134e+00
  +6.30957344480193693670e+00
  +7.94328234724282022938e+00
  +1.00000000000000053291e+01
  +1.25892541179416781461e+01
  +1.58489319246111399764e+01
  +1.99526231496888044603e+01
  +2.51188643150958057504e+01
  +3.16227766016837961160e+01
  +3.98107170553497269339e+01
  +5.01187233627272732406e+01
  +6.30957344480193853542e+01
  +7.94328234724282111756e+01
  +1.00000000000000071054e+02
  +1.25892541179416809882e+02
  +1.58489319246111449502e+02
  +1.99526231496888044603e+02
  +2.51188643150958114347e+02
  +3.16227766016838074847e+02
  +3.98107170553497724086e+02
  +5.01187233627272462400e+02
  +6.30957344480193910385e+02
  +7.94328234724281628587e+02
  +1.00000000000000090949e+03
  +1.25892541179416730301e+03
  +1.58489319246111472239e+03
  +1.99526231496888294714e+03
  +2.51188643150958159822e+03
  +3.16227766016838404539e+03
  +3.98107170553497417131e+03
  +5.01187233627272962622e+03
  +6.30957344480193478375e+03
  +7.94328234724282447132e+03
  +1.00000000000000018190e+04
</indep>
<dep Uut_fas acfrequency>
  +8.96400047372979145166e+01
  +8.95467963037751246702e+01
  +8.94294573095613003488e+01
  +8.92817431936491772149e+01
  +8.90957959563273931280e+01
  +8.88617298169254610229e+01
  +8.85671129842126987342e+01
  +8.81963220089347998965e+01
  +8.77297424225950095433e+01
  +8.71427891422044353931e+01
  +8.64047262201318346797e+01
  +8.54772855656490264664e+01
  +8.43131330499896307629e+01
  +8.28543353319741981977e+01
  +8.10311891707786742245e+01
  +7.87621590153758432962e+01
  +7.59563089984627595186e+01
  +7.25205127786748704466e+01
  +6.83745363376084469564e+01
  +6.34766226108490982938e+01
  +5.78580923646579350361e+01
  +5.16557858284049302711e+01
  +4.51200631832731815507e+01
  +3.85781126370231817191e+01
  +3.23586430361322570093e+01
  +2.67157520920506712514e+01
  +2.17904998385398656069e+01
  +1.76175507159965540893e+01
  +1.41571658063496812474e+01
  +1.13299957343566095602e+01
  +9.04306107903768463530e+00
  +7.20518195186268695096e+00
  +5.73441699304463092801e+00
  +4.56062329397039256662e+00
  +3.62545569701735903578e+00
  +2.88122034208731347960e+00
  +2.28934664018434386179e+00
  +1.81884983267682320829e+00
  +1.44494288274047244514e+00
  +1.14784872760101608336e+00
  +9.11813669613828814420e-01
  +7.24301907340802908486e-01
  +5.75344765668983182394e-01
  +4.57018260928470254623e-01
  +3.63025349702179644940e-01
  +2.88362709226111846306e-01
  +2.29055355499408253017e-01
  +1.81945493898371085661e-01
  +1.44524622265243152253e-01
  +1.14800077931775781903e-01
  +9.11889882833541165486e-02
</dep>
<dep A_dB acfrequency>
  -4.40365740820426481150e+01
  -4.20366743583784341354e+01
  -4.00368332809178326670e+01
  -3.80370851442568707057e+01
  -3.60374842908309744871e+01
  -3.40381168203848787357e+01
  -3.20391191234992547265e+01
  -3.00407071931996902947e+01
  -2.80432229251531630609e+01
  -2.60472071089143284439e+01
  -2.40535141371822831502e+01
  -2.20634913791913618297e+01
  -2.00792574400453105454e+01
  -1.81041283111619151214e+01
  -1.61432565379171499842e+01
  -1.42045573991168190275e+01
  -1.22999743546586906007e+01
  -1.04470327339482498274e+01
  -8.67036082316890599486e+00
  -7.00234681578106066269e+00
  -5.48147274904298420495e+00
  -4.14678198764339800420e+00
  -3.02853941387823955012e+00
  -2.13854507715115405020e+00
  -1.46580129006426540528e+00
  -9.80560650596705940529e-01
  -6.43918525331488966756e-01
  -4.17248819272998894281e-01
  -2.67892824947343843878e-01
  -1.70942254353058653571e-01
  -1.08637898643218100414e-01
  -6.88615741735259939693e-02
  -4.35756596140544211204e-02
  -2.75452415132160649547e-02
  -1.74002013579830014378e-02
  -1.09868985365081661687e-02
  -6.93549963886932758356e-03
  -4.37729374426226898465e-03
  -2.76239924918308824356e-03
  -1.74316065009827154790e-03
  -1.09994147056050582158e-03
  -6.94048582698246919326e-04
  -4.37927963941494398023e-04
  -2.76319006392718353755e-04
  -1.74347553332128532740e-04
  -1.10006684144220946904e-04
  -6.94098497162694999009e-05
  -4.37947836099880966521e-05
  -2.76326917861045655810e-05
  -1.74350702992269583375e-05
  -1.10007938059809116525e-05
</dep>
<dep Uut_dB acfrequency>
  -6.40365740820426481150e+01
  -6.20366743583784341354e+01
  -6.00368332809178326670e+01
  -5.80370851442568636003e+01
  -5.60374842908309744871e+01
  -5.40381168203848787357e+01
  -5.20391191234992476211e+01
  -5.00407071931996867420e+01
  -4.80432229251531595082e+01
  -4.60472071089143213385e+01
  -4.40535141371822831502e+01
  -4.20634913791913618297e+01
  -4.00792574400453105454e+01
  -3.81041283111619151214e+01
  -3.61432565379171464315e+01
  -3.42045573991168225803e+01
  -3.22999743546586941534e+01
  -3.04470327339482480511e+01
  -2.86703608231689024421e+01
  -2.70023468157810597745e+01
  -2.54814727490429824286e+01
  -2.41467819876433935633e+01
  -2.30285394138782386619e+01
  -2.21385450771511536061e+01
  -2.14658012900642667375e+01
  -2.09805606505967077169e+01
  -2.06439185253314860802e+01
  -2.04172488192729986167e+01
  -2.02678928249473422341e+01
  -2.01709422543530578764e+01
  -2.01086378986432201543e+01
  -2.00688615741735212339e+01
  -2.00435756596140564056e+01
  -2.00275452415132129147e+01
  -2.00174002013579830361e+01
  -2.00109868985365082494e+01
  -2.00069354996388710788e+01
  -2.00043772937442625448e+01
  -2.00027623992491818683e+01
  -2.00017431606501006058e+01
  -2.00010999414705601396e+01
  -2.00006940485826945064e+01
  -2.00004379279639401545e+01
  -2.00002763190063923560e+01
  -2.00001743475533331207e+01
  -2.00001100066841459579e+01
  -2.00000694098497149298e+01
  -2.00000437947836076091e+01
  -2.00000276326917827419e+01
  -2.00000174350702977222e+01
  -2.00000110007938047829e+01
</dep>
<dep V1.i acfrequency>
  -3.94768591204273640042e-09-j6.28293726675838787177e-07
  -6.25651606660335516703e-09-j7.90956675594209698363e-07
  -9.91554687359000280258e-09-j9.95719021255091721824e-07
  -1.57141713904760601420e-08-j1.25346328381214138363e-06
  -2.49029943998580553968e-08-j1.57787175678371469072e-06
  -3.94628383002547456255e-08-j1.98613355905859499038e-06
  -6.25299508982140879274e-08-j2.49981701231551687524e-06
  -9.90670613677442038575e-08-j3.14593258893549396945e-06
  -1.56919786107549992999e-07-j3.95820095390354870929e-06
  -2.48473048933431253814e-07-j4.97851042354004287100e-06
  -3.93231759282748395271e-07-j6.25847782705717008616e-06
  -6.21800206706692851367e-07-j7.86087687052842716117e-06
  -9.81915817369088638465e-07-j9.86039669914498287883e-06
  -1.54734504624330293275e-06-j1.23426183580388077599e-05
  -2.43038091528614336577e-06-j1.53990694567959931051e-05
  -3.79790642458375657593e-06-j1.91145637995869798484e-05
  -5.88847132521828514368e-06-j2.35408801444192077967e-05
  -9.02187335980452417036e-06-j2.86494875531849953264e-05
  -1.35820059905551314850e-05-j3.42597389413293345510e-05
  -1.99418441774564311883e-05-j3.99563170042947031404e-05
  -2.83043199675102394167e-05-j4.50477243368388718253e-05
  -3.84876860441398991036e-05-j4.86566195638549214321e-05
  -4.97904508275828417059e-05-j4.99995608895152193708e-05
  -6.11146729882277927682e-05-j4.87489901881542640532e-05
  -7.13542541626490382138e-05-j4.52105720949977271097e-05
  -7.97891677135621995957e-05-j4.01572594549635920273e-05
  -8.62200256001016126584e-05-j3.44689678628180579817e-05
  -9.08395801037892666350e-05-j2.88466409993639000091e-05
  -9.40179370233566567708e-05-j2.37154215692618117184e-05
  -9.61403667612113104531e-05-j1.92630878921554627055e-05
  -9.75295476968142329051e-05-j1.55223096134647674596e-05
  -9.84269080600607071873e-05-j1.24432542263841960581e-05
  -9.90016502872286972749e-05-j9.94174376697256299840e-06
  -9.93677545113684490812e-05-j7.92621060187416112686e-06
  -9.96001471064541290265e-05-j6.31073743853367147283e-06
  -9.97473370436392060097e-05-j5.02020488292670777342e-06
  -9.98404316650518811787e-05-j3.99141221139789198480e-06
  -9.98992598637480602904e-05-j3.17235953986019433848e-06
  -9.99364136313845961715e-05-j2.52083193316536557926e-06
  -9.99598702968440951328e-05-j2.00283796711504813448e-06
  -9.99746761187034931658e-05-j1.59114638883031678240e-06
  -9.99840202176999068772e-05-j1.26401063150864689799e-06
  -9.99899168443685543248e-05-j1.00409854751279392637e-06
  -9.99936377221511719926e-05-j7.97613506846317488197e-07
  -9.99959855798069832547e-05-j6.33581805083160976011e-07
  -9.99974670345697209299e-05-j5.03279372829346094420e-07
  -9.99984017919188281466e-05-j3.99772752759236515985e-07
  -9.99989915929255410946e-05-j3.17552657932984594424e-07
  -9.99993637357823140577e-05-j2.52241980913670005293e-07
  -9.99995985434761782123e-05-j2.00363397893921213466e-07
  -9.99997466976825291878e-05-j1.59154539949857287695e-07
</dep>
<dep A.v acfrequency>
  +3.94768591204273659365e-05+j6.28293726675838680451e-03
  +6.25651606660335455690e-05+j7.90956675594209693281e-03
  +9.91554687358999972679e-05+j9.95719021255091728262e-03
  +1.57141713904760576062e-04+j1.25346328381214129621e-02
  +2.49029943998580480594e-04+j1.57787175678371464904e-02
  +3.94628383002547324012e-04+j1.98613355905859524653e-02
  +6.25299508982140998282e-04+j2.49981701231551667330e-02
  +9.90670613677441897968e-04+j3.14593258893549401756e-02
  +1.56919786107550000495e-03+j3.95820095390354842468e-02
  +2.48473048933431231791e-03+j4.97851042354004180712e-02
  +3.93231759282748442874e-03+j6.25847782705716976226e-02
  +6.21800206706692778352e-03+j7.86087687052842709612e-02
  +9.81915817369088603228e-03+j9.86039669914498262404e-02
  +1.54734504624330256040e-02+j1.23426183580388079686e-01
  +2.43038091528614344505e-02+j1.53990694567959912620e-01
  +3.79790642458375654611e-02+j1.91145637995869810410e-01
  +5.88847132521828423024e-02+j2.35408801444192072871e-01
  +9.02187335980452476125e-02+j2.86494875531849935157e-01
  +1.35820059905551293600e-01+j3.42597389413293373917e-01
  +1.99418441774564275670e-01+j3.99563170042947057858e-01
  +2.83043199675102441493e-01+j4.50477243368388680089e-01
  +3.84876860441398904733e-01+j4.86566195638549137126e-01
  +4.97904508275828383557e-01+j4.99995608895152099382e-01
  +6.11146729882277806034e-01+j4.87489901881542508910e-01
  +7.13542541626490334217e-01+j4.52105720949977196721e-01
  +7.97891677135621923966e-01+j4.01572594549636063821e-01
  +8.62200256001016018814e-01+j3.44689678628180729003e-01
  +9.08395801037892525187e-01+j2.88466409993638761566e-01
  +9.40179370233566569226e-01+j2.37154215692617909017e-01
  +9.61403667612113155272e-01+j1.92630878921554532512e-01
  +9.75295476968142338592e-01+j1.55223096134647520206e-01
  +9.84269080600607026987e-01+j1.24432542263841414143e-01
  +9.90016502872287040837e-01+j9.94174376697261191760e-02
  +9.93677545113684335121e-01+j7.92621060187413545295e-02
  +9.96001471064541288314e-01+j6.31073743853361318612e-02
  +9.97473370436391948424e-01+j5.02020488292707206535e-02
  +9.98404316650518763865e-01+j3.99141221139755475456e-02
  +9.98992598637480466728e-01+j3.17235953986041568919e-02
  +9.99364136313845907722e-01+j2.52083193316571495257e-02
  +9.99598702968440888661e-01+j2.00283796711439483762e-02
  +9.99746761187034871377e-01+j1.59114638883029076155e-02
  +9.99840202176998982253e-01+j1.26401063150901656756e-02
  +9.99899168443685537611e-01+j1.00409854751264404626e-02
  +9.99936377221511629720e-01+j7.97613506847031500380e-03
  +9.99959855798069896515e-01+j6.33581805082156310910e-03
  +9.99974670345697091989e-01+j5.03279372829430228509e-03
  +9.99984017919188339363e-01+j3.99772752757655922690e-03
  +9.99989915929255346327e-01+j3.17552657936515450587e-03
  +9.99993637357823095257e-01+j2.52241980917202596180e-03
  +9.99995985434761647248e-01+j2.00363397895879933111e-03
  +9.99997466976825233331e-01+j1.59154539948736114229e-03
</dep>
<dep _net0.v acfrequency>
  +1.00000000000000000000e+00
  +1.00000000000000000000e+00
  +1.00000000000000000000e+00
  +1.00000000000000000000e+00
  +1.00000000000000000000e+00
  +1.00000000000000000000e+00
  +1.00000000000000000000e+00
  +1.00000000000000000000e+00
  +1.00000000000000000000e+00
  +1.00000000000000000000e+00
  +1.00000000000000000000e+00
  +1.00000000000000000000e+00
  +1.00000000000000000000e+00
  +1.00000000000000000000e+00
  +1.00000000000000000000e+00
  +1.00000000000000000000e+00
  +1.00000000000000000000e+00
  +1.00000000000000000000e+00
  +1.00000000000000000000e+00
  +1.00000000000000000000e+00
  +1.00000000000000000000e+00
  +1.00000000000000000000e+00
  +1.00000000000000000000e+00
  +1.00000000000000000000e+00
  +1.00000000000000000000e+00
  +1.00000000000000000000e+00
  +1.00000000000000000000e+00
  +1.00000000000000000000e+00
  +1.00000000000000000000e+00
  +1.00000000000000000000e+00
  +1.00000000000000000000e+00
  +1.00000000000000000000e+00
  +1.00000000000000000000e+00
  +1.00000000000000000000e+00
  +1.00000000000000000000e+00
  +1.00000000000000000000e+00
  +1.00000000000000000000e+00
  +1.00000000000000000000e+00
  +1.00000000000000000000e+00
  +1.00000000000000000000e+00
  +1.00000000000000000000e+00
  +1.00000000000000000000e+00
  +1.00000000000000000000e+00
  +1.00000000000000000000e+00
  +1.00000000000000000000e+00
  +1.00000000000000000000e+00
  +1.00000000000000000000e+00
  +1.00000000000000000000e+00
  +1.00000000000000000000e+00
  +1.00000000000000000000e+00
  +1.00000000000000000000e+00
</dep>
<dep Uut.v acfrequency>
  +3.94768591204273710187e-06+j6.28293726675838680451e-04
  +6.25651606660335489571e-06+j7.90956675594209693281e-04
  +9.91554687359000108205e-06+j9.95719021255091814998e-04
  +1.57141713904760596391e-05+j1.25346328381214133958e-03
  +2.49029943998580494146e-05+j1.57787175678371469241e-03
  +3.94628383002547364670e-05+j1.98613355905859515979e-03
  +6.25299508982141025388e-05+j2.49981701231551676004e-03
  +9.90670613677441979283e-05+j3.14593258893549427777e-03
  +1.56919786107550005916e-04+j3.95820095390354842468e-03
  +2.48473048933431231791e-04+j4.97851042354004180712e-03
  +3.93231759282748453716e-04+j6.25847782705717028268e-03
  +6.21800206706692821720e-04+j7.86087687052842813695e-03
  +9.81915817369088733332e-04+j9.86039669914498366488e-03
  +1.54734504624330269050e-03+j1.23426183580388083155e-02
  +2.43038091528614353179e-03+j1.53990694567959912620e-02
  +3.79790642458375680632e-03+j1.91145637995869810410e-02
  +5.88847132521828475066e-03+j2.35408801444192093688e-02
  +9.02187335980452441431e-03+j2.86494875531849955974e-02
  +1.35820059905551304008e-02+j3.42597389413293387794e-02
  +1.99418441774564282609e-02+j3.99563170042947085614e-02
  +2.83043199675102469248e-02+j4.50477243368388735600e-02
  +3.84876860441398932489e-02+j4.86566195638549192637e-02
  +4.97904508275828425190e-02+j4.99995608895152099382e-02
  +6.11146729882277861545e-02+j4.87489901881542550544e-02
  +7.13542541626490389728e-02+j4.52105720949977224477e-02
  +7.97891677135622034989e-02+j4.01572594549636091577e-02
  +8.62200256001016129837e-02+j3.44689678628180770636e-02
  +9.08395801037892580698e-02+j2.88466409993638761566e-02
  +9.40179370233566596982e-02+j2.37154215692617909017e-02
  +9.61403667612113210783e-02+j1.92630878921554553329e-02
  +9.75295476968142394103e-02+j1.55223096134647527145e-02
  +9.84269080600607138010e-02+j1.24432542263841414143e-02
  +9.90016502872287096348e-02+j9.94174376697261330538e-03
  +9.93677545113684362876e-02+j7.92621060187413510600e-03
  +9.96001471064541371581e-02+j6.31073743853361335959e-03
  +9.97473370436391948424e-02+j5.02020488292707206535e-03
  +9.98404316650518819376e-02+j3.99141221139755458108e-03
  +9.98992598637480494483e-02+j3.17235953986041594940e-03
  +9.99364136313845990989e-02+j2.52083193316571512604e-03
  +9.99598702968440971928e-02+j2.00283796711439501109e-03
  +9.99746761187034899132e-02+j1.59114638883029076155e-03
  +9.99840202176999065520e-02+j1.26401063150901661093e-03
  +9.99899168443685593122e-02+j1.00409854751264408963e-03
  +9.99936377221511685232e-02+j7.97613506847031543748e-04
  +9.99959855798069896515e-02+j6.33581805082156354278e-04
  +9.99974670345697147500e-02+j5.03279372829430228509e-04
  +9.99984017919188367118e-02+j3.99772752757655966058e-04
  +9.99989915929255374083e-02+j3.17552657936515461429e-04
  +9.99993637357823178524e-02+j2.52241980917202607022e-04
  +9.99995985434761758270e-02+j2.00363397895879933111e-04
  +9.99997466976825233331e-02+j1.59154539948736114229e-04
</dep>
