<Qucs Dataset 0.0.24>
<indep frequency 56>
1.000000000000e-01
1.232846739442e-01
1.519911082953e-01
1.873817422860e-01
2.310129700083e-01
2.848035868436e-01
3.511191734215e-01
4.328761281083e-01
5.336699231206e-01
6.579332246576e-01
8.111308307897e-01
1.000000000000e+00
1.232846739442e+00
1.519911082953e+00
1.873817422860e+00
2.310129700083e+00
2.848035868436e+00
3.511191734215e+00
4.328761281083e+00
5.336699231206e+00
6.579332246576e+00
8.111308307897e+00
1.000000000000e+01
1.232846739442e+01
1.519911082953e+01
1.873817422860e+01
2.310129700083e+01
2.848035868436e+01
3.511191734215e+01
4.328761281083e+01
5.336699231206e+01
6.579332246576e+01
8.111308307897e+01
1.000000000000e+02
1.232846739442e+02
1.519911082953e+02
1.873817422860e+02
2.310129700083e+02
2.848035868436e+02
3.511191734215e+02
4.328761281083e+02
5.336699231206e+02
6.579332246576e+02
8.111308307897e+02
1.000000000000e+03
1.232846739442e+03
1.519911082953e+03
1.873817422860e+03
2.310129700083e+03
2.848035868436e+03
3.511191734215e+03
4.328761281083e+03
5.336699231206e+03
6.579332246576e+03
8.111308307897e+03
1.000000000000e+04
</indep>
<dep ac.v(a) frequency>
3.947685912043e-05+j6.282937266758e-03
6.000008422819e-05+j7.745739746343e-03
9.119194829026e-05+j9.549012112194e-03
1.385970817585e-04+j1.177191032108e-02
2.106400622947e-04+j1.451191555443e-02
3.201191076387e-04+j1.788900867560e-02
4.864716144052e-04+j2.205073603700e-02
7.392066366675e-04+j2.717830403494e-02
1.123096729193e-03+j3.349381111385e-02
1.706011008296e-03+j4.126863863439e-02
2.590687166910e-03+j5.083281919108e-02
3.932317592827e-03+j6.258477827057e-02
5.964578775158e-03+j7.700001672203e-02
9.037603320216e-03+j9.463574930460e-02
1.367211161351e-02+j1.161257291798e-01
2.063372363511e-02+j1.421547504801e-01
3.102856010173e-02+j1.733948919655e-01
4.641193083533e-02+j2.103755297354e-01
6.887993002723e-02+j2.532498475156e-01
1.010718409724e-01+j3.014238277489e-01
1.459507378508e-01+j3.530568225819e-01
2.061864279387e-01+j4.045659215413e-01
2.830431996751e-01+j4.504772433684e-01
3.750143920682e-01+j4.841266340638e-01
4.769881726394e-01+j4.994701750871e-01
5.809171347736e-01+j4.934089756987e-01
6.781300031721e-01+j4.671934310004e-01
7.620303286964e-01+j4.258404711195e-01
8.295575746149e-01+j3.760210167184e-01
8.809174312590e-01+j3.238856442682e-01
9.183246419719e-01+j2.738694833658e-01
9.447185927940e-01+j2.285287142206e-01
9.629274867631e-01+j1.889395194215e-01
9.752954769681e-01+j1.552230961346e-01
9.836075474958e-01+j1.269792896701e-01
9.891540441909e-01+j1.035776088338e-01
9.928375121957e-01+j8.432785170275e-02
9.952759872391e-01+j6.856891762573e-02
9.968868844809e-01+j5.570838384692e-02
9.979495944044e-01+j4.523495807942e-02
9.986500231938e-01+j3.671722169220e-02
9.991113950647e-01+j2.979622990446e-02
9.994151795262e-01+j2.417598930430e-02
9.996151501915e-01+j1.961381398703e-02
9.997467611870e-01+j1.591146388830e-02
9.998333713370e-01+j1.290739702070e-02
9.998903632174e-01+j1.047018444966e-02
9.999278636127e-01+j8.493007925305e-03
9.999525379030e-01+j6.889110566338e-03
9.999687726025e-01+j5.588060700395e-03
9.999794542382e-01+j4.532696736025e-03
9.999864821657e-01+j3.676635908689e-03
9.999911061265e-01+j2.982246529040e-03
9.999941484074e-01+j2.418999464039e-03
9.999961500351e-01+j1.962128972413e-03
9.999974669768e-01+j1.591545399487e-03
</dep>
<dep ac.v(uut) frequency>
3.947685912043e-06+j6.282937266758e-04
6.000008422819e-06+j7.745739746343e-04
9.119194829026e-06+j9.549012112194e-04
1.385970817585e-05+j1.177191032108e-03
2.106400622947e-05+j1.451191555443e-03
3.201191076387e-05+j1.788900867560e-03
4.864716144052e-05+j2.205073603700e-03
7.392066366675e-05+j2.717830403494e-03
1.123096729193e-04+j3.349381111385e-03
1.706011008296e-04+j4.126863863439e-03
2.590687166910e-04+j5.083281919108e-03
3.932317592827e-04+j6.258477827057e-03
5.964578775158e-04+j7.700001672203e-03
9.037603320216e-04+j9.463574930460e-03
1.367211161351e-03+j1.161257291798e-02
2.063372363511e-03+j1.421547504801e-02
3.102856010173e-03+j1.733948919655e-02
4.641193083533e-03+j2.103755297354e-02
6.887993002723e-03+j2.532498475156e-02
1.010718409724e-02+j3.014238277489e-02
1.459507378508e-02+j3.530568225819e-02
2.061864279387e-02+j4.045659215413e-02
2.830431996751e-02+j4.504772433684e-02
3.750143920682e-02+j4.841266340638e-02
4.769881726394e-02+j4.994701750871e-02
5.809171347736e-02+j4.934089756987e-02
6.781300031721e-02+j4.671934310004e-02
7.620303286964e-02+j4.258404711195e-02
8.295575746149e-02+j3.760210167184e-02
8.809174312590e-02+j3.238856442682e-02
9.183246419719e-02+j2.738694833658e-02
9.447185927940e-02+j2.285287142206e-02
9.629274867631e-02+j1.889395194215e-02
9.752954769681e-02+j1.552230961346e-02
9.836075474958e-02+j1.269792896701e-02
9.891540441909e-02+j1.035776088338e-02
9.928375121957e-02+j8.432785170275e-03
9.952759872391e-02+j6.856891762573e-03
9.968868844809e-02+j5.570838384692e-03
9.979495944044e-02+j4.523495807942e-03
9.986500231938e-02+j3.671722169220e-03
9.991113950647e-02+j2.979622990446e-03
9.994151795262e-02+j2.417598930430e-03
9.996151501915e-02+j1.961381398703e-03
9.997467611870e-02+j1.591146388830e-03
9.998333713370e-02+j1.290739702070e-03
9.998903632174e-02+j1.047018444966e-03
9.999278636127e-02+j8.493007925305e-04
9.999525379030e-02+j6.889110566338e-04
9.999687726025e-02+j5.588060700395e-04
9.999794542382e-02+j4.532696736025e-04
9.999864821657e-02+j3.676635908689e-04
9.999911061265e-02+j2.982246529040e-04
9.999941484074e-02+j2.418999464039e-04
9.999961500351e-02+j1.962128972413e-04
9.999974669768e-02+j1.591545399487e-04
</dep>
<dep ac.vuut_db frequency>
-6.403657408204e+01+j0.000000000000e+00
-6.221848139953e+01+j0.000000000000e+00
-6.040043505613e+01+j0.000000000000e+00
-5.858245913949e+01+j0.000000000000e+00
-5.676459025464e+01+j0.000000000000e+00
-5.494688402412e+01+j0.000000000000e+00
-5.312942495718e+01+j0.000000000000e+00
-5.131234142633e+01+j0.000000000000e+00
-4.949582837554e+01+j0.000000000000e+00
-4.768018170808e+01+j0.000000000000e+00
-4.586585026183e+01+j0.000000000000e+00
-4.405351413718e+01+j0.000000000000e+00
-4.224420221245e+01+j0.000000000000e+00
-4.043946724702e+01+j0.000000000000e+00
-3.864164404871e+01+j0.000000000000e+00
-3.685422390628e+01+j0.000000000000e+00
-3.508238377635e+01+j0.000000000000e+00
-3.333370363628e+01+j0.000000000000e+00
-3.161907302739e+01+j0.000000000000e+00
-2.995369823773e+01+j0.000000000000e+00
-2.835793705104e+01+j0.000000000000e+00
-2.685739925208e+01+j0.000000000000e+00
-2.548147274904e+01+j0.000000000000e+00
-2.425952064870e+01+j0.000000000000e+00
-2.321492389558e+01+j0.000000000000e+00
-2.235885813354e+01+j0.000000000000e+00
-2.168687040280e+01+j0.000000000000e+00
-2.118027743459e+01+j0.000000000000e+00
-2.081153466819e+01+j0.000000000000e+00
-2.055064796275e+01+j0.000000000000e+00
-2.037003761835e+01+j0.000000000000e+00
-2.024697537308e+01+j0.000000000000e+00
-2.016406416182e+01+j0.000000000000e+00
-2.010863789864e+01+j0.000000000000e+00
-2.007178147458e+01+j0.000000000000e+00
-2.004736069037e+01+j0.000000000000e+00
-2.003121822331e+01+j0.000000000000e+00
-2.002056473912e+01+j0.000000000000e+00
-2.001354117749e+01+j0.000000000000e+00
-2.000891394008e+01+j0.000000000000e+00
-2.000586683571e+01+j0.000000000000e+00
-2.000386087785e+01+j0.000000000000e+00
-2.000254058601e+01+j0.000000000000e+00
-2.000167170318e+01+j0.000000000000e+00
-2.000109994147e+01+j0.000000000000e+00
-2.000072371939e+01+j0.000000000000e+00
-2.000047617260e+01+j0.000000000000e+00
-2.000031329565e+01+j0.000000000000e+00
-2.000020613016e+01+j0.000000000000e+00
-2.000013562098e+01+j0.000000000000e+00
-2.000008923003e+01+j0.000000000000e+00
-2.000005870761e+01+j0.000000000000e+00
-2.000003862577e+01+j0.000000000000e+00
-2.000002541322e+01+j0.000000000000e+00
-2.000001672022e+01+j0.000000000000e+00
-2.000001100079e+01+j0.000000000000e+00
</dep>
<dep ac.va_db frequency>
-4.403657408204e+01+j0.000000000000e+00
-4.221848139953e+01+j0.000000000000e+00
-4.040043505613e+01+j0.000000000000e+00
-3.858245913949e+01+j0.000000000000e+00
-3.676459025464e+01+j0.000000000000e+00
-3.494688402412e+01+j0.000000000000e+00
-3.312942495718e+01+j0.000000000000e+00
-3.131234142633e+01+j0.000000000000e+00
-2.949582837554e+01+j0.000000000000e+00
-2.768018170808e+01+j0.000000000000e+00
-2.586585026183e+01+j0.000000000000e+00
-2.405351413718e+01+j0.000000000000e+00
-2.224420221245e+01+j0.000000000000e+00
-2.043946724702e+01+j0.000000000000e+00
-1.864164404871e+01+j0.000000000000e+00
-1.685422390628e+01+j0.000000000000e+00
-1.508238377635e+01+j0.000000000000e+00
-1.333370363628e+01+j0.000000000000e+00
-1.161907302739e+01+j0.000000000000e+00
-9.953698237732e+00+j0.000000000000e+00
-8.357937051040e+00+j0.000000000000e+00
-6.857399252084e+00+j0.000000000000e+00
-5.481472749043e+00+j0.000000000000e+00
-4.259520648700e+00+j0.000000000000e+00
-3.214923895576e+00+j0.000000000000e+00
-2.358858133536e+00+j0.000000000000e+00
-1.686870402804e+00+j0.000000000000e+00
-1.180277434591e+00+j0.000000000000e+00
-8.115346681885e-01+j0.000000000000e+00
-5.506479627476e-01+j0.000000000000e+00
-3.700376183476e-01+j0.000000000000e+00
-2.469753730772e-01+j0.000000000000e+00
-1.640641618221e-01+j0.000000000000e+00
-1.086378986432e-01+j0.000000000000e+00
-7.178147457526e-02+j0.000000000000e+00
-4.736069037335e-02+j0.000000000000e+00
-3.121822331440e-02+j0.000000000000e+00
-2.056473912482e-02+j0.000000000000e+00
-1.354117749274e-02+j0.000000000000e+00
-8.913940080609e-03+j0.000000000000e+00
-5.866835713842e-03+j0.000000000000e+00
-3.860877851433e-03+j0.000000000000e+00
-2.540586012666e-03+j0.000000000000e+00
-1.671703179860e-03+j0.000000000000e+00
-1.099941470559e-03+j0.000000000000e+00
-7.237193863818e-04+j0.000000000000e+00
-4.761726006099e-04+j0.000000000000e+00
-3.132956495349e-04+j0.000000000000e+00
-2.061301601890e-04+j0.000000000000e+00
-1.356209819224e-04+j0.000000000000e+00
-8.923002654162e-05+j0.000000000000e+00
-5.870760539903e-05+j0.000000000000e+00
-3.862577343518e-05+j0.000000000000e+00
-2.541321832841e-05+j0.000000000000e+00
-1.672021741835e-05+j0.000000000000e+00
-1.100079380597e-05+j0.000000000000e+00
</dep>
<dep ac.vuut_phase frequency>
8.964002338638e+01+j0.000000000000e+00
8.955620268216e+01+j0.000000000000e+00
8.945286725332e+01+j0.000000000000e+00
8.932547547781e+01+j0.000000000000e+00
8.916843025656e+01+j0.000000000000e+00
8.897483501735e+01+j0.000000000000e+00
8.873619444803e+01+j0.000000000000e+00
8.844204843413e+01+j0.000000000000e+00
8.807952616004e+01+j0.000000000000e+00
8.763280647236e+01+j0.000000000000e+00
8.708247140664e+01+j0.000000000000e+00
8.640474419613e+01+j0.000000000000e+00
8.557061475911e+01+j0.000000000000e+00
8.454488121316e+01+j0.000000000000e+00
8.328518690731e+01+j0.000000000000e+00
8.174122772166e+01+j0.000000000000e+00
7.985447202348e+01+j0.000000000000e+00
7.755900908857e+01+j0.000000000000e+00
7.478453748045e+01+j0.000000000000e+00
7.146295519328e+01+j0.000000000000e+00
6.754022199363e+01+j0.000000000000e+00
6.299441477585e+01+j0.000000000000e+00
5.785810440169e+01+j0.000000000000e+00
5.223791531588e+01+j0.000000000000e+00
4.631895612976e+01+j0.000000000000e+00
4.034331847105e+01+j0.000000000000e+00
3.456466367524e+01+j0.000000000000e+00
2.919749173761e+01+j0.000000000000e+00
2.438379311754e+01+j0.000000000000e+00
2.018689249049e+01+j0.000000000000e+00
1.660602070351e+01+j0.000000000000e+00
1.359869839356e+01+j0.000000000000e+00
1.110118589722e+01+j0.000000000000e+00
9.043062960394e+00+j0.000000000000e+00
7.355943958167e+00+j0.000000000000e+00
5.977847551704e+00+j0.000000000000e+00
4.854835015312e+00+j0.000000000000e+00
3.941130204876e+00+j0.000000000000e+00
3.198496895005e+00+j0.000000000000e+00
2.595321335359e+00+j0.000000000000e+00
2.105637658736e+00+j0.000000000000e+00
1.708210643653e+00+j0.000000000000e+00
1.385722749032e+00+j0.000000000000e+00
1.124077410861e+00+j0.000000000000e+00
9.118138593113e-01+j0.000000000000e+00
7.396216909171e-01+j0.000000000000e+00
5.999413555619e-01+j0.000000000000e+00
4.866370137774e-01+j0.000000000000e+00
3.947295320420e-01+j0.000000000000e+00
3.201790260051e-01+j0.000000000000e+00
2.597080040925e-01+j0.000000000000e+00
2.106576626268e-01+j0.000000000000e+00
1.708711882691e-01+j0.000000000000e+00
1.385990294522e-01+j0.000000000000e+00
1.124220209156e-01+j0.000000000000e+00
9.118900725469e-02+j0.000000000000e+00
</dep>
