<Qucs Dataset 0.0.21>
<indep frequency 56>
1.000000000000e-01
1.232846739442e-01
1.519911082953e-01
1.873817422860e-01
2.310129700083e-01
2.848035868436e-01
3.511191734215e-01
4.328761281083e-01
5.336699231206e-01
6.579332246576e-01
8.111308307897e-01
1.000000000000e+00
1.232846739442e+00
1.519911082953e+00
1.873817422860e+00
2.310129700083e+00
2.848035868436e+00
3.511191734215e+00
4.328761281083e+00
5.336699231206e+00
6.579332246576e+00
8.111308307897e+00
1.000000000000e+01
1.232846739442e+01
1.519911082953e+01
1.873817422860e+01
2.310129700083e+01
2.848035868436e+01
3.511191734215e+01
4.328761281083e+01
5.336699231206e+01
6.579332246576e+01
8.111308307897e+01
1.000000000000e+02
1.232846739442e+02
1.519911082953e+02
1.873817422860e+02
2.310129700083e+02
2.848035868436e+02
3.511191734215e+02
4.328761281083e+02
5.336699231206e+02
6.579332246576e+02
8.111308307897e+02
1.000000000000e+03
1.232846739442e+03
1.519911082953e+03
1.873817422860e+03
2.310129700083e+03
2.848035868436e+03
3.511191734215e+03
4.328761281083e+03
5.336699231206e+03
6.579332246576e+03
8.111308307897e+03
1.000000000000e+04
</indep>
<dep ac.v(uut) frequency>
-9.999010281473e+00+j6.283329628292e-02
-9.998784496012e+00+j7.746190040701e-02
-9.998441343666e+00+j9.549504626665e-02
-9.997919832224e+00+j1.177240018015e-01
-9.997127295791e+00+j1.451229966778e-01
-9.995922975526e+00+j1.788907051402e-01
-9.994093126905e+00+j2.205004126690e-01
-9.991313330520e+00+j2.717600410112e-01
-9.987091543181e+00+j3.348827480744e-01
-9.980682312485e+00+j4.125676315430e-01
-9.970958163450e+00+j5.080874636710e-01
-9.956218177907e+00+j6.253751306911e-01
-9.933906309112e+00+j7.690903720739e-01
-9.900204204968e+00+j9.446298905288e-01
-9.849459297804e+00+j1.158011395232e+00
-9.773419094397e+00+j1.415508592630e+00
-9.660290077038e+00+j1.722834684394e+00
-9.493768324589e+00+j2.083576791183e+00
-9.252464490702e+00+j2.496530762223e+00
-8.910616780853e+00+j2.951739751209e+00
-8.441536318764e+00+j3.425719056345e+00
-7.825278037612e+00+j3.877874227304e+00
-7.060360269260e+00+j4.252105938863e+00
-6.175127050718e+00+j4.487838366056e+00
-5.229986187843e+00+j4.539873231772e+00
-4.303878959955e+00+j4.397472934124e+00
-3.469675800449e+00+j4.089367670008e+00
-2.773335905801e+00+j3.670755634508e+00
-2.228077031778e+00+j3.202152113648e+00
-1.822108943500e+00+j2.733072899612e+00
-1.531052495265e+00+j2.295817166767e+00
-1.327985470247e+00+j1.906903040723e+00
-1.188984162863e+00+j1.571592316978e+00
-1.095074177724e+00+j1.288417530534e+00
-1.032188079244e+00+j1.052534012919e+00
-9.903264910472e-01+j8.578250348706e-01
-9.625705121831e-01+j6.980716698630e-01
-9.442154256871e-01+j5.675253302935e-01
-9.320982245819e-01+j4.611357413010e-01
-9.241081240185e-01+j3.745961526895e-01
-9.188433516195e-01+j3.043004700836e-01
-9.153759446209e-01+j2.472642535541e-01
-9.130928652328e-01+j2.010364345641e-01
-9.115896503052e-01+j1.636146276250e-01
-9.105996416476e-01+j1.333694614613e-01
-9.099470664029e-01+j1.089795575385e-01
-9.095159953398e-01+j8.937696685121e-02
-9.092298201767e-01+j7.370209947864e-02
-9.090376702585e-01+j6.126693306578e-02
-9.089053833016e-01+j5.152529282641e-02
-9.088094376139e-01+j4.404911459692e-02
-9.087327724553e-01+j3.850976198424e-02
-9.086617558526e-01+j3.466363393713e-02
-9.085837620805e-01+j3.234145431715e-02
-9.084849293472e-01+j3.144077351481e-02
-9.083477012020e-01+j3.192133042020e-02
</dep>
<dep ac.vuut_db frequency>
1.999931178989e+01+j0.000000000000e+00
1.999920480974e+01+j0.000000000000e+00
1.999904221455e+01+j0.000000000000e+00
1.999879509616e+01+j0.000000000000e+00
1.999841952557e+01+j0.000000000000e+00
1.999784875489e+01+j0.000000000000e+00
1.999698138023e+01+j0.000000000000e+00
1.999566338506e+01+j0.000000000000e+00
1.999366092801e+01+j0.000000000000e+00
1.999061916787e+01+j0.000000000000e+00
1.998600010687e+01+j0.000000000000e+00
1.997898909625e+01+j0.000000000000e+00
1.996835497248e+01+j0.000000000000e+00
1.995224258252e+01+j0.000000000000e+00
1.992786899887e+01+j0.000000000000e+00
1.989108768720e+01+j0.000000000000e+00
1.983578316908e+01+j0.000000000000e+00
1.975307381383e+01+j0.000000000000e+00
1.963035492576e+01+j0.000000000000e+00
1.945034364035e+01+j0.000000000000e+00
1.919052381769e+01+j0.000000000000e+00
1.882370173130e+01+j0.000000000000e+00
1.832055809768e+01+j0.000000000000e+00
1.765466536952e+01+j0.000000000000e+00
1.680908191189e+01+j0.000000000000e+00
1.578193712922e+01+j0.000000000000e+00
1.458812711392e+01+j0.000000000000e+00
1.325635487781e+01+j0.000000000000e+00
1.182360588209e+01+j0.000000000000e+00
1.033012125830e+01+j0.000000000000e+00
8.816641022012e+00+j0.000000000000e+00
7.323796543450e+00+j0.000000000000e+00
5.892328989026e+00+j0.000000000000e+00
4.562456269272e+00+j0.000000000000e+00
3.371077057725e+00+j0.000000000000e+00
2.346717265271e+00+j0.000000000000e+00
1.504021219814e+00+j0.000000000000e+00
8.408550556170e-01+j0.000000000000e+00
3.400775902663e-01+j0.000000000000e+00
-2.483389389749e-02+j0.000000000000e+00
-2.831979568518e-01+j0.000000000000e+00
-4.621483535925e-01+j0.000000000000e+00
-5.841193726950e-01+j0.000000000000e+00
-6.663145734956e-01+j0.000000000000e+00
-7.212729558623e-01+j0.000000000000e+00
-7.578265308236e-01+j0.000000000000e+00
-7.820556869530e-01+j0.000000000000e+00
-7.980836885696e-01+j0.000000000000e+00
-8.086795222191e-01+j0.000000000000e+00
-8.156919991908e-01+j0.000000000000e+00
-8.203527475525e-01+j0.000000000000e+00
-8.234839173461e-01+j0.000000000000e+00
-8.256394422213e-01+j0.000000000000e+00
-8.272013937047e-01+j0.000000000000e+00
-8.284469864781e-01+j0.000000000000e+00
-8.295974575364e-01+j0.000000000000e+00
</dep>
<dep ac.vuut_phase frequency>
1.796399982089e+02+j0.000000000000e+00
1.795561682853e+02+j0.000000000000e+00
1.794528223668e+02+j0.000000000000e+00
1.793254193010e+02+j0.000000000000e+00
1.791683632365e+02+j0.000000000000e+00
1.789747603915e+02+j0.000000000000e+00
1.787361212381e+02+j0.000000000000e+00
1.784419971805e+02+j0.000000000000e+00
1.780795398089e+02+j0.000000000000e+00
1.776329709235e+02+j0.000000000000e+00
1.770829541160e+02+j0.000000000000e+00
1.764058663996e+02+j0.000000000000e+00
1.755729860198e+02+j0.000000000000e+00
1.745496487309e+02+j0.000000000000e+00
1.732944941046e+02+j0.000000000000e+00
1.717590488854e+02+j0.000000000000e+00
1.698881076806e+02+j0.000000000000e+00
1.676217027101e+02+j0.000000000000e+00
1.648998943625e+02+j0.000000000000e+00
1.616720139540e+02+j0.000000000000e+00
1.579118816977e+02+j0.000000000000e+00
1.536389774603e+02+j0.000000000000e+00
1.489415541070e+02+j0.000000000000e+00
1.439918570742e+02+j0.000000000000e+00
1.390405161740e+02+j0.000000000000e+00
1.343837636143e+02+j0.000000000000e+00
1.303133883399e+02+j0.000000000000e+00
1.270718685465e+02+j0.000000000000e+00
1.248304586046e+02+j0.000000000000e+00
1.236909690462e+02+j0.000000000000e+00
1.236988645257e+02+j0.000000000000e+00
1.248537472679e+02+j0.000000000000e+00
1.271092609826e+02+j0.000000000000e+00
1.303624795934e+02+j0.000000000000e+00
1.344408651322e+02+j0.000000000000e+00
1.391007786609e+02+j0.000000000000e+00
1.440498017182e+02+j0.000000000000e+00
1.489918520199e+02+j0.000000000000e+00
1.536771085613e+02+j0.000000000000e+00
1.579343845019e+02+j0.000000000000e+00
1.616763120540e+02+j0.000000000000e+00
1.648838816752e+02+j0.000000000000e+00
1.675832794649e+02+j0.000000000000e+00
1.698247697300e+02+j0.000000000000e+00
1.716675491139e+02+j0.000000000000e+00
1.731705520519e+02+j0.000000000000e+00
1.743876731564e+02+j0.000000000000e+00
1.753657773935e+02+j0.000000000000e+00
1.761442712730e+02+j0.000000000000e+00
1.767554466402e+02+j0.000000000000e+00
1.772251374595e+02+j0.000000000000e+00
1.775734408013e+02+j0.000000000000e+00
1.778153766102e+02+j0.000000000000e+00
1.779614282692e+02+j0.000000000000e+00
1.780179403689e+02+j0.000000000000e+00
1.779873659346e+02+j0.000000000000e+00
</dep>
