<Qucs Dataset 0.0.19>
<indep acfrequency 51>
  +1.00000000000000005551e-01
  +1.25892541179416728170e-01
  +1.58489319246111370898e-01
  +1.99526231496887973549e-01
  +2.51188643150958013095e-01
  +3.16227766016837996688e-01
  +3.98107170553497313747e-01
  +5.01187233627272354930e-01
  +6.30957344480193360603e-01
  +7.94328234724281823098e-01
  +1.00000000000000022204e+00
  +1.25892541179416750374e+00
  +1.58489319246111382000e+00
  +1.99526231496887973549e+00
  +2.51188643150958101913e+00
  +3.16227766016838041097e+00
  +3.98107170553497358156e+00
  +5.01187233627272377134e+00
  +6.30957344480193693670e+00
  +7.94328234724282022938e+00
  +1.00000000000000053291e+01
  +1.25892541179416781461e+01
  +1.58489319246111399764e+01
  +1.99526231496888044603e+01
  +2.51188643150958057504e+01
  +3.16227766016837961160e+01
  +3.98107170553497269339e+01
  +5.01187233627272732406e+01
  +6.30957344480193853542e+01
  +7.94328234724282111756e+01
  +1.00000000000000071054e+02
  +1.25892541179416809882e+02
  +1.58489319246111449502e+02
  +1.99526231496888044603e+02
  +2.51188643150958114347e+02
  +3.16227766016838074847e+02
  +3.98107170553497724086e+02
  +5.01187233627272462400e+02
  +6.30957344480193910385e+02
  +7.94328234724281628587e+02
  +1.00000000000000090949e+03
  +1.25892541179416730301e+03
  +1.58489319246111472239e+03
  +1.99526231496888294714e+03
  +2.51188643150958159822e+03
  +3.16227766016838404539e+03
  +3.98107170553497417131e+03
  +5.01187233627272962622e+03
  +6.30957344480193478375e+03
  +7.94328234724282447132e+03
  +1.00000000000000018190e+04
</indep>
<dep Uut_fas acfrequency>
  +1.79639960835882106949e+02
  +1.79546742187382932343e+02
  +1.79429391479880308680e+02
  +1.79281664905258992349e+02
  +1.79095706546368830914e+02
  +1.78861635506867401091e+02
  +1.78567030654028030767e+02
  +1.78196290939145541188e+02
  +1.77729847967935796760e+02
  +1.77143210171277331710e+02
  +1.76405829699887391371e+02
  +1.75479814168408296382e+02
  +1.74318574882924934855e+02
  +1.72865646004153205695e+02
  +1.71054182837950804696e+02
  +1.68808132186732535729e+02
  +1.66046828831622150346e+02
  +1.62695714024658343533e+02
  +1.58706370345266009281e+02
  +1.54087427854764882795e+02
  +1.48941523124552247737e+02
  +1.43492085796495672412e+02
  +1.38075836112225005081e+02
  +1.33088762899443509014e+02
  +1.28906034478394417420e+02
  +1.25818269239750350152e+02
  +1.24010498084641085370e+02
  +1.23575179918114059774e+02
  +1.24532486654838592699e+02
  +1.26836578199720719340e+02
  +1.30362452482864455305e+02
  +1.34885222093989767700e+02
  +1.40077182805747384009e+02
  +1.45545772824591125527e+02
  +1.50908267185448295322e+02
  +1.55866524874690043134e+02
  +1.60243833905270349760e+02
  +1.63976758585013556058e+02
  +1.67081811653688589558e+02
  +1.69619524164658514565e+02
  +1.71667513499444908120e+02
  +1.73304261346633012408e+02
  +1.74601011464262256823e+02
  +1.75618646648696341117e+02
  +1.76407199661695045734e+02
  +1.77006558806164122188e+02
  +1.77447581370177061899e+02
  +1.77753221241601693237e+02
  +1.77939490585264707079e+02
  +1.78016182460659479148e+02
  +1.77987329904868602171e+02
</dep>
<dep Uut_dB acfrequency>
  +1.99993117898906227481e+01
  +1.99991914388002491876e+01
  +1.99990007021216875671e+01
  +1.99986984223023682716e+01
  +1.99982193848854805651e+01
  +1.99974602717664566853e+01
  +1.99962574348100261545e+01
  +1.99943517602200557803e+01
  +1.99913332099120708563e+01
  +1.99865534951442072042e+01
  +1.99789890962512863837e+01
  +1.99670277050218203385e+01
  +1.99481385277926683841e+01
  +1.99183712834054524876e+01
  +1.98716143441703394501e+01
  +1.97985427717193012143e+01
  +1.96852352304158699781e+01
  +1.95116007138556994960e+01
  +1.92501237518681200811e+01
  +1.88660370183886598738e+01
  +1.83205580979949580467e+01
  +1.75783554725997070989e+01
  +1.66179363828546371451e+01
  +1.54402100018181354102e+01
  +1.40700255852802449397e+01
  +1.25501188160961376639e+01
  +1.09321925487883895300e+01
  +9.27036750614391102943e+00
  +7.61876059660845594834e+00
  +6.03155488510156878590e+00
  +4.56245627019268340518e+00
  +3.26075885278812904744e+00
  +2.16346810524833532696e+00
  +1.28674967852583366223e+00
  +6.22406186900432256692e-01
  +1.42475731587411308388e-01
  -1.90812047303377974039e-01
  -4.15364362111576235215e-01
  -5.63385087135937379088e-01
  -6.59495222450771523270e-01
  -7.21272954954224054802e-01
  -7.60722954797409034455e-01
  -7.85812470248084649072e-01
  -8.01734047753563494609e-01
  -8.11834322715402345594e-01
  -8.18257276762348828569e-01
  -8.22374826786216761576e-01
  -8.25069959599021629515e-01
  -8.26922103954091713973e-01
  -8.28330103708453835409e-01
  -8.29597453778231797017e-01
</dep>
<dep V1.i acfrequency>
  -9.99949504082201087382e-04+j6.92487929738034418844e-10
  -9.99949501680440656221e-04+j8.71769752530544743431e-10
  -9.99949497874181962576e-04+j1.09745139756681700354e-09
  -9.99949491842358701224e-04+j1.38152626542170132248e-09
  -9.99949482284297327603e-04+j1.73907257245356570554e-09
  -9.99949467140144902452e-04+j2.18903163551374593685e-09
  -9.99949443149211530599e-04+j2.75516738441803329898e-09
  -9.99949405153577114067e-04+j3.46723397448570071755e-09
  -9.99949345003363961742e-04+j4.36236567705525510341e-09
  -9.99949249844151637559e-04+j5.48666833894835657153e-09
  -9.99949099458600186574e-04+j6.89691145105422138959e-09
  -9.99948862191682484937e-04+j8.66205065775002275219e-09
  -9.99948488833025343064e-04+j1.08639746834861256332e-08
  -9.99947903747265554042e-04+j1.35962423952679703315e-08
  -9.99946992781522827134e-04+j1.69584902817632362221e-08
  -9.99945588623177674184e-04+j2.10425553818924100188e-08
  -9.99943457469413361435e-04+j2.59045693710411390481e-08
  -9.99940297654118960893e-04+j3.15172862479280876079e-08
  -9.99935771384461054290e-04+j3.77039106943716126281e-08
  -9.99929597841231476707e-04+j4.40768680099741793929e-08
  -9.99921717417762969879e-04+j5.00425130514045109520e-08
  -9.99912467149522560250e-04+j5.49504776074129336619e-08
  -9.99902619776594408021e-04+j5.83910157346777438531e-08
  -9.99893169440586957603e-04+j6.04769465232831198799e-08
  -9.99884960880501180366e-04+j6.18847190869966242161e-08
  -9.99878425986450158902e-04+j6.36258656988193108278e-08
  -9.99873574917453352209e-04+j6.67544027363406096120e-08
  -9.99870157154039707059e-04+j7.22050755541490821635e-08
  -9.99867836201467647533e-04+j8.07910790003290663365e-08
  -9.99866298044833250527e-04+j9.32896800330225993401e-08
  -9.99865293206066369294e-04+j1.10548981774124232322e-07
  -9.99864639921418203380e-04+j1.33587477798914885091e-07
  -9.99864211778707248982e-04+j1.63684559670992092673e-07
  -9.99863922336731653431e-04+j2.02470219918417588060e-07
  -9.99863711539184267171e-04+j2.52023863948967367116e-07
  -9.99863534859374812613e-04+j3.14991468979733067792e-07
  -9.99863354551399447986e-04+j3.94729840572788815471e-07
  -9.99863131851912341486e-04+j4.95487086737876674301e-07
  -9.99862818753648229311e-04+j6.22629697199822083593e-07
  -9.99862347699547772406e-04+j7.82928720020939659458e-07
  -9.99861617023515723487e-04+j9.84920462323609985776e-07
  -9.99860469015894249428e-04+j1.23936097978083494620e-06
  -9.99858655888253384722e-04+j1.55979850769896318552e-06
  -9.99855786296888942102e-04+j1.96329413476902122664e-06
  -9.99851240890064357769e-04+j2.47132869130039976261e-06
  -9.99844038667102455800e-04+j3.11094331471113110367e-06
  -9.99832625345168637607e-04+j3.91617276064759666459e-06
  -9.99814538158406854521e-04+j4.92984445079085337475e-06
  -9.99785875001649691762e-04+j6.20583240416965155664e-06
  -9.99740453999617894806e-04+j7.81187280614691653322e-06
  -9.99668483767058744724e-04+j9.83306470263546190090e-06
</dep>
<dep _net1.v acfrequency>
  +5.04959177989306901859e-05+j6.92487929738034293113e-07
  +5.04983195593362510435e-05+j8.71769752530544834421e-07
  +5.05021258181278062021e-05+j1.09745139756681735758e-06
  +5.05081576412929348025e-05+j1.38152626542170140189e-06
  +5.05177157027435276321e-05+j1.73907257245356563606e-06
  +5.05328598551611497510e-05+j2.18903163551374603280e-06
  +5.05568507884039222461e-05+j2.75516738441803337177e-06
  +5.05948464228235783016e-05+j3.46723397448570120724e-06
  +5.06549966361475247794e-05+j4.36236567705525434240e-06
  +5.07501558483312295101e-05+j5.48666833894835719357e-06
  +5.09005413998643766837e-05+j6.89691145105422039697e-06
  +5.11378083174392227862e-05+j8.66205065775002108460e-06
  +5.15111669746214957547e-05+j1.08639746834861268641e-05
  +5.20962527344461884477e-05+j1.35962423952679708344e-05
  +5.30072184771212100434e-05+j1.69584902817632361162e-05
  +5.44113768222786599424e-05+j2.10425553818924150216e-05
  +5.65425305867116805665e-05+j2.59045693710411404774e-05
  +5.97023458810377785199e-05+j3.15172862479280876079e-05
  +6.42286155389733438978e-05+j3.77039106943716136868e-05
  +7.04021587685865562166e-05+j4.40768680099741896102e-05
  +7.82825822370913514039e-05+j5.00425130514045013170e-05
  +8.75328504774168731153e-05+j5.49504776074129360972e-05
  +9.73802234056372981869e-05+j5.83910157346777383474e-05
  +1.06830559413102042115e-04+j6.04769465232831272914e-05
  +1.15039119498811854463e-04+j6.18847190869966187103e-05
  +1.21574013549838604205e-04+j6.36258656988193129454e-05
  +1.26425082546723874547e-04+j6.67544027363406060121e-05
  +1.29842845960372006231e-04+j7.22050755541490821635e-05
  +1.32163798532441018876e-04+j8.07910790003290576545e-05
  +1.33701955166718193437e-04+j9.32896800330226035752e-05
  +1.34706793933576251697e-04+j1.10548981774124223322e-04
  +1.35360078581916694947e-04+j1.33587477798914887632e-04
  +1.35788221292846916170e-04+j1.63684559670992100296e-04
  +1.36077663268318785990e-04+j2.02470219918417601189e-04
  +1.36288460815696589211e-04+j2.52023863948967307824e-04
  +1.36465140625235552317e-04+j3.14991468979733011888e-04
  +1.36645448600513795458e-04+j3.94729840572788804459e-04
  +1.36868148087700147730e-04+j4.95487086737876722582e-04
  +1.37181246351744803380e-04+j6.22629697199821941292e-04
  +1.37652300452225696565e-04+j7.82928720020939689951e-04
  +1.38382976484224470837e-04+j9.84920462323610190758e-04
  +1.39530984105735392925e-04+j1.23936097978083492079e-03
  +1.41344111746565323376e-04+j1.55979850769896320924e-03
  +1.44213703110972055925e-04+j1.96329413476902100641e-03
  +1.48759109935635264839e-04+j2.47132869130039936958e-03
  +1.55961332897687450028e-04+j3.11094331471113054802e-03
  +1.67374654831420886011e-04+j3.91617276064759513993e-03
  +1.85461841593098452187e-04+j4.92984445079085262936e-03
  +2.14124998350299835127e-04+j6.20583240416965227493e-03
  +2.59546000382173877846e-04+j7.81187280614691493402e-03
  +3.31516232941246277201e-04+j9.83306470263546096577e-03
</dep>
<dep Uut.v acfrequency>
  -9.99901028147303172489e+00+j6.28332962735638489438e-02
  -9.99875627656069276838e+00+j7.91002230816142126724e-02
  -9.99835373497989188252e+00+j9.95768710983431365458e-02
  -9.99771582259305269247e+00+j1.25351055716716730526e-01
  -9.99670498298097953693e+00+j1.57790078830067015403e-01
  -9.99510337064429954523e+00+j1.98610931968784154567e-01
  -9.99256614218097993785e+00+j2.49966530984729262688e-01
  -9.98854780726149904524e+00+j3.14550012575144921634e-01
  -9.98218645272725169093e+00+j3.95717570235937621259e-01
  -9.97212262340362798341e+00+j4.97626353069839988397e-01
  -9.95621817791804808451e+00+j6.25375130598635253776e-01
  -9.93112535061171364248e+00+j7.85117112196007882474e-01
  -9.89163976163972336053e+00+j9.84078262351642751860e-01
  -9.82976238419157155590e+00+j1.23034734491911401655e+00
  -9.73342066812150363830e+00+j1.53218829873420214760e+00
  -9.58492001740817123334e+00+j1.89645155262538067653e+00
  -9.35953400587394135357e+00+j2.32547032583616353207e+00
  -9.02535919628844141016e+00+j2.81182700275824837277e+00
  -8.54667160266584069461e+00+j3.33111336697597293366e+00
  -7.89377291486167731449e+00+j3.83515090055913532296e+00
  -7.06036026980614916937e+00+j4.25210593852987273067e+00
  -6.08207961257111140441e+00+j4.50180240885113036597e+00
  -5.04065723332632753539e+00+j4.52656178813683141016e+00
  -4.04123599707298808426e+00+j4.32025699574251653701e+00
  -3.17316061692688577978e+00+j3.93169366961695310181e+00
  -2.48211743363542858276e+00+j3.43922874294115299421e+00
  -1.96919728750065603506e+00+j2.91830149043832864919e+00
  -1.60793171785679556152e+00+j2.42240776078539221672e+00
  -1.36277490415614233044e+00+j1.98044325371360607768e+00
  -1.20058260828147012056e+00+j1.60271770411654634891e+00
  -1.09507417807899098960e+00+j1.28841753046705775887e+00
  -1.02719098258128815893e+00+j1.03131469447043611076e+00
  -9.83824432968161355362e-01+j8.23270832390147089264e-01
  -9.56245597235423683280e-01+j6.56085228978858014948e-01
  -9.38757492712947172464e-01+j5.22328316085632793353e-01
  -9.27688317668297846019e-01+j4.15625664554421681007e-01
  -9.20690082930942343964e-01+j3.30673377072215779471e-01
  -9.16268729566452444502e-01+j2.63138111822909193105e-01
  -9.13476498678633452855e-01+j2.09519260051505756826e-01
  -9.11713314915023054219e-01+j1.67009584387358273050e-01
  -9.10599641975523899085e-01+j1.33369459886128499670e-01
  -9.09895510417172426187e-01+j1.06819550232350776731e-01
  -9.09449099344911804366e-01+j8.59520526457153016819e-02
  -9.09164116937309141342e-01+j6.96587385301449119046e-02
  -9.08979076048876288851e-01+j5.70734445905349829786e-02
  -9.08854046244823687850e-01+j4.75266980970262056805e-02
  -9.08762044566235993592e-01+j4.05104322542682790398e-02
  -9.08683215603296234875e-01+j3.56510946997691119398e-02
  -9.08600548607497837672e-01+j3.26897988607666722949e-02
  -9.08496209828731471347e-01+j3.14684832059286892503e-02
  -9.08347702151856450925e-01+j3.19213145882700083389e-02
</dep>
<dep _net2.v acfrequency>
  +1.00000000000000000000e+00
  +1.00000000000000000000e+00
  +1.00000000000000000000e+00
  +1.00000000000000000000e+00
  +1.00000000000000000000e+00
  +1.00000000000000000000e+00
  +1.00000000000000000000e+00
  +1.00000000000000000000e+00
  +1.00000000000000000000e+00
  +1.00000000000000000000e+00
  +1.00000000000000000000e+00
  +1.00000000000000000000e+00
  +1.00000000000000000000e+00
  +1.00000000000000000000e+00
  +1.00000000000000000000e+00
  +1.00000000000000000000e+00
  +1.00000000000000000000e+00
  +1.00000000000000000000e+00
  +1.00000000000000000000e+00
  +1.00000000000000000000e+00
  +1.00000000000000000000e+00
  +1.00000000000000000000e+00
  +1.00000000000000000000e+00
  +1.00000000000000000000e+00
  +1.00000000000000000000e+00
  +1.00000000000000000000e+00
  +1.00000000000000000000e+00
  +1.00000000000000000000e+00
  +1.00000000000000000000e+00
  +1.00000000000000000000e+00
  +1.00000000000000000000e+00
  +1.00000000000000000000e+00
  +1.00000000000000000000e+00
  +1.00000000000000000000e+00
  +1.00000000000000000000e+00
  +1.00000000000000000000e+00
  +1.00000000000000000000e+00
  +1.00000000000000000000e+00
  +1.00000000000000000000e+00
  +1.00000000000000000000e+00
  +1.00000000000000000000e+00
  +1.00000000000000000000e+00
  +1.00000000000000000000e+00
  +1.00000000000000000000e+00
  +1.00000000000000000000e+00
  +1.00000000000000000000e+00
  +1.00000000000000000000e+00
  +1.00000000000000000000e+00
  +1.00000000000000000000e+00
  +1.00000000000000000000e+00
  +1.00000000000000000000e+00
</dep>
<dep _net0.v acfrequency>
  +7.06957468097864290572e-06-j6.28187540270393630221e-03
  -1.83258728560320389772e-05-j7.90819159168110706604e-03
  -5.85720377925612499461e-05-j9.95538246189942195585e-03
  -1.22350609648312727866e-04-j1.25322043665142875829e-02
  -2.23414498926287829420e-04-j1.57753558306045447990e-02
  -3.83543929874179362165e-04-j1.98564962304438388796e-02
  -6.37216395246236041658e-04-j2.49908672469656457926e-02
  -1.03897009636178287370e-03-j3.14477200661680764138e-02
  -1.67497923433884156851e-03-j3.95625960556719447059e-02
  -2.68116233235577653554e-03-j4.97511133034722122237e-02
  -4.27129107125562377384e-03-j6.25230295458163304323e-02
  -6.78007554136218163615e-03-j7.84935209132195110815e-02
  -1.07278503853808458712e-02-j9.83850118883289465055e-02
  -1.69143594501006203079e-02-j1.23006182382881371074e-01
  -2.65466180290477964110e-02-j1.53183217043828479031e-01
  -4.13937343678562469362e-02-j1.89600965896236151043e-01
  -6.39278600983739231367e-02-j2.32492632987937153377e-01
  -9.73387054448056621148e-02-j2.81116513974704163026e-01
  -1.45197959640783968993e-01-j3.33032158485139007098e-01
  -2.10474863980418203102e-01-j3.83422528633092729589e-01
  -2.93799579596687121530e-01-j4.25105504575579384863e-01
  -3.91608219756886255514e-01-j4.50064844882137549131e-01
  -4.95729778198215287333e-01-j4.52533557680640352583e-01
  -5.95652056117933703661e-01-j4.31898697986552726480e-01
  -6.82442356156363838515e-01-j3.93039409051612664836e-01
  -7.51532951208002453214e-01-j3.43789259976147676401e-01
  -8.02814778576586118852e-01-j2.91689964798086620590e-01
  -8.38934158237803706548e-01-j2.42089145419875473308e-01
  -8.63444965607467751489e-01-j1.97874664105459924235e-01
  -8.79660965066002664692e-01-j1.60075862083585179763e-01
  -8.90209697924840281935e-01-j1.28609600184980271687e-01
  -8.96996645576849105375e-01-j1.02850935743665994337e-01
  -9.01332401438468822086e-01-j8.19833456637057284011e-02
  -9.04089677183594120358e-01-j6.51833354360572270192e-02
  -9.05838044960992294641e-01-j5.17035814942705188035e-02
  -9.06944591437857328131e-01-j4.09010843705846852125e-02
  -9.07644036264844689121e-01-j3.22384050420187195929e-02
  -9.08085703932370424951e-01-j2.52732883001414235236e-02
  -9.08364269514798094995e-01-j1.96444036410309587348e-02
  -9.08539598677548188022e-01-j1.50568081266918268185e-02
  -9.08649431551830866205e-01-j1.12686130177332942404e-02
  -9.08717433891660597567e-01-j8.07929696569533936645e-03
  -9.08758267430841093493e-01-j5.31962839840367796018e-03
  -9.08780739529736147908e-01-j2.84295616999955718177e-03
  -9.08789698264247380877e-01-j5.17554207322665476426e-04
  -9.08787076576432650832e-01+j1.78031115119077639440e-03
  -9.08772308768230341336e-01+j4.17291957193312388480e-03
  -9.08742208572324905447e-01+j6.78756387668388427165e-03
  -9.08690282642714564076e-01+j9.76326816267959925189e-03
  -9.08605332416324240619e-01+j1.32580845723156513088e-02
  -9.08469045695637689164e-01+j1.74573044167074600819e-02
</dep>
<indep V1.I 1>
  +0.00000000000000000000e+00
</indep>
<indep _net1.V 1>
  +0.00000000000000000000e+00
</indep>
<indep Uut.V 1>
  +0.00000000000000000000e+00
</indep>
<indep _net2.V 1>
  +0.00000000000000000000e+00
</indep>
<indep _net0.V 1>
  +0.00000000000000000000e+00
</indep>
