<Qucs Dataset 0.0.24>
<indep frequency 56>
1.000000000000e-01
1.232846739442e-01
1.519911082953e-01
1.873817422860e-01
2.310129700083e-01
2.848035868436e-01
3.511191734215e-01
4.328761281083e-01
5.336699231206e-01
6.579332246576e-01
8.111308307897e-01
1.000000000000e+00
1.232846739442e+00
1.519911082953e+00
1.873817422860e+00
2.310129700083e+00
2.848035868436e+00
3.511191734215e+00
4.328761281083e+00
5.336699231206e+00
6.579332246576e+00
8.111308307897e+00
1.000000000000e+01
1.232846739442e+01
1.519911082953e+01
1.873817422860e+01
2.310129700083e+01
2.848035868436e+01
3.511191734215e+01
4.328761281083e+01
5.336699231206e+01
6.579332246576e+01
8.111308307897e+01
1.000000000000e+02
1.232846739442e+02
1.519911082953e+02
1.873817422860e+02
2.310129700083e+02
2.848035868436e+02
3.511191734215e+02
4.328761281083e+02
5.336699231206e+02
6.579332246576e+02
8.111308307897e+02
1.000000000000e+03
1.232846739442e+03
1.519911082953e+03
1.873817422860e+03
2.310129700083e+03
2.848035868436e+03
3.511191734215e+03
4.328761281083e+03
5.336699231206e+03
6.579332246576e+03
8.111308307897e+03
1.000000000000e+04
</indep>
<dep ac.v(uut) frequency>
-9.999464759567e-01+j6.282991960649e-03
-9.999239003415e-01+j7.745773788108e-03
-9.998895895610e-01+j9.548991525693e-03
-9.998374451852e-01+j1.177176774520e-02
-9.997582018262e-01+j1.451152023453e-02
-9.996377854231e-01+j1.788811008324e-02
-9.994548242900e-01+j2.204885812237e-02
-9.991768806773e-01+j2.717454718654e-02
-9.987547566071e-01+j3.348648187614e-02
-9.981139164079e-01+j4.125455876816e-02
-9.971416269695e-01+j5.080603994851e-02
-9.956678179831e-01+j6.253419745411e-02
-9.934369166449e-01+j7.690498860239e-02
-9.900671343286e-01+j9.445807010714e-02
-9.849932809024e-01+j1.157952086002e-01
-9.773901991216e-01+j1.415437911359e-01
-9.660786573115e-01+j1.722751945094e-01
-9.494284045783e-01+j2.083482578459e-01
-9.253006395937e-01+j2.496428031972e-01
-8.911192387626e-01+j2.951635287012e-01
-8.442151696773e-01+j3.425624857041e-01
-7.825934282244e-01+j3.877807734956e-01
-7.061049257801e-01+j4.252087499183e-01
-6.175829070929e-01+j4.487885097275e-01
-5.230672676041e-01+j4.539991346337e-01
-4.304520730682e-01+j4.397653435673e-01
-3.470252294613e-01+j4.089589028392e-01
-2.773839768506e-01+j3.670991615531e-01
-2.228512496943e-01+j3.202379432165e-01
-1.822486910401e-01+j2.733275091370e-01
-1.531385786569e-01+j2.295984705342e-01
-1.328285885606e-01+j1.907031519865e-01
-1.189261267964e-01+j1.571680290690e-01
-1.095335166746e-01+j1.288464759655e-01
-1.032438115790e-01+j1.052540260165e-01
-9.905691734797e-02+j8.577892947625e-02
-9.628083028769e-02+j6.979916710151e-02
-9.444499933164e-02+j5.673971752950e-02
-9.323306981725e-02+j4.609535897256e-02
-9.243392748653e-02+j3.743518841191e-02
-9.190737221752e-02+j3.039832833695e-02
-9.156059413514e-02+j2.468601682455e-02
-9.133228293295e-02+j2.005276634487e-02
-9.118199176794e-02+j1.629787878075e-02
-9.108306023720e-02+j1.325785866221e-02
-9.101792339528e-02+j1.079988665700e-02
-9.097500978506e-02+j8.816333412703e-03
-9.094669299012e-02+j7.220215942697e-03
-9.092793942210e-02+j5.941473615243e-03
-9.091541490250e-02+j4.923941103426e-03
-9.090689246809e-02+j4.122907146192e-03
-9.090085665339e-02+j3.503163468751e-03
-9.089623412314e-02+j3.037464251502e-03
-9.089220285998e-02+j2.705331592583e-03
-9.088804602786e-02+j2.492155925055e-03
-9.088302456195e-02+j2.388552229062e-03
</dep>
<dep ac.vuut_db frequency>
-2.934593687605e-04+j0.000000000000e+00
-4.004228332475e-04+j0.000000000000e+00
-5.629926594897e-04+j0.000000000000e+00
-8.100724926616e-04+j0.000000000000e+00
-1.185584503573e-03+j0.000000000000e+00
-1.756266163635e-03+j0.000000000000e+00
-2.623505567972e-03+j0.000000000000e+00
-3.941295271391e-03+j0.000000000000e+00
-5.943440255408e-03+j0.000000000000e+00
-8.984726653078e-03+j0.000000000000e+00
-1.360306887132e-02+j0.000000000000e+00
-2.061298996553e-02+j0.000000000000e+00
-3.124546450988e-02+j0.000000000000e+00
-4.735536332557e-02+j0.000000000000e+00
-7.172519607969e-02+j0.000000000000e+00
-1.085008870959e-01+j0.000000000000e+00
-1.637970430639e-01+j0.000000000000e+00
-2.464940895058e-01+j0.000000000000e+00
-3.691951410214e-01+j0.000000000000e+00
-5.491811577973e-01+j0.000000000000e+00
-8.089663068088e-01+j0.000000000000e+00
-1.175742839949e+00+j0.000000000000e+00
-1.678829930805e+00+j0.000000000000e+00
-2.344657221418e+00+j0.000000000000e+00
-3.190170811679e+00+j0.000000000000e+00
-4.217247132409e+00+j0.000000000000e+00
-5.410995477908e+00+j0.000000000000e+00
-6.742716233837e+00+j0.000000000000e+00
-8.175424915891e+00+j0.000000000000e+00
-9.668879520350e+00+j0.000000000000e+00
-1.118233822822e+01+j0.000000000000e+00
-1.267516767708e+01+j0.000000000000e+00
-1.410662492884e+01+j0.000000000000e+00
-1.543649066553e+01+j0.000000000000e+00
-1.662786516644e+01+j0.000000000000e+00
-1.765222177051e+01+j0.000000000000e+00
-1.849491562169e+01+j0.000000000000e+00
-1.915808021258e+01+j0.000000000000e+00
-1.965885645329e+01+j0.000000000000e+00
-2.002376684695e+01+j0.000000000000e+00
-2.028212976103e+01+j0.000000000000e+00
-2.046107874681e+01+j0.000000000000e+00
-2.058304784220e+01+j0.000000000000e+00
-2.066524026453e+01+j0.000000000000e+00
-2.072019451961e+01+j0.000000000000e+00
-2.075674188446e+01+j0.000000000000e+00
-2.078096164327e+01+j0.000000000000e+00
-2.079697538915e+01+j0.000000000000e+00
-2.080754957347e+01+j0.000000000000e+00
-2.081452915758e+01+j0.000000000000e+00
-2.081913992038e+01+j0.000000000000e+00
-2.082219512376e+01+j0.000000000000e+00
-2.082423519460e+01+j0.000000000000e+00
-2.082562167951e+01+j0.000000000000e+00
-2.082660060571e+01+j0.000000000000e+00
-2.082734582734e+01+j0.000000000000e+00
</dep>
<dep ac.vuut_phase frequency>
1.796400339195e+02+j0.000000000000e+00
1.795562123101e+02+j0.000000000000e+00
1.794528766409e+02+j0.000000000000e+00
1.793254862093e+02+j0.000000000000e+00
1.791684457181e+02+j0.000000000000e+00
1.789748620670e+02+j0.000000000000e+00
1.787362465669e+02+j0.000000000000e+00
1.784421516511e+02+j0.000000000000e+00
1.780797301715e+02+j0.000000000000e+00
1.776332054694e+02+j0.000000000000e+00
1.770832430092e+02+j0.000000000000e+00
1.764062220639e+02+j0.000000000000e+00
1.755734235724e+02+j0.000000000000e+00
1.745501864398e+02+j0.000000000000e+00
1.732951538128e+02+j0.000000000000e+00
1.717598562845e+02+j0.000000000000e+00
1.698890922217e+02+j0.000000000000e+00
1.676228967936e+02+j0.000000000000e+00
1.649013312819e+02+j0.000000000000e+00
1.616737239726e+02+j0.000000000000e+00
1.579138858772e+02+j0.000000000000e+00
1.536412798416e+02+j0.000000000000e+00
1.489441347948e+02+j0.000000000000e+00
1.439946708483e+02+j0.000000000000e+00
1.390435009669e+02+j0.000000000000e+00
1.343868585235e+02+j0.000000000000e+00
1.303165543647e+02+j0.000000000000e+00
1.270751033347e+02+j0.000000000000e+00
1.248338013133e+02+j0.000000000000e+00
1.236944977739e+02+j0.000000000000e+00
1.237026913621e+02+j0.000000000000e+00
1.248580148454e+02+j0.000000000000e+00
1.271141422232e+02+j0.000000000000e+00
1.303681808819e+02+j0.000000000000e+00
1.344476326278e+02+j0.000000000000e+00
1.391089074879e+02+j0.000000000000e+00
1.440596480119e+02+j0.000000000000e+00
1.490038480683e+02+j0.000000000000e+00
1.536917815298e+02+j0.000000000000e+00
1.579523794616e+02+j0.000000000000e+00
1.616984202654e+02+j0.000000000000e+00
1.649110753400e+02+j0.000000000000e+00
1.676167544557e+02+j0.000000000000e+00
1.698659981655e+02+j0.000000000000e+00
1.717183440874e+02+j0.000000000000e+00
1.732331473531e+02+j0.000000000000e+00
1.744648214875e+02+j0.000000000000e+00
1.754608713913e+02+j0.000000000000e+00
1.762614926437e+02+j0.000000000000e+00
1.768999499397e+02+j0.000000000000e+00
1.774032765520e+02+j0.000000000000e+00
1.777930478632e+02+j0.000000000000e+00
1.780861057769e+02+j0.000000000000e+00
1.782951787132e+02+j0.000000000000e+00
1.784293768117e+02+j0.000000000000e+00
1.784945583483e+02+j0.000000000000e+00
</dep>
