<Qucs Dataset 0.0.19>
<indep acfrequency 61>
  +1.00000000000000000000e+00
  +1.21152765862858835533e+00
  +1.46779926762206947011e+00
  +1.77827941003892275873e+00
  +2.15443469003188381450e+00
  +2.61015721568253677987e+00
  +3.16227766016837907870e+00
  +3.83118684955728738828e+00
  +4.64158883361277840862e+00
  +5.62341325190349028418e+00
  +6.81292069057961224843e+00
  +8.25404185268018331101e+00
  +9.99999999999999822364e+00
  +1.21152765862858853296e+01
  +1.46779926762206933688e+01
  +1.77827941003892284755e+01
  +2.15443469003188354804e+01
  +2.61015721568253589169e+01
  +3.16227766016837890106e+01
  +3.83118684955728667774e+01
  +4.64158883361277858626e+01
  +5.62341325190349152763e+01
  +6.81292069057961242606e+01
  +8.25404185268018153465e+01
  +9.99999999999999573674e+01
  +1.21152765862858771584e+02
  +1.46779926762206969215e+02
  +1.77827941003892249228e+02
  +2.15443469003188283750e+02
  +2.61015721568253525220e+02
  +3.16227766016837961160e+02
  +3.83118684955728724617e+02
  +4.64158883361277730728e+02
  +5.62341325190348811702e+02
  +6.81292069057960816281e+02
  +8.25404185268018409261e+02
  +9.99999999999999772626e+02
  +1.21152765862858791479e+03
  +1.46779926762206855528e+03
  +1.77827941003892283334e+03
  +2.15443469003188329225e+03
  +2.61015721568253593432e+03
  +3.16227766016838040741e+03
  +3.83118684955728804198e+03
  +4.64158883361277821678e+03
  +5.62341325190348925389e+03
  +6.81292069057960907230e+03
  +8.25404185268017863564e+03
  +9.99999999999999090505e+03
  +1.21152765862858705077e+04
  +1.46779926762206760031e+04
  +1.77827941003892337903e+04
  +2.15443469003188365605e+04
  +2.61015721568253648002e+04
  +3.16227766016837813368e+04
  +3.83118684955728531349e+04
  +4.64158883361277548829e+04
  +5.62341325190348507022e+04
  +6.81292069057960470673e+04
  +8.25404185268017317867e+04
  +1.00000000000000014552e+05
</indep>
<dep Uut_phase acfrequency>
  -1.07859362035443400174e+01
  -1.30594520665403628357e+01
  -1.58076856428114478348e+01
  -1.91262940162876802219e+01
  -2.31275622402038720793e+01
  -2.79412664159329970914e+01
  -3.37138862489368307251e+01
  -4.06047319825327264198e+01
  -4.87768641549392256707e+01
  -5.83800940269913937186e+01
  -6.95234986484112340577e+01
  -8.22369812028319557839e+01
  -9.64268731888348611392e+01
  -1.11839317514020578415e+02
  -1.28052663007011119589e+02
  -1.44516991121112852170e+02
  -1.60639099367204579494e+02
  -1.75884466553999800453e+02
  +1.70143609176273912453e+02
  +1.57672422626440408067e+02
  +1.46773466506384323793e+02
  +1.37401543866492090729e+02
  +1.29438894708095062924e+02
  +1.22732066240793415091e+02
  +1.17117639649105967692e+02
  +1.12437801320626590496e+02
  +1.08548438532037721416e+02
  +1.05322405238018419027e+02
  +1.02649968941540237211e+02
  +1.00437776305908016639e+02
  +9.86071528674748378762e+01
  +9.70921997733273229869e+01
  +9.58379313334656046663e+01
  +9.47985685442970691383e+01
  +9.39360318697243315000e+01
  +9.32186385162522412884e+01
  +9.26199907704741036696e+01
  +9.21180340127955616936e+01
  +9.16942607437791252778e+01
  +9.13330375079351597378e+01
  +9.10210333996596432371e+01
  +9.07467310421173891655e+01
  +9.05000031054022429089e+01
  +9.02717393623011190584e+01
  +9.00535108746100121380e+01
  +8.98372591269636018296e+01
  +8.96149987737545501432e+01
  +8.93785231445627914582e+01
  +8.91191017745186684351e+01
  +8.88271589991498586869e+01
  +8.84919220930992480589e+01
  +8.81010265651532336051e+01
  +8.76400651035398112754e+01
  +8.70920654106773071135e+01
  +8.64368810068165345228e+01
  +8.56504784641873584405e+01
  +8.47041052933376619194e+01
  +8.35633263648634994070e+01
  +8.21869260247956816556e+01
  +8.05256926636714069900e+01
  +7.85211403841304047546e+01
</dep>
<dep Uut_dB acfrequency>
  -5.14215723779980760089e-02
  -7.53665534798439173958e-02
  -1.10433468727230157946e-01
  -1.61734325470629269894e-01
  -2.36669725328453539603e-01
  -3.45885115833130307728e-01
  -5.04551309893130683903e-01
  -7.33996846537263603061e-01
  -1.06362358910174070736e+00
  -1.53282935924281793483e+00
  -2.19230056277714790980e+00
  -3.10355891137309880534e+00
  -4.33529701231952202534e+00
  -5.95537787230687243323e+00
  -8.01901765689595791287e+00
  -1.05563931331872407071e+01
  -1.35648425057377171044e+01
  -1.70095821271702405397e+01
  -2.08325599935061092083e+01
  -2.49650779623217324854e+01
  -2.93391528269476218327e+01
  -3.38948140974015572624e+01
  -3.85831707300216493195e+01
  -4.33664992257064341175e+01
  -4.82167915649695686398e+01
  -5.31138027328991668696e+01
  -5.80431681161938541891e+01
  -6.29948250997010816832e+01
  -6.79617864217173064389e+01
  -7.29392294557348321860e+01
  -7.79238393266349902433e+01
  -8.29133439528717843814e+01
  -8.79061890167629655934e+01
  -9.29013126399539714839e+01
  -9.78979900560007081367e+01
  -1.02895726945943863484e+02
  -1.07894186387124733528e+02
  -1.12893138921915380024e+02
  -1.17892428487416083271e+02
  -1.22891949212780843936e+02
  -1.27891629664950912115e+02
  -1.32891422212602407171e+02
  -1.37891295931215410064e+02
  -1.42891231995481774675e+02
  -1.47891220873946537040e+02
  -1.52891260908450732359e+02
  -1.57891358066892962597e+02
  -1.62891526832435431515e+02
  -1.67891792361383011212e+02
  -1.72892194230569657520e+02
  -1.77892792330975908044e+02
  -1.82893675781972092409e+02
  -1.87894976185965390414e+02
  -1.92896887179672887669e+02
  -1.97899693154058638811e+02
  -2.02903811332624115948e+02
  -2.07909853283511608879e+02
  -2.12918714611553923532e+02
  -2.17931705293365524767e+02
  -2.22950738147189952088e+02
  -2.27978599415404403317e+02
</dep>
<dep V1.i acfrequency>
  -3.93231759282739183788e-07-j6.25847782705716839210e-06
  -5.76125485119625925165e-07-j7.56839665565684236386e-06
  -8.43363606752120954085e-07-j9.14467596484526130778e-06
  -1.23302389830457945989e-06-j1.10354901067722593682e-05
  -1.79945219648613519235e-06-j1.32931257212581174765e-05
  -2.61918676241974833843e-06-j1.59705521803580795736e-05
  -3.79790642458375149373e-06-j1.91145637995869730722e-05
  -5.47725223700134796270e-06-j2.27535696459346644717e-05
  -7.83866038688249577339e-06-j2.68778987651075277102e-05
  -1.10986031230762832852e-05-j3.14114839035673236358e-05
  -1.54864763201500776684e-05-j3.61775715492408198189e-05
  -2.11955162270003992378e-05-j4.08693248607192217590e-05
  -2.83043199675102021473e-05-j4.50477243368388582728e-05
  -3.66873795273051143918e-05-j4.81951671451607782204e-05
  -4.59616236164843959284e-05-j4.98366483241506128660e-05
  -5.55242679749577068321e-05-j4.96938875853042522318e-05
  -6.46945741065731952813e-05-j4.77919396114703527289e-05
  -7.28970354567894855777e-05-j4.44491368565299072610e-05
  -7.97891677135621860432e-05-j4.01572594549636123560e-05
  -8.52825151712566616657e-05-j3.54280132549095061619e-05
  -8.94796279321977361615e-05-j3.06815739220665280188e-05
  -9.25838975172640319148e-05-j2.62032759829597415092e-05
  -9.48251571264017750935e-05-j2.21518687381763111069e-05
  -9.64152994348385823393e-05-j1.85908573867445279430e-05
  -9.75295476968142329051e-05-j1.55223096134647708477e-05
  -9.83035433408300889351e-05-j1.29138569265943977055e-05
  -9.88379345445980554653e-05-j1.07170961280356065020e-05
  -9.92053509634935472934e-05-j8.87881954763269494956e-06
  -9.94572373077917237360e-05-j7.34722246027540205497e-06
  -9.96295793184452161718e-05-j6.07493676297588974810e-06
  -9.97473370436391924571e-05-j5.02020488292707453868e-06
  -9.98277240052565360438e-05-j4.14703755179311825424e-06
  -9.98825652526918111385e-05-j3.42486259738164358643e-06
  -9.99199626821517446771e-05-j2.82795435121884236555e-06
  -9.99454572970806884172e-05-j2.33480093059134997176e-06
  -9.99628340284438991238e-05-j1.92748951908155652653e-06
  -9.99746761187034931658e-05-j1.59114638883029264196e-06
  -9.99827456479296643871e-05-j1.31344489582519591771e-06
  -9.99882441003091987667e-05-j1.08418253440229394890e-06
  -9.99919904986841561389e-05-j8.94922331531414926249e-07
  -9.99945430509773333259e-05-j7.38691494451514802500e-07
  -9.99962821592499266415e-05-j6.09729655395294249324e-07
  -9.99974670345697073774e-05-j5.03279372829430797715e-07
  -9.99982742968099567711e-05-j4.15412254216617303487e-07
  -9.99988242856367091005e-05-j3.42884899092823793394e-07
  -9.99991989921273575614e-05-j2.83019691278066722077e-07
  -9.99994542782959590756e-05-j2.33606234061837887799e-07
  -9.99996282034844736477e-05-j1.92819898662960461446e-07
  -9.99997466976825156353e-05-j1.59154539948736292529e-07
  -9.99998274270007112734e-05-j1.31366929429902435214e-07
  -9.99998824273195857561e-05-j1.08430872994645946939e-07
  -9.99999198986352817948e-05-j8.94993299186488966163e-08
  -9.99999454275615718910e-05-j7.38731403525658514471e-08
  -9.99999628202240367679e-05-j6.09752098311159728023e-08
  -9.99999746697105166898e-05-j5.03291993559519318499e-08
  -9.99999827426732658311e-05-j4.15419351432567283826e-08
  -9.99999882427195257344e-05-j3.42888890172816603909e-08
  -9.99999919898577591159e-05-j2.83021935635772852392e-08
  -9.99999945427534794569e-05-j2.33607496160178788795e-08
  -9.99999962820211584467e-05-j1.92820608394260813282e-08
  -9.99999974669704732233e-05-j1.59154939060453676318e-08
</dep>
<dep Uut.v acfrequency>
  +9.76534858423404816818e-01-j1.86035576337193170327e-01
  +9.65720211163787145559e-01-j2.24009806149371326622e-01
  +9.50025607130254634569e-01-j2.68967795076503868312e-01
  +9.27368940287363829889e-01-j3.21606981412407455512e-01
  +8.94913168130222591579e-01-j3.82221740078869332002e-01
  +8.48940185288300841471e-01-j4.50273836370500779580e-01
  +7.84876989646270728507e-01-j5.23722758024536716448e-01
  +6.97696269700441185080e-01-j5.98097986485144228475e-01
  +5.83041908985882928462e-01-j6.65461030904908157346e-01
  +4.39463997357474489558e-01-j7.13782756645598870371e-01
  +2.71790063150687433158e-01-j7.27845415931532291332e-01
  +9.44931829058978101088e-02-j6.93144042239333679767e-01
  -6.79518273911813297516e-02-j6.03249854262973173036e-01
  -1.87404389676155497257e-01-j4.67613527553290997396e-01
  -2.44850805823996431343e-01-j3.12801691705258677612e-01
  -2.41522843482011001504e-01-j1.72168527722830921878e-01
  -1.97913925800311973902e-01-j6.95447236967782905781e-02
  -1.40734171014251674414e-01-j1.01263020127364752887e-02
  -8.95187464094695239947e-02+j1.55533213872752762441e-02
  -5.22276516077918445680e-02+j2.14494931598416434249e-02
  -2.85439342716560240376e-02+j1.86975119341672782469e-02
  -1.48663774389466204345e-02+j1.36695955410327321666e-02
  -7.47806968072673231007e-03+j9.09136119446865044458e-03
  -3.66978314557517846031e-03+j5.70924377504087188911e-03
  -1.76991660314484858599e-03+j3.45609611341637489729e-03
  -8.43353348502934654918e-04+j2.04230308693510460155e-03
  -3.98486689490170232358e-04+j1.18761358325694460145e-03
  -1.87186315046276765661e-04+j6.83188165959922933702e-04
  -8.75675996249608871655e-05+j3.90156296706210608746e-04
  -4.08431328326988013337e-05+j2.21713327392452405184e-04
  -1.90068537664888560410e-05+j1.25570935520547292616e-04
  -8.82839013677474614367e-06+j7.09573081811619237567e-05
  -4.09331511514862054325e-06+j4.00343017389294186315e-05
  -1.89415543686396844758e-06+j2.25636559986993183468e-05
  -8.74369152391649778701e-07+j1.27079331188075256179e-05
  -4.02285872530924108066e-07+j7.15365571591972550897e-06
  -1.84211376335375120143e-07+j4.02565420503695356539e-06
  -8.37634263605704548076e-08+j2.26488547762655308140e-06
  -3.76853799065223885747e-08+j1.27405645393221429841e-06
  -1.66756624271795615978e-08+j7.16613501900585126591e-07
  -7.18311545032551304866e-09+j4.03041303209382365285e-07
  -2.95432430816885803368e-09+j2.26668935140658058411e-07
  -1.11244810447370752998e-09+j1.27473134879635353633e-07
  -3.39990429067830040425e-10+j7.16858626457024931850e-08
  -3.76494217312676786897e-11+j4.03124104182889657138e-08
  +6.43888071710619196711e-11+j2.26691482529678457616e-08
  +8.56580747107542993782e-11+j1.27474199058780825192e-08
  +7.77530563585406056990e-11+j7.16800186673816578348e-09
  +6.19721231082191715679e-11+j4.03050116646982654475e-09
  +4.63955647947894291872e-11+j2.26620552198889836954e-09
  +3.35437321590951211614e-11+j1.27411881321299140469e-09
  +2.37483233884747473969e-11+j7.16271440503579856671e-10
  +1.65922688674194257557e-11+j4.02608273623038845904e-10
  +1.14929410264210747694e-11+j2.26253891447288504950e-10
  +7.91485696155259579945e-12+j1.27108622544874190273e-10
  +5.42889043577041275021e-12+j7.13767618600637054595e-11
  +3.71283349459216946505e-12+j4.00543327138593434889e-11
  +2.53331524696862866265e-12+j2.24552539774698937959e-11
  +1.72491319914731269715e-12+j1.25708395522768727192e-11
  +1.17194425262804729997e-12+j7.02260643760807921031e-12
  +7.94212983691422982067e-13+j3.91106745695736438975e-12
</dep>
<dep _net4.v acfrequency>
  +9.88223818421950062074e-01-j1.24678081593246808945e-01
  +9.82772403868684030215e-01-j1.50496742490015322780e-01
  +9.74831040436794360460e-01-j1.81352112944479060275e-01
  +9.63302921479530671611e-01-j2.17989647260841717946e-01
  +9.46653425775553447608e-01-j2.61079918371650898656e-01
  +9.22785551332440223682e-01-j3.11046784589036728885e-01
  +8.88936388974289282139e-01-j3.67774163395872433213e-01
  +8.41670757457665175139e-01-j4.30148143298801965972e-01
  +7.77116716230117243747e-01-j4.95422905685348913263e-01
  +6.91664484173863058913e-01-j5.58507173087531727518e-01
  +5.83357708956089515695e-01-j6.11500669814278197123e-01
  +4.53969289863880409719e-01-j6.44138295302029706413e-01
  +3.11081234695152530900e-01-j6.45945246609000434113e-01
  +1.68554848016250702347e-01-j6.10270486256720645635e-01
  +4.36291402439201031482e-02-j5.38614240460105864194e-01
  -4.91544872384677630772e-02-j4.42028257665447232849e-01
  -1.03773233509962731214e-01-j3.37455112844032734110e-01
  -1.24126932964809852389e-01-j2.40931770463596622855e-01
  -1.20421915239105614681e-01-j1.62313056142383227431e-01
  -1.03860993637392276523e-01-j1.04273207081707425248e-01
  -8.30732884494037732148e-02-j6.45479116818601789118e-02
  -6.31650876268042976713e-02-j3.88576978460795779968e-02
  -4.63953169770076265244e-02-j2.29198944182473010600e-02
  -3.32788773721564845598e-02-j1.33228661207530803268e-02
  -2.34852089231630707655e-02-j7.66461788239653288302e-03
  -1.63898807076674618566e-02-j4.37751578804880352169e-03
  -1.13511992716941786247e-02-j2.48741189586434898601e-03
  -7.82062468087389370264e-03-j1.40829302476662291191e-03
  -5.36900117516205758333e-03-j7.95221114072089591863e-04
  -3.67696419865627937423e-03-j4.48118195294182851667e-04
  -2.51399793886142482180e-03-j2.52079597275977913134e-04
  -1.71691675171964960693e-03-j1.41560201722651081641e-04
  -1.17165220020492015680e-03-j7.93429878496322137787e-05
  -7.99134628710852540530e-04-j4.43624386477967284459e-05
  -5.44860869336905614783e-04-j2.47210500708259569441e-05
  -3.71402850050880169088e-04-j1.37095632586551362725e-05
  -2.53123524905074384714e-04-j7.54868792702062628154e-06
  -1.72492571249968797533e-04-j4.11139827742684672190e-06
  -1.17536965871063502987e-04-j2.20146067122013430048e-06
  -8.00857586974354870206e-05-j1.14660146126213749609e-06
  -5.45657251425480624733e-05-j5.69316375920304683079e-07
  -3.71768896815564785360e-05-j2.57843249063436538801e-07
  -2.53289746476938632544e-05-j9.35611428205969418572e-08
  -1.72566016516712416749e-05-j1.01568269695307614421e-08
  -1.17567340120038799940e-05+j2.93323470847279999395e-08
  -8.00961386677167035619e-06+j4.54196116998330710194e-08
  -5.45668239078934456070e-06+j4.94149376200564194191e-08
  -3.71736804276695200253e-06+j4.74920388642341001634e-08
  -2.53237659885022892459e-06+j4.29687345032985139463e-08
  -1.72504653380850472894e-06+j3.75836822491346099680e-08
  -1.17501677174419418311e-06+j3.22096741531450165494e-08
  -8.00284887966336488492e-07+j2.72508883894012035814e-08
  -5.44982648305454292430e-07+j2.28630854286833795149e-08
  -3.71047184763006729243e-07+j1.90747937902086440881e-08
  -2.52546451146200916036e-07+j1.58532776416838666647e-08
  -1.71813118551326581223e-07+j1.31398327212842208797e-08
  -1.16810593936175454494e-07+j1.08681481102423382823e-08
  -7.93384977194296655387e-08+j8.97340472139490939418e-09
  -5.38100708248779461116e-08+j7.39637972140347284288e-09
  -3.64192409721401971132e-08+j6.08492174188235744152e-09
  -2.45731673679590446572e-08+j4.99409841735816580433e-09
</dep>
<dep _net3.v acfrequency>
  +9.88228895930844841722e-01-j1.24677715846019790402e-01
  +9.82777511702476180844e-01-j1.50496303186296587207e-01
  +9.74836192321912764491e-01-j1.81351587435369776546e-01
  +9.63308137046065215969e-01-j2.17989022401242210636e-01
  +9.46658732748728803941e-01-j2.61079181978253804797e-01
  +9.22790988147069390912e-01-j3.11045928221424683446e-01
  +8.88942007426854252650e-01-j3.67773187239400056736e-01
  +8.41676624367969639096e-01-j4.30147064098421683109e-01
  +7.77122911965049567584e-01-j4.95421768477745938508e-01
  +6.91671094355729709768e-01-j5.58506066265588740904e-01
  +5.83364804542691905986e-01-j6.11499739914333484414e-01
  +4.53976892323100678084e-01-j6.44137752463853963114e-01
  +3.11089270696697450802e-01-j6.45945346369165007694e-01
  +1.68563112729994829531e-01-j6.10271475784138539566e-01
  +4.36373003857249142090e-02-j5.38616276268495064450e-01
  -4.91468298745975154529e-02-j4.42031331646186687045e-01
  -1.03766436529830405333e-01-j3.37459034711516281391e-01
  -1.24121220568017637254e-01-j2.40936223315663222699e-01
  -1.20417344965762465603e-01-j1.62317691725179541473e-01
  -1.03857485089846976467e-01-j1.04277728356508961327e-01
  -8.30706818238381439201e-02-j6.45521132200623654063e-02
  -6.31631987350309703766e-02-j3.88614669745298291215e-02
  -4.63939730962853735807e-02-j2.29231912547632719901e-02
  -3.32779338177859179693e-02-j1.33256987907251420178e-02
  -2.34845526419652957106e-02-j7.66702152186141301649e-03
  -1.63894272545498237426e-02-j4.37953777457974254700e-03
  -1.13508874263720891534e-02-j2.48910268608130025997e-03
  -7.82041094050264611048e-03-j1.40970106794231992212e-03
  -5.36885504187545065796e-03-j7.96390394292034579406e-04
  -3.67686448664145820731e-03-j4.49087329982915536234e-04
  -2.51393002223768667613e-03-j2.52881788205165083851e-04
  -1.71687057588858433058e-03-j1.42223610084988601318e-04
  -1.17162087293572712843e-03-j7.98912872669837174260e-05
  -7.99113434741743639683e-04-j4.48154123379601056470e-05
  -5.44846587052082924167e-04-j2.50951643681737071969e-05
  -3.71393280334802111057e-04-j1.40184869109549388748e-05
  -2.53117167540120092430e-04-j7.80374676490580194174e-06
  -1.72488403230837167735e-04-j4.32196522918035898949e-06
  -1.17534289805444592224e-04-j2.37528599790928253094e-06
  -8.00840992591080817319e-05-j1.29009002266080741392e-06
  -5.45647584032415218676e-05-j6.87759128061999925508e-07
  -3.71763949083997005435e-05-j3.55609810029241210163e-07
  -2.53288014367313055696e-05-j1.74259573725042692646e-07
  -1.72566475238403420204e-05-j7.67659859871886824076e-08
  -1.17569291436344467182e-05-j2.56467047570714469299e-08
  -8.00991068377073143721e-06+j4.06584499185604129129e-11
  -5.45704847774716437402e-06+j1.19604183380035181032e-08
  -3.71778131102485986120e-06+j1.65788373483191352728e-08
  -2.53282199370292402394e-06+j1.74552524394359457376e-08
  -1.72551379017916873128e-06+j1.65277062251753079343e-08
  -1.17549888384749699779e-06+j1.48335938272243885860e-08
  -8.00777064859367379846e-07+j1.29129866527080051308e-08
  -5.45481599640935181810e-07+j1.10338432348243544617e-08
  -3.71550630282291223650e-07+j9.31733612108118719023e-09
  -2.53052780815789957225e-07+j7.80723915405556496102e-09
  -1.72321152735754993508e-07+j6.50804729196622796588e-09
  -1.17319407982940773883e-07+j5.40567020376947163532e-09
  -7.98472850830437471754e-08+j4.47845588139535744141e-09
  -5.43180249190335186086e-08+j3.70288345757745479703e-09
  -3.69254393995508136767e-08+j3.05634690398903129455e-09
  -2.50764439314967215220e-08+j2.51837642673662127753e-09
</dep>
<dep _net1.v acfrequency>
  +9.96062627854209292622e-01-j6.25854630555899155153e-02
