<Qucs Dataset 0.0.21>
<indep frequency 66>
1.000000000000e+00
1.193776641714e+00
1.425102670303e+00
1.701254279853e+00
2.030917620905e+00
2.424462017082e+00
2.894266124717e+00
3.455107294592e+00
4.124626382901e+00
4.923882631707e+00
5.878016072275e+00
7.017038286704e+00
8.376776400683e+00
1.000000000000e+01
1.193776641714e+01
1.425102670303e+01
1.701254279853e+01
2.030917620905e+01
2.424462017082e+01
2.894266124717e+01
3.455107294592e+01
4.124626382901e+01
4.923882631707e+01
5.878016072275e+01
7.017038286704e+01
8.376776400683e+01
1.000000000000e+02
1.193776641714e+02
1.425102670303e+02
1.701254279853e+02
2.030917620905e+02
2.424462017082e+02
2.894266124717e+02
3.455107294592e+02
4.124626382901e+02
4.923882631707e+02
5.878016072275e+02
7.017038286704e+02
8.376776400683e+02
1.000000000000e+03
1.193776641714e+03
1.425102670303e+03
1.701254279853e+03
2.030917620905e+03
2.424462017082e+03
2.894266124717e+03
3.455107294592e+03
4.124626382901e+03
4.923882631707e+03
5.878016072275e+03
7.017038286704e+03
8.376776400683e+03
1.000000000000e+04
1.193776641714e+04
1.425102670303e+04
1.701254279853e+04
2.030917620905e+04
2.424462017082e+04
2.894266124717e+04
3.455107294592e+04
4.124626382901e+04
4.923882631707e+04
5.878016072275e+04
7.017038286704e+04
8.376776400683e+04
1.000000000000e+05
</indep>
<dep ac.v(uut) frequency>
9.765348584231e-01-j1.860355763388e-01
9.667031533722e-01-j2.208511119539e-01
9.528332694385e-01-j2.615656295350e-01
9.333502884418e-01-j3.087526883318e-01
9.061486314647e-01-j3.627315703004e-01
8.684965188731e-01-j4.233070696172e-01
8.170110637018e-01-j4.893684566183e-01
7.478111264500e-01-j5.583233821133e-01
6.570241773114e-01-j6.254027616171e-01
5.418784403549e-01-j6.830216458483e-01
4.025557467657e-01-j7.206510383133e-01
2.446303044131e-01-j7.259786970188e-01
8.110720182532e-02-j6.881812234033e-01
-6.795182740140e-02-j6.032498542619e-01
-1.802812354039e-01-j4.791483177769e-01
-2.402636233151e-01-j3.364992389021e-01
-2.468292863082e-01-j2.018366123223e-01
-2.139699334208e-01-j9.639013431541e-02
-1.628306554186e-01-j2.826172626680e-02
-1.116554958217e-01+j6.994435866344e-03
-7.046561604307e-02+j1.994823528137e-02
-4.167694027708e-02+j2.096603248487e-02
-2.345684086875e-02+j1.721086883249e-02
-1.272038243770e-02+j1.252467684023e-02
-6.711730456785e-03+j8.489561858525e-03
-3.471470020139e-03+j5.499080242123e-03
-1.769916602557e-03+j3.456096113718e-03
-8.931432125989e-04+j2.128031181990e-03
-4.473980748233e-04+j1.291961345812e-03
-2.229360512000e-04+j7.767531480235e-04
-1.106667744751e-04+j4.638406759800e-04
-5.478263206651e-05+j2.756757082654e-04
-2.706114718691e-05+j1.633018853861e-04
-1.334446854849e-05+j9.651134579767e-05
-6.570341690909e-06+j5.694574912723e-05
-3.229986446717e-06+j3.356222403749e-05
-1.585062613233e-06+j1.976487867412e-05
-7.761219580814e-07+j1.163308527973e-05
-3.788994953509e-07+j6.844243147070e-06
-1.842113694835e-07+j4.025654205344e-06
-8.902693159541e-08+j2.367356146074e-06
-4.265085962818e-08+j1.391975975711e-06
-2.016636109788e-08+j8.183862419230e-07
-9.343150683615e-09+j4.811223052467e-07
-4.188540127296e-09+j2.828340404903e-07
-1.773225187422e-09+j1.662618613806e-07
-6.701692556360e-10+j9.773321878080e-08
-1.875635134402e-10+j5.744903697840e-08
7.585060931787e-12+j3.376879247259e-08
7.386169751806e-11+j1.984909870785e-08
8.557504882108e-11+j1.166696340087e-08
7.666218961197e-11+j6.857485894127e-09
6.197219168941e-11+j4.030501164725e-09
4.751042356511e-11+j2.368839159382e-09
3.531727691000e-11+j1.392155070192e-09
2.575422812275e-11+j8.180977313632e-10
1.854792928933e-11+j4.806998078450e-10
1.324708159866e-11+j2.824056347588e-10
9.407236706800e-12+j1.658723867412e-10
6.653610919079e-12+j9.739447871030e-11
4.692239933097e-12+j5.716029832198e-11
3.301595577819e-12+j3.352506521973e-11
2.318721363961e-12+j1.964440377336e-11
1.625573630001e-12+j1.149555701132e-11
1.137502035119e-12+j6.714261203219e-12
7.942136291809e-13+j3.911067256751e-12
</dep>
<dep ac.vuut_db frequency>
-5.142157237799e-02+j0.000000000000e+00
-7.318289056468e-02+j0.000000000000e+00
-1.041323300948e-01+j0.000000000000e+00
-1.481118033266e-01+j0.000000000000e+00
-2.105316426024e-01+j0.000000000000e+00
-2.989727216800e-01+j0.000000000000e+00
-4.239818855920e-01+j0.000000000000e+00
-6.000853180867e-01+j0.000000000000e+00
-8.470076399520e-01+j0.000000000000e+00
-1.191002357754e+00+j0.000000000000e+00
-1.666048509728e+00+j0.000000000000e+00
-2.314439901191e+00+j0.000000000000e+00
-3.186033723264e+00+j0.000000000000e+00
-4.335297012319e+00+j0.000000000000e+00
-5.815587719288e+00+j0.000000000000e+00
-7.671096913724e+00+j0.000000000000e+00
-9.928382977106e+00+j0.000000000000e+00
-1.259051878322e+01+j0.000000000000e+00
-1.563637790143e+01+j0.000000000000e+00
-1.902538891193e+01+j0.000000000000e+00
-2.270565064717e+01+j0.000000000000e+00
-2.662232974127e+01+j0.000000000000e+00
-3.072405160881e+01+j0.000000000000e+00
-3.496651106999e+01+j0.000000000000e+00
-3.931368987182e+01+j0.000000000000e+00
-4.373752172773e+01+j0.000000000000e+00
-4.821679156497e+01+j0.000000000000e+00
-5.273580775851e+01+j0.000000000000e+00
-5.728314220165e+01+j0.000000000000e+00
-6.185056268952e+01+j0.000000000000e+00
-6.643218501283e+01+j0.000000000000e+00
-7.102382623250e+01+j0.000000000000e+00
-7.562252425616e+01+j0.000000000000e+00
-8.022618721254e+01+j0.000000000000e+00
-8.483334062094e+01+j0.000000000000e+00
-8.944294658386e+01+j0.000000000000e+00
-9.405427522683e+01+j0.000000000000e+00
-9.866681365379e+01+j0.000000000000e+00
-1.032802016530e+02+j0.000000000000e+00
-1.078941863871e+02+j0.000000000000e+00
-1.125085905128e+02+j0.000000000000e+00
-1.171232897817e+02+j0.000000000000e+00
-1.217381973288e+02+j0.000000000000e+00
-1.263532526791e+02+j0.000000000000e+00
-1.309684140897e+02+j0.000000000000e+00
-1.355836532617e+02+j0.000000000000e+00
-1.401989517543e+02+j0.000000000000e+00
-1.448142986476e+02+j0.000000000000e+00
-1.494296891586e+02+j0.000000000000e+00
-1.540451240345e+02+j0.000000000000e+00
-1.586606096480e+02+j0.000000000000e+00
-1.632761588039e+02+j0.000000000000e+00
-1.678917923629e+02+j0.000000000000e+00
-1.725075418834e+02+j0.000000000000e+00
-1.771234536197e+02+j0.000000000000e+00
-1.817395943769e+02+j0.000000000000e+00
-1.863560599634e+02+j0.000000000000e+00
-1.909729873003e+02+j0.000000000000e+00
-1.955905717038e+02+j0.000000000000e+00
-2.002090914909e+02+j0.000000000000e+00
-2.048289429420e+02+j0.000000000000e+00
-2.094506898851e+02+j0.000000000000e+00
-2.140751338423e+02+j0.000000000000e+00
-2.187034129363e+02+j0.000000000000e+00
-2.233371406970e+02+j0.000000000000e+00
-2.279785995628e+02+j0.000000000000e+00
</dep>
<dep ac.vuut_phase frequency>
-1.078593844759e+01+j0.000000000000e+00
-1.286883020522e+01+j0.000000000000e+00
-1.535033850714e+01+j0.000000000000e+00
-1.830424197050e+01+j0.000000000000e+00
-2.181624525064e+01+j0.000000000000e+00
-2.598470891877e+01+j0.000000000000e+00
-3.092052249170e+01+j0.000000000000e+00
-3.674539971369e+01+j0.000000000000e+00
-4.358752578386e+01+j0.000000000000e+00
-5.157311903770e+01+j0.000000000000e+00
-6.081228242766e+01+j0.000000000000e+00
-7.137793597130e+01+j0.000000000000e+00
-8.327829760710e+01+j0.000000000000e+00
-9.642689325085e+01+j0.000000000000e+00
-1.106190083772e+02+j0.000000000000e+00
-1.255272198337e+02+j0.000000000000e+00
-1.407265638165e+02+j0.000000000000e+00
-1.557492071190e+02+j0.000000000000e+00
-1.701535775317e+02+j0.000000000000e+00
1.764155406560e+02+j0.000000000000e+00
1.641936535794e+02+j0.000000000000e+00
1.532948584836e+02+j0.000000000000e+00
1.437316046073e+02+j0.000000000000e+00
1.354441895496e+02+j0.000000000000e+00
1.283294366453e+02+j0.000000000000e+00
1.222635031259e+02+j0.000000000000e+00
1.171176640050e+02+j0.000000000000e+00
1.127680114913e+02+j0.000000000000e+00
1.091006700236e+02+j0.000000000000e+00
1.060140393318e+02+j0.000000000000e+00
1.034192295962e+02+j0.000000000000e+00
1.012394893703e+02+j0.000000000000e+00
9.940913687747e+01+j0.000000000000e+00
9.787230106164e+01+j0.000000000000e+00
9.658164535337e+01+j0.000000000000e+00
9.549716438274e+01+j0.000000000000e+00
9.458509472212e+01+j0.000000000000e+00
9.381695275752e+01+j0.000000000000e+00
9.316869766642e+01+j0.000000000000e+00
9.262000994200e+01+j0.000000000000e+00
9.215367269593e+01+j0.000000000000e+00
9.175504214215e+01+j0.000000000000e+00
9.141159406484e+01+j0.000000000000e+00
9.111253404322e+01+j0.000000000000e+00
9.084846037383e+01+j0.000000000000e+00
9.061106979564e+01+j0.000000000000e+00
9.039289717990e+01+j0.000000000000e+00
9.018708124631e+01+j0.000000000000e+00
8.998714908813e+01+j0.000000000000e+00
8.978681282758e+01+j0.000000000000e+00
8.957977207919e+01+j0.000000000000e+00
8.935951607862e+01+j0.000000000000e+00
8.911911934016e+01+j0.000000000000e+00
8.885102454542e+01+j0.000000000000e+00
8.854680604343e+01+j0.000000000000e+00
8.819690687230e+01+j0.000000000000e+00
8.779034162055e+01+j0.000000000000e+00
8.731435678135e+01+j0.000000000000e+00
8.675403961235e+01+j0.000000000000e+00
8.609186607432e+01+j0.000000000000e+00
8.530717850268e+01+j0.000000000000e+00
8.437558482589e+01+j0.000000000000e+00
8.326827434322e+01+j0.000000000000e+00
8.195125193018e+01+j0.000000000000e+00
8.038450571756e+01+j0.000000000000e+00
7.852114706629e+01+j0.000000000000e+00
</dep>
