<Qucs Dataset 0.0.21>
<indep frequency 56>
1.000000000000e-01
1.232846739442e-01
1.519911082953e-01
1.873817422860e-01
2.310129700083e-01
2.848035868436e-01
3.511191734215e-01
4.328761281083e-01
5.336699231206e-01
6.579332246576e-01
8.111308307897e-01
1.000000000000e+00
1.232846739442e+00
1.519911082953e+00
1.873817422860e+00
2.310129700083e+00
2.848035868436e+00
3.511191734215e+00
4.328761281083e+00
5.336699231206e+00
6.579332246576e+00
8.111308307897e+00
1.000000000000e+01
1.232846739442e+01
1.519911082953e+01
1.873817422860e+01
2.310129700083e+01
2.848035868436e+01
3.511191734215e+01
4.328761281083e+01
5.336699231206e+01
6.579332246576e+01
8.111308307897e+01
1.000000000000e+02
1.232846739442e+02
1.519911082953e+02
1.873817422860e+02
2.310129700083e+02
2.848035868436e+02
3.511191734215e+02
4.328761281083e+02
5.336699231206e+02
6.579332246576e+02
8.111308307897e+02
1.000000000000e+03
1.232846739442e+03
1.519911082953e+03
1.873817422860e+03
2.310129700083e+03
2.848035868436e+03
3.511191734215e+03
4.328761281083e+03
5.336699231206e+03
6.579332246576e+03
8.111308307897e+03
1.000000000000e+04
</indep>
<dep ac.v(uut) frequency>
9.980528793452e-07+j9.990254667603e-04
1.516950845546e-06+j1.231644650216e-03
2.305628584038e-06+j1.518427893617e-03
3.504346237316e-06+j1.871986633733e-03
5.326284980384e-06+j2.307868412859e-03
8.095457154756e-06+j2.845240168831e-03
1.230432326320e-05+j3.507730301324e-03
1.870135766050e-05+j4.324466200553e-03
2.842412440548e-05+j5.331352218212e-03
4.320150327456e-05+j6.572643068407e-03
6.566096882013e-05+j8.102879578107e-03
9.979542742427e-05+j9.989267655686e-03
1.516723066906e-04+j1.231459711895e-02
2.305102427743e-04+j1.518081380567e-02
3.503130895143e-04+j1.871337410126e-02
5.323477898707e-04+j2.306652110097e-02
8.088974244258e-04+j2.842961676461e-02
1.228935325785e-03+j3.503462635380e-02
1.866679730967e-03+j4.316474531083e-02
2.834436369721e-03+j5.316391953371e-02
4.301751954492e-03+j6.544651927043e-02
6.523690052906e-03+j8.050547509952e-02
9.881911949378e-03+j9.891541722908e-02
1.494285535242e-02+j1.213242202791e-01
2.253672463657e-02+j1.484210924337e-01
3.385711063751e-02+j1.808612913168e-01
5.056963621385e-02+j2.191172017598e-01
7.489230349347e-02+j2.632174887254e-01
1.095635298462e-01+j3.123449419694e-01
1.575521348111e-01+j3.643205451626e-01
2.213349996539e-01+j4.151455378323e-01
3.016924099483e-01+j4.589924833022e-01
3.963732188261e-01+j4.891436294418e-01
4.995129949777e-01+j4.999997628261e-01
6.026942331782e-01+j4.893402645113e-01
6.974861614264e-01+j4.593465097778e-01
7.779928049582e-01+j4.155959581029e-01
8.419300555158e-01+j3.648065749613e-01
8.900557962533e-01+j3.128201972526e-01
9.248373178613e-01+j2.636536617467e-01
9.492429778140e-01+j2.195011318530e-01
9.660152149956e-01+j1.811900090861e-01
9.773772903238e-01+j1.486974198939e-01
9.849996880984e-01+j1.215537023067e-01
9.900798952879e-01+j9.910447131507e-02
9.934510105816e-01+j8.066040017232e-02
9.956815280688e-01+j6.557303356863e-02
9.971545304927e-01+j5.326699550892e-02
9.981260470770e-01+j4.324859793617e-02
9.987662732707e-01+j3.510277264964e-02
9.991879474947e-01+j2.848496227849e-02
9.994655752261e-01+j2.311145092856e-02
9.996483198949e-01+j1.874983803081e-02
9.997685901363e-01+j1.521040148119e-02
9.998477357092e-01+j1.233860228455e-02
9.998998150461e-01+j1.000874202272e-02
</dep>
<dep ac.vuut_db frequency>
-6.000846448092e+01+j0.000000000000e+00
-5.819028491629e+01+j0.000000000000e+00
-5.637210652329e+01+j0.000000000000e+00
-5.455392991109e+01+j0.000000000000e+00
-5.273575600552e+01+j0.000000000000e+00
-5.091758621379e+01+j0.000000000000e+00
-4.909942267466e+01+j0.000000000000e+00
-4.728126863888e+01+j0.000000000000e+00
-4.546312904713e+01+j0.000000000000e+00
-4.364501140859e+01+j0.000000000000e+00
-4.182692713594e+01+j0.000000000000e+00
-4.000889357409e+01+j0.000000000000e+00
-3.819093708266e+01+j0.000000000000e+00
-3.637309771873e+01+j0.000000000000e+00
-3.455543634884e+01+j0.000000000000e+00
-3.273804544638e+01+j0.000000000000e+00
-3.092106547399e+01+j0.000000000000e+00
-2.910470971787e+01+j0.000000000000e+00
-2.728930188213e+01+j0.000000000000e+00
-2.547533288043e+01+j0.000000000000e+00
-2.366354635302e+01+j0.000000000000e+00
-2.185506680910e+01+j0.000000000000e+00
-2.005159020116e+01+j0.000000000000e+00
-1.825566407520e+01+j0.000000000000e+00
-1.647109201672e+01+j0.000000000000e+00
-1.470350107294e+01+j0.000000000000e+00
-1.296110170569e+01+j0.000000000000e+00
-1.125562811434e+01+j0.000000000000e+00
-9.603339843768e+00+j0.000000000000e+00
-8.025757078160e+00+j0.000000000000e+00
-6.549499057533e+00+j0.000000000000e+00
-5.204356157747e+00+j0.000000000000e+00
-4.018956965404e+00+j0.000000000000e+00
-3.014532089921e+00+j0.000000000000e+00
-2.199029640172e+00+j0.000000000000e+00
-1.564644046505e+00+j0.000000000000e+00
-1.090244194389e+00+j0.000000000000e+00
-7.472398660638e-01+j0.000000000000e+00
-5.058276723667e-01+j0.000000000000e+00
-3.393465447043e-01+j0.000000000000e+00
-2.262260694338e-01+j0.000000000000e+00
-1.501603327748e-01+j0.000000000000e+00
-9.937756162807e-02+j0.000000000000e+00
-6.563907022363e-02+j0.000000000000e+00
-4.329758248294e-02+j0.000000000000e+00
-2.853544113942e-02+j0.000000000000e+00
-1.879549848946e-02+j0.000000000000e+00
-1.237533223139e-02+j0.000000000000e+00
-8.146109236797e-03+j0.000000000000e+00
-5.361314986519e-03+j0.000000000000e+00
-3.528131928724e-03+j0.000000000000e+00
-2.321597717747e-03+j0.000000000000e+00
-1.527595918598e-03+j0.000000000000e+00
-1.005116570252e-03+j0.000000000000e+00
-6.613257620653e-04+j0.000000000000e+00
-4.351195230745e-04+j0.000000000000e+00
</dep>
<dep ac.vuut_phase frequency>
8.994277873111e+01+j0.000000000000e+00
8.992945059761e+01+j0.000000000000e+00
8.991301906235e+01+j0.000000000000e+00
8.989276151766e+01+j0.000000000000e+00
8.986778710720e+01+j0.000000000000e+00
8.983699755686e+01+j0.000000000000e+00
8.979903889161e+01+j0.000000000000e+00
8.975224192130e+01+j0.000000000000e+00
8.969454889072e+01+j0.000000000000e+00
8.962342309117e+01+j0.000000000000e+00
8.953573750204e+01+j0.000000000000e+00
8.942763764662e+01+j0.000000000000e+00
8.929437278312e+01+j0.000000000000e+00
8.913008829302e+01+j0.000000000000e+00
8.892757067103e+01+j0.000000000000e+00
8.867793490297e+01+j0.000000000000e+00
8.837024235521e+01+j0.000000000000e+00
8.799103586961e+01+j0.000000000000e+00
8.752377814633e+01+j0.000000000000e+00
8.694818086942e+01+j0.000000000000e+00
8.623941762525e+01+j0.000000000000e+00
8.536722763760e+01+j0.000000000000e+00
8.429494717685e+01+j0.000000000000e+00
8.297856408708e+01+j0.000000000000e+00
8.136599904267e+01+j0.000000000000e+00
7.939700478543e+01+j0.000000000000e+00
7.700437437226e+01+j0.000000000000e+00
7.411756764198e+01+j0.000000000000e+00
7.067030001359e+01+j0.000000000000e+00
6.661371760174e+01+j0.000000000000e+00
6.193568782104e+01+j0.000000000000e+00
5.668338521640e+01+j0.000000000000e+00
5.098073678166e+01+j0.000000000000e+00
4.502791270458e+01+j0.000000000000e+00
3.907388790937e+01+j0.000000000000e+00
3.336788298189e+01+j0.000000000000e+00
2.811069184497e+01+j0.000000000000e+00
2.342699129713e+01+j0.000000000000e+00
1.936460710761e+01+j0.000000000000e+00
1.591185401494e+01+j0.000000000000e+00
1.302012218608e+01+j0.000000000000e+00
1.062321881996e+01+j0.000000000000e+00
8.650600878892e+00+j0.000000000000e+00
7.035008847019e+00+j0.000000000000e+00
5.716122379230e+00+j0.000000000000e+00
4.641785218358e+00+j0.000000000000e+00
3.767912864589e+00+j0.000000000000e+00
3.057777410225e+00+j0.000000000000e+00
2.481063019149e+00+j0.000000000000e+00
2.012896989502e+00+j0.000000000000e+00
1.632952582267e+00+j0.000000000000e+00
1.324660860145e+00+j0.000000000000e+00
1.074538750301e+00+j0.000000000000e+00
8.716264636707e-01+j0.000000000000e+00
7.070217539728e-01+j0.000000000000e+00
5.734970998072e-01+j0.000000000000e+00
</dep>
