<Qucs Dataset 0.0.19>
<indep acfrequency 51>
  +1.00000000000000005551e-01
  +1.25892541179416728170e-01
  +1.58489319246111370898e-01
  +1.99526231496887973549e-01
  +2.51188643150958013095e-01
  +3.16227766016837996688e-01
  +3.98107170553497313747e-01
  +5.01187233627272354930e-01
  +6.30957344480193360603e-01
  +7.94328234724281823098e-01
  +1.00000000000000022204e+00
  +1.25892541179416750374e+00
  +1.58489319246111382000e+00
  +1.99526231496887973549e+00
  +2.51188643150958101913e+00
  +3.16227766016838041097e+00
  +3.98107170553497358156e+00
  +5.01187233627272377134e+00
  +6.30957344480193693670e+00
  +7.94328234724282022938e+00
  +1.00000000000000053291e+01
  +1.25892541179416781461e+01
  +1.58489319246111399764e+01
  +1.99526231496888044603e+01
  +2.51188643150958057504e+01
  +3.16227766016837961160e+01
  +3.98107170553497269339e+01
  +5.01187233627272732406e+01
  +6.30957344480193853542e+01
  +7.94328234724282111756e+01
  +1.00000000000000071054e+02
  +1.25892541179416809882e+02
  +1.58489319246111449502e+02
  +1.99526231496888044603e+02
  +2.51188643150958114347e+02
  +3.16227766016838074847e+02
  +3.98107170553497724086e+02
  +5.01187233627272462400e+02
  +6.30957344480193910385e+02
  +7.94328234724281628587e+02
  +1.00000000000000090949e+03
  +1.25892541179416730301e+03
  +1.58489319246111472239e+03
  +1.99526231496888294714e+03
  +2.51188643150958159822e+03
  +3.16227766016838404539e+03
  +3.98107170553497417131e+03
  +5.01187233627272962622e+03
  +6.30957344480193478375e+03
  +7.94328234724282447132e+03
  +1.00000000000000018190e+04
</indep>
<dep Uut_fas acfrequency>
  +8.99427600190428648830e+01
  +8.99279391474243823268e+01
  +8.99092807894744510122e+01
  +8.98857913363536908946e+01
  +8.98562199224683695320e+01
  +8.98189918289167223975e+01
  +8.97721246570875166526e+01
  +8.97131228247907301920e+01
  +8.96388447992576686829e+01
  +8.95453360621255427532e+01
  +8.94276190417276808375e+01
  +8.92794290862001105324e+01
  +8.90928829362565721794e+01
  +8.88580630777378388530e+01
  +8.85624979017380411506e+01
  +8.81905140953254829128e+01
  +8.77224349404290535404e+01
  +8.71335980301006429727e+01
  +8.63931721411353663598e+01
  +8.54627733271720728681e+01
  +8.42949296397847120943e+01
  +8.28315498747238763144e+01
  +8.10027620708168711872e+01
  +7.87268745682847281842e+01
  +7.59128567411911063800e+01
  +7.24676362876633817223e+01
  +6.83113146659655683379e+01
  +6.34029037929976411192e+01
  +5.77750023620225618970e+01
  +5.15660686827288898826e+01
  +4.50279033367898833262e+01
  +3.84882905773439958352e+01
  +3.22753680721923359442e+01
  +2.66418050455464765491e+01
  +2.17270405268787776265e+01
  +1.75644503004290548631e+01
  +1.41135153071654837476e+01
  +1.12945425956119454014e+01
  +9.01449400463449279641e+00
  +7.18228219383707777723e+00
  +5.71612119002433249904e+00
  +4.54603685040132532436e+00
  +3.61384226232653693600e+00
  +2.87198187403504157089e+00
  +2.28200143716593739640e+00
  +1.81301190373014819990e+00
  +1.44030393183191529616e+00
  +1.14416301579583645776e+00
  +9.08885572413976605688e-01
  +7.21975820371620335969e-01
  +5.73496980494513475257e-01
</dep>
<dep Uut_dB acfrequency>
  -6.00084644809194145409e+01
  -5.80084670161315401060e+01
  -5.60084710341689486768e+01
  -5.40084774023214606586e+01
  -5.20084874951439104507e+01
  -5.00085034911414467729e+01
  -4.80085288429683672007e+01
  -4.60085690226031260863e+01
  -4.40086327022713064139e+01
  -4.20087336258313115422e+01
  -4.00088935740905711214e+01
  -3.80091470629317598195e+01
  -3.60095487853657729715e+01
  -3.40101853964097031735e+01
  -3.20111941658073675399e+01
  -3.00127924777456058791e+01
  -2.80153244271708992130e+01
  -2.60193342753291574354e+01
  -2.40256818823441236077e+01
  -2.20357231958652768355e+01
  -2.00515902011567170860e+01
  -1.80766195636826552118e+01
  -1.61159952963159760486e+01
  -1.41776794330251387777e+01
  -1.22736822444983673108e+01
  -1.04216185744424993942e+01
  -8.64622405419333972532e+00
  -6.97999094612545789573e+00
  -5.46145745189600617664e+00
  -4.12961520952783711635e+00
  -3.01453208992136989508e+00
  -2.12770090197227057516e+00
  -1.45781531324821056472e+00
  -9.74927718869303738813e-01
  -6.40078721302704933827e-01
  -4.14696637179022720154e-01
  -2.66226333934887315902e-01
  -1.69867105818506225479e-01
  -1.07949754285513746521e-01
  -6.84234021074091453007e-02
  -4.32975824829334790533e-02
  -2.73691399474891260135e-02
  -1.72888297513312076681e-02
  -1.09165242888095842533e-02
  -6.89105518144852643991e-03
  -4.34923471706728792530e-03
  -2.74468863664052535600e-03
  -1.73198339458091447353e-03
  -1.09288805786789035984e-03
  -6.89597765536366738050e-04
  -4.35119523074583192286e-04
</dep>
<dep V1.i acfrequency>
  -9.98052879345216120705e-10-j9.99025466760315338963e-07
  -1.58180629080416674841e-09-j1.25769781294753991452e-06
  -2.50699170264972292630e-09-j1.58334627218506005243e-06
  -3.97330825693522128771e-09-j1.99331193488543480146e-06
  -6.29725457339243709100e-09-j2.50942521665366130964e-06
  -9.98043914439793838622e-09-j3.15916753832911248226e-06
  -1.58178377212447469912e-08-j3.97713307763954124533e-06
  -2.50693513885939375786e-08-j5.00686757526249136578e-06
  -3.97316617740941154588e-08-j6.30318040112662338965e-06
  -6.29689769488217354930e-08-j7.93504958124167926686e-06
  -9.97954274242667347671e-08-j9.98926765568587423218e-06
  -1.58155862058601133266e-07-j1.25750088978854266948e-05
  -2.50636964130816534067e-07-j1.58295339553326029982e-05
  -3.97174594081205304315e-07-j1.99252815895540523689e-05
  -6.29333113327461138408e-07-j2.50786174491324547668e-05
  -9.97058757099180940721e-07-j3.15604916142647078710e-05
  -1.57931062548512410723e-06-j3.97091476039634235754e-05
  -2.50072866593965065435e-06-j4.99447196616318838248e-05
  -3.95759922003826571725e-06-j6.27848439390576084848e-05
  -6.25788647666174989968e-06-j7.88588950817025054717e-05
  -9.88191194937772188157e-06-j9.89154172290774294984e-05
  -1.55717722662714297107e-05-j1.23811518748292596686e-04
  -2.44568472093423375019e-05-j1.54462648669253442514e-04
  -3.82148409767899666480e-05-j1.91714545368651200592e-04
  -5.92422815155336420227e-05-j2.36077600793399930033e-04
  -9.07482257095599756250e-05-j2.87250735839138877838e-04
  -1.36577008065124689455e-04-j3.43400245971233343111e-04
  -2.00447620615580465687e-04-j4.00335324453304753321e-04
  -2.84350669290632247343e-04-j4.51104606676324868496e-04
  -3.86401211179555371944e-04-j4.86924342355697030004e-04
  -4.99512994977726969802e-04-j4.99999762826052102961e-04
  -6.12674647811818303723e-04-j4.87139018905776832041e-04
  -7.14855838664576830575e-04-j4.51483076750105322139e-04
  -7.98927238378734560706e-04-j4.00802328031241942435e-04
  -8.62962905344001585638e-04-j3.43886506487593029968e-04
  -9.08929787294367663372e-04-j2.87708931149839759744e-04
  -9.40540208600990339932e-04-j2.36483243816123112763e-04
  -9.61641704185101997907e-04-j1.92059722370607408037e-04
  -9.75450025847325358393e-04-j1.54749064364788704862e-04
  -9.84368391319913544138e-04-j1.24045400923045341657e-04
  -9.90079895287859735806e-04-j9.91044713150746742203e-05
  -9.93717838446123375232e-04-j7.90107334486117585115e-05
  -9.96027013112852840915e-04-j6.29062974776099792518e-05
  -9.97489533894532157815e-04-j5.00416193323222069367e-05
  -9.98414534087544141422e-04-j3.97863319532738846096e-05
  -9.98999052979456306223e-04-j3.16219089494251814898e-05
  -9.99368211748334189098e-04-j2.51274569996809415962e-05
  -9.99601275597143549070e-04-j1.99641033283987079372e-05
  -9.99748384885357915808e-04-j1.58603847518340446143e-05
  -9.99841226852282195792e-04-j1.25995213720725418582e-05
  -9.99899815046097727167e-04-j1.00087420227268353301e-05
</dep>
<dep Uut.v acfrequency>
  +9.98052879345216200114e-07+j9.99025466760315467712e-04
  +1.58180629080416692874e-06+j1.25769781294753990944e-03
  +2.50699170264972303880e-06+j1.58334627218505987964e-03
  +3.97330825693522095683e-06+j1.99331193488543490649e-03
  +6.29725457339243809685e-06+j2.50942521665366118089e-03
  +9.98043914439793681127e-06+j3.15916753832911224170e-03
  +1.58178377212447471235e-05+j3.97713307763954138085e-03
  +2.50693513885939423696e-05+j5.00686757526249033579e-03
  +3.97316617740941111707e-05+j6.30318040112662347774e-03
  +6.29689769488217239522e-05+j7.93504958124167936173e-03
  +9.97954274242667183558e-05+j9.98926765568587324284e-03
  +1.58155862058601145125e-04+j1.25750088978854260985e-02
  +2.50636964130816514585e-04+j1.58295339553326010196e-02
  +3.97174594081205266198e-04+j1.99252815895540544289e-02
  +6.29333113327461063022e-04+j2.50786174491324509450e-02
  +9.97058757099180976297e-04+j3.15604916142647046184e-02
  +1.57931062548512441725e-03+j3.97091476039634211359e-02
  +2.50072866593965045107e-03+j4.99447196616318797591e-02
  +3.95759922003826626613e-03+j6.27848439390576024133e-02
  +6.25788647666174896456e-03+j7.88588950817025041706e-02
  +9.88191194937772243723e-03+j9.89154172290774291731e-02
  +1.55717722662714278675e-02+j1.23811518748292603842e-01
  +2.44568472093423389113e-02+j1.54462648669253438394e-01
  +3.82148409767899613354e-02+j1.91714545368651206880e-01
  +5.92422815155336512927e-02+j2.36077600793399927648e-01
  +9.07482257095599820218e-02+j2.87250735839138848782e-01
  +1.36577008065124683167e-01+j3.43400245971233308850e-01
  +2.00447620615580440750e-01+j4.00335324453304775005e-01
  +2.84350669290632185326e-01+j4.51104606676324848546e-01
  +3.86401211179555281738e-01+j4.86924342355697037377e-01
  +4.99512994977726942913e-01+j4.99999762826051963316e-01
  +6.12674647811818240406e-01+j4.87139018905776766122e-01
  +7.14855838664576803687e-01+j4.51483076750105072339e-01
  +7.98927238378734583257e-01+j4.00802328031241772432e-01
  +8.62962905344001551811e-01+j3.43886506487593057724e-01
  +9.08929787294367685924e-01+j2.87708931149839586272e-01
  +9.40540208600990301768e-01+j2.36483243816123012149e-01
  +9.61641704185102086377e-01+j1.92059722370607310893e-01
  +9.75450025847325430384e-01+j1.54749064364788940784e-01
  +9.84368391319913493831e-01+j1.24045400923045862074e-01
  +9.90079895287859779174e-01+j9.91044713150747574870e-02
  +9.93717838446123491458e-01+j7.90107334486113421779e-02
  +9.96027013112852910304e-01+j6.29062974776107702857e-02
  +9.97489533894532209857e-01+j5.00416193323229008261e-02
  +9.98414534087544214280e-01+j3.97863319532764589392e-02
  +9.98999052979456347856e-01+j3.16219089494243141281e-02
  +9.99368211748334123179e-01+j2.51274569996853061604e-02
  +9.99601275597143512641e-01+j1.99641033283991346792e-02
  +9.99748384885357999075e-01+j1.58603847518307347619e-02
  +9.99841226852282161097e-01+j1.25995213720727552292e-02
  +9.99899815046097595328e-01+j1.00087420227206493062e-02
</dep>
<dep _net0.v acfrequency>
  +1.00000000000000000000e+00
  +1.00000000000000000000e+00
  +1.00000000000000000000e+00
  +1.00000000000000000000e+00
  +1.00000000000000000000e+00
  +1.00000000000000000000e+00
  +1.00000000000000000000e+00
  +1.00000000000000000000e+00
  +1.00000000000000000000e+00
  +1.00000000000000000000e+00
  +1.00000000000000000000e+00
  +1.00000000000000000000e+00
  +1.00000000000000000000e+00
  +1.00000000000000000000e+00
  +1.00000000000000000000e+00
  +1.00000000000000000000e+00
  +1.00000000000000000000e+00
  +1.00000000000000000000e+00
  +1.00000000000000000000e+00
  +1.00000000000000000000e+00
  +1.00000000000000000000e+00
  +1.00000000000000000000e+00
  +1.00000000000000000000e+00
  +1.00000000000000000000e+00
  +1.00000000000000000000e+00
  +1.00000000000000000000e+00
  +1.00000000000000000000e+00
  +1.00000000000000000000e+00
  +1.00000000000000000000e+00
  +1.00000000000000000000e+00
  +1.00000000000000000000e+00
  +1.00000000000000000000e+00
  +1.00000000000000000000e+00
  +1.00000000000000000000e+00
  +1.00000000000000000000e+00
  +1.00000000000000000000e+00
  +1.00000000000000000000e+00
  +1.00000000000000000000e+00
  +1.00000000000000000000e+00
  +1.00000000000000000000e+00
  +1.00000000000000000000e+00
  +1.00000000000000000000e+00
  +1.00000000000000000000e+00
  +1.00000000000000000000e+00
  +1.00000000000000000000e+00
  +1.00000000000000000000e+00
  +1.00000000000000000000e+00
  +1.00000000000000000000e+00
  +1.00000000000000000000e+00
  +1.00000000000000000000e+00
  +1.00000000000000000000e+00
</dep>
