<Qucs Dataset 0.0.19>
<indep acfrequency 51>
  +1.00000000000000005551e-01
  +1.25892541179416728170e-01
  +1.58489319246111370898e-01
  +1.99526231496887973549e-01
  +2.51188643150958013095e-01
  +3.16227766016837996688e-01
  +3.98107170553497313747e-01
  +5.01187233627272354930e-01
  +6.30957344480193360603e-01
  +7.94328234724281823098e-01
  +1.00000000000000022204e+00
  +1.25892541179416750374e+00
  +1.58489319246111382000e+00
  +1.99526231496887973549e+00
  +2.51188643150958101913e+00
  +3.16227766016838041097e+00
  +3.98107170553497358156e+00
  +5.01187233627272377134e+00
  +6.30957344480193693670e+00
  +7.94328234724282022938e+00
  +1.00000000000000053291e+01
  +1.25892541179416781461e+01
  +1.58489319246111399764e+01
  +1.99526231496888044603e+01
  +2.51188643150958057504e+01
  +3.16227766016837961160e+01
  +3.98107170553497269339e+01
  +5.01187233627272732406e+01
  +6.30957344480193853542e+01
  +7.94328234724282111756e+01
  +1.00000000000000071054e+02
  +1.25892541179416809882e+02
  +1.58489319246111449502e+02
  +1.99526231496888044603e+02
  +2.51188643150958114347e+02
  +3.16227766016838074847e+02
  +3.98107170553497724086e+02
  +5.01187233627272462400e+02
  +6.30957344480193910385e+02
  +7.94328234724281628587e+02
  +1.00000000000000090949e+03
  +1.25892541179416730301e+03
  +1.58489319246111472239e+03
  +1.99526231496888294714e+03
  +2.51188643150958159822e+03
  +3.16227766016838404539e+03
  +3.98107170553497417131e+03
  +5.01187233627272962622e+03
  +6.30957344480193478375e+03
  +7.94328234724282447132e+03
  +1.00000000000000018190e+04
</indep>
<dep Uut_fas acfrequency>
  -5.72399809571434645128e-02
  -7.20608525756174095322e-02
  -9.07192105255654052121e-02
  -1.14208663646302499561e-01
  -1.43780077531630995358e-01
  -1.81008171083285290814e-01
  -2.27875342912486289482e-01
  -2.86877175209274248857e-01
  -3.61155200742333815089e-01
  -4.54663937874467460887e-01
  -5.72380958272323714375e-01
  -7.20570913799895684804e-01
  -9.07117063743422047395e-01
  -1.14193692226216270136e+00
  -1.43750209826197528074e+00
  -1.80948590467451930763e+00
  -2.27756505957094868009e+00
  -2.86640196989936146821e+00
  -3.60682785886463097569e+00
  -4.53722667282792713195e+00
  -5.70507036021529767567e+00
  -7.16845012527612368558e+00
  -8.99723792918312526012e+00
  -1.12731254317152629341e+01
  -1.40871432588088882909e+01
  -1.75323637123366182777e+01
  -2.16886853340344352148e+01
  -2.65970962070023730917e+01
  -3.22249976379774309976e+01
  -3.84339313172711243283e+01
  -4.49720966632101237792e+01
  -5.15117094226560112702e+01
  -5.77246319278076640558e+01
  -6.33581949544535234509e+01
  -6.82729594731212330316e+01
  -7.24355496995709415842e+01
  -7.58864846928345144761e+01
  -7.87054574043880563750e+01
  -8.09855059953655143090e+01
  -8.28177178061629319927e+01
  -8.42838788099756612837e+01
  -8.54539631495986782284e+01
  -8.63861577376734715017e+01
  -8.71280181259649566528e+01
  -8.77179985628340546100e+01
  -8.81869880962698573512e+01
  -8.85596960681680798189e+01
  -8.88558369842041599895e+01
  -8.90911144275860351627e+01
  -8.92780241796283746680e+01
  -8.94265030195054890783e+01
</dep>
<dep Uut_dB acfrequency>
  -4.33449074448401246938e-06
  -6.86970286782397922785e-06
  -1.08877402737622244505e-05
  -1.72558927890762865676e-05
  -2.73487152344642888086e-05
  -4.33447127745933594818e-05
  -6.86965396963703112815e-05
  -1.08876174463715574879e-04
  -1.72555842641126570098e-04
  -2.73479402649984726544e-04
  -4.33427661905239612096e-04
  -6.86916503095236566367e-04
  -1.08863893710889878853e-03
  -1.72524998103064418700e-03
  -2.73401937869963401057e-03
  -4.33233131693967852410e-03
  -6.86428074223095416317e-03
  -1.08741289004861772099e-02
  -1.72217359154612052741e-02
  -2.72630494366117095972e-02
  -4.31300547280522028615e-02
  -6.81594172539895376550e-02
  -1.07535149887308917327e-01
  -1.69219286596472867634e-01
  -2.65222098069699319112e-01
  -4.13158428013829404080e-01
  -6.37763907764671289513e-01
  -9.71530799696796565357e-01
  -1.45299730546734418013e+00
  -2.12115506309917289940e+00
  -3.00607194349270923084e+00
  -4.11924075554360591411e+00
  -5.44935516681954545959e+00
  -6.96646757244063774550e+00
  -8.63161857487403949563e+00
  -1.04062364907503557276e+01
  -1.22577661875062293717e+01
  -1.41614069593898417310e+01
  -1.60994896078568530129e+01
  -1.80599632556787419446e+01
  -2.00348374360542713646e+01
  -2.20189089935188206937e+01
  -2.40088286833226725037e+01
  -2.60024563778601525144e+01
  -2.79984309087527840632e+01
  -2.99958890882884112727e+01
  -3.19942845422079749085e+01
  -3.39932718369659241375e+01
  -3.59926327416292011208e+01
  -3.79922294513368754565e+01
  -3.99919749730944005250e+01
</dep>
<dep V1.i acfrequency>
  -9.98052879274194393311e-10-j9.99025466760315550722e-07
  -1.58180629076902501406e-09-j1.25769781294753991452e-06
  -2.50699170277479677083e-09-j1.58334627218505984068e-06
  -3.97330825684626132155e-09-j1.99331193488543480146e-06
  -6.29725457326410498204e-09-j2.50942521665366130964e-06
  -9.98043914440110979669e-09-j3.15916753832911248226e-06
  -1.58178377212842696808e-08-j3.97713307763954124533e-06
  -2.50693513886325602957e-08-j5.00686757526249051874e-06
  -3.97316617739909561102e-08-j6.30318040112662338965e-06
  -6.29689769489176487394e-08-j7.93504958124167926686e-06
  -9.97954274243803562960e-08-j9.98926765568587423218e-06
  -1.58155862058605156673e-07-j1.25750088978854266948e-05
  -2.50636964130778946980e-07-j1.58295339553326029982e-05
  -3.97174594081233997556e-07-j1.99252815895540557570e-05
  -6.29333113327541077142e-07-j2.50786174491324513787e-05
  -9.97058757099206563468e-07-j3.15604916142647078710e-05
  -1.57931062548500276976e-06-j3.97091476039634235754e-05
  -2.50072866593976754490e-06-j4.99447196616318838248e-05
  -3.95759922003835126758e-06-j6.27848439390576084848e-05
  -6.25788647666178886320e-06-j7.88588950817025054717e-05
  -9.88191194937777100948e-06-j9.89154172290774294984e-05
  -1.55717722662715787885e-05-j1.23811518748292596686e-04
  -2.44568472093422426342e-05-j1.54462648669253442514e-04
  -3.82148409767900073056e-05-j1.91714545368651200592e-04
  -5.92422815155335810364e-05-j2.36077600793399930033e-04
  -9.07482257095599620725e-05-j2.87250735839138877838e-04
  -1.36577008065124770771e-04-j3.43400245971233288901e-04
  -2.00447620615580275952e-04-j4.00335324453304807531e-04
  -2.84350669290632084713e-04-j4.51104606676324868496e-04
  -3.86401211179555263524e-04-j4.86924342355697030004e-04
  -4.99512994977727078222e-04-j4.99999762826051994541e-04
  -6.12674647811818195303e-04-j4.87139018905776777831e-04
  -7.14855838664576938996e-04-j4.51483076750105105299e-04
  -7.98927238378734560706e-04-j4.00802328031241779805e-04
  -8.62962905344001585638e-04-j3.43886506487593084178e-04
  -9.08929787294367771792e-04-j2.87708931149839597114e-04
  -9.40540208600990448352e-04-j2.36483243816123004342e-04
  -9.61641704185101997907e-04-j1.92059722370607326722e-04
  -9.75450025847325466813e-04-j1.54749064364788948807e-04
  -9.84368391319913544138e-04-j1.24045400923045856653e-04
  -9.90079895287859735806e-04-j9.91044713150747555355e-05
  -9.93717838446123592072e-04-j7.90107334486113383832e-05
  -9.96027013112852840915e-04-j6.29062974776107652983e-05
  -9.97489533894532157815e-04-j5.00416193323229048918e-05
  -9.98414534087544141422e-04-j3.97863319532764595898e-05
  -9.98999052979456306223e-04-j3.16219089494243141281e-05
  -9.99368211748333972258e-04-j2.51274569996853055099e-05
  -9.99601275597143549070e-04-j1.99641033283991348418e-05
  -9.99748384885357915808e-04-j1.58603847518307344096e-05
  -9.99841226852282195792e-04-j1.25995213720727553105e-05
  -9.99899815046097727167e-04-j1.00087420227206502955e-05
</dep>
<dep Uut.v acfrequency>
  +9.99999001947120658151e-01-j9.99025466760315467712e-04
  +9.99998418193709270874e-01-j1.25769781294753990944e-03
  +9.99997493008297322348e-01-j1.58334627218505987964e-03
  +9.99996026691743145065e-01-j1.99331193488543490649e-03
  +9.99993702745426649159e-01-j2.50942521665366118089e-03
  +9.99990019560855536440e-01-j3.15916753832911224170e-03
  +9.99984182162278800732e-01-j3.97713307763954138085e-03
  +9.99974930648611315398e-01-j5.00686757526249033579e-03
  +9.99960268338225932716e-01-j6.30318040112662347774e-03
  +9.99937031023051092760e-01-j7.93504958124167936173e-03
  +9.99900204572575668216e-01-j9.98926765568587324284e-03
  +9.99841844137941415660e-01-j1.25750088978854260985e-02
  +9.99749363035869142990e-01-j1.58295339553326010196e-02
  +9.99602825405918826718e-01-j1.99252815895540544289e-02
  +9.99370666886672531781e-01-j2.50786174491324509450e-02
  +9.99002941242900788232e-01-j3.15604916142647046184e-02
  +9.98420689374514891412e-01-j3.97091476039634211359e-02
  +9.97499271334060244598e-01-j4.99447196616318797591e-02
  +9.96042400779961756285e-01-j6.27848439390576024133e-02
  +9.93742113523338299608e-01-j7.88588950817025041706e-02
  +9.90118088050622291441e-01-j9.89154172290774291731e-02
  +9.84428227733728511417e-01-j1.23811518748292603842e-01
  +9.75543152790657730478e-01-j1.54462648669253438394e-01
  +9.61785159023210045603e-01-j1.91714545368651206880e-01
  +9.40757718484466431974e-01-j2.36077600793399927648e-01
  +9.09251774290440017978e-01-j2.87250735839138848782e-01
  +8.63422991934875261322e-01-j3.43400245971233308850e-01
  +7.99552379384419698027e-01-j4.00335324453304775005e-01
  +7.15649330709367870185e-01-j4.51104606676324848546e-01
  +6.13598788820444718262e-01-j4.86924342355697037377e-01
  +5.00487005022272946064e-01-j4.99999762826051963316e-01
  +3.87325352188181759594e-01-j4.87139018905776766122e-01
  +2.85144161335423140802e-01-j4.51483076750105072339e-01
  +2.01072761621265388987e-01-j4.00802328031241772432e-01
  +1.37037094655998448189e-01-j3.43886506487593057724e-01
  +9.10702127056322585652e-02-j2.87708931149839586272e-01
  +5.94597913990096219039e-02-j2.36483243816123012149e-01
  +3.83582958148979760726e-02-j1.92059722370607310893e-01
  +2.45499741526745834941e-02-j1.54749064364788940784e-01
  +1.56316086800865443329e-02-j1.24045400923045862074e-01
  +9.92010471214030235820e-03-j9.91044713150747574870e-02
  +6.28216155387651548070e-03-j7.90107334486113421779e-02
  +3.97298688714710183933e-03-j6.29062974776107702857e-02
  +2.51046610546781573045e-03-j5.00416193323229008261e-02
  +1.58546591245586681804e-03-j3.97863319532764589392e-02
  +1.00094702054361679895e-03-j3.16219089494243141281e-02
  +6.31788251665977218172e-04-j2.51274569996853061604e-02
  +3.98724402856430600820e-04-j1.99641033283991346792e-02
  +2.51615114642021254262e-04-j1.58603847518307347619e-02
  +1.58773147717754307918e-04-j1.25995213720727552292e-02
  +1.00184953902362645635e-04-j1.00087420227206493062e-02
</dep>
<dep _net0.v acfrequency>
  +1.00000000000000000000e+00
  +1.00000000000000000000e+00
  +1.00000000000000000000e+00
  +1.00000000000000000000e+00
  +1.00000000000000000000e+00
  +1.00000000000000000000e+00
  +1.00000000000000000000e+00
  +1.00000000000000000000e+00
  +1.00000000000000000000e+00
  +1.00000000000000000000e+00
  +1.00000000000000000000e+00
  +1.00000000000000000000e+00
  +1.00000000000000000000e+00
  +1.00000000000000000000e+00
  +1.00000000000000000000e+00
  +1.00000000000000000000e+00
  +1.00000000000000000000e+00
  +1.00000000000000000000e+00
  +1.00000000000000000000e+00
  +1.00000000000000000000e+00
  +1.00000000000000000000e+00
  +1.00000000000000000000e+00
  +1.00000000000000000000e+00
  +1.00000000000000000000e+00
  +1.00000000000000000000e+00
  +1.00000000000000000000e+00
  +1.00000000000000000000e+00
  +1.00000000000000000000e+00
  +1.00000000000000000000e+00
  +1.00000000000000000000e+00
  +1.00000000000000000000e+00
  +1.00000000000000000000e+00
  +1.00000000000000000000e+00
  +1.00000000000000000000e+00
  +1.00000000000000000000e+00
  +1.00000000000000000000e+00
  +1.00000000000000000000e+00
  +1.00000000000000000000e+00
  +1.00000000000000000000e+00
  +1.00000000000000000000e+00
  +1.00000000000000000000e+00
  +1.00000000000000000000e+00
  +1.00000000000000000000e+00
  +1.00000000000000000000e+00
  +1.00000000000000000000e+00
  +1.00000000000000000000e+00
  +1.00000000000000000000e+00
  +1.00000000000000000000e+00
  +1.00000000000000000000e+00
  +1.00000000000000000000e+00
  +1.00000000000000000000e+00
</dep>
