<Qucs Dataset 0.0.22>
<indep frequency 57>
1.000000000000e-01
1.389495494373e-01
1.930697728883e-01
2.682695795280e-01
3.727593720315e-01
5.179474679231e-01
7.196856730012e-01
1.000000000000e+00
1.389495494373e+00
1.930697728883e+00
2.682695795280e+00
3.727593720315e+00
5.179474679231e+00
7.196856730012e+00
1.000000000000e+01
1.389495494373e+01
1.930697728883e+01
2.682695795280e+01
3.727593720315e+01
5.179474679231e+01
7.196856730012e+01
1.000000000000e+02
1.389495494373e+02
1.930697728883e+02
2.682695795280e+02
3.727593720315e+02
5.179474679231e+02
7.196856730012e+02
1.000000000000e+03
1.389495494373e+03
1.930697728883e+03
2.682695795280e+03
3.727593720315e+03
5.179474679231e+03
7.196856730012e+03
1.000000000000e+04
1.389495494373e+04
1.930697728883e+04
2.682695795280e+04
3.727593720315e+04
5.179474679231e+04
7.196856730012e+04
1.000000000000e+05
1.389495494373e+05
1.930697728883e+05
2.682695795280e+05
3.727593720315e+05
5.179474679231e+05
7.196856730012e+05
1.000000000000e+06
1.389495494373e+06
1.930697728883e+06
2.682695795280e+06
3.727593720315e+06
5.179474679231e+06
7.196856730012e+06
1.000000000000e+07
</indep>
<dep ac.v(uut) frequency>
9.999990019471e-01-j9.990254667603e-04
9.999980730634e-01-j1.388140095404e-03
9.999962796745e-01-j1.928810949002e-03
9.999928172008e-01-j2.680064843415e-03
9.999861322787e-01-j3.723913130139e-03
9.999732259675e-01-j5.174293732931e-03
9.999483087244e-01-j7.189478677223e-03
9.999002045726e-01-j9.989267655686e-03
9.998073430888e-01-j1.387875334969e-02
9.996281044219e-01-j1.928100805902e-02
9.992822304881e-01-j2.678160411269e-02
9.986151291638e-01-j3.718807562835e-02
9.973296747937e-01-j5.160614856421e-02
9.948571904365e-01-j7.152874298721e-02
9.901180880506e-01-j9.891541722908e-02
9.810948867491e-01-j1.361899773987e-01
9.641310529672e-01-j1.859633449678e-01
9.329850745694e-01-j2.500478458219e-01
8.782105231520e-01-j3.270425051535e-01
7.888006129892e-01-j4.081595349089e-01
6.592220815254e-01-j4.739708100239e-01
5.004870050223e-01-j4.999997628261e-01
3.416536998369e-01-j4.742641133637e-01
2.118491752421e-01-j4.086185289378e-01
1.222067993774e-01-j3.275244991803e-01
6.725893254609e-02-j2.504698954742e-01
3.600392526843e-02-j1.862998728762e-01
1.897751150612e-02-j1.364454673602e-01
9.920104712140e-03-j9.910447131507e-02
5.162781598652e-03-j7.166677950639e-02
2.680721253073e-03-j5.170623740552e-02
1.390269358685e-03-j3.726038794478e-02
7.205694073317e-04-j2.683375089437e-02
3.733467828568e-04-j1.931857642365e-02
1.934088291591e-04-j1.390580534108e-02
1.001849539024e-04-j1.000874202272e-02
5.189304934196e-05-j7.203496127117e-03
2.687854588103e-05-j5.184382646449e-03
1.392185516422e-05-j3.731174258349e-03
7.210838023505e-06-j2.685290678366e-03
3.734848278221e-06-j1.932571946689e-03
1.934458691568e-06-j1.390846846147e-03
1.001948915427e-06-j1.000973481929e-03
5.189571543861e-07-j7.203866219396e-04
2.687926113173e-07-j5.184520605300e-04
1.392204704673e-07-j3.731225684477e-04
7.210889500096e-08-j2.685309848067e-04
3.734862087873e-08-j1.932579092400e-04
1.934462396284e-08-j1.390849509783e-04
1.001949909291e-08-j1.000974474825e-04
5.189574210096e-09-j7.203869920511e-05
2.687926828443e-09-j5.184521984926e-05
1.392204896558e-09-j3.731226198745e-05
7.210890014866e-10-j2.685310039766e-05
3.734862225970e-10-j1.932579163857e-05
1.934462433331e-10-j1.390849536419e-05
1.001949919230e-10-j1.000974484754e-05
</dep>
<dep ac.vuut_db frequency>
-4.334490744465e-06+j0.000000000000e+00
-8.368587549135e-06+j0.000000000000e+00
-1.615719848761e-05+j0.000000000000e+00
-3.119461241918e-05+j0.000000000000e+00
-6.022716604144e-05+j0.000000000000e+00
-1.162797023033e-04+j0.000000000000e+00
-2.244981600700e-04+j0.000000000000e+00
-4.334276619052e-04+j0.000000000000e+00
-8.367789426768e-04+j0.000000000000e+00
-1.615422376941e-03+j0.000000000000e+00
-3.118352646214e-03+j0.000000000000e+00
-6.018586067716e-03+j0.000000000000e+00
-1.161258662104e-02+j0.000000000000e+00
-2.239256798710e-02+j0.000000000000e+00
-4.313005472805e-02+j0.000000000000e+00
-8.288987728387e-02+j0.000000000000e+00
-1.586392905145e-01+j0.000000000000e+00
-3.012530382479e-01+j0.000000000000e+00
-5.640136326958e-01+j0.000000000000e+00
-1.030327605697e+00+j0.000000000000e+00
-1.809682537927e+00+j0.000000000000e+00
-3.006071943493e+00+j0.000000000000e+00
-4.664138718532e+00+j0.000000000000e+00
-6.739732224278e+00+j0.000000000000e+00
-9.129046300187e+00+j0.000000000000e+00
-1.172250029573e+01+j0.000000000000e+00
-1.443650148414e+01+j0.000000000000e+00
-1.721760736588e+01+j0.000000000000e+00
-2.003483743605e+01+j0.000000000000e+00
-2.287116246540e+01+j0.000000000000e+00
-2.571748342506e+01+j0.000000000000e+00
-2.856901048913e+01+j0.000000000000e+00
-3.142324180333e+01+j0.000000000000e+00
-3.427887586651e+01+j0.000000000000e+00
-3.713523704154e+01+j0.000000000000e+00
-3.999197497309e+01+j0.000000000000e+00
-4.284890808521e+01+j0.000000000000e+00
-4.570594230147e+01+j0.000000000000e+00
-4.856302888727e+01+j0.000000000000e+00
-5.142014259853e+01+j0.000000000000e+00
-5.427727035956e+01+j0.000000000000e+00
-5.713440539768e+01+j0.000000000000e+00
-5.999154420498e+01+j0.000000000000e+00
-6.284868496452e+01+j0.000000000000e+00
-6.570582673521e+01+j0.000000000000e+00
-6.856296902963e+01+j0.000000000000e+00
-7.142011159531e+01+j0.000000000000e+00
-7.427725430149e+01+j0.000000000000e+00
-7.713439708044e+01+j0.000000000000e+00
-7.999153989709e+01+j0.000000000000e+00
-8.284868273325e+01+j0.000000000000e+00
-8.570582557953e+01+j0.000000000000e+00
-8.856296843105e+01+j0.000000000000e+00
-9.142011128527e+01+j0.000000000000e+00
-9.427725414091e+01+j0.000000000000e+00
-9.713439699727e+01+j0.000000000000e+00
-9.999153985401e+01+j0.000000000000e+00
</dep>
<dep ac.vuut_phase frequency>
-5.723999286559e-02+j0.000000000000e+00
-7.953468755848e-02+j0.000000000000e+00
-1.105130239444e-01+j0.000000000000e+00
-1.535571716098e-01+j0.000000000000e+00
-2.133665226282e-01+j0.000000000000e+00
-2.964705463627e-01+j0.000000000000e+00
-4.119410667404e-01+j0.000000000000e+00
-5.723810773528e-01+j0.000000000000e+00
-7.952963061197e-01+j0.000000000000e+00
-1.104994591692e+00+j0.000000000000e+00
-1.535207890760e+00+j0.000000000000e+00
-2.132689588559e+00+j0.000000000000e+00
-2.962090167360e+00+j0.000000000000e+00
-4.112405176037e+00+j0.000000000000e+00
-5.705071547122e+00+j0.000000000000e+00
-7.902970263263e+00+j0.000000000000e+00
-1.091724747516e+01+j0.000000000000e+00
-1.500316867640e+01+j0.000000000000e+00
-2.042515772520e+01+j0.000000000000e+00
-2.735900473407e+01+j0.000000000000e+00
-3.571557716661e+01+j0.000000000000e+00
-4.497210601939e+01+j0.000000000000e+00
-5.423152368778e+01+j0.000000000000e+00
-6.259543230159e+01+j0.000000000000e+00
-6.953833177991e+01+j0.000000000000e+00
-7.496891781154e+01+j0.000000000000e+00
-7.906199647407e+01+j0.000000000000e+00
-8.208183358196e+01+j0.000000000000e+00
-8.428389634474e+01+j0.000000000000e+00
-8.587962228165e+01+j0.000000000000e+00
-8.703216303569e+01+j0.000000000000e+00
-8.786317441409e+01+j0.000000000000e+00
-8.846181873844e+01+j0.000000000000e+00
-8.889287001776e+01+j0.000000000000e+00
-8.920317185398e+01+j0.000000000000e+00
-8.942652162417e+01+j0.000000000000e+00
-8.958727443314e+01+j0.000000000000e+00
-8.970297009431e+01+j0.000000000000e+00
-8.978623615769e+01+j0.000000000000e+00
-8.984616212970e+01+j0.000000000000e+00
-8.988929020908e+01+j0.000000000000e+00
-8.992032895039e+01+j0.000000000000e+00
-8.994266711781e+01+j0.000000000000e+00
-8.995874358805e+01+j0.000000000000e+00
-8.997031359752e+01+j0.000000000000e+00
-8.997864036913e+01+j0.000000000000e+00
-8.998463302793e+01+j0.000000000000e+00
-8.998894585884e+01+j0.000000000000e+00
-8.999204974153e+01+j0.000000000000e+00
-8.999428356146e+01+j0.000000000000e+00
-8.999589120967e+01+j0.000000000000e+00
-8.999704821106e+01+j0.000000000000e+00
-8.999788088839e+01+j0.000000000000e+00
-8.999848015433e+01+j0.000000000000e+00
-8.999891143744e+01+j0.000000000000e+00
-8.999922182572e+01+j0.000000000000e+00
-8.999944520772e+01+j0.000000000000e+00
</dep>
