<Qucs Dataset 0.0.21>
<indep frequency 56>
1.000000000000e-01
1.232846739442e-01
1.519911082953e-01
1.873817422860e-01
2.310129700083e-01
2.848035868436e-01
3.511191734215e-01
4.328761281083e-01
5.336699231206e-01
6.579332246576e-01
8.111308307897e-01
1.000000000000e+00
1.232846739442e+00
1.519911082953e+00
1.873817422860e+00
2.310129700083e+00
2.848035868436e+00
3.511191734215e+00
4.328761281083e+00
5.336699231206e+00
6.579332246576e+00
8.111308307897e+00
1.000000000000e+01
1.232846739442e+01
1.519911082953e+01
1.873817422860e+01
2.310129700083e+01
2.848035868436e+01
3.511191734215e+01
4.328761281083e+01
5.336699231206e+01
6.579332246576e+01
8.111308307897e+01
1.000000000000e+02
1.232846739442e+02
1.519911082953e+02
1.873817422860e+02
2.310129700083e+02
2.848035868436e+02
3.511191734215e+02
4.328761281083e+02
5.336699231206e+02
6.579332246576e+02
8.111308307897e+02
1.000000000000e+03
1.232846739442e+03
1.519911082953e+03
1.873817422860e+03
2.310129700083e+03
2.848035868436e+03
3.511191734215e+03
4.328761281083e+03
5.336699231206e+03
6.579332246576e+03
8.111308307897e+03
1.000000000000e+04
</indep>
<dep ac.v(uut) frequency>
9.999990019471e-01-j9.990254667603e-04
9.999984830492e-01-j1.231644650216e-03
9.999976943714e-01-j1.518427893617e-03
9.999964956538e-01-j1.871986633733e-03
9.999946737150e-01-j2.307868412859e-03
9.999919045428e-01-j2.845240168831e-03
9.999876956767e-01-j3.507730301324e-03
9.999812986423e-01-j4.324466200553e-03
9.999715758756e-01-j5.331352218212e-03
9.999567984967e-01-j6.572643068407e-03
9.999343390312e-01-j8.102879578107e-03
9.999002045726e-01-j9.989267655686e-03
9.998483276933e-01-j1.231459711895e-02
9.997694897572e-01-j1.518081380567e-02
9.996496869105e-01-j1.871337410126e-02
9.994676522101e-01-j2.306652110097e-02
9.991911025756e-01-j2.842961676461e-02
9.987710646742e-01-j3.503462635380e-02
9.981333202690e-01-j4.316474531083e-02
9.971655636303e-01-j5.316391953371e-02
9.956982480455e-01-j6.544651927043e-02
9.934763099471e-01-j8.050547509952e-02
9.901180880506e-01-j9.891541722908e-02
9.850571446476e-01-j1.213242202791e-01
9.774632753634e-01-j1.484210924337e-01
9.661428893625e-01-j1.808612913168e-01
9.494303637862e-01-j2.191172017598e-01
9.251076965065e-01-j2.632174887254e-01
8.904364701538e-01-j3.123449419694e-01
8.424478651889e-01-j3.643205451626e-01
7.786650003461e-01-j4.151455378323e-01
6.983075900517e-01-j4.589924833022e-01
6.036267811739e-01-j4.891436294418e-01
5.004870050223e-01-j4.999997628261e-01
3.973057668218e-01-j4.893402645113e-01
3.025138385736e-01-j4.593465097778e-01
2.220071950418e-01-j4.155959581029e-01
1.580699444842e-01-j3.648065749613e-01
1.099442037467e-01-j3.128201972526e-01
7.516268213873e-02-j2.636536617467e-01
5.075702218595e-02-j2.195011318530e-01
3.398478500441e-02-j1.811900090861e-01
2.262270967620e-02-j1.486974198939e-01
1.500031190162e-02-j1.215537023067e-01
9.920104712140e-03-j9.910447131507e-02
6.548989418360e-03-j8.066040017232e-02
4.318471931213e-03-j6.557303356863e-02
2.845469507265e-03-j5.326699550892e-02
1.873952923002e-03-j4.324859793617e-02
1.233726729335e-03-j3.510277264964e-02
8.120525052782e-04-j2.848496227849e-02
5.344247738621e-04-j2.311145092856e-02
3.516801050779e-04-j1.874983803081e-02
2.314098637440e-04-j1.521040148119e-02
1.522642907504e-04-j1.233860228455e-02
1.001849539024e-04-j1.000874202272e-02
</dep>
<dep ac.vuut_db frequency>
-4.334490744465e-06+j0.000000000000e+00
-6.588038811684e-06+j0.000000000000e+00
-1.001322925693e-05+j0.000000000000e+00
-1.521920900107e-05+j0.000000000000e+00
-2.313182336267e-05+j0.000000000000e+00
-3.515826601800e-05+j0.000000000000e+00
-5.343732572297e-05+j0.000000000000e+00
-8.121972382252e-05+j0.000000000000e+00
-1.234461582541e-04+j0.000000000000e+00
-1.876257977079e-04+j0.000000000000e+00
-2.851713267639e-04+j0.000000000000e+00
-4.334276619052e-04+j0.000000000000e+00
-6.587544171974e-04+j0.000000000000e+00
-1.001208663451e-03+j0.000000000000e+00
-1.521656960884e-03+j0.000000000000e+00
-2.312572677047e-03+j0.000000000000e+00
-3.514418472269e-03+j0.000000000000e+00
-5.340480531186e-03+j0.000000000000e+00
-8.114462976614e-03+j0.000000000000e+00
-1.232727945623e-02+j0.000000000000e+00
-1.872257022419e-02+j0.000000000000e+00
-2.842484449405e-02+j0.000000000000e+00
-4.313005472805e-02+j0.000000000000e+00
-6.538574695031e-02+j0.000000000000e+00
-9.899550665218e-02+j0.000000000000e+00
-1.495863810575e-01+j0.000000000000e+00
-2.253688319917e-01+j0.000000000000e+00
-3.380770588160e-01+j0.000000000000e+00
-5.039706064305e-01+j0.000000000000e+00
-7.445696590036e-01+j0.000000000000e+00
-1.086493456559e+00+j0.000000000000e+00
-1.559532374955e+00+j0.000000000000e+00
-2.192315000793e+00+j0.000000000000e+00
-3.006071943493e+00+j0.000000000000e+00
-4.008751311925e+00+j0.000000000000e+00
-5.192547536440e+00+j0.000000000000e+00
-6.536329502506e+00+j0.000000000000e+00
-8.011506992362e+00+j0.000000000000e+00
-9.588276616847e+00+j0.000000000000e+00
-1.123997730737e+01+j0.000000000000e+00
-1.294503865028e+01+j0.000000000000e+00
-1.468715473180e+01+j0.000000000000e+00
-1.645455377884e+01+j0.000000000000e+00
-1.823899710561e+01+j0.000000000000e+00
-2.003483743605e+01+j0.000000000000e+00
-2.183825711289e+01+j0.000000000000e+00
-2.364669898842e+01+j0.000000000000e+00
-2.545846064035e+01+j0.000000000000e+00
-2.727241323554e+01+j0.000000000000e+00
-2.908781025947e+01+j0.000000000000e+00
-3.090415889459e+01+j0.000000000000e+00
-3.272113417856e+01+j0.000000000000e+00
-3.453852199494e+01+j0.000000000000e+00
-3.635618133378e+01+j0.000000000000e+00
-3.817401936115e+01+j0.000000000000e+00
-3.999197497309e+01+j0.000000000000e+00
</dep>
<dep ac.vuut_phase frequency>
-5.723999286559e-02+j0.000000000000e+00
-7.056812636412e-02+j0.000000000000e+00
-8.699966162492e-02+j0.000000000000e+00
-1.072572063097e-01+j0.000000000000e+00
-1.322316167741e-01+j0.000000000000e+00
-1.630211671120e-01+j0.000000000000e+00
-2.009798323649e-01+j0.000000000000e+00
-2.477768026693e-01+j0.000000000000e+00
-3.054698332482e-01+j0.000000000000e+00
-3.765956328060e-01+j0.000000000000e+00
-4.642812219295e-01+j0.000000000000e+00
-5.723810773528e-01+j0.000000000000e+00
-7.056459408518e-01+j0.000000000000e+00
-8.699304309538e-01+j0.000000000000e+00
-1.072448052944e+00+j0.000000000000e+00
-1.322083821002e+00+j0.000000000000e+00
-1.629776368767e+00+j0.000000000000e+00
-2.008982854363e+00+j0.000000000000e+00
-2.476240577646e+00+j0.000000000000e+00
-3.051837854552e+00+j0.000000000000e+00
-3.760601098726e+00+j0.000000000000e+00
-4.632791086368e+00+j0.000000000000e+00
-5.705071547122e+00+j0.000000000000e+00
-7.021454636891e+00+j0.000000000000e+00
-8.634019681306e+00+j0.000000000000e+00
-1.060301393854e+01+j0.000000000000e+00
-1.299564435171e+01+j0.000000000000e+00
-1.588245108199e+01+j0.000000000000e+00
-1.932971871038e+01+j0.000000000000e+00
-2.338630112223e+01+j0.000000000000e+00
-2.806433090293e+01+j0.000000000000e+00
-3.331663350757e+01+j0.000000000000e+00
-3.901928194231e+01+j0.000000000000e+00
-4.497210601939e+01+j0.000000000000e+00
-5.092613081460e+01+j0.000000000000e+00
-5.663213574208e+01+j0.000000000000e+00
-6.188932687900e+01+j0.000000000000e+00
-6.657302742684e+01+j0.000000000000e+00
-7.063541161637e+01+j0.000000000000e+00
-7.408816470904e+01+j0.000000000000e+00
-7.697989653789e+01+j0.000000000000e+00
-7.937679990401e+01+j0.000000000000e+00
-8.134941784508e+01+j0.000000000000e+00
-8.296500987695e+01+j0.000000000000e+00
-8.428389634474e+01+j0.000000000000e+00
-8.535823350561e+01+j0.000000000000e+00
-8.623210585938e+01+j0.000000000000e+00
-8.694224131375e+01+j0.000000000000e+00
-8.751895570482e+01+j0.000000000000e+00
-8.798712173447e+01+j0.000000000000e+00
-8.836706614171e+01+j0.000000000000e+00
-8.867535786383e+01+j0.000000000000e+00
-8.892547997367e+01+j0.000000000000e+00
-8.912839226030e+01+j0.000000000000e+00
-8.929299697000e+01+j0.000000000000e+00
-8.942652162417e+01+j0.000000000000e+00
</dep>
