<Qucs Dataset 0.0.24>
<indep frequency 190>
1.000000000000e+00
1.115883992508e+00
1.245197084735e+00
1.389495494373e+00
1.550515779833e+00
1.730195738846e+00
1.930697728883e+00
2.154434690032e+00
2.404099183510e+00
2.682695795280e+00
2.993577294720e+00
3.340484983513e+00
3.727593720315e+00
4.159562163072e+00
4.641588833613e+00
5.179474679231e+00
5.779692884153e+00
6.449466771038e+00
7.196856730012e+00
8.030857221392e+00
8.961505019466e+00
1.000000000000e+01
1.115883992508e+01
1.245197084735e+01
1.389495494373e+01
1.550515779833e+01
1.730195738846e+01
1.930697728883e+01
2.154434690032e+01
2.404099183510e+01
2.682695795280e+01
2.993577294720e+01
3.340484983513e+01
3.727593720315e+01
4.159562163072e+01
4.641588833613e+01
5.179474679231e+01
5.779692884153e+01
6.449466771038e+01
7.196856730011e+01
8.030857221391e+01
8.961505019466e+01
1.000000000000e+02
1.115883992508e+02
1.245197084735e+02
1.389495494373e+02
1.550515779833e+02
1.730195738846e+02
1.930697728883e+02
2.154434690032e+02
2.404099183510e+02
2.682695795280e+02
2.993577294720e+02
3.340484983513e+02
3.727593720315e+02
4.159562163072e+02
4.641588833613e+02
5.179474679231e+02
5.779692884153e+02
6.449466771038e+02
7.196856730011e+02
8.030857221391e+02
8.961505019466e+02
1.000000000000e+03
1.115883992508e+03
1.245197084735e+03
1.389495494373e+03
1.550515779833e+03
1.730195738846e+03
1.930697728883e+03
2.154434690032e+03
2.404099183510e+03
2.682695795280e+03
2.993577294720e+03
3.340484983513e+03
3.727593720315e+03
4.159562163072e+03
4.641588833613e+03
5.179474679231e+03
5.779692884153e+03
6.449466771038e+03
7.196856730011e+03
8.030857221391e+03
8.961505019466e+03
1.000000000000e+04
1.115883992508e+04
1.245197084735e+04
1.389495494373e+04
1.550515779833e+04
1.730195738846e+04
1.930697728883e+04
2.154434690032e+04
2.404099183510e+04
2.682695795280e+04
2.993577294720e+04
3.340484983513e+04
3.727593720315e+04
4.159562163072e+04
4.641588833613e+04
5.179474679231e+04
5.779692884153e+04
6.449466771038e+04
7.196856730011e+04
8.030857221391e+04
8.961505019466e+04
1.000000000000e+05
1.115883992508e+05
1.245197084735e+05
1.389495494373e+05
1.550515779833e+05
1.730195738846e+05
1.930697728883e+05
2.154434690032e+05
2.404099183510e+05
2.682695795280e+05
2.993577294720e+05
3.340484983513e+05
3.727593720315e+05
4.159562163072e+05
4.641588833613e+05
5.179474679231e+05
5.779692884153e+05
6.449466771038e+05
7.196856730011e+05
8.030857221391e+05
8.961505019466e+05
1.000000000000e+06
1.115883992508e+06
1.245197084735e+06
1.389495494373e+06
1.550515779833e+06
1.730195738846e+06
1.930697728883e+06
2.154434690032e+06
2.404099183510e+06
2.682695795280e+06
2.993577294720e+06
3.340484983513e+06
3.727593720315e+06
4.159562163072e+06
4.641588833613e+06
5.179474679231e+06
5.779692884153e+06
6.449466771038e+06
7.196856730011e+06
8.030857221391e+06
8.961505019466e+06
1.000000000000e+07
1.115883992508e+07
1.245197084735e+07
1.389495494373e+07
1.550515779833e+07
1.730195738846e+07
1.930697728883e+07
2.154434690032e+07
2.404099183510e+07
2.682695795280e+07
2.993577294720e+07
3.340484983513e+07
3.727593720315e+07
4.159562163072e+07
4.641588833613e+07
5.179474679231e+07
5.779692884153e+07
6.449466771038e+07
7.196856730011e+07
8.030857221391e+07
8.961505019466e+07
1.000000000000e+08
1.115883992508e+08
1.245197084735e+08
1.389495494373e+08
1.550515779833e+08
1.730195738846e+08
1.930697728883e+08
2.154434690032e+08
2.404099183510e+08
2.682695795280e+08
2.993577294720e+08
3.340484983513e+08
3.727593720315e+08
4.159562163072e+08
4.641588833613e+08
5.179474679231e+08
5.779692884153e+08
6.449466771038e+08
7.196856730011e+08
8.030857221391e+08
8.961505019466e+08
1.000000000000e+09
</indep>
<dep ac.v(vcc) frequency>
0.000000000000e+00+j0.000000000000e+00
0.000000000000e+00+j0.000000000000e+00
0.000000000000e+00+j0.000000000000e+00
0.000000000000e+00+j0.000000000000e+00
0.000000000000e+00+j0.000000000000e+00
0.000000000000e+00+j0.000000000000e+00
0.000000000000e+00+j0.000000000000e+00
0.000000000000e+00+j0.000000000000e+00
0.000000000000e+00+j0.000000000000e+00
0.000000000000e+00+j0.000000000000e+00
0.000000000000e+00+j0.000000000000e+00
0.000000000000e+00+j0.000000000000e+00
0.000000000000e+00+j0.000000000000e+00
0.000000000000e+00+j0.000000000000e+00
0.000000000000e+00+j0.000000000000e+00
0.000000000000e+00+j0.000000000000e+00
0.000000000000e+00+j0.000000000000e+00
0.000000000000e+00+j0.000000000000e+00
0.000000000000e+00+j0.000000000000e+00
0.000000000000e+00+j0.000000000000e+00
0.000000000000e+00+j0.000000000000e+00
0.000000000000e+00+j0.000000000000e+00
0.000000000000e+00+j0.000000000000e+00
0.000000000000e+00+j0.000000000000e+00
0.000000000000e+00+j0.000000000000e+00
0.000000000000e+00+j0.000000000000e+00
0.000000000000e+00+j0.000000000000e+00
0.000000000000e+00+j0.000000000000e+00
0.000000000000e+00+j0.000000000000e+00
0.000000000000e+00+j0.000000000000e+00
0.000000000000e+00+j0.000000000000e+00
0.000000000000e+00+j0.000000000000e+00
0.000000000000e+00+j0.000000000000e+00
0.000000000000e+00+j0.000000000000e+00
0.000000000000e+00+j0.000000000000e+00
0.000000000000e+00+j0.000000000000e+00
0.000000000000e+00+j0.000000000000e+00
0.000000000000e+00+j0.000000000000e+00
0.000000000000e+00+j0.000000000000e+00
0.000000000000e+00+j0.000000000000e+00
0.000000000000e+00+j0.000000000000e+00
0.000000000000e+00+j0.000000000000e+00
0.000000000000e+00+j0.000000000000e+00
0.000000000000e+00+j0.000000000000e+00
0.000000000000e+00+j0.000000000000e+00
0.000000000000e+00+j0.000000000000e+00
0.000000000000e+00+j0.000000000000e+00
0.000000000000e+00+j0.000000000000e+00
0.000000000000e+00+j0.000000000000e+00
0.000000000000e+00+j0.000000000000e+00
0.000000000000e+00+j0.000000000000e+00
0.000000000000e+00+j0.000000000000e+00
0.000000000000e+00+j0.000000000000e+00
0.000000000000e+00+j0.000000000000e+00
0.000000000000e+00+j0.000000000000e+00
0.000000000000e+00+j0.000000000000e+00
0.000000000000e+00+j0.000000000000e+00
0.000000000000e+00+j0.000000000000e+00
0.000000000000e+00+j0.000000000000e+00
0.000000000000e+00+j0.000000000000e+00
0.000000000000e+00+j0.000000000000e+00
0.000000000000e+00+j0.000000000000e+00
0.000000000000e+00+j0.000000000000e+00
0.000000000000e+00+j0.000000000000e+00
0.000000000000e+00+j0.000000000000e+00
0.000000000000e+00+j0.000000000000e+00
0.000000000000e+00+j0.000000000000e+00
0.000000000000e+00+j0.000000000000e+00
0.000000000000e+00+j0.000000000000e+00
0.000000000000e+00+j0.000000000000e+00
0.000000000000e+00+j0.000000000000e+00
0.000000000000e+00+j0.000000000000e+00
0.000000000000e+00+j0.000000000000e+00
0.000000000000e+00+j0.000000000000e+00
0.000000000000e+00+j0.000000000000e+00
0.000000000000e+00+j0.000000000000e+00
0.000000000000e+00+j0.000000000000e+00
0.000000000000e+00+j0.000000000000e+00
0.000000000000e+00+j0.000000000000e+00
0.000000000000e+00+j0.000000000000e+00
0.000000000000e+00+j0.000000000000e+00
0.000000000000e+00+j0.000000000000e+00
0.000000000000e+00+j0.000000000000e+00
0.000000000000e+00+j0.000000000000e+00
0.000000000000e+00+j0.000000000000e+00
0.000000000000e+00+j0.000000000000e+00
0.000000000000e+00+j0.000000000000e+00
0.000000000000e+00+j0.000000000000e+00
0.000000000000e+00+j0.000000000000e+00
0.000000000000e+00+j0.000000000000e+00
0.000000000000e+00+j0.000000000000e+00
0.000000000000e+00+j0.000000000000e+00
0.000000000000e+00+j0.000000000000e+00
0.000000000000e+00+j0.000000000000e+00
0.000000000000e+00+j0.000000000000e+00
0.000000000000e+00+j0.000000000000e+00
0.000000000000e+00+j0.000000000000e+00
0.000000000000e+00+j0.000000000000e+00
0.000000000000e+00+j0.000000000000e+00
0.000000000000e+00+j0.000000000000e+00
0.000000000000e+00+j0.000000000000e+00
0.000000000000e+00+j0.000000000000e+00
0.000000000000e+00+j0.000000000000e+00
0.000000000000e+00+j0.000000000000e+00
0.000000000000e+00+j0.000000000000e+00
0.000000000000e+00+j0.000000000000e+00
0.000000000000e+00+j0.000000000000e+00
0.000000000000e+00+j0.000000000000e+00
0.000000000000e+00+j0.000000000000e+00
0.000000000000e+00+j0.000000000000e+00
0.000000000000e+00+j0.000000000000e+00
0.000000000000e+00+j0.000000000000e+00
0.000000000000e+00+j0.000000000000e+00
0.000000000000e+00+j0.000000000000e+00
0.000000000000e+00+j0.000000000000e+00
0.000000000000e+00+j0.000000000000e+00
0.000000000000e+00+j0.000000000000e+00
0.000000000000e+00+j0.000000000000e+00
0.000000000000e+00+j0.000000000000e+00
0.000000000000e+00+j0.000000000000e+00
0.000000000000e+00+j0.000000000000e+00
0.000000000000e+00+j0.000000000000e+00
0.000000000000e+00+j0.000000000000e+00
0.000000000000e+00+j0.000000000000e+00
0.000000000000e+00+j0.000000000000e+00
0.000000000000e+00+j0.000000000000e+00
0.000000000000e+00+j0.000000000000e+00
0.000000000000e+00+j0.000000000000e+00
0.000000000000e+00+j0.000000000000e+00
0.000000000000e+00+j0.000000000000e+00
0.000000000000e+00+j0.000000000000e+00
0.000000000000e+00+j0.000000000000e+00
0.000000000000e+00+j0.000000000000e+00
0.000000000000e+00+j0.000000000000e+00
0.000000000000e+00+j0.000000000000e+00
0.000000000000e+00+j0.000000000000e+00
0.000000000000e+00+j0.000000000000e+00
0.000000000000e+00+j0.000000000000e+00
0.000000000000e+00+j0.000000000000e+00
0.000000000000e+00+j0.000000000000e+00
0.000000000000e+00+j0.000000000000e+00
0.000000000000e+00+j0.000000000000e+00
0.000000000000e+00+j0.000000000000e+00
0.000000000000e+00+j0.000000000000e+00
0.000000000000e+00+j0.000000000000e+00
0.000000000000e+00+j0.000000000000e+00
0.000000000000e+00+j0.000000000000e+00
0.000000000000e+00+j0.000000000000e+00
0.000000000000e+00+j0.000000000000e+00
0.000000000000e+00+j0.000000000000e+00
0.000000000000e+00+j0.000000000000e+00
0.000000000000e+00+j0.000000000000e+00
0.000000000000e+00+j0.000000000000e+00
0.000000000000e+00+j0.000000000000e+00
0.000000000000e+00+j0.000000000000e+00
0.000000000000e+00+j0.000000000000e+00
0.000000000000e+00+j0.000000000000e+00
0.000000000000e+00+j0.000000000000e+00
0.000000000000e+00+j0.000000000000e+00
0.000000000000e+00+j0.000000000000e+00
0.000000000000e+00+j0.000000000000e+00
0.000000000000e+00+j0.000000000000e+00
0.000000000000e+00+j0.000000000000e+00
0.000000000000e+00+j0.000000000000e+00
0.000000000000e+00+j0.000000000000e+00
0.000000000000e+00+j0.000000000000e+00
0.000000000000e+00+j0.000000000000e+00
0.000000000000e+00+j0.000000000000e+00
0.000000000000e+00+j0.000000000000e+00
0.000000000000e+00+j0.000000000000e+00
0.000000000000e+00+j0.000000000000e+00
0.000000000000e+00+j0.000000000000e+00
0.000000000000e+00+j0.000000000000e+00
0.000000000000e+00+j0.000000000000e+00
0.000000000000e+00+j0.000000000000e+00
0.000000000000e+00+j0.000000000000e+00
0.000000000000e+00+j0.000000000000e+00
0.000000000000e+00+j0.000000000000e+00
0.000000000000e+00+j0.000000000000e+00
0.000000000000e+00+j0.000000000000e+00
0.000000000000e+00+j0.000000000000e+00
0.000000000000e+00+j0.000000000000e+00
0.000000000000e+00+j0.000000000000e+00
0.000000000000e+00+j0.000000000000e+00
0.000000000000e+00+j0.000000000000e+00
0.000000000000e+00+j0.000000000000e+00
0.000000000000e+00+j0.000000000000e+00
0.000000000000e+00+j0.000000000000e+00
0.000000000000e+00+j0.000000000000e+00
0.000000000000e+00+j0.000000000000e+00
</dep>
<dep ac.v(vee) frequency>
0.000000000000e+00+j0.000000000000e+00
0.000000000000e+00+j0.000000000000e+00
0.000000000000e+00+j0.000000000000e+00
0.000000000000e+00+j0.000000000000e+00
0.000000000000e+00+j0.000000000000e+00
0.000000000000e+00+j0.000000000000e+00
0.000000000000e+00+j0.000000000000e+00
0.000000000000e+00+j0.000000000000e+00
0.000000000000e+00+j0.000000000000e+00
0.000000000000e+00+j0.000000000000e+00
0.000000000000e+00+j0.000000000000e+00
0.000000000000e+00+j0.000000000000e+00
0.000000000000e+00+j0.000000000000e+00
0.000000000000e+00+j0.000000000000e+00
0.000000000000e+00+j0.000000000000e+00
0.000000000000e+00+j0.000000000000e+00
0.000000000000e+00+j0.000000000000e+00
0.000000000000e+00+j0.000000000000e+00
0.000000000000e+00+j0.000000000000e+00
0.000000000000e+00+j0.000000000000e+00
0.000000000000e+00+j0.000000000000e+00
0.000000000000e+00+j0.000000000000e+00
0.000000000000e+00+j0.000000000000e+00
0.000000000000e+00+j0.000000000000e+00
0.000000000000e+00+j0.000000000000e+00
0.000000000000e+00+j0.000000000000e+00
0.000000000000e+00+j0.000000000000e+00
0.000000000000e+00+j0.000000000000e+00
0.000000000000e+00+j0.000000000000e+00
0.000000000000e+00+j0.000000000000e+00
0.000000000000e+00+j0.000000000000e+00
0.000000000000e+00+j0.000000000000e+00
0.000000000000e+00+j0.000000000000e+00
0.000000000000e+00+j0.000000000000e+00
0.000000000000e+00+j0.000000000000e+00
0.000000000000e+00+j0.000000000000e+00
0.000000000000e+00+j0.000000000000e+00
0.000000000000e+00+j0.000000000000e+00
0.000000000000e+00+j0.000000000000e+00
0.000000000000e+00+j0.000000000000e+00
0.000000000000e+00+j0.000000000000e+00
0.000000000000e+00+j0.000000000000e+00
0.000000000000e+00+j0.000000000000e+00
0.000000000000e+00+j0.000000000000e+00
0.000000000000e+00+j0.000000000000e+00
0.000000000000e+00+j0.000000000000e+00
0.000000000000e+00+j0.000000000000e+00
0.000000000000e+00+j0.000000000000e+00
0.000000000000e+00+j0.000000000000e+00
0.000000000000e+00+j0.000000000000e+00
0.000000000000e+00+j0.000000000000e+00
0.000000000000e+00+j0.000000000000e+00
0.000000000000e+00+j0.000000000000e+00
0.000000000000e+00+j0.000000000000e+00
0.000000000000e+00+j0.000000000000e+00
0.000000000000e+00+j0.000000000000e+00
0.000000000000e+00+j0.000000000000e+00
0.000000000000e+00+j0.000000000000e+00
0.000000000000e+00+j0.000000000000e+00
0.000000000000e+00+j0.000000000000e+00
0.000000000000e+00+j0.000000000000e+00
0.000000000000e+00+j0.000000000000e+00
0.000000000000e+00+j0.000000000000e+00
0.000000000000e+00+j0.000000000000e+00
0.000000000000e+00+j0.000000000000e+00
0.000000000000e+00+j0.000000000000e+00
0.000000000000e+00+j0.000000000000e+00
0.000000000000e+00+j0.000000000000e+00
0.000000000000e+00+j0.000000000000e+00
0.000000000000e+00+j0.000000000000e+00
0.000000000000e+00+j0.000000000000e+00
0.000000000000e+00+j0.000000000000e+00
0.000000000000e+00+j0.000000000000e+00
0.000000000000e+00+j0.000000000000e+00
0.000000000000e+00+j0.000000000000e+00
0.000000000000e+00+j0.000000000000e+00
0.000000000000e+00+j0.000000000000e+00
0.000000000000e+00+j0.000000000000e+00
0.000000000000e+00+j0.000000000000e+00
0.000000000000e+00+j0.000000000000e+00
0.000000000000e+00+j0.000000000000e+00
0.000000000000e+00+j0.000000000000e+00
0.000000000000e+00+j0.000000000000e+00
0.000000000000e+00+j0.000000000000e+00
0.000000000000e+00+j0.000000000000e+00
0.000000000000e+00+j0.000000000000e+00
0.000000000000e+00+j0.000000000000e+00
0.000000000000e+00+j0.000000000000e+00
0.000000000000e+00+j0.000000000000e+00
0.000000000000e+00+j0.000000000000e+00
0.000000000000e+00+j0.000000000000e+00
0.000000000000e+00+j0.000000000000e+00
0.000000000000e+00+j0.000000000000e+00
0.000000000000e+00+j0.000000000000e+00
0.000000000000e+00+j0.000000000000e+00
0.000000000000e+00+j0.000000000000e+00
0.000000000000e+00+j0.000000000000e+00
0.000000000000e+00+j0.000000000000e+00
0.000000000000e+00+j0.000000000000e+00
0.000000000000e+00+j0.000000000000e+00
0.000000000000e+00+j0.000000000000e+00
0.000000000000e+00+j0.000000000000e+00
0.000000000000e+00+j0.000000000000e+00
0.000000000000e+00+j0.000000000000e+00
0.000000000000e+00+j0.000000000000e+00
0.000000000000e+00+j0.000000000000e+00
0.000000000000e+00+j0.000000000000e+00
0.000000000000e+00+j0.000000000000e+00
0.000000000000e+00+j0.000000000000e+00
0.000000000000e+00+j0.000000000000e+00
0.000000000000e+00+j0.000000000000e+00
0.000000000000e+00+j0.000000000000e+00
0.000000000000e+00+j0.000000000000e+00
0.000000000000e+00+j0.000000000000e+00
0.000000000000e+00+j0.000000000000e+00
0.000000000000e+00+j0.000000000000e+00
0.000000000000e+00+j0.000000000000e+00
0.000000000000e+00+j0.000000000000e+00
0.000000000000e+00+j0.000000000000e+00
0.000000000000e+00+j0.000000000000e+00
0.000000000000e+00+j0.000000000000e+00
0.000000000000e+00+j0.000000000000e+00
0.000000000000e+00+j0.000000000000e+00
0.000000000000e+00+j0.000000000000e+00
0.000000000000e+00+j0.000000000000e+00
0.000000000000e+00+j0.000000000000e+00
0.000000000000e+00+j0.000000000000e+00
0.000000000000e+00+j0.000000000000e+00
0.000000000000e+00+j0.000000000000e+00
0.000000000000e+00+j0.000000000000e+00
0.000000000000e+00+j0.000000000000e+00
0.000000000000e+00+j0.000000000000e+00
0.000000000000e+00+j0.000000000000e+00
0.000000000000e+00+j0.000000000000e+00
0.000000000000e+00+j0.000000000000e+00
0.000000000000e+00+j0.000000000000e+00
0.000000000000e+00+j0.000000000000e+00
0.000000000000e+00+j0.000000000000e+00
0.000000000000e+00+j0.000000000000e+00
0.000000000000e+00+j0.000000000000e+00
0.000000000000e+00+j0.000000000000e+00
0.000000000000e+00+j0.000000000000e+00
0.000000000000e+00+j0.000000000000e+00
0.000000000000e+00+j0.000000000000e+00
0.000000000000e+00+j0.000000000000e+00
0.000000000000e+00+j0.000000000000e+00
0.000000000000e+00+j0.000000000000e+00
0.000000000000e+00+j0.000000000000e+00
0.000000000000e+00+j0.000000000000e+00
0.000000000000e+00+j0.000000000000e+00
0.000000000000e+00+j0.000000000000e+00
0.000000000000e+00+j0.000000000000e+00
0.000000000000e+00+j0.000000000000e+00
0.000000000000e+00+j0.000000000000e+00
0.000000000000e+00+j0.000000000000e+00
0.000000000000e+00+j0.000000000000e+00
0.000000000000e+00+j0.000000000000e+00
0.000000000000e+00+j0.000000000000e+00
0.000000000000e+00+j0.000000000000e+00
0.000000000000e+00+j0.000000000000e+00
0.000000000000e+00+j0.000000000000e+00
0.000000000000e+00+j0.000000000000e+00
0.000000000000e+00+j0.000000000000e+00
0.000000000000e+00+j0.000000000000e+00
0.000000000000e+00+j0.000000000000e+00
0.000000000000e+00+j0.000000000000e+00
0.000000000000e+00+j0.000000000000e+00
0.000000000000e+00+j0.000000000000e+00
0.000000000000e+00+j0.000000000000e+00
0.000000000000e+00+j0.000000000000e+00
0.000000000000e+00+j0.000000000000e+00
0.000000000000e+00+j0.000000000000e+00
0.000000000000e+00+j0.000000000000e+00
0.000000000000e+00+j0.000000000000e+00
0.000000000000e+00+j0.000000000000e+00
0.000000000000e+00+j0.000000000000e+00
0.000000000000e+00+j0.000000000000e+00
0.000000000000e+00+j0.000000000000e+00
0.000000000000e+00+j0.000000000000e+00
0.000000000000e+00+j0.000000000000e+00
0.000000000000e+00+j0.000000000000e+00
0.000000000000e+00+j0.000000000000e+00
0.000000000000e+00+j0.000000000000e+00
0.000000000000e+00+j0.000000000000e+00
0.000000000000e+00+j0.000000000000e+00
0.000000000000e+00+j0.000000000000e+00
0.000000000000e+00+j0.000000000000e+00
0.000000000000e+00+j0.000000000000e+00
0.000000000000e+00+j0.000000000000e+00
0.000000000000e+00+j0.000000000000e+00
</dep>
<dep ac.v(vout) frequency>
1.949537458599e+00-j7.343864448889e-07
1.949537458599e+00-j8.194900781660e-07
1.949537458599e+00-j9.144558602443e-07
1.949537458599e+00-j1.020426656301e-06
1.949537458598e+00-j1.138677771295e-06
1.949537458598e+00-j1.270632297612e-06
1.949537458598e+00-j1.417878241268e-06
1.949537458597e+00-j1.582187632755e-06
1.949537458597e+00-j1.765537852534e-06
1.949537458596e+00-j1.970135427808e-06
1.949537458595e+00-j2.198442586961e-06
1.949537458594e+00-j2.453206891234e-06
1.949537458593e+00-j2.737494300235e-06
1.949537458591e+00-j3.054726069208e-06
1.949537458589e+00-j3.408719922118e-06
1.949537458586e+00-j3.803735996024e-06
1.949537458583e+00-j4.244528109675e-06
1.949537458578e+00-j4.736400973316e-06
1.949537458573e+00-j5.285274028195e-06
1.949537458567e+00-j5.897752684042e-06
1.949537458559e+00-j6.581207811841e-06
1.949537458549e+00-j7.343864448528e-06
1.949537458536e+00-j8.194900781159e-06
1.949537458520e+00-j9.144558601746e-06
1.949537458501e+00-j1.020426656205e-05
1.949537458477e+00-j1.138677771160e-05
1.949537458447e+00-j1.270632297425e-05
1.949537458409e+00-j1.417878241008e-05
1.949537458362e+00-j1.582187632394e-05
1.949537458304e+00-j1.765537852033e-05
1.949537458232e+00-j1.970135427111e-05
1.949537458142e+00-j2.198442585994e-05
1.949537458029e+00-j2.453206889890e-05
1.949537457890e+00-j2.737494298367e-05
1.949537457715e+00-j3.054726066613e-05
1.949537457499e+00-j3.408719918512e-05
