<Qucs Dataset 0.0.24>
<indep frequency 100>
1.000000000000e+00
1.232846739442e+00
1.519911082953e+00
1.873817422860e+00
2.310129700083e+00
2.848035868436e+00
3.511191734215e+00
4.328761281083e+00
5.336699231206e+00
6.579332246576e+00
8.111308307897e+00
1.000000000000e+01
1.232846739442e+01
1.519911082953e+01
1.873817422860e+01
2.310129700083e+01
2.848035868436e+01
3.511191734215e+01
4.328761281083e+01
5.336699231206e+01
6.579332246576e+01
8.111308307897e+01
1.000000000000e+02
1.232846739442e+02
1.519911082953e+02
1.873817422860e+02
2.310129700083e+02
2.848035868436e+02
3.511191734215e+02
4.328761281083e+02
5.336699231206e+02
6.579332246576e+02
8.111308307897e+02
1.000000000000e+03
1.232846739442e+03
1.519911082953e+03
1.873817422860e+03
2.310129700083e+03
2.848035868436e+03
3.511191734215e+03
4.328761281083e+03
5.336699231206e+03
6.579332246576e+03
8.111308307897e+03
1.000000000000e+04
1.232846739442e+04
1.519911082953e+04
1.873817422860e+04
2.310129700083e+04
2.848035868436e+04
3.511191734215e+04
4.328761281083e+04
5.336699231206e+04
6.579332246576e+04
8.111308307897e+04
1.000000000000e+05
1.232846739442e+05
1.519911082953e+05
1.873817422860e+05
2.310129700083e+05
2.848035868436e+05
3.511191734215e+05
4.328761281083e+05
5.336699231206e+05
6.579332246576e+05
8.111308307897e+05
1.000000000000e+06
1.232846739442e+06
1.519911082953e+06
1.873817422860e+06
2.310129700083e+06
2.848035868436e+06
3.511191734215e+06
4.328761281083e+06
5.336699231206e+06
6.579332246576e+06
8.111308307897e+06
1.000000000000e+07
1.232846739442e+07
1.519911082953e+07
1.873817422860e+07
2.310129700083e+07
2.848035868436e+07
3.511191734215e+07
4.328761281083e+07
5.336699231206e+07
6.579332246576e+07
8.111308307897e+07
1.000000000000e+08
1.232846739442e+08
1.519911082953e+08
1.873817422860e+08
2.310129700083e+08
2.848035868436e+08
3.511191734215e+08
4.328761281083e+08
5.336699231206e+08
6.579332246576e+08
8.111308307897e+08
1.000000000000e+09
</indep>
<dep ac.v(b) frequency>
6.515513816345e-03+j2.467992812942e-02
9.578529823935e-03+j2.942964243240e-02
1.386789411039e-02+j3.456109992517e-02
1.966043326728e-02+j3.974303527937e-02
2.711091738144e-02+j4.445320419705e-02
3.611559036099e-02+j4.803352781131e-02
4.621477739935e-02+j4.985647170755e-02
5.663445380447e-02+j4.955783217885e-02
6.649881832092e-02+j4.719939384935e-02
7.510563910892e-02+j4.324002620679e-02
8.209658150840e-02+j3.833799399561e-02
8.745228016952e-02+j3.312579867339e-02
9.137417880662e-02+j2.807434396786e-02
9.415221294141e-02+j2.346429828312e-02
9.607398427425e-02+j1.942109664901e-02
9.738175189394e-02+j1.596748218115e-02
9.826176912434e-02+j1.306875887360e-02
9.884948826629e-02+j1.066387634526e-02
9.924001782318e-02+j8.683972067189e-03
9.949864757267e-02+j7.062194446386e-03
9.966954516337e-02+j5.738202611912e-03
9.978230491545e-02+j4.659698779952e-03
9.985663256004e-02+j3.782440778279e-03
9.990559561086e-02+j3.069558700812e-03
9.993783622563e-02+j2.490617189088e-03
9.995905974888e-02+j2.020645417767e-03
9.997302832714e-02+j1.639236836556e-03
9.998222084834e-02+j1.329757797416e-03
9.998826983553e-02+j1.078672803790e-03
9.999225006439e-02+j8.749795968571e-04
9.999486896203e-02+j7.097415162708e-04
9.999659209662e-02+j5.757031469448e-04
9.999772583651e-02+j4.669758671792e-04
9.999847177567e-02+j3.787813497320e-04
9.999896255990e-02+j3.072427401745e-04
9.999928546578e-02+j2.492148655089e-04
9.999949791742e-02+j2.021462924441e-04
9.999963769691e-02+j1.639673218810e-04
9.999972966269e-02+j1.329990754852e-04
9.999979017013e-02+j1.078797197533e-04
9.999982998002e-02+j8.750460633443e-05
9.999985617229e-02+j7.097770853004e-05
9.999987340506e-02+j5.757222488924e-05
9.999988474308e-02+j4.669862087517e-05
9.999989220275e-02+j3.787870503842e-05
9.999989711071e-02+j3.072460063718e-05
9.999990033984e-02+j2.492168846397e-05
9.999990246439e-02+j2.021477103280e-05
9.999990386223e-02+j1.639684981416e-05
9.999990478194e-02+j1.330002204951e-05
9.999990538709e-02+j1.078809685302e-05
9.999990578529e-02+j8.750605897785e-06
9.999990604738e-02+j7.097945303366e-06
9.999990621996e-02+j5.757435083537e-06
9.999990633372e-02+j4.670122861587e-06
9.999990640889e-02+j3.788191290342e-06
9.999990645885e-02+j3.072855162401e-06
9.999990649247e-02+j2.492655731047e-06
9.999990651574e-02+j2.022077230221e-06
9.999990653280e-02+j1.640424751172e-06
9.999990654667e-02+j1.330914126707e-06
9.999990655983e-02+j1.079933796775e-06
9.999990657462e-02+j8.764461909673e-07
9.999990659365e-02+j7.115022964514e-07
9.999990662030e-02+j5.778480524925e-07
9.999990665928e-02+j4.696052418028e-07
9.999990671746e-02+j3.820128080772e-07
9.999990680503e-02+j3.112171552522e-07
9.999990693723e-02+j2.541020816082e-07
9.999990713678e-02+j2.081506445870e-07
9.999990743736e-02+j1.713324839312e-07
9.999990788835e-02+j1.420109687809e-07
9.999990856077e-02+j1.188649881207e-07
9.999990955385e-02+j1.008203400992e-07
9.999991100003e-02+j8.698579167640e-08
9.999991306339e-02+j7.658985254909e-08
9.999991592297e-02+j6.891799235269e-08
9.999991973046e-02+j6.325882849929e-08
9.999992453858e-02+j5.888121921680e-08
9.999993022046e-02+j5.507145261667e-08
9.999993643216e-02+j5.123866876441e-08
9.999994267289e-02+j4.704076876011e-08
9.999994843638e-02+j4.244100348601e-08
9.999995336664e-02+j3.764418885818e-08
9.999995732750e-02+j3.295604451585e-08
9.999996037236e-02+j2.865489962900e-08
9.999996266618e-02+j2.492728574587e-08
9.999996441383e-02+j2.186130907440e-08
9.999996581692e-02+j1.946728511825e-08
9.999996705564e-02+j1.770087017615e-08
9.999996828313e-02+j1.647788916476e-08
9.999996962061e-02+j1.568100299867e-08
9.999997114671e-02+j1.516529976957e-08
9.999997288279e-02+j1.477280165985e-08
9.999997478589e-02+j1.436107396957e-08
9.999997676392e-02+j1.383669273129e-08
9.999997871306e-02+j1.317159582753e-08
9.999998055586e-02+j1.238825634777e-08
9.999998225463e-02+j1.152551881259e-08
9.999998379717e-02+j1.061225239054e-08
</dep>
<dep ac.v(e) frequency>
6.340079133373e-03+j2.401540413078e-02
9.320621331931e-03+j2.863722911765e-02
1.349449153996e-02+j3.363051859745e-02
1.913106260296e-02+j3.867292678834e-02
2.638093731694e-02+j4.325627117884e-02
3.514315329403e-02+j4.674019212759e-02
4.497041278741e-02+j4.851405201521e-02
5.510953225130e-02+j4.822345356999e-02
6.470829198041e-02+j4.592851782303e-02
7.308336820935e-02+j4.207575888658e-02
7.988607468484e-02+j3.730571727545e-02
8.509756748235e-02+j3.223386391200e-02
8.891386630592e-02+j2.731842311867e-02
9.161709996427e-02+j2.283250611123e-02
9.348712628452e-02+j1.889817049663e-02
9.475968136315e-02+j1.553754701823e-02
9.561600352541e-02+j1.271687388601e-02
9.618789792594e-02+j1.037674454494e-02
9.656791220638e-02+j8.450150640190e-03
9.681957817230e-02+j6.872040607833e-03
9.698587422803e-02+j5.583698301251e-03
9.709559784636e-02+j4.534234096465e-03
9.716792416810e-02+j3.680597079633e-03
9.721556885516e-02+j2.986910101481e-03
9.724694136923e-02+j2.423557307899e-03
9.726759343456e-02+j1.966240244257e-03
9.728118589926e-02+j1.595101838015e-03
9.729013090552e-02+j1.293956334944e-03
9.729601701958e-02+j1.049632717433e-03
9.729989007807e-02+j8.514250025900e-04
9.730243846011e-02+j6.906371959191e-04
9.730411519816e-02+j5.602092888479e-04
9.730521841137e-02+j4.544112758614e-04
9.730594426569e-02+j3.685935646664e-04
9.730642183534e-02+j2.989837805202e-04
9.730673604694e-02+j2.425215506751e-04
9.730694277845e-02+j1.967242818574e-04
9.730707879471e-02+j1.595781767751e-04
9.730716828489e-02+j1.294497762375e-04
9.730722716410e-02+j1.050141791094e-04
9.730726590358e-02+j8.519680600815e-05
9.730729139286e-02+j6.912615772592e-05
9.730730816507e-02+j5.609549725112e-05
9.730731920304e-02+j4.553177369523e-05
9.730732646979e-02+j3.697042331035e-05
9.730733125768e-02+j3.003494038656e-05
9.730733441822e-02+j2.442032012939e-05
9.730733651347e-02+j1.987964565383e-05
9.730733791607e-02+j1.621322937194e-05
9.730733887547e-02+j1.325983131677e-05
9.730733956229e-02+j1.088956824634e-05
9.730734009867e-02+j8.998201705746e-06
9.730734058001e-02+j7.502553855197e-06
9.730734109190e-02+j6.336849455747e-06
9.730734172539e-02+j5.449823119786e-06
9.730734259312e-02+j4.802464563620e-06
9.730734384940e-02+j4.366302614130e-06
9.730734571761e-02+j4.122152334885e-06
9.730734852989e-02+j4.059269855420e-06
9.730735278616e-02+j4.174877139240e-06
9.730735924282e-02+j4.474034675245e-06
9.730736904690e-02+j4.969854405634e-06
9.730738393910e-02+j5.684058349011e-06
9.730740656121e-02+j6.647900189398e-06
9.730744092099e-02+j7.903476750264e-06
9.730749309347e-02+j9.505461701212e-06
9.730757227505e-02+j1.152329077758e-05
9.730769235849e-02+j1.404380801247e-05
9.730787426514e-02+j1.717433102170e-05
9.730814934952e-02+j2.104598446941e-05
9.730856425921e-02+j2.581694349101e-05
9.730918762375e-02+j3.167486688211e-05
9.731011870843e-02+j3.883723172088e-05
9.731149739714e-02+j4.754753887613e-05
9.731351306574e-02+j5.806477444258e-05
9.731640657442e-02+j7.064415397892e-05
9.732045515787e-02+j8.551135017650e-05
9.732592796536e-02+j1.028430980420e-04
9.733300936287e-02+j1.227835874578e-04
9.734171767619e-02+j1.455347086033e-04
9.735188880330e-02+j1.715308663886e-04
9.736329853064e-02+j2.016372073449e-04
9.737592199024e-02+j2.372546398529e-04
9.739023001112e-02+j2.802597258724e-04
9.740741879238e-02+j3.328194404483e-04
9.742956593881e-02+j3.971659722332e-04
9.745978078291e-02+j4.753495226960e-04
9.750239426972e-02+j5.688881609535e-04
9.756313457837e-02+j6.781795914461e-04
9.764909144571e-02+j8.015583551875e-04
9.776810365220e-02+j9.340184275295e-04
9.792710129197e-02+j1.065964659667e-03
9.812916830482e-02+j1.182915312410e-03
9.837001410840e-02+j1.267465518600e-03
9.863595346078e-02+j1.304115278640e-03
9.890588210122e-02+j1.285282408048e-03
9.915743252120e-02+j1.214728662314e-03
9.937390635106e-02+j1.105782271974e-03
9.954783403772e-02+j9.757489855005e-04
9.968007561043e-02+j8.403575709821e-04
</dep>
<dep ac.v(uin) frequency>
1.000000000000e-01+j0.000000000000e+00
1.000000000000e-01+j0.000000000000e+00
1.000000000000e-01+j0.000000000000e+00
1.000000000000e-01+j0.000000000000e+00
1.000000000000e-01+j0.000000000000e+00
1.000000000000e-01+j0.000000000000e+00
1.000000000000e-01+j0.000000000000e+00
1.000000000000e-01+j0.000000000000e+00
1.000000000000e-01+j0.000000000000e+00
1.000000000000e-01+j0.000000000000e+00
1.000000000000e-01+j0.000000000000e+00
1.000000000000e-01+j0.000000000000e+00
1.000000000000e-01+j0.000000000000e+00
1.000000000000e-01+j0.000000000000e+00
1.000000000000e-01+j0.000000000000e+00
1.000000000000e-01+j0.000000000000e+00
1.000000000000e-01+j0.000000000000e+00
1.000000000000e-01+j0.000000000000e+00
1.000000000000e-01+j0.000000000000e+00
1.000000000000e-01+j0.000000000000e+00
1.000000000000e-01+j0.000000000000e+00
1.000000000000e-01+j0.000000000000e+00
1.000000000000e-01+j0.000000000000e+00
1.000000000000e-01+j0.000000000000e+00
1.000000000000e-01+j0.000000000000e+00
1.000000000000e-01+j0.000000000000e+00
1.000000000000e-01+j0.000000000000e+00
1.000000000000e-01+j0.000000000000e+00
1.000000000000e-01+j0.000000000000e+00
1.000000000000e-01+j0.000000000000e+00
1.000000000000e-01+j0.000000000000e+00
1.000000000000e-01+j0.000000000000e+00
1.000000000000e-01+j0.000000000000e+00
1.000000000000e-01+j0.000000000000e+00
1.000000000000e-01+j0.000000000000e+00
1.000000000000e-01+j0.000000000000e+00
1.000000000000e-01+j0.000000000000e+00
1.000000000000e-01+j0.000000000000e+00
1.000000000000e-01+j0.000000000000e+00
1.000000000000e-01+j0.000000000000e+00
1.000000000000e-01+j0.000000000000e+00
1.000000000000e-01+j0.000000000000e+00
1.000000000000e-01+j0.000000000000e+00
1.000000000000e-01+j0.000000000000e+00
1.000000000000e-01+j0.000000000000e+00
1.000000000000e-01+j0.000000000000e+00
1.000000000000e-01+j0.000000000000e+00
1.000000000000e-01+j0.000000000000e+00
1.000000000000e-01+j0.000000000000e+00
1.000000000000e-01+j0.000000000000e+00
1.000000000000e-01+j0.000000000000e+00
1.000000000000e-01+j0.000000000000e+00
1.000000000000e-01+j0.000000000000e+00
1.000000000000e-01+j0.000000000000e+00
1.000000000000e-01+j0.000000000000e+00
1.000000000000e-01+j0.000000000000e+00
1.000000000000e-01+j0.000000000000e+00
1.000000000000e-01+j0.000000000000e+00
1.000000000000e-01+j0.000000000000e+00
1.000000000000e-01+j0.000000000000e+00
1.000000000000e-01+j0.000000000000e+00
1.000000000000e-01+j0.000000000000e+00
1.000000000000e-01+j0.000000000000e+00
1.000000000000e-01+j0.000000000000e+00
1.000000000000e-01+j0.000000000000e+00
1.000000000000e-01+j0.000000000000e+00
1.000000000000e-01+j0.000000000000e+00
1.000000000000e-01+j0.000000000000e+00
1.000000000000e-01+j0.000000000000e+00
1.000000000000e-01+j0.000000000000e+00
1.000000000000e-01+j0.000000000000e+00
1.000000000000e-01+j0.000000000000e+00
1.000000000000e-01+j0.000000000000e+00
1.000000000000e-01+j0.000000000000e+00
1.000000000000e-01+j0.000000000000e+00
1.000000000000e-01+j0.000000000000e+00
1.000000000000e-01+j0.000000000000e+00
1.000000000000e-01+j0.000000000000e+00
1.000000000000e-01+j0.000000000000e+00
1.000000000000e-01+j0.000000000000e+00
1.000000000000e-01+j0.000000000000e+00
1.000000000000e-01+j0.000000000000e+00
1.000000000000e-01+j0.000000000000e+00
1.000000000000e-01+j0.000000000000e+00
1.000000000000e-01+j0.000000000000e+00
1.000000000000e-01+j0.000000000000e+00
1.000000000000e-01+j0.000000000000e+00
1.000000000000e-01+j0.000000000000e+00
1.000000000000e-01+j0.000000000000e+00
1.000000000000e-01+j0.000000000000e+00
1.000000000000e-01+j0.000000000000e+00
1.000000000000e-01+j0.000000000000e+00
1.000000000000e-01+j0.000000000000e+00
1.000000000000e-01+j0.000000000000e+00
1.000000000000e-01+j0.000000000000e+00
1.000000000000e-01+j0.000000000000e+00
1.000000000000e-01+j0.000000000000e+00
1.000000000000e-01+j0.000000000000e+00
1.000000000000e-01+j0.000000000000e+00
1.000000000000e-01+j0.000000000000e+00
</dep>
<dep ac.i(pr1) frequency>
1.686069297346e-07+j6.386672305067e-07
2.478709355100e-07+j7.615805841120e-07
3.588700927889e-07+j8.943729162854e-07
5.087680548131e-07+j1.028471895120e-06
7.015699253848e-07+j1.150363097239e-06
9.345907288307e-07+j1.243017025609e-06
1.195935108930e-06+j1.290194631562e-06
1.465573037268e-06+j1.282471308713e-06
1.720840735534e-06+j1.221446116105e-06
1.943566013810e-06+j1.118993830377e-06
2.124475972285e-06+j9.921491921908e-07
2.263069479003e-06+j8.572803206643e-07
2.364559446892e-06+j7.265736390867e-07
2.436448758997e-06+j6.072928194713e-07
2.486179904287e-06+j5.026845811876e-07
2.520022006325e-06+j4.133383790680e-07
2.542794884702e-06+j3.383574846934e-07
2.558003742118e-06+j2.761634396740e-07
2.568109774008e-06+j2.249759481187e-07
2.574802533861e-06+j1.830671513870e-07
2.579224981705e-06+j1.488781653345e-07
2.582142952430e-06+j1.210588489538e-07
2.584066386380e-06+j9.846826959144e-08
2.585333441717e-06+j8.015719346344e-08
2.586167758348e-06+j6.534403407326e-08
2.586716978118e-06+j5.339001482182e-08
2.587078457402e-06+j4.377619832642e-08
2.587316344937e-06+j3.608340935174e-08
2.587472887772e-06+j2.997526923686e-08
2.587575900224e-06+j2.518418802697e-08
2.587643691241e-06+j2.150001608248e-08
2.587688312208e-06+j1.876102629418e-08
2.587717696606e-06+j1.684692136764e-08
2.587737069370e-06+j1.567360731555e-08
2.587749875444e-06+j1.518952930406e-08
2.587758392143e-06+j1.537342259437e-08
2.587764134040e-06+j1.623338708289e-08
2.587768122266e-06+j1.780724869624e-08
2.587771066091e-06+j2.016422564545e-08
2.587773489052e-06+j2.340797394211e-08
2.587775822055e-06+j2.768114670898e-08
2.587778480011e-06+j3.317166810656e-08
2.587781935622e-06+j4.012099794607e-08
2.587786803448e-06+j4.883475051377e-08
2.587793949202e-06+j5.969613460010e-08
2.587804643715e-06+j7.318280573461e-08
2.587820788941e-06+j8.988787160164e-08
2.587845256207e-06+j1.105459741131e-07
2.587882396854e-06+j1.360655946095e-07
2.587938816085e-06+j1.675690018478e-07
2.588024547619e-06+j2.064415976308e-07
2.588154838050e-06+j2.543928265014e-07
2.588352858158e-06+j3.135313212705e-07
2.588653823235e-06+j3.864575761876e-07
2.589111254840e-06+j4.763781990983e-07
2.589806496803e-06+j5.872467217967e-07
2.590863175987e-06+j7.239370761448e-07
2.592469175272e-06+j8.924572059268e-07
2.594910016634e-06+j1.100211910568e-06
2.598619568403e-06+j1.356325921866e-06
2.604257041850e-06+j1.672040376993e-06
2.612823848479e-06+j2.061198168334e-06
2.625840818851e-06+j2.540835857860e-06
2.645616650865e-06+j3.131901355182e-06
2.675653832989e-06+j3.860116177469e-06
2.721260789490e-06+j4.756996496773e-06
2.790471203733e-06+j5.861033907304e-06
2.895415901386e-06+j7.219006763906e-06
3.054349983556e-06+j8.887331544040e-06
3.294602257292e-06+j1.093324628560e-05
3.656762186796e-06+j1.343540578816e-05
4.200387875714e-06+j1.648310778205e-05
5.011259876099e-06+j2.017281210982e-05
6.209426710692e-06+j2.459989179835e-05
7.955512479433e-06+j2.984297943728e-05
1.044950175393e-05+j3.593885312979e-05
1.391185024106e-05+j4.284971994135e-05
1.853458999237e-05+j5.043482796710e-05
2.439849143456e-05+j5.845394973208e-05
3.138048641788e-05+j6.663863144295e-05
3.911395465476e-05+j7.484185609934e-05
4.706743974279e-05+j8.321013785264e-05
5.473494978693e-05+j9.227173340651e-05
6.183649665408e-05+j1.028800361206e-04
6.842308653747e-05+j1.160624135842e-04
7.487197848839e-05+j1.328773069042e-04
8.183520131851e-05+j1.543348831945e-04
9.020372707117e-05+j1.813643747628e-04
1.011044458645e-04+j2.147786292401e-04
1.159024463295e-04+j2.551937591247e-04
1.361497988728e-04+j3.028924069065e-04
1.634088342016e-04+j3.576730456964e-04
1.989118014373e-04+j4.188046879224e-04
2.431432868115e-04+j4.852553558428e-04
2.956142624871e-04+j5.562602174400e-04
3.551239156982e-04+j6.319844411050e-04
4.204508562587e-04+j7.137822499660e-04
4.909080400642e-04+j8.038044275916e-04
5.661842566840e-04+j9.043899801915e-04
6.455753651882e-04+j1.018054052514e-03
</dep>
<dep ac.i(pr2) frequency>
1.618931254801e-05+j6.132301881449e-05
2.380008966922e-05+j7.312478759131e-05
3.445801489556e-05+j8.587508550967e-05
4.885092840947e-05+j9.875080647654e-05
6.736339256166e-05+j1.104543125981e-04
8.973760116095e-05+j1.193504532848e-04
1.148313850210e-04+j1.238799726933e-04
1.407214994044e-04+j1.231379214143e-04
1.652318119823e-04+j1.172778172282e-04
1.866174640903e-04+j1.074398276808e-04
2.039880897540e-04+j9.525956415447e-05
2.172955712484e-04+j8.230862295821e-05
2.270404424293e-04+j6.975707295401e-05
2.339431156711e-04+j5.830229872872e-05
2.387182044253e-04+j4.825597102968e-05
2.419676578577e-04+j3.967459818730e-05
2.441542657586e-04+j3.247196712627e-05
2.456145909372e-04+j2.649638054094e-05
2.465849526356e-04+j2.157672923067e-05
2.472275785223e-04+j1.754689965619e-05
2.476522134138e-04+j1.425695447922e-05
2.479323912953e-04+j1.157693979998e-05
2.481170756481e-04+j9.396915931083e-06
2.482387357550e-04+j7.625259040034e-06
2.483188450702e-04+j6.186330643064e-06
2.483715798508e-04+j5.018066729732e-06
2.484062880251e-04+j4.069740062617e-06
2.484291289652e-04+j3.299992841748e-06
2.484441590515e-04+j2.675158914196e-06
2.484540488090e-04+j2.167858616456e-06
2.484605559964e-04+j1.755834969217e-06
2.484648374132e-04+j1.420996385771e-06
2.484676542830e-04+j1.148632536532e-06
2.484695074824e-04+j9.267735576669e-07
2.484707265547e-04+j7.456669193969e-07
2.484715282884e-04+j5.973502808367e-07
2.484720552602e-04+j4.753022582215e-07
2.484724011860e-04+j3.741561280507e-07
2.484726275854e-04+j2.894640772895e-07
2.484727747217e-04+j2.175017411632e-07
2.484728687620e-04+j1.551044903674e-07
2.484729264308e-04+j9.952829885850e-08
2.484729579839e-04+j4.832909003043e-08
2.484729690330e-04-j7.447359138749e-10
2.484729615430e-04-j4.985131492110e-08
2.484729341820e-04-j1.011502239032e-07
2.484728820839e-04-j1.568974491537e-07
2.484727959833e-04-j2.195445929982e-07
2.484726605680e-04-j2.918466790449e-07
2.484724517552e-04-j3.769832928630e-07
2.484721324093e-04-j4.786983779996e-07
2.484716457374e-04-j6.014648211928e-07
2.484709051901e-04-j7.506810386277e-07
2.484697790707e-04-j9.329081595504e-07
2.484680671183e-04-j1.156158146078e-06
2.484654649012e-04-j1.430245347798e-06
2.484615096985e-04-j1.767216629026e-06
2.484554982575e-04-j2.181878380260e-06
