<Qucs Dataset 0.0.24>
<indep frequency 100>
1.000000000000e+00
1.232846739442e+00
1.519911082953e+00
1.873817422860e+00
2.310129700083e+00
2.848035868436e+00
3.511191734215e+00
4.328761281083e+00
5.336699231206e+00
6.579332246576e+00
8.111308307897e+00
1.000000000000e+01
1.232846739442e+01
1.519911082953e+01
1.873817422860e+01
2.310129700083e+01
2.848035868436e+01
3.511191734215e+01
4.328761281083e+01
5.336699231206e+01
6.579332246576e+01
8.111308307897e+01
1.000000000000e+02
1.232846739442e+02
1.519911082953e+02
1.873817422860e+02
2.310129700083e+02
2.848035868436e+02
3.511191734215e+02
4.328761281083e+02
5.336699231206e+02
6.579332246576e+02
8.111308307897e+02
1.000000000000e+03
1.232846739442e+03
1.519911082953e+03
1.873817422860e+03
2.310129700083e+03
2.848035868436e+03
3.511191734215e+03
4.328761281083e+03
5.336699231206e+03
6.579332246576e+03
8.111308307897e+03
1.000000000000e+04
1.232846739442e+04
1.519911082953e+04
1.873817422860e+04
2.310129700083e+04
2.848035868436e+04
3.511191734215e+04
4.328761281083e+04
5.336699231206e+04
6.579332246576e+04
8.111308307897e+04
1.000000000000e+05
1.232846739442e+05
1.519911082953e+05
1.873817422860e+05
2.310129700083e+05
2.848035868436e+05
3.511191734215e+05
4.328761281083e+05
5.336699231206e+05
6.579332246576e+05
8.111308307897e+05
1.000000000000e+06
1.232846739442e+06
1.519911082953e+06
1.873817422860e+06
2.310129700083e+06
2.848035868436e+06
3.511191734215e+06
4.328761281083e+06
5.336699231206e+06
6.579332246576e+06
8.111308307897e+06
1.000000000000e+07
1.232846739442e+07
1.519911082953e+07
1.873817422860e+07
2.310129700083e+07
2.848035868436e+07
3.511191734215e+07
4.328761281083e+07
5.336699231206e+07
6.579332246576e+07
8.111308307897e+07
1.000000000000e+08
1.232846739442e+08
1.519911082953e+08
1.873817422860e+08
2.310129700083e+08
2.848035868436e+08
3.511191734215e+08
4.328761281083e+08
5.336699231206e+08
6.579332246576e+08
8.111308307897e+08
1.000000000000e+09
</indep>
<dep ac.v(b) frequency>
6.551467204965e-04+j2.465438243092e-03
9.627499655203e-04+j2.938733205002e-03
1.393092270319e-03+j3.449194758397e-03
1.973474046081e-03+j3.963333198571e-03
2.718674040881e-03+j4.428716261108e-03
3.617379324719e-03+j4.779766185382e-03
4.622797834516e-03+j4.954614765848e-03
5.657336303390e-03+j4.918244888581e-03
6.634142405042e-03+j4.678183738516e-03
7.484366175088e-03+j4.280984200052e-03
8.173560376081e-03+j3.792265105417e-03
8.700696247355e-03+j3.274495142012e-03
9.086243720390e-03+j2.773855934940e-03
9.359104303904e-03+j2.317674693361e-03
9.547747486350e-03+j1.918015958917e-03
9.676066793831e-03+j1.576903706613e-03
9.762392385621e-03+j1.290776075835e-03
9.820037125475e-03+j1.053529489472e-03
9.858341164899e-03+j8.583277143296e-04
9.883713563337e-03+j6.985567855924e-04
9.900489693436e-03+j5.682601694655e-04
9.911575763764e-03+j4.622849797596e-04
9.918909657346e-03+j3.762806618319e-04
9.923780940793e-03+j3.066304536643e-04
9.927049385709e-03+j2.503585277612e-04
9.929293037730e-03+j2.050342430152e-04
9.930908637902e-03+j1.686831098635e-04
9.932180519001e-03+j1.397077144857e-04
9.933329050149e-03+j1.168184090311e-04
9.934545838635e-03+j9.897158810632e-05
9.936019539307e-03+j8.531211692166e-05
9.937952474382e-03+j7.511594257191e-05
9.940563723736e-03+j6.773007521597e-05
9.944069550344e-03+j6.251217815946e-05
9.948631059167e-03+j5.878327852281e-05
9.954270660771e-03+j5.582190917599e-05
9.960789535774e-03+j5.293034167435e-05
9.967750550568e-03+j4.956885846430e-05
9.974576519045e-03+j4.548803239775e-05
9.980731017633e-03+j4.076048031374e-05
9.985873249327e-03+j3.568114828657e-05
9.989903061782e-03+j3.060711746229e-05
9.992905345742e-03+j2.583264993088e-05
9.995058842356e-03+j2.153915370306e-05
9.996561827580e-03+j1.780254258302e-05
9.997590880071e-03+j1.462428772104e-05
9.998286226196e-03+j1.196312360604e-05
9.998751910430e-03+j9.758489447372e-06
9.999061926589e-03+j7.945034718763e-06
9.999267490100e-03+j6.460413452783e-06
9.999403433808e-03+j5.248819530921e-06
9.999493179223e-03+j4.262101206122e-06
9.999552357685e-03+j3.459628257197e-06
9.999591350475e-03+j2.807593351722e-06
9.999617030020e-03+j2.278116378713e-06
9.999633936291e-03+j1.848337485087e-06
9.999645064275e-03+j1.499583372655e-06
9.999652387949e-03+j1.216638139566e-06
9.999657207592e-03+j9.871234072210e-07
9.999660379400e-03+j8.009803083682e-07
9.999662467049e-03+j6.500412095313e-07
9.999663841637e-03+j5.276780428872e-07
9.999664747550e-03+j4.285148374673e-07
9.999665345866e-03+j3.481934408394e-07
9.999665742976e-03+j2.831830005215e-07
9.999666009499e-03+j2.306252916225e-07
9.999666192830e-03+j1.882093353522e-07
9.999666325570e-03+j1.540699232629e-07
9.999666431321e-03+j1.267056479178e-07
9.999666528880e-03+j1.049128588573e-07
9.999666635572e-03+j8.773263313035e-08
9.999666770316e-03+j7.440838966480e-08
9.999666956942e-03+j6.435219730674e-08
9.999667228341e-03+j5.711812745189e-08
9.999667632083e-03+j5.238116705685e-08
9.999668238373e-03+j4.992019127138e-08
9.999669151378e-03+j4.960321274012e-08
9.999670525114e-03+j5.137243258995e-08
9.999672584949e-03+j5.522532077606e-08
9.999675654649e-03+j6.118587437346e-08
9.999680185864e-03+j6.925748330941e-08
9.999686779903e-03+j7.934672967635e-08
9.999696179045e-03+j9.114992451342e-08
9.999709187870e-03+j1.040096703880e-07
9.999726477378e-03+j1.167878915083e-07
9.999748258436e-03+j1.278612211529e-07
9.999773920096e-03+j1.353736606942e-07
9.999801872238e-03+j1.377796338961e-07
9.999829833351e-03+j1.344550784148e-07
9.999855519050e-03+j1.259732869744e-07
9.999877332378e-03+j1.138309954228e-07
9.999894655238e-03+j9.983631995844e-08
9.999907693630e-03+j8.556191050135e-08
9.999917116454e-03+j7.208764692698e-08
9.999923728152e-03+j6.000109003976e-08
9.999928271819e-03+j4.952079700493e-08
9.999931349817e-03+j4.063603777031e-08
9.999933414717e-03+j3.321591181240e-08
9.999934790933e-03+j2.708017892359e-08
9.999935704157e-03+j2.203970013704e-08
</dep>
<dep ac.v(c) frequency>
-2.197757224600e-03-j8.857120452585e-03
-3.229656741524e-03-j1.058145542531e-02
-4.673318901634e-03-j1.246231045771e-02
-6.620352014754e-03-j1.439477209930e-02
-9.120383756914e-03-j1.621211696855e-02
-1.213555481916e-02-j1.770565833388e-02
-1.550904693465e-02-j1.868177692374e-02
-1.898079693149e-02-j1.904015317646e-02
-2.225978878927e-02-j1.882715848616e-02
-2.511554772608e-02-j1.822498143172e-02
-2.743323225296e-02-j1.748582285068e-02
-2.921045749468e-02-j1.685878816380e-02
-3.051750340359e-02-j1.654755949019e-02
-3.145377306304e-02-j1.670392113401e-02
-3.211849997627e-02-j1.744243547782e-02
-3.259751315442e-02-j1.886118821155e-02
-3.296093469546e-02-j2.106069058003e-02
-3.326654413616e-02-j2.415893296078e-02
-3.356560794286e-02-j2.830334988788e-02
-3.390989937296e-02-j3.368115556883e-02
-3.435991321047e-02-j4.052933948302e-02
-3.499509498920e-02-j4.914520013491e-02
-3.592753982903e-02-j5.989782810437e-02
-3.732128799124e-02-j7.324037800844e-02
-3.942018263556e-02-j8.972210241517e-02
-4.258829112168e-02-j1.099976261038e-01
-4.736797389184e-02-j1.348282827402e-01
-5.456125237760e-02-j1.650657188475e-01
-6.533871210123e-02-j2.016003784813e-01
-8.137352058608e-02-j2.452462027193e-01
-1.049800318182e-01-j2.965193038927e-01
-1.391975624850e-01-j3.552605893258e-01
-1.876931716420e-01-j4.200734787034e-01
-2.542784863108e-01-j4.876430646334e-01
-3.418263084505e-01-j5.522184998178e-01
-4.506054038870e-01-j6.058243248845e-01
-5.766500335457e-01-j6.398092027798e-01
-7.114091515924e-01-j6.476647881155e-01
-8.436396436382e-01-j6.277655731333e-01
-9.629052452169e-01-j5.841260005882e-01
-1.062574955559e+00-j5.245808093791e-01
-1.140692628550e+00-j4.577706200799e-01
-1.198896058442e+00-j3.907935329101e-01
-1.240646513109e+00-j3.282957128121e-01
-1.269786175818e+00-j2.726637240904e-01
-1.289737671833e+00-j2.246670414793e-01
-1.303219352416e+00-j1.841056440783e-01
-1.312248304512e+00-j1.502911190668e-01
-1.318259085500e+00-j1.223494161069e-01
-1.322244657058e+00-j9.938934379601e-02
-1.324880361186e+00-j8.058513618716e-02
-1.326620292023e+00-j6.520936146811e-02
-1.327767497433e+00-j5.263943006757e-02
-1.328523222279e+00-j4.235132245462e-02
-1.329020661066e+00-j3.390800973471e-02
-1.329347756927e+00-j2.694642459945e-02
-1.329562455066e+00-j2.116482352659e-02
-1.329702840002e+00-j1.631130247279e-02
-1.329793835815e+00-j1.217367508749e-02
-1.329851607160e+00-j8.570653154654e-03
-1.329886420387e+00-j5.344148400530e-03
-1.329904463436e+00-j2.352468219189e-03
-1.329908943816e+00+j5.358336572988e-04
-1.329900658034e+00+j3.447688755808e-03
-1.329878133034e+00+j6.511059756125e-03
-1.329837364605e+00+j9.860529837110e-03
-1.329771106540e+00+j1.364316575132e-02
-1.329667585082e+00+j1.802488986358e-02
-1.329508412349e+00+j2.319760251986e-02
-1.329265333090e+00+j2.938729713695e-02
-1.328895238741e+00+j3.686339354659e-02
-1.328332590998e+00+j4.594945558371e-02
-1.327477974012e+00+j5.703530968411e-02
-1.326180892211e+00+j7.059025456487e-02
-1.324214104350e+00+j8.717639049033e-02
-1.321235727091e+00+j1.074598147866e-01
-1.316734173392e+00+j1.322150604182e-01
-1.309950173884e+00+j1.623139415748e-01
-1.299770907632e+00+j1.986829135031e-01
-1.284596494861e+00+j2.422022528687e-01
-1.262194421887e+00+j2.935064978054e-01
-1.229591956315e+00+j3.526348439308e-01
-1.183119195662e+00+j4.184921656351e-01
-1.118798109466e+00+j4.881576686734e-01
-1.033311068216e+00+j5.562715900087e-01
-9.256155292581e-01+j6.150241515981e-01
-7.987323639933e-01+j6.554143651895e-01
-6.605239046747e-01+j6.699428867733e-01
-5.222710433018e-01+j6.556398176679e-01
-3.952688789233e-01+j6.154336843568e-01
-2.874135248462e-01+j5.568012178818e-01
-2.017611493981e-01+j4.887443759912e-01
-1.372932016393e-01+j4.190891920905e-01
-9.070232137703e-02+j3.532157476708e-01
-5.801097240126e-02+j2.940621896225e-01
-3.554494484391e-02+j2.427359098401e-01
-2.032587262706e-02+j1.992055452186e-01
-1.011603352787e-02+j1.628414562890e-01
-3.311371547806e-03+j1.327667218312e-01
1.204039615251e-03+j1.080577255216e-01
</dep>
<dep ac.v(e) frequency>
6.384403736585e-04+j2.398160201432e-03
9.381995857395e-04+j2.858359144055e-03
1.357567825828e-03+j3.354537586067e-03
1.923149142357e-03+j3.854003958199e-03
2.649345040549e-03+j4.305594129904e-03
3.525130387520e-03+j4.645317642047e-03
4.504905194633e-03+j4.812779277222e-03
5.513053097462e-03+j4.773725961130e-03
6.464933970897e-03+j4.535334177065e-03
7.293449857396e-03+j4.142774102932e-03
7.965026553508e-03+j3.659750176735e-03
8.478653518037e-03+j3.146840855847e-03
8.854266583132e-03+j2.648683604807e-03
9.120011848651e-03+j2.191456939467e-03
9.303604792141e-03+j1.786360838881e-03
9.428286989294e-03+j1.434681424253e-03
9.511856297364e-03+j1.132102339580e-03
9.567187482591e-03+j8.716348512298e-04
9.603232688195e-03+j6.453364560916e-04
9.626009992746e-03+j4.451878454073e-04
9.639398824983e-03+j2.634528097602e-04
9.645707415057e-03+j9.274523501385e-05
9.646030534814e-03-j7.405852819243e-05
9.640424381396e-03-j2.439804291343e-04
9.627915644670e-03-j4.241240055103e-04
9.606345709078e-03-j6.218398193987e-04
9.572034574167e-03-j8.448245206366e-04
9.519238132972e-03-j1.101076668511e-03
9.439378037461e-03-j1.398578819564e-03
9.320069550623e-03-j1.744492595210e-03
9.144105534191e-03-j2.143552667732e-03
8.888843363311e-03-j2.595287620287e-03
8.526938768286e-03-j3.089853600276e-03
8.029958024582e-03-j3.602977242351e-03
7.376468902373e-03-j4.092112367107e-03
6.564473639259e-03-j4.498034319085e-03
5.623581774531e-03-j4.756414802094e-03
4.617629856373e-03-j4.818875620838e-03
3.630549234356e-03-j4.673450454943e-03
2.740247356976e-03-j4.350244024604e-03
1.996225147002e-03-j3.907854554461e-03
1.413085764573e-03-j3.410876368312e-03
9.786036655863e-04-j2.912373343894e-03
6.669410694545e-04-j2.447093598507e-03
4.494165890371e-04-j2.032908104227e-03
3.004807320516e-04-j1.675609418827e-03
1.998413038280e-04-j1.373748053192e-03
1.324409529535e-04-j1.122225790139e-03
8.757083248320e-05-j9.145575119381e-04
5.781854110202e-05-j7.441307536059e-04
3.814264806288e-05-j6.048238231912e-04
2.515327507272e-05-j4.912533349743e-04
1.658802891670e-05-j3.988248514428e-04
1.094437498744e-05-j3.236883987738e-04
7.227630657795e-06-j2.626547446603e-04
4.780702158864e-06-j2.131013542329e-04
3.170111237889e-06-j1.728819074547e-04
2.110157452372e-06-j1.402452376145e-04
1.412651970660e-06-j1.137654557483e-04
9.536850857818e-07-j9.228306029969e-05
6.516917604799e-07-j7.485598487410e-05
4.529900093688e-07-j6.071925805741e-05
3.222530302105e-07-j4.925194368298e-05
2.362348324029e-07-j3.995014421028e-05
1.796396630150e-07-j3.240500636023e-05
1.424032997704e-07-j2.628482925254e-05
1.179038598350e-07-j2.132052424796e-05
1.017844271912e-07-j1.729380629631e-05
9.117832616844e-08-j1.402760774552e-05
8.419935422692e-08-j1.137829851590e-05
7.960635546179e-08-j9.229373427108e-06
7.658249888353e-08-j7.486330621739e-06
7.459001539514e-08-j6.072516681845e-06
7.327456345341e-08-j4.925756156123e-06
7.240221911596e-08-j3.995617500458e-06
7.181788981021e-08-j3.241195303681e-06
7.141776758364e-08-j2.629311302270e-06
7.113094768847e-08-j2.133055049408e-06
7.090699840578e-08-j1.730599984854e-06
7.070738913065e-08-j1.404242696509e-06
7.049949465882e-08-j1.139622905489e-06
7.025257756334e-08-j9.250896122470e-07
6.993584681897e-08-j7.511853822995e-07
6.951940435859e-08-j6.102264667557e-07
6.897926125658e-08-j4.959619009665e-07
6.830666450762e-08-j4.032999877558e-07
6.751870936652e-08-j3.280942557997e-07
6.666286435194e-08-j2.669801513032e-07
6.580801932486e-08-j2.172477743509e-07
6.502337827298e-08-j1.767319498179e-07
6.435733785007e-08-j1.437078894326e-07
6.382855219152e-08-j1.167946744226e-07
6.343061734863e-08-j9.487543134568e-08
6.314306022217e-08-j7.703826244023e-08
6.294130367957e-08-j6.253470854792e-08
6.280265911607e-08-j5.074980527104e-08
6.270874022623e-08-j4.117900458008e-08
6.264573508248e-08-j3.340932683092e-08
6.260374384610e-08-j2.710353369567e-08
6.257587967470e-08-j2.198677172411e-08
</dep>
<dep ac.v(uin) frequency>
1.000000000000e-02+j0.000000000000e+00
1.000000000000e-02+j0.000000000000e+00
1.000000000000e-02+j0.000000000000e+00
1.000000000000e-02+j0.000000000000e+00
1.000000000000e-02+j0.000000000000e+00
1.000000000000e-02+j0.000000000000e+00
1.000000000000e-02+j0.000000000000e+00
1.000000000000e-02+j0.000000000000e+00
1.000000000000e-02+j0.000000000000e+00
1.000000000000e-02+j0.000000000000e+00
1.000000000000e-02+j0.000000000000e+00
1.000000000000e-02+j0.000000000000e+00
1.000000000000e-02+j0.000000000000e+00
1.000000000000e-02+j0.000000000000e+00
1.000000000000e-02+j0.000000000000e+00
1.000000000000e-02+j0.000000000000e+00
1.000000000000e-02+j0.000000000000e+00
1.000000000000e-02+j0.000000000000e+00
1.000000000000e-02+j0.000000000000e+00
1.000000000000e-02+j0.000000000000e+00
1.000000000000e-02+j0.000000000000e+00
1.000000000000e-02+j0.000000000000e+00
1.000000000000e-02+j0.000000000000e+00
1.000000000000e-02+j0.000000000000e+00
1.000000000000e-02+j0.000000000000e+00
1.000000000000e-02+j0.000000000000e+00
1.000000000000e-02+j0.000000000000e+00
1.000000000000e-02+j0.000000000000e+00
1.000000000000e-02+j0.000000000000e+00
1.000000000000e-02+j0.000000000000e+00
1.000000000000e-02+j0.000000000000e+00
1.000000000000e-02+j0.000000000000e+00
1.000000000000e-02+j0.000000000000e+00
1.000000000000e-02+j0.000000000000e+00
1.000000000000e-02+j0.000000000000e+00
1.000000000000e-02+j0.000000000000e+00
1.000000000000e-02+j0.000000000000e+00
1.000000000000e-02+j0.000000000000e+00
1.000000000000e-02+j0.000000000000e+00
1.000000000000e-02+j0.000000000000e+00
1.000000000000e-02+j0.000000000000e+00
1.000000000000e-02+j0.000000000000e+00
1.000000000000e-02+j0.000000000000e+00
1.000000000000e-02+j0.000000000000e+00
1.000000000000e-02+j0.000000000000e+00
1.000000000000e-02+j0.000000000000e+00
1.000000000000e-02+j0.000000000000e+00
1.000000000000e-02+j0.000000000000e+00
1.000000000000e-02+j0.000000000000e+00
1.000000000000e-02+j0.000000000000e+00
1.000000000000e-02+j0.000000000000e+00
1.000000000000e-02+j0.000000000000e+00
1.000000000000e-02+j0.000000000000e+00
1.000000000000e-02+j0.000000000000e+00
1.000000000000e-02+j0.000000000000e+00
1.000000000000e-02+j0.000000000000e+00
1.000000000000e-02+j0.000000000000e+00
1.000000000000e-02+j0.000000000000e+00
1.000000000000e-02+j0.000000000000e+00
1.000000000000e-02+j0.000000000000e+00
1.000000000000e-02+j0.000000000000e+00
1.000000000000e-02+j0.000000000000e+00
1.000000000000e-02+j0.000000000000e+00
1.000000000000e-02+j0.000000000000e+00
1.000000000000e-02+j0.000000000000e+00
1.000000000000e-02+j0.000000000000e+00
1.000000000000e-02+j0.000000000000e+00
1.000000000000e-02+j0.000000000000e+00
1.000000000000e-02+j0.000000000000e+00
1.000000000000e-02+j0.000000000000e+00
1.000000000000e-02+j0.000000000000e+00
1.000000000000e-02+j0.000000000000e+00
1.000000000000e-02+j0.000000000000e+00
1.000000000000e-02+j0.000000000000e+00
1.000000000000e-02+j0.000000000000e+00
1.000000000000e-02+j0.000000000000e+00
1.000000000000e-02+j0.000000000000e+00
1.000000000000e-02+j0.000000000000e+00
1.000000000000e-02+j0.000000000000e+00
1.000000000000e-02+j0.000000000000e+00
1.000000000000e-02+j0.000000000000e+00
1.000000000000e-02+j0.000000000000e+00
1.000000000000e-02+j0.000000000000e+00
1.000000000000e-02+j0.000000000000e+00
1.000000000000e-02+j0.000000000000e+00
1.000000000000e-02+j0.000000000000e+00
1.000000000000e-02+j0.000000000000e+00
1.000000000000e-02+j0.000000000000e+00
1.000000000000e-02+j0.000000000000e+00
1.000000000000e-02+j0.000000000000e+00
1.000000000000e-02+j0.000000000000e+00
1.000000000000e-02+j0.000000000000e+00
1.000000000000e-02+j0.000000000000e+00
1.000000000000e-02+j0.000000000000e+00
1.000000000000e-02+j0.000000000000e+00
1.000000000000e-02+j0.000000000000e+00
1.000000000000e-02+j0.000000000000e+00
1.000000000000e-02+j0.000000000000e+00
1.000000000000e-02+j0.000000000000e+00
1.000000000000e-02+j0.000000000000e+00
</dep>
<dep ac.i(pr1) frequency>
1.593753697859e-08+j6.418269970060e-08
2.342059467922e-08+j7.667622104247e-08
3.388964236214e-08+j9.030224378635e-08
4.800899593889e-08+j1.042993702032e-07
6.613853615579e-08+j1.174578347776e-07
8.800370690063e-08+j1.282633944928e-07
1.124672866545e-07+j1.353108622523e-07
1.376433401161e-07+j1.378713785653e-07
1.614214577624e-07+j1.362795312324e-07
1.821302415293e-07+j1.318544274550e-07
1.989368089349e-07+j1.264224019456e-07
2.118237421845e-07+j1.217867462097e-07
2.213005063049e-07+j1.194206190936e-07
2.280876624907e-07+j1.204199250482e-07
2.329043941795e-07+j1.256095308395e-07
2.363724539387e-07+j1.356934481417e-07
2.389993501163e-07+j1.513915939875e-07
2.412025669711e-07+j1.735485731103e-07
2.433515696323e-07+j2.032199823537e-07
2.458183024808e-07+j2.417468064471e-07
2.490361427628e-07+j2.908272493691e-07
2.535731471368e-07+j3.525923714992e-07
2.602299863612e-07+j4.296885394344e-07
2.701777639330e-07+j5.253655973790e-07
2.851568958399e-07+j6.435634757586e-07
3.077656173404e-07+j7.889792848668e-07
3.418744056727e-07+j9.670779889189e-07
3.932066540614e-07+j1.183976814548e-06
4.701158309454e-07+j1.446079385158e-06
5.845418552018e-07+j1.759255096636e-06
7.530001977789e-07+j2.127262401349e-06
9.971797217966e-07+j2.549059134096e-06
1.343248913153e-06+j3.014794107846e-06
1.818407906876e-06+j3.500953636043e-06
2.443157298290e-06+j3.966674036015e-06
3.219415047748e-06+j4.355257374939e-06
4.118881310507e-06+j4.605232864913e-06
5.080535088261e-06+j4.670484267925e-06
6.024144558331e-06+j4.539816107822e-06
6.875235688186e-06+j4.242374277011e-06
7.586489208902e-06+j3.834682737661e-06
8.143946124003e-06+j3.379159410824e-06
8.559294249128e-06+j2.927391084990e-06
8.857234064586e-06+j2.513684827323e-06
9.065184586894e-06+j2.156491146161e-06
9.207571267803e-06+j1.863051446551e-06
9.303794463397e-06+j1.634096296318e-06
9.368251258827e-06+j1.467373526560e-06
9.411183298199e-06+j1.359925712405e-06
9.439683303940e-06+j1.309436818990e-06
9.458581000446e-06+j1.314999228667e-06
9.471132685739e-06+j1.377567809839e-06
9.479525013575e-06+j1.500276632847e-06
9.485230679774e-06+j1.688727411201e-06
9.489255792148e-06+j1.951317644320e-06
9.492312457673e-06+j2.299654043374e-06
