<Qucs Dataset 0.0.24>
<indep frequency 100>
1.000000000000e+00
1.232846739442e+00
1.519911082953e+00
1.873817422860e+00
2.310129700083e+00
2.848035868436e+00
3.511191734215e+00
4.328761281083e+00
5.336699231206e+00
6.579332246576e+00
8.111308307897e+00
1.000000000000e+01
1.232846739442e+01
1.519911082953e+01
1.873817422860e+01
2.310129700083e+01
2.848035868436e+01
3.511191734215e+01
4.328761281083e+01
5.336699231206e+01
6.579332246576e+01
8.111308307897e+01
1.000000000000e+02
1.232846739442e+02
1.519911082953e+02
1.873817422860e+02
2.310129700083e+02
2.848035868436e+02
3.511191734215e+02
4.328761281083e+02
5.336699231206e+02
6.579332246576e+02
8.111308307897e+02
1.000000000000e+03
1.232846739442e+03
1.519911082953e+03
1.873817422860e+03
2.310129700083e+03
2.848035868436e+03
3.511191734215e+03
4.328761281083e+03
5.336699231206e+03
6.579332246576e+03
8.111308307897e+03
1.000000000000e+04
1.232846739442e+04
1.519911082953e+04
1.873817422860e+04
2.310129700083e+04
2.848035868436e+04
3.511191734215e+04
4.328761281083e+04
5.336699231206e+04
6.579332246576e+04
8.111308307897e+04
1.000000000000e+05
1.232846739442e+05
1.519911082953e+05
1.873817422860e+05
2.310129700083e+05
2.848035868436e+05
3.511191734215e+05
4.328761281083e+05
5.336699231206e+05
6.579332246576e+05
8.111308307897e+05
1.000000000000e+06
1.232846739442e+06
1.519911082953e+06
1.873817422860e+06
2.310129700083e+06
2.848035868436e+06
3.511191734215e+06
4.328761281083e+06
5.336699231206e+06
6.579332246576e+06
8.111308307897e+06
1.000000000000e+07
1.232846739442e+07
1.519911082953e+07
1.873817422860e+07
2.310129700083e+07
2.848035868436e+07
3.511191734215e+07
4.328761281083e+07
5.336699231206e+07
6.579332246576e+07
8.111308307897e+07
1.000000000000e+08
1.232846739442e+08
1.519911082953e+08
1.873817422860e+08
2.310129700083e+08
2.848035868436e+08
3.511191734215e+08
4.328761281083e+08
5.336699231206e+08
6.579332246576e+08
8.111308307897e+08
1.000000000000e+09
</indep>
<dep ac.v(b) frequency>
6.017075083642e-02+j2.943392339274e-01
8.958582212817e-02+j3.554617846702e-01
1.320618171814e-01+j4.250321789215e-01
1.919365884604e-01+j5.010640251957e-01
2.735295422104e-01+j5.792027288997e-01
3.797385630186e-01+j6.522318047371e-01
5.100375887210e-01+j7.105757183852e-01
6.587551730949e-01+j7.444287317537e-01
8.151308875439e-01+j7.471664235295e-01
9.660015962726e-01+j7.182220765761e-01
1.099948173870e+00+j6.633519930487e-01
1.210369670265e+00+j5.920804985187e-01
1.295966356261e+00+j5.142181016211e-01
1.359208535920e+00+j4.374522310544e-01
1.404295760808e+00+j3.666013302206e-01
1.435627979131e+00+j3.039962837204e-01
1.457016404810e+00+j2.502543938879e-01
1.471439589345e+00+j2.049984680308e-01
1.481085845002e+00+j1.673706563902e-01
1.487501716026e+00+j1.363475920421e-01
1.491753333947e+00+j1.109118433531e-01
1.494563895223e+00+j9.013351375878e-02
1.496418840179e+00+j7.320081084751e-02
1.497641783435e+00+j5.942395889106e-02
1.498447489227e+00+j4.822653624940e-02
1.498978062822e+00+j3.913188141266e-02
1.499327349793e+00+j3.174847168234e-02
1.499557246090e+00+j2.575611286752e-02
1.499708540958e+00+j2.089368504261e-02
1.499808099530e+00+j1.694863717224e-02
1.499873609632e+00+j1.374816262993e-02
1.499916714026e+00+j1.115187905701e-02
1.499945075190e+00+j9.045803963717e-03
1.499963735528e+00+j7.337421765699e-03
1.499976013037e+00+j5.951657727880e-03
1.499984090927e+00+j4.827599075645e-03
1.499989405688e+00+j3.915828323626e-03
1.499992902466e+00+j3.176256486001e-03
1.499995203121e+00+j2.576363514039e-03
1.499996716802e+00+j2.089769986623e-03
1.499997712705e+00+j1.695077991115e-03
1.499998367943e+00+j1.374930620140e-03
1.499998799047e+00+j1.115248937147e-03
1.499999082684e+00+j9.046129685089e-04
1.499999269299e+00+j7.337595606289e-04
1.499999392079e+00+j5.951750515340e-04
1.499999472860e+00+j4.827648610062e-04
1.499999526008e+00+j3.915854778811e-04
1.499999560976e+00+j3.176270629102e-04
1.499999583983e+00+j2.576371092289e-04
1.499999599120e+00+j2.089774068501e-04
1.499999609079e+00+j1.695080215835e-04
1.499999615631e+00+j1.374931864541e-04
1.499999619942e+00+j1.115249671684e-04
1.499999622779e+00+j9.046134473481e-05
1.499999624645e+00+j7.337599232298e-05
1.499999625873e+00+j5.951753770303e-05
1.499999626680e+00+j4.827651974337e-05
1.499999627212e+00+j3.915858580309e-05
1.499999627562e+00+j3.176275131044e-05
1.499999627792e+00+j2.576376543911e-05
1.499999627943e+00+j2.089780736904e-05
1.499999628043e+00+j1.695088408874e-05
1.499999628108e+00+j1.374941950312e-05
1.499999628151e+00+j1.115262097884e-05
1.499999628180e+00+j9.046287626564e-06
1.499999628199e+00+j7.337788023336e-06
1.499999628211e+00+j5.951986507690e-06
1.499999628220e+00+j4.827938895741e-06
1.499999628226e+00+j3.916212303893e-06
1.499999628230e+00+j3.176711210408e-06
1.499999628234e+00+j2.576914151163e-06
1.499999628237e+00+j2.090443503517e-06
1.499999628242e+00+j1.695905460386e-06
1.499999628247e+00+j1.375949178512e-06
1.499999628255e+00+j1.116503722899e-06
1.499999628266e+00+j9.061592469896e-07
1.499999628284e+00+j7.356651885957e-07
1.499999628310e+00+j5.975234026490e-07
1.499999628349e+00+j4.856583176239e-07
1.499999628408e+00+j3.951495725840e-07
1.499999628499e+00+j3.220153079932e-07
1.499999628635e+00+j2.630364538362e-07
1.499999628842e+00+j2.156140596733e-07
1.499999629154e+00+j1.776529881832e-07
1.499999629622e+00+j1.474661629796e-07
1.499999630321e+00+j1.236940271948e-07
1.499999631355e+00+j1.052339843789e-07
1.499999632863e+00+j9.117462812675e-08
1.499999635023e+00+j8.073036454513e-08
1.499999638030e+00+j7.317546854993e-08
1.499999642059e+00+j6.778536188234e-08
1.499999647188e+00+j6.380725667017e-08
1.499999653308e+00+j6.049247921023e-08
1.499999660074e+00+j5.720530823161e-08
1.499999666951e+00+j5.356546086855e-08
1.499999673372e+00+j4.952792914634e-08
1.499999678914e+00+j4.533260810829e-08
1.499999683393e+00+j4.135801195525e-08
1.499999686842e+00+j3.797648296017e-08
</dep>
<dep ac.v(uin) frequency>
1.500000000000e+00+j0.000000000000e+00
1.500000000000e+00+j0.000000000000e+00
1.500000000000e+00+j0.000000000000e+00
1.500000000000e+00+j0.000000000000e+00
1.500000000000e+00+j0.000000000000e+00
1.500000000000e+00+j0.000000000000e+00
1.500000000000e+00+j0.000000000000e+00
1.500000000000e+00+j0.000000000000e+00
1.500000000000e+00+j0.000000000000e+00
1.500000000000e+00+j0.000000000000e+00
1.500000000000e+00+j0.000000000000e+00
1.500000000000e+00+j0.000000000000e+00
1.500000000000e+00+j0.000000000000e+00
1.500000000000e+00+j0.000000000000e+00
1.500000000000e+00+j0.000000000000e+00
1.500000000000e+00+j0.000000000000e+00
1.500000000000e+00+j0.000000000000e+00
1.500000000000e+00+j0.000000000000e+00
1.500000000000e+00+j0.000000000000e+00
1.500000000000e+00+j0.000000000000e+00
1.500000000000e+00+j0.000000000000e+00
1.500000000000e+00+j0.000000000000e+00
1.500000000000e+00+j0.000000000000e+00
1.500000000000e+00+j0.000000000000e+00
1.500000000000e+00+j0.000000000000e+00
1.500000000000e+00+j0.000000000000e+00
1.500000000000e+00+j0.000000000000e+00
1.500000000000e+00+j0.000000000000e+00
1.500000000000e+00+j0.000000000000e+00
1.500000000000e+00+j0.000000000000e+00
1.500000000000e+00+j0.000000000000e+00
1.500000000000e+00+j0.000000000000e+00
1.500000000000e+00+j0.000000000000e+00
1.500000000000e+00+j0.000000000000e+00
1.500000000000e+00+j0.000000000000e+00
1.500000000000e+00+j0.000000000000e+00
1.500000000000e+00+j0.000000000000e+00
1.500000000000e+00+j0.000000000000e+00
1.500000000000e+00+j0.000000000000e+00
1.500000000000e+00+j0.000000000000e+00
1.500000000000e+00+j0.000000000000e+00
1.500000000000e+00+j0.000000000000e+00
1.500000000000e+00+j0.000000000000e+00
1.500000000000e+00+j0.000000000000e+00
1.500000000000e+00+j0.000000000000e+00
1.500000000000e+00+j0.000000000000e+00
1.500000000000e+00+j0.000000000000e+00
1.500000000000e+00+j0.000000000000e+00
1.500000000000e+00+j0.000000000000e+00
1.500000000000e+00+j0.000000000000e+00
1.500000000000e+00+j0.000000000000e+00
1.500000000000e+00+j0.000000000000e+00
1.500000000000e+00+j0.000000000000e+00
1.500000000000e+00+j0.000000000000e+00
1.500000000000e+00+j0.000000000000e+00
1.500000000000e+00+j0.000000000000e+00
1.500000000000e+00+j0.000000000000e+00
1.500000000000e+00+j0.000000000000e+00
1.500000000000e+00+j0.000000000000e+00
1.500000000000e+00+j0.000000000000e+00
1.500000000000e+00+j0.000000000000e+00
1.500000000000e+00+j0.000000000000e+00
1.500000000000e+00+j0.000000000000e+00
1.500000000000e+00+j0.000000000000e+00
1.500000000000e+00+j0.000000000000e+00
1.500000000000e+00+j0.000000000000e+00
1.500000000000e+00+j0.000000000000e+00
1.500000000000e+00+j0.000000000000e+00
1.500000000000e+00+j0.000000000000e+00
1.500000000000e+00+j0.000000000000e+00
1.500000000000e+00+j0.000000000000e+00
1.500000000000e+00+j0.000000000000e+00
1.500000000000e+00+j0.000000000000e+00
1.500000000000e+00+j0.000000000000e+00
1.500000000000e+00+j0.000000000000e+00
1.500000000000e+00+j0.000000000000e+00
1.500000000000e+00+j0.000000000000e+00
1.500000000000e+00+j0.000000000000e+00
1.500000000000e+00+j0.000000000000e+00
1.500000000000e+00+j0.000000000000e+00
1.500000000000e+00+j0.000000000000e+00
1.500000000000e+00+j0.000000000000e+00
1.500000000000e+00+j0.000000000000e+00
1.500000000000e+00+j0.000000000000e+00
1.500000000000e+00+j0.000000000000e+00
1.500000000000e+00+j0.000000000000e+00
1.500000000000e+00+j0.000000000000e+00
1.500000000000e+00+j0.000000000000e+00
1.500000000000e+00+j0.000000000000e+00
1.500000000000e+00+j0.000000000000e+00
1.500000000000e+00+j0.000000000000e+00
1.500000000000e+00+j0.000000000000e+00
1.500000000000e+00+j0.000000000000e+00
1.500000000000e+00+j0.000000000000e+00
1.500000000000e+00+j0.000000000000e+00
1.500000000000e+00+j0.000000000000e+00
1.500000000000e+00+j0.000000000000e+00
1.500000000000e+00+j0.000000000000e+00
1.500000000000e+00+j0.000000000000e+00
1.500000000000e+00+j0.000000000000e+00
</dep>
<dep ac.i(pr1) frequency>
4.426542484676e-07+j2.165369653697e-06
6.590501899387e-07+j2.615031385625e-06
9.715305796102e-07+j3.126842084800e-06
1.412007414522e-06+j3.686188889087e-06
2.012256989613e-06+j4.261036999273e-06
2.793597983914e-06+j4.798297815628e-06
3.752160350123e-06+j5.227528180273e-06
4.846221328752e-06+j5.476591538915e-06
5.996620374730e-06+j5.496755282067e-06
7.106521103236e-06+j5.283851314051e-06
8.091917177196e-06+j4.880227924981e-06
8.904247816612e-06+j4.355953674956e-06
9.533951388271e-06+j3.783202834836e-06
9.999201017358e-06+j3.218531403191e-06
1.033089127169e-05+j2.697389858046e-06
1.056139096401e-05+j2.236929302055e-06
1.071873780386e-05+j1.841695485207e-06
1.082484390728e-05+j1.508919064255e-06
1.089580788877e-05+j1.232295964022e-06
1.094300710978e-05+j1.004306046198e-06
1.097428471078e-05+j8.174747918180e-07
1.099496098412e-05+j6.649740563957e-07
1.100860713705e-05+j5.408475168895e-07
1.101760388421e-05+j4.400401468530e-07
1.102353116769e-05+j3.583353421283e-07
1.102743440408e-05+j2.922559669782e-07
1.103000398104e-05+j2.389580872335e-07
1.103169524451e-05+j1.961309717534e-07
1.103280826612e-05+j1.619089135402e-07
1.103354068296e-05+j1.347963755974e-07
1.103402261804e-05+j1.136060683423e-07
1.103433972310e-05+j9.740879148707e-08
1.103454836853e-05+j8.549366823753e-08
1.103468564992e-05+j7.733746905261e-08
1.103477597730e-05+j7.258191433798e-08
1.103483541286e-05+j7.101808529070e-08
1.103487452600e-05+j7.257732535406e-08
1.103490027239e-05+j7.732826847565e-08
1.103491723071e-05+j8.547988286941e-08
1.103492841684e-05+j9.739067449003e-08
1.103493582013e-05+j1.135844604905e-07
1.103494075720e-05+j1.347734092898e-07
1.103494410607e-05+j1.618893620705e-07
1.103494646233e-05+j1.961248139895e-07
1.103494824501e-05+j2.389853578041e-07
1.103494977116e-05+j2.923558964950e-07
1.103495131219e-05+j3.585835368847e-07
1.103495314216e-05+j4.405808097781e-07
1.103495558653e-05+j5.419537560301e-07
1.103495908001e-05+j6.671605114720e-07
1.103496424390e-05+j8.217073648801e-07
1.103497199657e-05+j1.012390911134e-06
1.103498371678e-05+j1.247596948857e-06
1.103500148890e-05+j1.537669267287e-06
1.103502847362e-05+j1.895364540674e-06
1.103506947000e-05+j2.336413335195e-06
1.103513176901e-05+j2.880211899885e-06
1.103522645017e-05+j3.550675164381e-06
1.103537035198e-05+j4.377288455371e-06
1.103558906652e-05+j5.396404182033e-06
1.103592149084e-05+j6.652840512449e-06
1.103642674454e-05+j8.201852341107e-06
1.103719468369e-05+j1.011156121500e-05
1.103836188094e-05+j1.246595106022e-05
1.104013591343e-05+j1.536856141575e-05
1.104283227761e-05+j1.894704052245e-05
1.104693049459e-05+j2.335875836730e-05
1.105315938144e-05+j2.879772628023e-05
1.106262664672e-05+j3.550312692082e-05
1.107701584297e-05+j4.376982890310e-05
1.109888566793e-05+j5.396134681698e-05
1.113212476261e-05+j6.652581350797e-05
1.118264270242e-05+j8.201566125102e-05
1.125941963827e-05+j1.011118665125e-04
1.137610026318e-05+j1.246538042373e-04
1.155341327991e-05+j1.536759866084e-04
1.182284134513e-05+j1.894532309403e-04
1.223218191372e-05+j2.335561103767e-04
1.285395970386e-05+j2.879188783778e-04
1.379812187737e-05+j3.549223932110e-04
1.523112432531e-05+j4.374948340951e-04
1.740446121481e-05+j5.392330599921e-04
2.069693092258e-05+j6.645470587846e-04
2.567638592491e-05+j8.188286156720e-04
3.318797948856e-05+j1.008642357947e-03
4.447583603493e-05+j1.241931667974e-03
6.134087482928e-05+j1.528222565873e-03
8.632356695835e-05+j1.878795873048e-03
1.228671939746e-04+j2.306787283434e-03
1.753540241746e-04+j2.827185174817e-03
2.488172705882e-04+j3.456769668153e-03
3.480739192444e-04+j4.214234471152e-03
4.761607129289e-04+j5.121062075085e-03
6.324971173857e-04+j6.203958490276e-03
8.120331969854e-04+j7.499258386748e-03
1.006895427867e-03+j9.058397040944e-03
1.210744378145e-03+j1.095232971208e-02
1.424012203986e-03+j1.327344375710e-02
1.657805102189e-03+j1.613584289705e-02
1.936132891485e-03+j1.967631774818e-02
</dep>
<dep ac.i(pr3) frequency>
5.980534366309e-05+j2.925517597056e-04
8.904178201600e-05+j3.533031231547e-04
1.312598272668e-04+j4.224510277354e-04
1.907709888082e-04+j4.980211449945e-04
2.718684418344e-04+j5.756853250833e-04
3.774324725513e-04+j6.482709072460e-04
5.069402134847e-04+j7.062605078214e-04
6.547546601817e-04+j7.399079373710e-04
8.101807303767e-04+j7.426290036145e-04
9.601352258547e-04+j7.138604309974e-04
1.093268367695e-03+j6.593235645903e-04
1.203019292320e-03+j5.884848902881e-04
1.288096163578e-03+j5.110953391056e-04
1.350954283777e-03+j4.347956552411e-04
1.395767701288e-03+j3.643750204774e-04
1.426909644150e-03+j3.021501643362e-04
1.448168181403e-03+j2.487346403795e-04
1.462503776286e-03+j2.037535465505e-04
1.472091451803e-03+j1.663542426793e-04
1.478468360288e-03+j1.355195765913e-04
1.482694158825e-03+j1.102382953601e-04
1.485487652020e-03+j8.958614954488e-05
1.487331332197e-03+j7.275627663335e-05
1.488546848718e-03+j5.906308981282e-05
1.489347661589e-03+j4.793366798249e-05
1.489875013097e-03+j3.889424435047e-05
1.490222178905e-03+j3.155567390907e-05
1.490450679080e-03+j2.559970700048e-05
1.490601055159e-03+j2.076680949447e-05
1.490700009128e-03+j1.684572121329e-05
1.490765121398e-03+j1.366468504297e-05
1.490807964026e-03+j1.108417125008e-05
1.490836152957e-03+j8.990889672689e-06
1.490854699973e-03+j7.292886719698e-06
1.490866902923e-03+j5.915543771367e-06
1.490874931758e-03+j4.798318211403e-06
1.490880214243e-03+j3.892092960779e-06
1.490883689786e-03+j3.157022859871e-06
1.490885976469e-03+j2.560785807923e-06
1.490887480959e-03+j2.077163147635e-06
1.490888470814e-03+j1.684887610061e-06
1.490889122074e-03+j1.366708553600e-06
1.490889550560e-03+j1.108633601163e-06
1.490889832477e-03+j8.993134380395e-07
1.490890017960e-03+j7.295427759263e-07
1.490890139998e-03+j5.918555690404e-07
1.490890220293e-03+j4.801966981539e-07
1.490890273127e-03+j3.896556932179e-07
1.490890307895e-03+j3.162507892542e-07
1.490890330780e-03+j2.567538214393e-07
1.490890345853e-03+j2.085482600914e-07
1.490890355793e-03+j1.695141430300e-07
1.490890362370e-03+j1.379348453116e-07
1.490890366752e-03+j1.124215865130e-07
1.490890369719e-03+j9.185235568940e-08
1.490890371798e-03+j7.532256813532e-08
1.490890373359e-03+j6.210528398256e-08
1.490890374681e-03+j5.161923916141e-08
1.490890375997e-03+j4.340328280792e-08
1.490890377542e-03+j3.709609693216e-08
1.490890379591e-03+j3.242030645254e-08
1.490890382509e-03+j2.917028076220e-08
1.490890386813e-03+j2.720309030822e-08
1.490890393270e-03+j2.643222035934e-08
1.490890403028e-03+j2.682376528984e-08
1.490890417823e-03+j2.839493560242e-08
1.490890440285e-03+j3.121481126251e-08
1.490890474408e-03+j3.540737303072e-08
1.490890526262e-03+j4.115694240003e-08
1.490890605068e-03+j4.871626430667e-08
1.490890724838e-03+j5.841757858066e-08
1.490890906868e-03+j7.068714924959e-08
1.490891183521e-03+j8.606385735012e-08
1.490891603974e-03+j1.052226125319e-07
1.490892242947e-03+j1.290034962413e-07
1.490893213949e-03+j1.584476995371e-07
1.490894689371e-03+j1.948414271519e-07
1.490896930924e-03+j2.397689346439e-07
1.490900335676e-03+j2.951756057103e-07
1.490905505501e-03+j3.634411901403e-07
1.490913351423e-03+j4.474615003001e-07
1.490925249457e-03+j5.507330735064e-07
1.490943271150e-03+j6.774278909603e-07
1.490970519635e-03+j8.324313694107e-07
1.491011608109e-03+j1.021291991102e-06
1.491073315321e-03+j1.249988781912e-06
1.491165425732e-03+j1.524357040490e-06
1.491301677466e-03+j1.848924643432e-06
1.491500543483e-03+j2.224832030571e-06
1.491785197986e-03+j2.646546114674e-06
1.492181489512e-03+j3.097476336363e-06
1.492712387049e-03+j3.545709726894e-06
1.493388121855e-03+j3.942938612228e-06
1.494194315558e-03+j4.230966151934e-06
1.495085111579e-03+j4.357845023174e-06
1.495989678115e-03+j4.298074437108e-06
1.496832789209e-03+j4.064217430702e-06
1.497558135881e-03+j3.701077374648e-06
1.498140409707e-03+j3.266995716350e-06
1.498582410092e-03+j2.815148514056e-06
</dep>
<dep ac.i(pr4) frequency>
-1.203415016728e-05-j5.886784678548e-05
-1.791716442563e-05-j7.109235693404e-05
-2.641236343627e-05-j8.500643578430e-05
-3.838731769207e-05-j1.002128050391e-04
-5.470590844209e-05-j1.158405457799e-04
-7.594771260373e-05-j1.304463609474e-04
-1.020075177442e-04-j1.421151436770e-04
-1.317510346190e-04-j1.488857463507e-04
-1.630261775088e-04-j1.494332847059e-04
-1.932003192545e-04-j1.436444153152e-04
-2.199896347741e-04-j1.326703986097e-04
-2.420739340530e-04-j1.184160997037e-04
-2.591932712522e-04-j1.028436203242e-04
-2.718417071841e-04-j8.749044621088e-05
-2.808591521616e-04-j7.332026604412e-05
-2.871255958261e-04-j6.079925674409e-05
-2.914032809621e-04-j5.005087877759e-05
-2.942879178690e-04-j4.099969360616e-05
-2.962171690004e-04-j3.347413127804e-05
-2.975003432053e-04-j2.726951840842e-05
-2.983506667893e-04-j2.218236867063e-05
-2.989127790446e-04-j1.802670275176e-05
-2.992837680358e-04-j1.464016216950e-05
-2.995283566870e-04-j1.188479177821e-05
-2.996894978453e-04-j9.645307249879e-06
-2.997956125644e-04-j7.826376282532e-06
-2.998654699585e-04-j6.349694336467e-06
-2.999114492180e-04-j5.151222573505e-06
-2.999417081915e-04-j4.178737008522e-06
-2.999616199060e-04-j3.389727434449e-06
-2.999747219264e-04-j2.749632525986e-06
-2.999833428052e-04-j2.230375811402e-06
-2.999890150381e-04-j1.809160792743e-06
-2.999927471055e-04-j1.467484353140e-06
-2.999952026073e-04-j1.190331545576e-06
-2.999968181855e-04-j9.655198151289e-07
-2.999978811375e-04-j7.831656647253e-07
-2.999985804931e-04-j6.352512972001e-07
-2.999990406241e-04-j5.152727028077e-07
-2.999993433604e-04-j4.179539973245e-07
-2.999995425410e-04-j3.390155982230e-07
-2.999996735887e-04-j2.749861240280e-07
-2.999997598093e-04-j2.230497874293e-07
-2.999998165368e-04-j1.809225937018e-07
-2.999998538597e-04-j1.467519121258e-07
-2.999998784157e-04-j1.190350103068e-07
-2.999998945719e-04-j9.655297220125e-08
-2.999999052016e-04-j7.831709557621e-08
-2.999999121952e-04-j6.352541258204e-08
-2.999999167966e-04-j5.152742184578e-08
-2.999999198240e-04-j4.179548137003e-08
-2.999999218158e-04-j3.390160431671e-08
-2.999999231263e-04-j2.749863729082e-08
-2.999999239885e-04-j2.230499343368e-08
-2.999999245557e-04-j1.809226894696e-08
-2.999999249290e-04-j1.467519846460e-08
-2.999999251745e-04-j1.190350754061e-08
