<Qucs Dataset 0.0.21>
<indep frequency 100>
1.000000000000e+00
1.232846739442e+00
1.519911082953e+00
1.873817422860e+00
2.310129700083e+00
2.848035868436e+00
3.511191734215e+00
4.328761281083e+00
5.336699231206e+00
6.579332246576e+00
8.111308307897e+00
1.000000000000e+01
1.232846739442e+01
1.519911082953e+01
1.873817422860e+01
2.310129700083e+01
2.848035868436e+01
3.511191734215e+01
4.328761281083e+01
5.336699231206e+01
6.579332246576e+01
8.111308307897e+01
1.000000000000e+02
1.232846739442e+02
1.519911082953e+02
1.873817422860e+02
2.310129700083e+02
2.848035868436e+02
3.511191734215e+02
4.328761281083e+02
5.336699231206e+02
6.579332246576e+02
8.111308307897e+02
1.000000000000e+03
1.232846739442e+03
1.519911082953e+03
1.873817422860e+03
2.310129700083e+03
2.848035868436e+03
3.511191734215e+03
4.328761281083e+03
5.336699231206e+03
6.579332246576e+03
8.111308307897e+03
1.000000000000e+04
1.232846739442e+04
1.519911082953e+04
1.873817422860e+04
2.310129700083e+04
2.848035868436e+04
3.511191734215e+04
4.328761281083e+04
5.336699231206e+04
6.579332246576e+04
8.111308307897e+04
1.000000000000e+05
1.232846739442e+05
1.519911082953e+05
1.873817422860e+05
2.310129700083e+05
2.848035868436e+05
3.511191734215e+05
4.328761281083e+05
5.336699231206e+05
6.579332246576e+05
8.111308307897e+05
1.000000000000e+06
1.232846739442e+06
1.519911082953e+06
1.873817422860e+06
2.310129700083e+06
2.848035868436e+06
3.511191734215e+06
4.328761281083e+06
5.336699231206e+06
6.579332246576e+06
8.111308307897e+06
1.000000000000e+07
1.232846739442e+07
1.519911082953e+07
1.873817422860e+07
2.310129700083e+07
2.848035868436e+07
3.511191734215e+07
4.328761281083e+07
5.336699231206e+07
6.579332246576e+07
8.111308307897e+07
1.000000000000e+08
1.232846739442e+08
1.519911082953e+08
1.873817422860e+08
2.310129700083e+08
2.848035868436e+08
3.511191734215e+08
4.328761281083e+08
5.336699231206e+08
6.579332246576e+08
8.111308307897e+08
1.000000000000e+09
</indep>
<dep ac.v(b) frequency>
2.005691613646e-02+j9.811307607978e-02
2.986193952949e-02+j1.184872593646e-01
4.402060404018e-02+j1.416773905213e-01
6.397886047565e-02+j1.670213391207e-01
9.117651093745e-02+j1.930675737229e-01
1.265795170337e-01+j2.174105993240e-01
1.700125248587e-01+j2.368585712029e-01
2.195850525234e-01+j2.481429099503e-01
2.717102906349e-01+j2.490554749643e-01
3.220005272739e-01+j2.394073603074e-01
3.666493871811e-01+j2.211173331840e-01
4.034565534814e-01+j1.973601687183e-01
4.319887829513e-01+j1.714060364954e-01
4.530695101866e-01+j1.458174128401e-01
4.680985856811e-01+j1.222004456468e-01
4.785426588473e-01+j1.013320965198e-01
4.856721343520e-01+j8.341813294823e-02
4.904798627226e-01+j6.833282405799e-02
4.936952814059e-01+j5.579021993938e-02
4.958339051687e-01+j4.544919828639e-02
4.972511112008e-01+j3.697061521930e-02
4.981879649986e-01+j3.004450521295e-02
4.988062800097e-01+j2.440027079273e-02
4.992139277787e-01+j1.980798671190e-02
4.994824963873e-01+j1.607551242019e-02
4.996593542597e-01+j1.304396074458e-02
4.997757832549e-01+j1.058282411627e-02
4.998524153572e-01+j8.585371136122e-03
4.999028469819e-01+j6.964561827145e-03
4.999360331740e-01+j5.649545842753e-03
4.999578698757e-01+j4.582720972915e-03
4.999722380076e-01+j3.717293097099e-03
4.999816917295e-01+j3.015268051255e-03
4.999879118421e-01+j2.445807306619e-03
4.999920043453e-01+j1.983885950975e-03
4.999946969757e-01+j1.609199725692e-03
4.999964685625e-01+j1.305276135300e-03
4.999976341552e-01+j1.058752184245e-03
4.999984010403e-01+j8.587878560568e-04
4.999989056007e-01+j6.965900101769e-04
4.999992375684e-01+j5.650260089100e-04
4.999994559812e-01+j4.583102163428e-04
4.999995996823e-01+j3.717496535264e-04
4.999996942281e-01+j3.015376625052e-04
4.999997564330e-01+j2.445865253486e-04
4.999997973596e-01+j1.983916880130e-04
4.999998242866e-01+j1.609216237165e-04
4.999998420028e-01+j1.305284953695e-04
4.999998536588e-01+j1.058756898613e-04
4.999998613277e-01+j8.587903821402e-05
4.999998663734e-01+j6.965913708030e-05
4.999998696930e-01+j5.650267504833e-05
4.999998718772e-01+j4.583106311429e-05
4.999998733142e-01+j3.717498983717e-05
4.999998742597e-01+j3.015378221179e-05
4.999998748817e-01+j2.445866462151e-05
4.999998752910e-01+j1.983917965112e-05
4.999998755602e-01+j1.609217358582e-05
4.999998757374e-01+j1.305286220852e-05
4.999998758540e-01+j1.058758399248e-05
4.999998759307e-01+j8.587921993333e-06
4.999998759811e-01+j6.965935935864e-06
4.999998760143e-01+j5.650294814746e-06
4.999998760362e-01+j4.583139930398e-06
4.999998760506e-01+j3.717540404055e-06
4.999998760601e-01+j3.015429271800e-06
4.999998760664e-01+j2.445929391996e-06
4.999998760705e-01+j1.983995543623e-06
4.999998760734e-01+j1.609312998289e-06
4.999998760753e-01+j1.305404127775e-06
4.999998760768e-01+j1.058903757879e-06
4.999998760780e-01+j8.589714003237e-07
4.999998760792e-01+j6.968145140316e-07
4.999998760806e-01+j5.653018298104e-07
4.999998760825e-01+j4.586497331006e-07
4.999998760851e-01+j3.721679121162e-07
4.999998760889e-01+j3.020530845644e-07
4.999998760946e-01+j2.452217296175e-07
4.999998761033e-01+j1.991744654929e-07
4.999998761164e-01+j1.618861015901e-07
4.999998761362e-01+j1.317165175035e-07
4.999998761663e-01+j1.073384266235e-07
4.999998762119e-01+j8.767880550916e-08
4.999998762808e-01+j7.187133724091e-08
4.999998763847e-01+j5.921764260782e-08
4.999998765408e-01+j4.915536272729e-08
4.999998767737e-01+j4.123131193412e-08
4.999998771183e-01+j3.507795812950e-08
4.999998776212e-01+j3.039149939919e-08
4.999998783411e-01+j2.691007160079e-08
4.999998793434e-01+j2.439176721340e-08
4.999998806864e-01+j2.259506132333e-08
4.999998823959e-01+j2.126902588987e-08
4.999998844361e-01+j2.016410379839e-08
4.999998866915e-01+j1.906838768870e-08
4.999998889837e-01+j1.785511514746e-08
4.999998911239e-01+j1.650928148205e-08
4.999998929712e-01+j1.511085003005e-08
4.999998944642e-01+j1.378599140718e-08
4.999998956139e-01+j1.265881972320e-08
</dep>
<dep ac.v(uin) frequency>
5.000000000000e-01+j0.000000000000e+00
5.000000000000e-01+j0.000000000000e+00
5.000000000000e-01+j0.000000000000e+00
5.000000000000e-01+j0.000000000000e+00
5.000000000000e-01+j0.000000000000e+00
5.000000000000e-01+j0.000000000000e+00
5.000000000000e-01+j0.000000000000e+00
5.000000000000e-01+j0.000000000000e+00
5.000000000000e-01+j0.000000000000e+00
5.000000000000e-01+j0.000000000000e+00
5.000000000000e-01+j0.000000000000e+00
5.000000000000e-01+j0.000000000000e+00
5.000000000000e-01+j0.000000000000e+00
5.000000000000e-01+j0.000000000000e+00
5.000000000000e-01+j0.000000000000e+00
5.000000000000e-01+j0.000000000000e+00
5.000000000000e-01+j0.000000000000e+00
5.000000000000e-01+j0.000000000000e+00
5.000000000000e-01+j0.000000000000e+00
5.000000000000e-01+j0.000000000000e+00
5.000000000000e-01+j0.000000000000e+00
5.000000000000e-01+j0.000000000000e+00
5.000000000000e-01+j0.000000000000e+00
5.000000000000e-01+j0.000000000000e+00
5.000000000000e-01+j0.000000000000e+00
5.000000000000e-01+j0.000000000000e+00
5.000000000000e-01+j0.000000000000e+00
5.000000000000e-01+j0.000000000000e+00
5.000000000000e-01+j0.000000000000e+00
5.000000000000e-01+j0.000000000000e+00
5.000000000000e-01+j0.000000000000e+00
5.000000000000e-01+j0.000000000000e+00
5.000000000000e-01+j0.000000000000e+00
5.000000000000e-01+j0.000000000000e+00
5.000000000000e-01+j0.000000000000e+00
5.000000000000e-01+j0.000000000000e+00
5.000000000000e-01+j0.000000000000e+00
5.000000000000e-01+j0.000000000000e+00
5.000000000000e-01+j0.000000000000e+00
5.000000000000e-01+j0.000000000000e+00
5.000000000000e-01+j0.000000000000e+00
5.000000000000e-01+j0.000000000000e+00
5.000000000000e-01+j0.000000000000e+00
5.000000000000e-01+j0.000000000000e+00
5.000000000000e-01+j0.000000000000e+00
5.000000000000e-01+j0.000000000000e+00
5.000000000000e-01+j0.000000000000e+00
5.000000000000e-01+j0.000000000000e+00
5.000000000000e-01+j0.000000000000e+00
5.000000000000e-01+j0.000000000000e+00
5.000000000000e-01+j0.000000000000e+00
5.000000000000e-01+j0.000000000000e+00
5.000000000000e-01+j0.000000000000e+00
5.000000000000e-01+j0.000000000000e+00
5.000000000000e-01+j0.000000000000e+00
5.000000000000e-01+j0.000000000000e+00
5.000000000000e-01+j0.000000000000e+00
5.000000000000e-01+j0.000000000000e+00
5.000000000000e-01+j0.000000000000e+00
5.000000000000e-01+j0.000000000000e+00
5.000000000000e-01+j0.000000000000e+00
5.000000000000e-01+j0.000000000000e+00
5.000000000000e-01+j0.000000000000e+00
5.000000000000e-01+j0.000000000000e+00
5.000000000000e-01+j0.000000000000e+00
5.000000000000e-01+j0.000000000000e+00
5.000000000000e-01+j0.000000000000e+00
5.000000000000e-01+j0.000000000000e+00
5.000000000000e-01+j0.000000000000e+00
5.000000000000e-01+j0.000000000000e+00
5.000000000000e-01+j0.000000000000e+00
5.000000000000e-01+j0.000000000000e+00
5.000000000000e-01+j0.000000000000e+00
5.000000000000e-01+j0.000000000000e+00
5.000000000000e-01+j0.000000000000e+00
5.000000000000e-01+j0.000000000000e+00
5.000000000000e-01+j0.000000000000e+00
5.000000000000e-01+j0.000000000000e+00
5.000000000000e-01+j0.000000000000e+00
5.000000000000e-01+j0.000000000000e+00
5.000000000000e-01+j0.000000000000e+00
5.000000000000e-01+j0.000000000000e+00
5.000000000000e-01+j0.000000000000e+00
5.000000000000e-01+j0.000000000000e+00
5.000000000000e-01+j0.000000000000e+00
5.000000000000e-01+j0.000000000000e+00
5.000000000000e-01+j0.000000000000e+00
5.000000000000e-01+j0.000000000000e+00
5.000000000000e-01+j0.000000000000e+00
5.000000000000e-01+j0.000000000000e+00
5.000000000000e-01+j0.000000000000e+00
5.000000000000e-01+j0.000000000000e+00
5.000000000000e-01+j0.000000000000e+00
5.000000000000e-01+j0.000000000000e+00
5.000000000000e-01+j0.000000000000e+00
5.000000000000e-01+j0.000000000000e+00
5.000000000000e-01+j0.000000000000e+00
5.000000000000e-01+j0.000000000000e+00
5.000000000000e-01+j0.000000000000e+00
5.000000000000e-01+j0.000000000000e+00
</dep>
<dep ac.i(pr1) frequency>
1.475515397278e-07+j7.217905042057e-07
2.196835808086e-07+j8.716778775743e-07
3.238437984027e-07+j1.042281591805e-06
4.706695340891e-07+j1.228730689065e-06
6.707528956245e-07+j1.420346894244e-06
9.312001161723e-07+j1.599433992596e-06
1.250721179928e-06+j1.742510911275e-06
1.615408489550e-06+j1.825532110737e-06
1.998875174544e-06+j1.832253372350e-06
2.368842411724e-06+j1.761285328013e-06
2.697308063251e-06+j1.626744085490e-06
2.968085186897e-06+j1.451985851496e-06
3.177986567623e-06+j1.261068737729e-06
3.333069918472e-06+j1.072844760939e-06
3.443633437551e-06+j8.991307581921e-07
3.520466738655e-06+j7.456437692454e-07
3.572915733357e-06+j6.138990457480e-07
3.608284466959e-06+j5.029734726441e-07
3.631939149185e-06+j4.107656897649e-07
3.647672237315e-06+j3.347689821504e-07
3.658098113897e-06+j2.724918412721e-07
3.664990211346e-06+j2.216582169357e-07
3.669538933173e-06+j1.802826663457e-07
3.672537851650e-06+j1.466801791674e-07
3.674513614628e-06+j1.194452194082e-07
3.675814694623e-06+j9.741874076572e-08
3.676671221063e-06+j7.965276431214e-08
3.677234976071e-06+j6.537704561699e-08
3.677605983618e-06+j5.396968175793e-08
3.677850122789e-06+j4.493215991669e-08
3.678010767961e-06+j3.786871649633e-08
3.678116469747e-06+j3.246961773119e-08
3.678186018288e-06+j2.849790440533e-08
3.678231778792e-06+j2.577916642673e-08
3.678261887947e-06+j2.419397704788e-08
3.678281699819e-06+j2.367269647108e-08
3.678294737544e-06+j2.419243899156e-08
3.678303319681e-06+j2.577608240858e-08
3.678308972461e-06+j2.849328260481e-08
3.678312701173e-06+j3.246354136278e-08
3.678315168938e-06+j3.786146417518e-08
3.678316814629e-06+j4.492444025754e-08
3.678317930921e-06+j5.396308303612e-08
3.678318716339e-06+j6.537489053821e-08
3.678319310565e-06+j7.966172658503e-08
3.678319819280e-06+j9.745189164723e-08
3.678320332954e-06+j1.195277540279e-07
3.678320942941e-06+j1.468601565482e-07
3.678321757725e-06+j1.806511118685e-07
3.678322922210e-06+j2.223866640891e-07
3.678324643493e-06+j2.739022413539e-07
3.678327227695e-06+j3.374633735069e-07
3.678331134401e-06+j4.158653245596e-07
3.678337058396e-06+j5.125560215530e-07
3.678346053229e-06+j6.317876859022e-07
3.678359718580e-06+j7.788038355570e-07
3.678380484752e-06+j9.600698817971e-07
3.678412044889e-06+j1.183557461590e-06
3.678460011777e-06+j1.459095009468e-06
3.678532916042e-06+j1.798799985666e-06
3.678643723267e-06+j2.217611767848e-06
3.678812139825e-06+j2.733948639753e-06
3.679068117504e-06+j3.370517765933e-06
3.679457180155e-06+j4.155313766499e-06
3.680048519613e-06+j5.122849794091e-06
3.680947300516e-06+j6.315675229020e-06
3.682313361965e-06+j7.786246692550e-06
3.684389641050e-06+j9.599234577373e-06
3.687545371017e-06+j1.183436637430e-05
3.692341731578e-06+j1.458993154447e-05
3.699631615189e-06+j1.798710152311e-05
3.710711225205e-06+j2.217525380872e-05
3.727550404415e-06+j2.733853234931e-05
3.753142512640e-06+j3.370392912358e-05
3.792035744707e-06+j4.155123556264e-05
3.851139613270e-06+j5.122528879431e-05
3.940948253853e-06+j6.315102759730e-05
4.077394025014e-06+j7.785197595525e-05
4.284651641353e-06+j9.597288453976e-05
4.599369867392e-06+j1.183073721950e-04
5.077033563861e-06+j1.458314979766e-04
5.801473464951e-06+j1.797442140830e-04
6.898954719841e-06+j2.215155156019e-04
8.558760046262e-06+j2.729426633722e-04
1.106260510656e-05+j3.362138657187e-04
1.482519507570e-05+j4.139769163942e-04
2.044683234021e-05+j5.094071559861e-04
2.877433546456e-05+j6.262648606131e-04
4.095545920181e-05+j7.689286002552e-04
5.845095474548e-05+j9.423945106540e-04
8.293855887321e-05+j1.152255980630e-03
1.160239415285e-04+j1.404744265139e-03
1.587193715802e-04+j1.707020211440e-03
2.108313714598e-04+j2.067985826752e-03
2.706766648072e-04+j2.499752648725e-03
3.356307628197e-04+j3.019465729460e-03
4.035805126745e-04+j3.650776777716e-03
4.746699351883e-04+j4.424481550524e-03
5.526010596983e-04+j5.378614616406e-03
6.453771322263e-04+j6.558772859194e-03
</dep>
<dep ac.i(pr3) frequency>
1.993511754132e-05+j9.751726989550e-05
2.968059847696e-05+j1.177677279353e-04
4.375328239946e-05+j1.408170335866e-04
6.359033936545e-05+j1.660070773057e-04
9.062282806484e-05+j1.918951422924e-04
1.258108441608e-04+j2.160903412678e-04
1.689800986102e-04+j2.354202124611e-04
2.182515897553e-04+j2.466360253960e-04
2.700602896348e-04+j2.475430487318e-04
3.200451313601e-04+j2.379535236906e-04
3.644228544497e-04+j2.197745654792e-04
4.010065037789e-04+j1.961616699300e-04
4.293654670576e-04+j1.703651480392e-04
4.503181784531e-04+j1.449319151156e-04
4.652559876598e-04+j1.214583654831e-04
4.756366376442e-04+j1.007167425332e-04
4.827228183525e-04+j8.291156420264e-05
4.875013510802e-04+j6.791786313876e-05
4.906972436570e-04+j5.545142590733e-05
4.928228803101e-04+j4.517320172096e-05
4.942314801486e-04+j3.674610620493e-05
4.951626447629e-04+j2.986205615001e-05
4.957772049645e-04+j2.425209733023e-05
4.961823772321e-04+j1.968770076060e-05
4.964493149179e-04+j1.597789270098e-05
4.966250987947e-04+j1.296475085430e-05
4.967408207576e-04+j1.051856019074e-05
4.968169875001e-04+j8.533237468694e-06
4.968671128713e-04+j6.922271293184e-06
4.969000975354e-04+j5.615241590108e-06
4.969218016304e-04+j4.554895976060e-06
4.969360825097e-04+j3.694724530084e-06
4.969454788224e-04+j2.996963856894e-06
4.969516611626e-04+j2.430962752984e-06
4.969557288135e-04+j1.971848339852e-06
4.969584050924e-04+j1.599439741137e-06
4.969601659210e-04+j1.297364593703e-06
4.969613244355e-04+j1.052341174865e-06
4.969620866637e-04+j8.535954487576e-07
4.969625881602e-04+j6.923878610948e-07
4.969629181121e-04+j5.616293207233e-07
4.969631351987e-04+j4.555696125510e-07
4.969632780275e-04+j3.695446098837e-07
4.969633719997e-04+j2.997712070037e-07
4.969634338275e-04+j2.431809738094e-07
4.969634745068e-04+j1.972852278238e-07
4.969635012720e-04+j1.600655955155e-07
4.969635188832e-04+j1.298852531531e-07
4.969635304725e-04+j1.054169454192e-07
4.969635381009e-04+j8.558461709052e-08
4.969635431251e-04+j6.951609135488e-08
4.969635464386e-04+j5.650471391958e-08
4.969635486308e-04+j4.597827624664e-08
4.969635500915e-04+j3.747385130404e-08
4.969635510804e-04+j3.061743520854e-08
4.969635517735e-04+j2.510749946899e-08
4.969635522940e-04+j2.070173050771e-08
4.969635527344e-04+j1.720637330159e-08
4.969635531732e-04+j1.446771050316e-08
4.969635536883e-04+j1.236530231273e-08
4.969635543713e-04+j1.080668980253e-08
4.969635553437e-04+j9.723328747227e-09
4.969635567785e-04+j9.067575119986e-09
4.969635589308e-04+j8.810589644679e-09
4.969635621833e-04+j8.941069178447e-09
4.969635671146e-04+j9.464748996950e-09
4.969635746016e-04+j1.040465383731e-08
4.969635859757e-04+j1.180210825802e-08
4.969636032596e-04+j1.371854984762e-08
4.969636295270e-04+j1.623822333412e-08
4.969636694487e-04+j1.947187091148e-08
4.969637301231e-04+j2.356157514790e-08
4.969638223371e-04+j2.868695635257e-08
4.969639624826e-04+j3.507297615310e-08
4.969641754652e-04+j4.299965153481e-08
4.969644991197e-04+j5.281403368051e-08
4.969649909075e-04+j6.494484213515e-08
4.969657380622e-04+j7.992014323221e-08
4.969668729345e-04+j9.838837513198e-08
4.969685961409e-04+j1.211427596375e-07
4.969712113444e-04+j1.491485334538e-07
4.969751771986e-04+j1.835711681012e-07
4.969811841916e-04+j2.258012755746e-07
4.969902666603e-04+j2.774672722072e-07
4.970039622769e-04+j3.404185900101e-07
4.970245305366e-04+j4.166481734573e-07
4.970552328011e-04+j5.081010648394e-07
4.971006482716e-04+j6.162865230793e-07
4.971669343754e-04+j7.415847144457e-07
4.972618155766e-04+j8.821513918995e-07
4.973939077792e-04+j1.032456630970e-06
4.975708671182e-04+j1.181863220134e-06
4.977961040285e-04+j1.314269205007e-06
4.980648260653e-04+j1.410276270941e-06
4.983617483862e-04+j1.452569079767e-06
4.986632612406e-04+j1.432647407943e-06
4.989442900462e-04+j1.354698552473e-06
4.991860655516e-04+j1.233656342880e-06
4.993801516741e-04+j1.088967295783e-06
4.995274813667e-04+j9.383562842689e-07
</dep>
<dep ac.i(pr4) frequency>
-4.011383227292e-06-j1.962261521596e-05
-5.972387905899e-06-j2.369745187292e-05
-8.804120808036e-06-j2.833547810425e-05
-1.279577209513e-05-j3.340426782415e-05
-1.823530218749e-05-j3.861351474457e-05
-2.531590340675e-05-j4.348211986479e-05
-3.400250497174e-05-j4.737171424057e-05
-4.391701050468e-05-j4.962858199006e-05
-5.434205812699e-05-j4.981109499287e-05
-6.440010545478e-05-j4.788147206149e-05
-7.332987743622e-05-j4.422346663680e-05
-8.069131069629e-05-j3.947203374366e-05
-8.639775659026e-05-j3.428120729908e-05
-9.061390203731e-05-j2.916348256802e-05
-9.361971713622e-05-j2.444008912936e-05
-9.570853176947e-05-j2.026641930397e-05
-9.713442687041e-05-j1.668362658965e-05
-9.809597254452e-05-j1.366656481160e-05
-9.873905628117e-05-j1.115804398788e-05
-9.916678103373e-05-j9.089839657278e-06
-9.945022224016e-05-j7.394123043859e-06
-9.963759299972e-05-j6.008901042590e-06
-9.976125600193e-05-j4.880054158546e-06
-9.984278555575e-05-j3.961597342380e-06
-9.989649927746e-05-j3.215102484039e-06
-9.993187085195e-05-j2.608792148916e-06
-9.995515665098e-05-j2.116564823254e-06
-9.997048307144e-05-j1.717074227224e-06
-9.998056939639e-05-j1.392912365429e-06
-9.998720663481e-05-j1.129909168551e-06
-9.999157397513e-05-j9.165441945830e-07
-9.999444760153e-05-j7.434586194198e-07
-9.999633834589e-05-j6.030536102510e-07
-9.999758236843e-05-j4.891614613239e-07
-9.999840086907e-05-j3.967771901951e-07
-9.999893939514e-05-j3.218399451383e-07
-9.999929371250e-05-j2.610552270600e-07
-9.999952683103e-05-j2.117504368491e-07
-9.999968020806e-05-j1.717575712114e-07
-9.999978112015e-05-j1.393180020354e-07
-9.999984751368e-05-j1.130052017820e-07
-9.999989119624e-05-j9.166204326856e-08
-9.999991993646e-05-j7.434993070527e-08
-9.999993884562e-05-j6.030753250105e-08
-9.999995128659e-05-j4.891730506972e-08
-9.999995947192e-05-j3.967833760261e-08
-9.999996485732e-05-j3.218432474330e-08
-9.999996840055e-05-j2.610569907391e-08
-9.999997073177e-05-j2.117513797225e-08
-9.999997226555e-05-j1.717580764280e-08
-9.999997327467e-05-j1.393182741606e-08
-9.999997393861e-05-j1.130053500967e-08
-9.999997437544e-05-j9.166212622858e-09
-9.999997466284e-05-j7.434997967435e-09
-9.999997485193e-05-j6.030756442358e-09
-9.999997497634e-05-j4.891732924302e-09
-9.999997505819e-05-j3.967835930224e-09
