<Qucs Dataset 0.0.21>
<indep frequency 100>
1.000000000000e+00
1.232846739442e+00
1.519911082953e+00
1.873817422860e+00
2.310129700083e+00
2.848035868436e+00
3.511191734215e+00
4.328761281083e+00
5.336699231206e+00
6.579332246576e+00
8.111308307897e+00
1.000000000000e+01
1.232846739442e+01
1.519911082953e+01
1.873817422860e+01
2.310129700083e+01
2.848035868436e+01
3.511191734215e+01
4.328761281083e+01
5.336699231206e+01
6.579332246576e+01
8.111308307897e+01
1.000000000000e+02
1.232846739442e+02
1.519911082953e+02
1.873817422860e+02
2.310129700083e+02
2.848035868436e+02
3.511191734215e+02
4.328761281083e+02
5.336699231206e+02
6.579332246576e+02
8.111308307897e+02
1.000000000000e+03
1.232846739442e+03
1.519911082953e+03
1.873817422860e+03
2.310129700083e+03
2.848035868436e+03
3.511191734215e+03
4.328761281083e+03
5.336699231206e+03
6.579332246576e+03
8.111308307897e+03
1.000000000000e+04
1.232846739442e+04
1.519911082953e+04
1.873817422860e+04
2.310129700083e+04
2.848035868436e+04
3.511191734215e+04
4.328761281083e+04
5.336699231206e+04
6.579332246576e+04
8.111308307897e+04
1.000000000000e+05
1.232846739442e+05
1.519911082953e+05
1.873817422860e+05
2.310129700083e+05
2.848035868436e+05
3.511191734215e+05
4.328761281083e+05
5.336699231206e+05
6.579332246576e+05
8.111308307897e+05
1.000000000000e+06
1.232846739442e+06
1.519911082953e+06
1.873817422860e+06
2.310129700083e+06
2.848035868436e+06
3.511191734215e+06
4.328761281083e+06
5.336699231206e+06
6.579332246576e+06
8.111308307897e+06
1.000000000000e+07
1.232846739442e+07
1.519911082953e+07
1.873817422860e+07
2.310129700083e+07
2.848035868436e+07
3.511191734215e+07
4.328761281083e+07
5.336699231206e+07
6.579332246576e+07
8.111308307897e+07
1.000000000000e+08
1.232846739442e+08
1.519911082953e+08
1.873817422860e+08
2.310129700083e+08
2.848035868436e+08
3.511191734215e+08
4.328761281083e+08
5.336699231206e+08
6.579332246576e+08
8.111308307897e+08
1.000000000000e+09
</indep>
<dep ac.v(b) frequency>
6.551462176122e-04+j2.465437320601e-03
9.627492500080e-04+j2.938732177061e-03
1.393091282520e-03+j3.449193669534e-03
1.973472737583e-03+j3.963332129680e-03
2.718672398949e-03+j4.428715328193e-03
3.617377397827e-03+j4.779765518786e-03
4.622795740650e-03+j4.954614469304e-03
5.657334205074e-03+j4.918244996798e-03
6.634140458328e-03+j4.678184202512e-03
7.484364483511e-03+j4.280984911450e-03
8.173558975446e-03+j3.792265940379e-03
8.700695120078e-03+j3.274495996590e-03
9.086242820925e-03+j2.773856739463e-03
9.359103579870e-03+j2.317675410383e-03
9.547746890436e-03+j1.918016574269e-03
9.676066288185e-03+j1.576904220180e-03
9.762391942010e-03+j1.290776494618e-03
9.820036723699e-03+j1.053529823165e-03
9.858340790833e-03+j8.583279728136e-04
9.883713207179e-03+j6.985569776361e-04
9.900489348297e-03+j5.682603021370e-04
9.911575424602e-03+j4.622850582046e-04
9.918909320135e-03+j3.762806892294e-04
9.923780601846e-03+j3.066304312591e-04
9.927049041052e-03+j2.503584549340e-04
9.929292682443e-03+j2.050341173987e-04
9.930908265339e-03+j1.686829275606e-04
9.932180119823e-03+j1.397074705118e-04
9.933328611131e-03+j1.168180981925e-04
9.934545341337e-03+j9.897120665270e-05
9.936018958955e-03+j8.531166542854e-05
9.937951779805e-03+j7.511543048644e-05
9.940562879985e-03+j6.772952700881e-05
9.944068526186e-03+j6.251163954943e-05
9.948629840869e-03+j5.878281858671e-05
9.954269269442e-03+j5.582161189810e-05
9.960788038474e-03+j5.293028309890e-05
9.967749052224e-03+j4.956907648964e-05
9.974575132441e-03+j4.548850795561e-05
9.980729827623e-03+j4.076114480036e-05
9.985872293312e-03+j3.568191175356e-05
9.989902333529e-03+j3.060789778799e-05
9.992904812534e-03+j2.583338871090e-05
9.995058462389e-03+j2.153981815528e-05
9.996561561167e-03+j1.780311991138e-05
9.997590694534e-03+j1.462477788016e-05
9.998286096750e-03+j1.196353338583e-05
9.998751819198e-03+j9.758828535045e-06
9.999061861085e-03+j7.945313410924e-06
9.999267441784e-03+j6.460641481253e-06
9.999403396914e-03+j5.249005554666e-06
9.999493149894e-03+j4.262252667489e-06
9.999552333355e-03+j3.459751420177e-06
9.999591329443e-03+j2.807693419922e-06
9.999617011162e-03+j2.278197638977e-06
9.999633918866e-03+j1.848403450129e-06
9.999645047793e-03+j1.499636910907e-06
9.999652372088e-03+j1.216681588124e-06
9.999657192140e-03+j9.871586675621e-07
9.999660364217e-03+j8.010089262002e-07
9.999662452043e-03+j6.500644407512e-07
9.999663826747e-03+j5.276969077351e-07
9.999664732737e-03+j4.285301648191e-07
9.999665331103e-03+j3.482059043517e-07
9.999665728247e-03+j2.831931480929e-07
9.999665994792e-03+j2.306335694008e-07
9.999666178138e-03+j1.882161073071e-07
9.999666310889e-03+j1.540754871650e-07
9.999666416648e-03+j1.267102484159e-07
9.999666514214e-03+j1.049166982228e-07
9.999666620913e-03+j8.773588013220e-08
9.999666755664e-03+j7.441118696130e-08
9.999666942301e-03+j6.435466766334e-08
9.999667213715e-03+j5.712037903805e-08
9.999667617479e-03+j5.238329801377e-08
9.999668223803e-03+j4.992229367735e-08
9.999669136858e-03+j4.960537601348e-08
9.999670510669e-03+j5.137474623922e-08
9.999672570616e-03+j5.522787620129e-08
9.999675640484e-03+j6.118876510336e-08
9.999680171944e-03+j6.926080260811e-08
9.999686766337e-03+j7.935056394762e-08
9.999696165980e-03+j9.115434070908e-08
9.999709175487e-03+j1.040146965152e-07
9.999726465886e-03+j1.167934925898e-07
9.999748248037e-03+j1.278672791052e-07
9.999773910945e-03+j1.353799723767e-07
9.999801864397e-03+j1.377859389846e-07
9.999829826769e-03+j1.344611125985e-07
9.999855513578e-03+j1.259788369490e-07
9.999877327815e-03+j1.138359303931e-07
9.999894651375e-03+j9.984059221013e-08
9.999907690280e-03+j8.556553569592e-08
9.999917113468e-03+j7.209067913782e-08
9.999923725418e-03+j6.000360094176e-08
9.999928269256e-03+j4.952286200231e-08
9.999931347369e-03+j4.063772820072e-08
9.999933412346e-03+j3.321729133504e-08
9.999934788614e-03+j2.708130240201e-08
9.999935701872e-03+j2.204061384426e-08
</dep>
<dep ac.v(c) frequency>
-2.197757727716e-03-j8.857126875156e-03
-3.229657559124e-03-j1.058146337173e-02
-4.673320243039e-03-j1.246232026926e-02
-6.620354217255e-03-j1.439478414241e-02
-9.120387324933e-03-j1.621213157060e-02
-1.213556042116e-02-j1.770567567393e-02
-1.550905531010e-02-j1.868179691314e-02
-1.898080870108e-02-j1.904017541363e-02
-2.225980424880e-02-j1.882718235871e-02
-2.511556674642e-02-j1.822500633953e-02
-2.743325433544e-02-j1.748584843025e-02
-2.921048191754e-02-j1.685881441248e-02
-3.051752935838e-02-j1.654758677995e-02
-3.145379972179e-02-j1.670395016679e-02
-3.211852648131e-02-j1.744246723672e-02
-3.259753854389e-02-j1.886122393800e-02
-3.296095777303e-02-j2.106073178697e-02
-3.326656327877e-02-j2.415898148386e-02
-3.356562082319e-02-j2.830340797888e-02
-3.390990255383e-02-j3.368122604367e-02
-3.435990154500e-02-j4.052942595190e-02
-3.499506072823e-02-j4.914530736787e-02
-3.592747129374e-02-j5.989796263092e-02
-3.732116761228e-02-j7.324054913129e-02
-3.941998409405e-02-j8.972232396400e-02
-4.258797527467e-02-j1.099979195127e-01
-4.736748318465e-02-j1.348286824748e-01
-5.456050369189e-02-j1.650662819274e-01
-6.533758879244e-02-j2.016012009132e-01
-8.137186647937e-02-j2.452474469346e-01
-1.049776542020e-01-j2.965212419873e-01
-1.391942586997e-01-j3.552636645765e-01
-1.876888037172e-01-j4.200783772197e-01
-2.542731320354e-01-j4.876507628888e-01
-3.418204933250e-01-j5.522302129620e-01
-4.506003393107e-01-j6.058412583041e-01
-5.766476724925e-01-j6.398320829625e-01
-7.114118585823e-01-j6.476933572950e-01
-8.436495110509e-01-j6.277984083055e-01
-9.629234295402e-01-j5.841608704001e-01
-1.062601442409e+00-j5.246153650481e-01
-1.140726483223e+00-j4.578029915439e-01
-1.198935894345e+00-j3.908225787057e-01
-1.240690898058e+00-j3.283209643451e-01
-1.269833863773e+00-j2.726851909025e-01
-1.289787682001e+00-j2.246850097676e-01
-1.303270959687e+00-j1.841205252874e-01
-1.312300993993e+00-j1.503033550118e-01
-1.318312501034e+00-j1.223594275460e-01
-1.322298556489e+00-j9.939750697367e-02
-1.324934581709e+00-j8.059177542107e-02
-1.326674724987e+00-j6.521475004822e-02
-1.327822070682e+00-j5.264379493369e-02
-1.328577888043e+00-j4.235485018400e-02
-1.329075387782e+00-j3.391085258978e-02
-1.329402523769e+00-j2.694870606310e-02
-1.329617248297e+00-j2.116664310978e-02
-1.329757650558e+00-j1.631273975728e-02
-1.329848657703e+00-j1.217479304723e-02
-1.329906436401e+00-j8.571500829936e-03
-1.329941254306e+00-j5.344763003837e-03
-1.329959300191e+00-j2.352876744756e-03
-1.329963782067e+00+j5.356132604043e-04
-1.329955496710e+00+j3.447646801210e-03
-1.329932971138e+00+j6.511194396661e-03
-1.329892201038e+00+j9.860846982740e-03
-1.329825939906e+00+j1.364367932447e-02
-1.329722413441e+00+j1.802562240129e-02
-1.329563232871e+00+j2.319858614512e-02
-1.329320141554e+00+j2.938857493382e-02
-1.328950028791e+00+j3.686502138450e-02
-1.328387353016e+00+j4.595150444253e-02
-1.327532693436e+00+j5.703786852918e-02
-1.326235546990e+00+j7.059343379962e-02
-1.324268661139e+00+j8.718032595593e-02
-1.321290135581e+00+j1.074646721494e-01
-1.316788357963e+00+j1.322210395301e-01
-1.310004021509e+00+j1.623212799137e-01
-1.299824250829e+00+j1.986918869615e-01
-1.284649088670e+00+j2.422131707935e-01
-1.262245914998e+00+j2.935196872312e-01
-1.229641859537e+00+j3.526506157563e-01
-1.183166857171e+00+j4.185107546369e-01
-1.118842715966e+00+j4.881791434946e-01
-1.033351700046e+00+j5.562957442502e-01
-9.256512929774e-01+j6.150504147585e-01
-7.987625913140e-01+j6.554417975016e-01
-6.605483464394e-01+j6.699703083276e-01
-5.222899532502e-01+j6.556660478376e-01
-3.952829325019e-01+j6.154577834498e-01
-2.874236235922e-01+j5.568226195346e-01
-2.017682182855e-01+j4.887628818616e-01
-1.372980547626e-01+j4.191048798811e-01
-9.070560777308e-02+j3.532288595820e-01
-5.801317680644e-02+j2.940730413845e-01
-3.554641397389e-02+j2.427448310478e-01
-2.032684749781e-02+j1.992128462950e-01
-1.011667855693e-02+j1.628474134694e-01
-3.311797517927e-03+j1.327715727558e-01
1.203758665593e-03+j1.080616703861e-01
</dep>
<dep ac.v(e) frequency>
6.384405530753e-04+j2.398161994020e-03
9.381998722903e-04+j2.858361357649e-03
1.357568286814e-03+j3.354540311398e-03
1.923149883948e-03+j3.854007289402e-03
2.649346218819e-03+j4.305598144454e-03
3.525132206686e-03+j4.645322367710e-03
4.504907878921e-03+j4.812784656714e-03
5.513056835352e-03+j4.773731839163e-03
6.464938856008e-03+j4.535340330697e-03
7.293455862108e-03+j4.142780306556e-03
7.965033549421e-03+j3.659756266150e-03
8.478661324308e-03+j3.146846761688e-03
8.854275013546e-03+j2.648689352623e-03
9.120020741326e-03+j2.191462631779e-03
9.303614021451e-03+j1.786366634965e-03
9.428296466630e-03+j1.434687525902e-03
9.511865967357e-03+j1.132108984782e-03
9.567197319118e-03+j8.716423147616e-04
9.603242692457e-03+j6.453450554252e-04
9.626020194696e-03+j4.451979506333e-04
9.639409289121e-03+j2.634648566972e-04
9.645718251925e-03+j9.275974093520e-05
9.646041920262e-03-j7.404094685511e-05
9.640436586732e-03-j2.439590383215e-04
9.627929082250e-03-j4.240979368608e-04
9.606360999529e-03-j6.218080606057e-04
9.572052642858e-03-j8.447859229460e-04
9.519260343265e-03-j1.101029989865e-03
9.439406363590e-03-j1.398522835206e-03
9.320106777239e-03-j1.744426325970e-03
9.144155431446e-03-j2.143475794433e-03
8.888910711620e-03-j2.595201150814e-03
8.527028994496e-03-j3.089760785469e-03
8.030076118802e-03-j3.602884521523e-03
7.376617397422e-03-j4.092029732343e-03
6.564650030763e-03-j4.497974145791e-03
5.623776801290e-03-j4.756388555198e-03
4.617828551831e-03-j4.818889422556e-03
3.630735201010e-03-j4.673502230099e-03
2.740407969501e-03-j4.350324427813e-03
1.996354478124e-03-j3.907950951087e-03
1.413184154454e-03-j3.410977036313e-03
9.786753319224e-04-j2.912469814094e-03
6.669916361704e-04-j2.447180993679e-03
4.494514737902e-04-j2.032984381340e-03
3.005044265410e-04-j1.675674363069e-03
1.998572283021e-04-j1.373802446336e-03
1.324515796689e-04-j1.122270852735e-03
8.757789053007e-05-j9.145945766093e-04
5.782321442158e-05-j7.441610952495e-04
3.814573623295e-05-j6.048485835151e-04
2.515531325750e-05-j4.912734989535e-04
1.658937320433e-05-j3.988412499830e-04
1.094526139951e-05-j3.237017230939e-04
7.228215237718e-06-j2.626655646993e-04
4.781087901595e-06-j2.131101372564e-04
3.170366049898e-06-j1.728890351375e-04
2.110326073432e-06-j1.402510209675e-04
1.412763863355e-06-j1.137701478025e-04
9.537596461348e-07-j9.228686670273e-05
6.517417548040e-07-j7.485907264994e-05
4.530238392221e-07-j6.072176280014e-05
3.222762241988e-07-j4.925397543902e-05
2.362510283857e-07-j3.995179227471e-05
1.796512546351e-07-j3.240634318069e-05
1.424118619576e-07-j2.628591360303e-05
1.179104288150e-07-j2.132140380697e-05
1.017896847366e-07-j1.729451974012e-05
9.118272083278e-08-j1.402818644719e-05
8.420318111019e-08-j1.137876792403e-05
7.960980868973e-08-j9.229754184413e-06
7.658570613049e-08-j7.486639472626e-06
7.459306058991e-08-j6.072767208617e-06
7.327750170562e-08-j4.925959376214e-06
7.240508651790e-08-j3.995782350905e-06
7.182070985781e-08-j3.241329034111e-06
7.142055536006e-08-j2.629419793687e-06
7.113371255800e-08-j2.133143072774e-06
7.090974570496e-08-j1.730671410814e-06
7.071012117448e-08-j1.404300665465e-06
7.050221127690e-08-j1.139669965450e-06
7.025527633239e-08-j9.251278304640e-07
6.993852316348e-08-j7.512164355265e-07
6.952205174436e-08-j6.102517140904e-07
6.898187176734e-08-j4.959824425858e-07
6.830923006172e-08-j4.033167124901e-07
6.752122354553e-08-j3.281078802417e-07
6.666532427949e-08-j2.669912526778e-07
6.581042666316e-08-j2.172568184461e-07
6.502573874257e-08-j1.767393142265e-07
6.435965958637e-08-j1.437138819810e-07
6.383084386324e-08-j1.167995471382e-07
6.343288679606e-08-j9.487939092605e-08
6.314531382390e-08-j7.704147832055e-08
6.294354627082e-08-j6.253731938061e-08
6.280489419230e-08-j5.075192428884e-08
6.271097023544e-08-j4.118072408648e-08
6.264796170323e-08-j3.341072195827e-08
6.260596821333e-08-j2.710466553289e-08
6.257810254867e-08-j2.198768990311e-08
</dep>
<dep ac.v(uin) frequency>
1.000000000000e-02+j0.000000000000e+00
1.000000000000e-02+j0.000000000000e+00
1.000000000000e-02+j0.000000000000e+00
1.000000000000e-02+j0.000000000000e+00
1.000000000000e-02+j0.000000000000e+00
1.000000000000e-02+j0.000000000000e+00
1.000000000000e-02+j0.000000000000e+00
1.000000000000e-02+j0.000000000000e+00
1.000000000000e-02+j0.000000000000e+00
1.000000000000e-02+j0.000000000000e+00
1.000000000000e-02+j0.000000000000e+00
1.000000000000e-02+j0.000000000000e+00
1.000000000000e-02+j0.000000000000e+00
1.000000000000e-02+j0.000000000000e+00
1.000000000000e-02+j0.000000000000e+00
1.000000000000e-02+j0.000000000000e+00
1.000000000000e-02+j0.000000000000e+00
1.000000000000e-02+j0.000000000000e+00
1.000000000000e-02+j0.000000000000e+00
1.000000000000e-02+j0.000000000000e+00
1.000000000000e-02+j0.000000000000e+00
1.000000000000e-02+j0.000000000000e+00
1.000000000000e-02+j0.000000000000e+00
1.000000000000e-02+j0.000000000000e+00
1.000000000000e-02+j0.000000000000e+00
1.000000000000e-02+j0.000000000000e+00
1.000000000000e-02+j0.000000000000e+00
1.000000000000e-02+j0.000000000000e+00
1.000000000000e-02+j0.000000000000e+00
1.000000000000e-02+j0.000000000000e+00
1.000000000000e-02+j0.000000000000e+00
1.000000000000e-02+j0.000000000000e+00
1.000000000000e-02+j0.000000000000e+00
1.000000000000e-02+j0.000000000000e+00
1.000000000000e-02+j0.000000000000e+00
1.000000000000e-02+j0.000000000000e+00
1.000000000000e-02+j0.000000000000e+00
1.000000000000e-02+j0.000000000000e+00
1.000000000000e-02+j0.000000000000e+00
1.000000000000e-02+j0.000000000000e+00
1.000000000000e-02+j0.000000000000e+00
1.000000000000e-02+j0.000000000000e+00
1.000000000000e-02+j0.000000000000e+00
1.000000000000e-02+j0.000000000000e+00
1.000000000000e-02+j0.000000000000e+00
1.000000000000e-02+j0.000000000000e+00
1.000000000000e-02+j0.000000000000e+00
1.000000000000e-02+j0.000000000000e+00
1.000000000000e-02+j0.000000000000e+00
1.000000000000e-02+j0.000000000000e+00
1.000000000000e-02+j0.000000000000e+00
1.000000000000e-02+j0.000000000000e+00
1.000000000000e-02+j0.000000000000e+00
1.000000000000e-02+j0.000000000000e+00
1.000000000000e-02+j0.000000000000e+00
1.000000000000e-02+j0.000000000000e+00
1.000000000000e-02+j0.000000000000e+00
1.000000000000e-02+j0.000000000000e+00
1.000000000000e-02+j0.000000000000e+00
1.000000000000e-02+j0.000000000000e+00
1.000000000000e-02+j0.000000000000e+00
1.000000000000e-02+j0.000000000000e+00
1.000000000000e-02+j0.000000000000e+00
1.000000000000e-02+j0.000000000000e+00
1.000000000000e-02+j0.000000000000e+00
1.000000000000e-02+j0.000000000000e+00
1.000000000000e-02+j0.000000000000e+00
1.000000000000e-02+j0.000000000000e+00
1.000000000000e-02+j0.000000000000e+00
1.000000000000e-02+j0.000000000000e+00
1.000000000000e-02+j0.000000000000e+00
1.000000000000e-02+j0.000000000000e+00
1.000000000000e-02+j0.000000000000e+00
1.000000000000e-02+j0.000000000000e+00
1.000000000000e-02+j0.000000000000e+00
1.000000000000e-02+j0.000000000000e+00
1.000000000000e-02+j0.000000000000e+00
1.000000000000e-02+j0.000000000000e+00
1.000000000000e-02+j0.000000000000e+00
1.000000000000e-02+j0.000000000000e+00
1.000000000000e-02+j0.000000000000e+00
1.000000000000e-02+j0.000000000000e+00
1.000000000000e-02+j0.000000000000e+00
1.000000000000e-02+j0.000000000000e+00
1.000000000000e-02+j0.000000000000e+00
1.000000000000e-02+j0.000000000000e+00
1.000000000000e-02+j0.000000000000e+00
1.000000000000e-02+j0.000000000000e+00
1.000000000000e-02+j0.000000000000e+00
1.000000000000e-02+j0.000000000000e+00
1.000000000000e-02+j0.000000000000e+00
1.000000000000e-02+j0.000000000000e+00
1.000000000000e-02+j0.000000000000e+00
1.000000000000e-02+j0.000000000000e+00
1.000000000000e-02+j0.000000000000e+00
1.000000000000e-02+j0.000000000000e+00
1.000000000000e-02+j0.000000000000e+00
1.000000000000e-02+j0.000000000000e+00
1.000000000000e-02+j0.000000000000e+00
1.000000000000e-02+j0.000000000000e+00
</dep>
<dep ac.i(pr1) frequency>
1.593758568916e-08+j6.418292697775e-08
2.342066682813e-08+j7.667649451564e-08
3.388974791001e-08+j9.030256909081e-08
4.800914765271e-08+j1.042997509941e-07
6.613874903219e-08+j1.174582709947e-07
8.800399634966e-08+j1.282638807040e-07
1.124676653860e-07+j1.353113870931e-07
1.376438146469e-07+j1.378719263187e-07
1.614220262866e-07+j1.362800855711e-07
1.821308944347e-07+j1.318549758361e-07
1.989375315761e-07+j1.264229386642e-07
2.118245182509e-07+j1.217872732243e-07
2.213013203008e-07+j1.194211451808e-07
2.280885008207e-07+j1.204204643971e-07
2.329052450732e-07+j1.256101019129e-07
2.363733066387e-07+j1.356940731460e-07
2.390001936156e-07+j1.513922989843e-07
2.412033883732e-07+j1.735493887047e-07
2.433523520149e-07+j2.032209449227e-07
2.458190219804e-07+j2.417479599623e-07
2.490367644269e-07+j2.908286480009e-07
2.535736188737e-07+j3.525940833929e-07
2.602302300339e-07+j4.296906523810e-07
2.701776622754e-07+j5.253682276855e-07
2.851562734579e-07+j6.435667826433e-07
3.077642137525e-07+j7.889834945056e-07
3.418718385795e-07+j9.670834353316e-07
3.932023728867e-07+j1.183984009487e-06
4.701090665139e-07+j1.446089136476e-06
5.845315857575e-07+j1.759268703248e-06
7.529851816560e-07+j2.127281957177e-06
9.971586999461e-07+j2.549087955922e-06
1.343221152833e-06+j3.014837225762e-06
1.818374282256e-06+j3.501018099986e-06
2.443121929126e-06+j3.966768505407e-06
3.219386953187e-06+j4.355390308355e-06
4.118874731712e-06+j4.605409162569e-06
5.080567052410e-06+j4.670701705927e-06
6.024229952287e-06+j4.540064136131e-06
6.875382536118e-06+j4.242636669861e-06
7.586697062569e-06+j3.834942596519e-06
8.144207933162e-06+j3.379403439089e-06
8.559599767719e-06+j2.927611351715e-06
8.857572782281e-06+j2.513878335840e-06
9.065547389515e-06+j2.156658416389e-06
9.207950994438e-06+j1.863195063236e-06
9.304185825764e-06+j1.634219829395e-06
9.368650504478e-06+j1.467480867600e-06
9.411587833013e-06+j1.360020731598e-06
9.440091365142e-06+j1.309523231056e-06
9.458991403968e-06+j1.315080582531e-06
9.471544642784e-06+j1.377647547852e-06
9.479938002316e-06+j1.500358188972e-06
9.485644357808e-06+j1.688814333103e-06
9.489669937890e-06+j1.951413733743e-06
9.492726931955e-06+j2.299763514920e-06
