<Qucs Dataset 0.0.22>
<indep frequency 100>
1.000000000000e+00
1.232846739442e+00
1.519911082953e+00
1.873817422860e+00
2.310129700083e+00
2.848035868436e+00
3.511191734215e+00
4.328761281083e+00
5.336699231206e+00
6.579332246576e+00
8.111308307897e+00
1.000000000000e+01
1.232846739442e+01
1.519911082953e+01
1.873817422860e+01
2.310129700083e+01
2.848035868436e+01
3.511191734215e+01
4.328761281083e+01
5.336699231206e+01
6.579332246576e+01
8.111308307897e+01
1.000000000000e+02
1.232846739442e+02
1.519911082953e+02
1.873817422860e+02
2.310129700083e+02
2.848035868436e+02
3.511191734215e+02
4.328761281083e+02
5.336699231206e+02
6.579332246576e+02
8.111308307897e+02
1.000000000000e+03
1.232846739442e+03
1.519911082953e+03
1.873817422860e+03
2.310129700083e+03
2.848035868436e+03
3.511191734215e+03
4.328761281083e+03
5.336699231206e+03
6.579332246576e+03
8.111308307897e+03
1.000000000000e+04
1.232846739442e+04
1.519911082953e+04
1.873817422860e+04
2.310129700083e+04
2.848035868436e+04
3.511191734215e+04
4.328761281083e+04
5.336699231206e+04
6.579332246576e+04
8.111308307897e+04
1.000000000000e+05
1.232846739442e+05
1.519911082953e+05
1.873817422860e+05
2.310129700083e+05
2.848035868436e+05
3.511191734215e+05
4.328761281083e+05
5.336699231206e+05
6.579332246576e+05
8.111308307897e+05
1.000000000000e+06
1.232846739442e+06
1.519911082953e+06
1.873817422860e+06
2.310129700083e+06
2.848035868436e+06
3.511191734215e+06
4.328761281083e+06
5.336699231206e+06
6.579332246576e+06
8.111308307897e+06
1.000000000000e+07
1.232846739442e+07
1.519911082953e+07
1.873817422860e+07
2.310129700083e+07
2.848035868436e+07
3.511191734215e+07
4.328761281083e+07
5.336699231206e+07
6.579332246576e+07
8.111308307897e+07
1.000000000000e+08
1.232846739442e+08
1.519911082953e+08
1.873817422860e+08
2.310129700083e+08
2.848035868436e+08
3.511191734215e+08
4.328761281083e+08
5.336699231206e+08
6.579332246576e+08
8.111308307897e+08
1.000000000000e+09
</indep>
<dep ac.v(b) frequency>
2.005691694547e-02+j9.811307797580e-02
2.986194070939e-02+j1.184872615567e-01
4.402060572712e-02+j1.416773929738e-01
6.397886282012e-02+j1.670213417319e-01
9.117651407014e-02+j1.930675762999e-01
1.265795210062e-01+j2.174106015790e-01
1.700125295737e-01+j2.368585727951e-01
2.195850576983e-01+j2.481429105846e-01
2.717102958480e-01+j2.490554745098e-01
3.220005320909e-01+j2.394073588587e-01
3.666493912901e-01+j2.211173310162e-01
4.034565567549e-01+j1.973601661729e-01
4.319887854204e-01+j1.714060338737e-01
4.530695119735e-01+j1.458174103515e-01
4.680985869360e-01+j1.222004434069e-01
4.785426597102e-01+j1.013320945735e-01
4.856721349368e-01+j8.341813129598e-02
4.904798631150e-01+j6.833282267693e-02
4.936952816674e-01+j5.579021879673e-02
4.958339053422e-01+j4.544919734737e-02
4.972511113156e-01+j3.697061445105e-02
4.981879650743e-01+j3.004450458626e-02
4.988062800596e-01+j2.440027028250e-02
4.992139278116e-01+j1.980798629702e-02
4.994824964089e-01+j1.607551208313e-02
4.996593542739e-01+j1.304396047089e-02
4.997757832642e-01+j1.058282389411e-02
4.998524153633e-01+j8.585370955841e-03
4.999028469859e-01+j6.964561680870e-03
4.999360331766e-01+j5.649545724081e-03
4.999578698773e-01+j4.582720876644e-03
4.999722380087e-01+j3.717293019004e-03
4.999816917301e-01+j3.015267987906e-03
4.999879118425e-01+j2.445807255233e-03
4.999920043456e-01+j1.983885909293e-03
4.999946969758e-01+j1.609199691882e-03
4.999964685626e-01+j1.305276107875e-03
4.999976341552e-01+j1.058752162000e-03
4.999984010402e-01+j8.587878380129e-04
4.999989056007e-01+j6.965899955409e-04
4.999992375683e-01+j5.650259970383e-04
4.999994559811e-01+j4.583102067133e-04
4.999995996822e-01+j3.717496457155e-04
4.999996942280e-01+j3.015376561696e-04
4.999997564329e-01+j2.445865202096e-04
4.999997973595e-01+j1.983916838447e-04
4.999998242865e-01+j1.609216203354e-04
4.999998420027e-01+j1.305284926270e-04
4.999998536587e-01+j1.058756876367e-04
4.999998613276e-01+j8.587903640963e-05
4.999998663733e-01+j6.965913561671e-05
4.999998696930e-01+j5.650267386118e-05
4.999998718771e-01+j4.583106215136e-05
4.999998733141e-01+j3.717498905613e-05
4.999998742596e-01+j3.015378157827e-05
4.999998748816e-01+j2.445866410766e-05
4.999998752909e-01+j1.983917923434e-05
4.999998755601e-01+j1.609217324779e-05
4.999998757373e-01+j1.305286193436e-05
4.999998758539e-01+j1.058758377015e-05
4.999998759306e-01+j8.587921813037e-06
4.999998759810e-01+j6.965935789681e-06
4.999998760142e-01+j5.650294696248e-06
4.999998760361e-01+j4.583139834372e-06
4.999998760505e-01+j3.717540326280e-06
4.999998760600e-01+j3.015429208855e-06
4.999998760663e-01+j2.445929341112e-06
4.999998760704e-01+j1.983995502563e-06
4.999998760733e-01+j1.609312965247e-06
4.999998760752e-01+j1.305404101298e-06
4.999998760767e-01+j1.058903736803e-06
4.999998760779e-01+j8.589713837209e-07
4.999998760791e-01+j6.968145011722e-07
4.999998760805e-01+j5.653018201287e-07
4.999998760824e-01+j4.586497261708e-07
4.999998760850e-01+j3.721679076330e-07
4.999998760888e-01+j3.020530823299e-07
4.999998760945e-01+j2.452217295319e-07
4.999998761032e-01+j1.991744675497e-07
4.999998761163e-01+j1.618861058746e-07
4.999998761361e-01+j1.317165241947e-07
4.999998761662e-01+j1.073384359977e-07
4.999998762118e-01+j8.767881794539e-08
4.999998762807e-01+j7.187135322444e-08
4.999998763846e-01+j5.921766272772e-08
4.999998765407e-01+j4.915538765986e-08
4.999998767736e-01+j4.123134239826e-08
4.999998771182e-01+j3.507799479297e-08
4.999998776211e-01+j3.039154270892e-08
4.999998783411e-01+j2.691012151504e-08
4.999998793434e-01+j2.439182284998e-08
4.999998806863e-01+j2.259512062745e-08
4.999998823959e-01+j2.126908555672e-08
4.999998844361e-01+j2.016415973674e-08
4.999998866915e-01+j1.906843607720e-08
4.999998889837e-01+j1.785515362285e-08
4.999998911239e-01+j1.650930971545e-08
4.999998929712e-01+j1.511086936943e-08
4.999998944642e-01+j1.378600398508e-08
4.999998956139e-01+j1.265882765339e-08
</dep>
<dep ac.v(uin) frequency>
5.000000000000e-01+j0.000000000000e+00
5.000000000000e-01+j0.000000000000e+00
5.000000000000e-01+j0.000000000000e+00
5.000000000000e-01+j0.000000000000e+00
5.000000000000e-01+j0.000000000000e+00
5.000000000000e-01+j0.000000000000e+00
5.000000000000e-01+j0.000000000000e+00
5.000000000000e-01+j0.000000000000e+00
5.000000000000e-01+j0.000000000000e+00
5.000000000000e-01+j0.000000000000e+00
5.000000000000e-01+j0.000000000000e+00
5.000000000000e-01+j0.000000000000e+00
5.000000000000e-01+j0.000000000000e+00
5.000000000000e-01+j0.000000000000e+00
5.000000000000e-01+j0.000000000000e+00
5.000000000000e-01+j0.000000000000e+00
5.000000000000e-01+j0.000000000000e+00
5.000000000000e-01+j0.000000000000e+00
5.000000000000e-01+j0.000000000000e+00
5.000000000000e-01+j0.000000000000e+00
5.000000000000e-01+j0.000000000000e+00
5.000000000000e-01+j0.000000000000e+00
5.000000000000e-01+j0.000000000000e+00
5.000000000000e-01+j0.000000000000e+00
5.000000000000e-01+j0.000000000000e+00
5.000000000000e-01+j0.000000000000e+00
5.000000000000e-01+j0.000000000000e+00
5.000000000000e-01+j0.000000000000e+00
5.000000000000e-01+j0.000000000000e+00
5.000000000000e-01+j0.000000000000e+00
5.000000000000e-01+j0.000000000000e+00
5.000000000000e-01+j0.000000000000e+00
5.000000000000e-01+j0.000000000000e+00
5.000000000000e-01+j0.000000000000e+00
5.000000000000e-01+j0.000000000000e+00
5.000000000000e-01+j0.000000000000e+00
5.000000000000e-01+j0.000000000000e+00
5.000000000000e-01+j0.000000000000e+00
5.000000000000e-01+j0.000000000000e+00
5.000000000000e-01+j0.000000000000e+00
5.000000000000e-01+j0.000000000000e+00
5.000000000000e-01+j0.000000000000e+00
5.000000000000e-01+j0.000000000000e+00
5.000000000000e-01+j0.000000000000e+00
5.000000000000e-01+j0.000000000000e+00
5.000000000000e-01+j0.000000000000e+00
5.000000000000e-01+j0.000000000000e+00
5.000000000000e-01+j0.000000000000e+00
5.000000000000e-01+j0.000000000000e+00
5.000000000000e-01+j0.000000000000e+00
5.000000000000e-01+j0.000000000000e+00
5.000000000000e-01+j0.000000000000e+00
5.000000000000e-01+j0.000000000000e+00
5.000000000000e-01+j0.000000000000e+00
5.000000000000e-01+j0.000000000000e+00
5.000000000000e-01+j0.000000000000e+00
5.000000000000e-01+j0.000000000000e+00
5.000000000000e-01+j0.000000000000e+00
5.000000000000e-01+j0.000000000000e+00
5.000000000000e-01+j0.000000000000e+00
5.000000000000e-01+j0.000000000000e+00
5.000000000000e-01+j0.000000000000e+00
5.000000000000e-01+j0.000000000000e+00
5.000000000000e-01+j0.000000000000e+00
5.000000000000e-01+j0.000000000000e+00
5.000000000000e-01+j0.000000000000e+00
5.000000000000e-01+j0.000000000000e+00
5.000000000000e-01+j0.000000000000e+00
5.000000000000e-01+j0.000000000000e+00
5.000000000000e-01+j0.000000000000e+00
5.000000000000e-01+j0.000000000000e+00
5.000000000000e-01+j0.000000000000e+00
5.000000000000e-01+j0.000000000000e+00
5.000000000000e-01+j0.000000000000e+00
5.000000000000e-01+j0.000000000000e+00
5.000000000000e-01+j0.000000000000e+00
5.000000000000e-01+j0.000000000000e+00
5.000000000000e-01+j0.000000000000e+00
5.000000000000e-01+j0.000000000000e+00
5.000000000000e-01+j0.000000000000e+00
5.000000000000e-01+j0.000000000000e+00
5.000000000000e-01+j0.000000000000e+00
5.000000000000e-01+j0.000000000000e+00
5.000000000000e-01+j0.000000000000e+00
5.000000000000e-01+j0.000000000000e+00
5.000000000000e-01+j0.000000000000e+00
5.000000000000e-01+j0.000000000000e+00
5.000000000000e-01+j0.000000000000e+00
5.000000000000e-01+j0.000000000000e+00
5.000000000000e-01+j0.000000000000e+00
5.000000000000e-01+j0.000000000000e+00
5.000000000000e-01+j0.000000000000e+00
5.000000000000e-01+j0.000000000000e+00
5.000000000000e-01+j0.000000000000e+00
5.000000000000e-01+j0.000000000000e+00
5.000000000000e-01+j0.000000000000e+00
5.000000000000e-01+j0.000000000000e+00
5.000000000000e-01+j0.000000000000e+00
5.000000000000e-01+j0.000000000000e+00
5.000000000000e-01+j0.000000000000e+00
</dep>
<dep ac.i(pr1) frequency>
1.475514161559e-07+j7.217898845656e-07
2.196833966462e-07+j8.716771285416e-07
3.238435265367e-07+j1.042280694933e-06
4.706691381739e-07+j1.228729629696e-06
6.707523298710e-07+j1.420345666424e-06
9.311993279712e-07+j1.599432605209e-06
1.250720116708e-06+j1.742509393424e-06
1.615407109584e-06+j1.825530512972e-06
1.998873458243e-06+j1.832251760689e-06
2.368840367745e-06+j1.761283771350e-06
2.697305725732e-06+j1.626742641660e-06
2.968082605537e-06+j1.451984558319e-06
3.177983796090e-06+j1.261067611612e-06
3.333067005786e-06+j1.072843801064e-06
3.443630423897e-06+j8.991299526821e-07
3.520463654670e-06+j7.456431006852e-07
3.572912601286e-06+j6.138984950691e-07
3.608281302425e-06+j5.029730214184e-07
3.631935962924e-06+j4.107653213407e-07
3.647669036595e-06+j3.347686820658e-07
3.658094903594e-06+j2.724915972726e-07
3.664986994706e-06+j2.216580187986e-07
3.669535712349e-06+j1.802825056298e-07
3.672534628069e-06+j1.466800489510e-07
3.674510389229e-06+j1.194451140428e-07
3.675811468028e-06+j9.741865565938e-08
3.676667993680e-06+j7.965269574448e-08
3.677231748169e-06+j6.537699058448e-08
3.677602755375e-06+j5.396963784676e-08
3.677846894321e-06+j4.493212519914e-08
3.678007539346e-06+j3.786868944744e-08
3.678113241035e-06+j3.246959716236e-08
3.678182789511e-06+j2.849788941250e-08
3.678228549973e-06+j2.577915635087e-08
3.678258659100e-06+j2.419397144600e-08
3.678278470954e-06+j2.367269509690e-08
3.678291508668e-06+j2.419244178469e-08
3.678300090797e-06+j2.577608949188e-08
3.678305743571e-06+j2.849329428980e-08
3.678309472280e-06+j3.246355816334e-08
3.678311940043e-06+j3.786148683017e-08
3.678313585733e-06+j4.492446976326e-08
3.678314702024e-06+j5.396312069017e-08
3.678315487443e-06+j6.537493799651e-08
3.678316081670e-06+j7.966178593470e-08
3.678316590386e-06+j9.745196549832e-08
3.678317104062e-06+j1.195278456282e-07
3.678317714053e-06+j1.468602699260e-07
3.678318528843e-06+j1.806512520100e-07
3.678319693337e-06+j2.223868371573e-07
3.678321414633e-06+j2.739024549600e-07
3.678323998855e-06+j3.374636370447e-07
3.678327905592e-06+j4.158656496189e-07
3.678333829634e-06+j5.125564224291e-07
3.678342824539e-06+j6.317881802246e-07
3.678356489999e-06+j7.788044450649e-07
3.678377256336e-06+j9.600706332950e-07
3.678408816724e-06+j1.183558388127e-06
3.678456783994e-06+j1.459096151790e-06
3.678529688840e-06+j1.798801394011e-06
3.678640496947e-06+j2.217613504149e-06
3.678808914846e-06+j2.733950780369e-06
3.679064894563e-06+j3.370520405000e-06
3.679453960312e-06+j4.155317020073e-06
3.680045304478e-06+j5.122853805249e-06
3.680944092537e-06+j6.315680174149e-06
3.682310164864e-06+j7.786252789101e-06
3.684386460480e-06+j9.599242093409e-06
3.687542215574e-06+j1.183437564027e-05
3.692338614324e-06+j1.458994296770e-05
3.699628555976e-06+j1.798711560566e-05
3.710708254203e-06+j2.217527116932e-05
3.727547567473e-06+j2.733855375034e-05
3.753139879424e-06+j3.370395550417e-05
3.792033421061e-06+j4.155126807910e-05
3.851137759971e-06+j5.122532886945e-05
3.940947115041e-06+j6.315107698008e-05
4.077393971241e-06+j7.785203679222e-05
4.284653234621e-06+j9.597295945926e-05
4.599373959124e-06+j1.183074644037e-04
5.077041441771e-06+j1.458316113650e-04
5.801487071602e-06+j1.797443533307e-04
6.898976974193e-06+j2.215156862615e-04
8.558795308303e-06+j2.729428718907e-04
1.106265982952e-05+j3.362141193155e-04
1.482527867831e-05+j4.139772226581e-04
2.044695827643e-05+j5.094075219578e-04
2.877452231945e-05+j6.262652910159e-04
4.095573132485e-05+j7.689290944780e-04
5.845134139153e-05+j9.423950582724e-04
8.293909019608e-05+j1.152256556051e-03
1.160246397481e-04+j1.404744823717e-03
1.587202376430e-04+j1.707020691695e-03
2.108323724619e-04+j2.067986163425e-03
2.706777323285e-04+j2.499752795583e-03
3.356318092891e-04+j3.019465680315e-03
4.035814593817e-04+j3.650776570695e-03
4.746707346622e-04+j4.424481252367e-03
5.526017007295e-04+j5.378614299018e-03
6.453776304949e-04+j6.558772582728e-03
</dep>
<dep ac.i(pr3) frequency>
1.993511455436e-05+j9.751725323518e-05
2.968059400533e-05+j1.177677077182e-04
4.375327575561e-05+j1.408170092451e-04
6.359032960272e-05+j1.660070483315e-04
9.062281394480e-05+j1.918951083611e-04
1.258108241838e-04+j2.160903024153e-04
1.689800711616e-04+j2.354201692738e-04
2.182515533939e-04+j2.466359791237e-04
2.700602434589e-04+j2.475430012048e-04
3.200450752849e-04+j2.379534769991e-04
3.644227892316e-04+j2.197745215301e-04
4.010064307732e-04+j1.961616300960e-04
4.293653878594e-04+j1.703651130352e-04
4.503180945922e-04+j1.449318850804e-04
4.652559004294e-04+j1.214583401591e-04
4.756365480501e-04+j1.007167214454e-04
4.827227271344e-04+j8.291154679316e-05
4.875012587621e-04+j6.791784885017e-05
4.906971506011e-04+j5.545141422645e-05
4.928227867626e-04+j4.517319219709e-05
4.942313862748e-04+j3.674609845337e-05
4.951625506733e-04+j2.986204984829e-05
4.957771107323e-04+j2.425209221112e-05
4.961822829059e-04+j1.968769660427e-05
4.964492205298e-04+j1.597788932750e-05
4.966250043658e-04+j1.296474811682e-05
4.967407263018e-04+j1.051855796969e-05
4.968168930266e-04+j8.533235666826e-06
4.968670183862e-04+j6.922269831491e-06
4.969000030426e-04+j5.615240404431e-06
4.969217071325e-04+j4.554895014322e-06
4.969359880086e-04+j3.694723750026e-06
4.969453843191e-04+j2.996963224230e-06
4.969515666578e-04+j2.430962239899e-06
4.969556343077e-04+j1.971847923789e-06
4.969583105861e-04+j1.599439403801e-06
4.969600714143e-04+j1.297364320260e-06
4.969612299285e-04+j1.052340953290e-06
4.969619921565e-04+j8.535952693077e-07
4.969624936529e-04+j6.923877158782e-07
4.969628236047e-04+j5.616292033537e-07
4.969630406913e-04+j4.555695178668e-07
4.969631835201e-04+j3.695445337211e-07
4.969632774922e-04+j2.997711460132e-07
4.969633393200e-04+j2.431809253088e-07
4.969633799993e-04+j1.972851896801e-07
4.969634067645e-04+j1.600655660513e-07
4.969634243757e-04+j1.298852310726e-07
4.969634359649e-04+j1.054169297514e-07
4.969634435933e-04+j8.558460714642e-08
4.969634486176e-04+j6.951608669712e-08
4.969634519311e-04+j5.650471434333e-08
4.969634541233e-04+j4.597828177053e-08
4.969634555839e-04+j3.747386217099e-08
4.969634565729e-04+j3.061745189647e-08
4.969634572660e-04+j2.510752271177e-08
4.969634577865e-04+j2.070176132752e-08
4.969634582269e-04+j1.720641305380e-08
4.969634586657e-04+j1.446776093597e-08
4.969634591808e-04+j1.236536564405e-08
4.969634598638e-04+j1.080676881751e-08
4.969634608363e-04+j9.723426920734e-09
4.969634622711e-04+j9.067696769406e-09
4.969634644235e-04+j8.810740119780e-09
4.969634676762e-04+j8.941255096614e-09
4.969634726076e-04+j9.464978534139e-09
4.969634800949e-04+j1.040493708750e-08
4.969634914695e-04+j1.180245767691e-08
4.969635087541e-04+j1.371898080001e-08
4.969635350226e-04+j1.623875476889e-08
4.969635749458e-04+j1.947252619355e-08
4.969636356226e-04+j2.356238308320e-08
4.969637278403e-04+j2.868795245004e-08
4.969638679914e-04+j3.507420417731e-08
4.969640809824e-04+j4.300116541376e-08
4.969644046497e-04+j5.281589984569e-08
4.969648964570e-04+j6.494714238396e-08
4.969656436414e-04+j7.992297821462e-08
4.969667785588e-04+j9.839186857010e-08
4.969685018336e-04+j1.211470633801e-07
4.969711171409e-04+j1.491538334334e-07
4.969750831524e-04+j1.835776911688e-07
4.969810903834e-04+j2.258092969868e-07
4.969901732117e-04+j2.774771231369e-07
4.970038693696e-04+j3.404306637006e-07
4.970244384402e-04+j4.166629273040e-07
4.970551419107e-04+j5.081190134966e-07
4.971005591554e-04+j6.163082144772e-07
4.971668478277e-04+j7.416106768569e-07
4.972617326619e-04+j8.821820382247e-07
4.973938298374e-04+j1.032492112121e-06
4.975707956832e-04+j1.181903242298e-06
4.977960406184e-04+j1.314312870743e-06
4.980647718527e-04+j1.410322050645e-06
4.983617038598e-04+j1.452615007724e-06
4.986632260382e-04+j1.432691479036e-06
4.989442630698e-04+j1.354739143567e-06
4.991860452936e-04+j1.233692458216e-06
4.993801365691e-04+j1.088998572117e-06
4.995274700308e-04+j9.383828380187e-07
</dep>
<dep ac.i(pr4) frequency>
-4.011383389094e-06-j1.962261559516e-05
-5.972388141878e-06-j2.369745231135e-05
-8.804121145425e-06-j2.833547859477e-05
-1.279577256402e-05-j3.340426834638e-05
-1.823530281403e-05-j3.861351525998e-05
-2.531590420124e-05-j4.348212031581e-05
-3.400250591473e-05-j4.737171455901e-05
-4.391701153966e-05-j4.962858211691e-05
-5.434205916959e-05-j4.981109490197e-05
-6.440010641817e-05-j4.788147177174e-05
-7.332987825803e-05-j4.422346620324e-05
-8.069131135099e-05-j3.947203323458e-05
-8.639775708408e-05-j3.428120677474e-05
-9.061390239469e-05-j2.916348207029e-05
-9.361971738720e-05-j2.444008868137e-05
-9.570853194204e-05-j2.026641891470e-05
-9.713442698735e-05-j1.668362625920e-05
-9.809597262299e-05-j1.366656453539e-05
-9.873905633347e-05-j1.115804375935e-05
-9.916678106843e-05-j9.089839469474e-06
-9.945022226312e-05-j7.394122890210e-06
-9.963759301487e-05-j6.008900917252e-06
-9.976125601192e-05-j4.880054056501e-06
-9.984278556233e-05-j3.961597259404e-06
-9.989649928178e-05-j3.215102416626e-06
-9.993187085479e-05-j2.608792094177e-06
-9.995515665284e-05-j2.116564778822e-06
-9.997048307266e-05-j1.717074191168e-06
-9.998056939718e-05-j1.392912336174e-06
-9.998720663533e-05-j1.129909144816e-06
-9.999157397547e-05-j9.165441753288e-07
-9.999444760174e-05-j7.434586038008e-07
-9.999633834603e-05-j6.030535975812e-07
-9.999758236851e-05-j4.891614510466e-07
-9.999840086912e-05-j3.967771818587e-07
-9.999893939517e-05-j3.218399383763e-07
-9.999929371251e-05-j2.610552215751e-07
-9.999952683103e-05-j2.117504324000e-07
-9.999968020805e-05-j1.717575676026e-07
-9.999978112014e-05-j1.393179991082e-07
-9.999984751367e-05-j1.130051994077e-07
-9.999989119622e-05-j9.166204134265e-08
-9.999991993645e-05-j7.434992914311e-08
-9.999993884561e-05-j6.030753123393e-08
-9.999995128657e-05-j4.891730404193e-08
-9.999995947190e-05-j3.967833676893e-08
-9.999996485730e-05-j3.218432406708e-08
-9.999996840053e-05-j2.610569852540e-08
-9.999997073175e-05-j2.117513752735e-08
-9.999997226553e-05-j1.717580728193e-08
-9.999997327465e-05-j1.393182712334e-08
-9.999997393859e-05-j1.130053477224e-08
-9.999997437542e-05-j9.166212430272e-09
-9.999997466282e-05-j7.434997811225e-09
-9.999997485191e-05-j6.030756315654e-09
-9.999997497632e-05-j4.891732821532e-09
-9.999997505818e-05-j3.967835846868e-09
