<Qucs Dataset 0.0.22>
<indep frequency 100>
1.000000000000e+00
1.232846739442e+00
1.519911082953e+00
1.873817422860e+00
2.310129700083e+00
2.848035868436e+00
3.511191734215e+00
4.328761281083e+00
5.336699231206e+00
6.579332246576e+00
8.111308307897e+00
1.000000000000e+01
1.232846739442e+01
1.519911082953e+01
1.873817422860e+01
2.310129700083e+01
2.848035868436e+01
3.511191734215e+01
4.328761281083e+01
5.336699231206e+01
6.579332246576e+01
8.111308307897e+01
1.000000000000e+02
1.232846739442e+02
1.519911082953e+02
1.873817422860e+02
2.310129700083e+02
2.848035868436e+02
3.511191734215e+02
4.328761281083e+02
5.336699231206e+02
6.579332246576e+02
8.111308307897e+02
1.000000000000e+03
1.232846739442e+03
1.519911082953e+03
1.873817422860e+03
2.310129700083e+03
2.848035868436e+03
3.511191734215e+03
4.328761281083e+03
5.336699231206e+03
6.579332246576e+03
8.111308307897e+03
1.000000000000e+04
1.232846739442e+04
1.519911082953e+04
1.873817422860e+04
2.310129700083e+04
2.848035868436e+04
3.511191734215e+04
4.328761281083e+04
5.336699231206e+04
6.579332246576e+04
8.111308307897e+04
1.000000000000e+05
1.232846739442e+05
1.519911082953e+05
1.873817422860e+05
2.310129700083e+05
2.848035868436e+05
3.511191734215e+05
4.328761281083e+05
5.336699231206e+05
6.579332246576e+05
8.111308307897e+05
1.000000000000e+06
1.232846739442e+06
1.519911082953e+06
1.873817422860e+06
2.310129700083e+06
2.848035868436e+06
3.511191734215e+06
4.328761281083e+06
5.336699231206e+06
6.579332246576e+06
8.111308307897e+06
1.000000000000e+07
1.232846739442e+07
1.519911082953e+07
1.873817422860e+07
2.310129700083e+07
2.848035868436e+07
3.511191734215e+07
4.328761281083e+07
5.336699231206e+07
6.579332246576e+07
8.111308307897e+07
1.000000000000e+08
1.232846739442e+08
1.519911082953e+08
1.873817422860e+08
2.310129700083e+08
2.848035868436e+08
3.511191734215e+08
4.328761281083e+08
5.336699231206e+08
6.579332246576e+08
8.111308307897e+08
1.000000000000e+09
</indep>
<dep ac.v(b) frequency>
6.454629348634e-04+j2.459126313899e-03
9.495412973081e-04+j2.933493610450e-03
1.375826249645e-03+j3.446595857648e-03
1.952181167883e-03+j3.965587150041e-03
2.694450900416e-03+j4.438468832107e-03
3.592800901634e-03+j4.799456346090e-03
4.601824802683e-03+j4.985473787944e-03
5.644428955454e-03+j4.959445057765e-03
6.632888899410e-03+j4.726809563464e-03
7.496449683869e-03+j4.332964362552e-03
8.198640132384e-03+j3.843650852494e-03
8.737039858443e-03+j3.322347100309e-03
9.131553428717e-03+j2.816488716134e-03
9.411131293874e-03+j2.354456169024e-03
9.604598253561e-03+j1.949015341655e-03
9.736281869271e-03+j1.602572552296e-03
9.824907102386e-03+j1.311723619645e-03
9.884101374123e-03+j1.070387284665e-03
9.923437612756e-03+j8.716780596888e-04
9.949489350197e-03+j7.089003952070e-04
9.966704345857e-03+j5.760054772232e-04
9.978063173736e-03+j4.677480650596e-04
9.985550647885e-03+j3.796894665935e-04
9.990483034371e-03+j3.081298985335e-04
9.993730872351e-03+j2.500148801196e-04
9.995868884220e-03+j2.028381452077e-04
9.997276051996e-03+j1.645514255424e-04
9.998202090414e-03+j1.334850930978e-04
9.998811455380e-03+j1.082804709063e-04
9.999212417328e-03+j8.783314903307e-05
9.999476241045e-03+j7.124605420327e-05
9.999649827024e-03+j5.779087402106e-05
9.999764038291e-03+j4.687649493645e-05
9.999839183101e-03+j3.802325601806e-05
9.999888623984e-03+j3.084198781716e-05
9.999921153050e-03+j2.501696872898e-05
9.999942555118e-03+j2.029207826487e-05
9.999956636300e-03+j1.645955374503e-05
9.999965900799e-03+j1.335086420755e-05
9.999971996230e-03+j1.082930459377e-05
9.999976006621e-03+j8.783986869922e-06
9.999978645192e-03+j7.124965083531e-06
9.999980381197e-03+j5.779280635585e-06
9.999981523372e-03+j4.687754206483e-06
9.999982274847e-03+j3.802383443017e-06
9.999982769268e-03+j3.084232064761e-06
9.999983094565e-03+j2.501717612169e-06
9.999983308588e-03+j2.029222564689e-06
9.999983449403e-03+j1.645967764709e-06
9.999983542050e-03+j1.335098611503e-06
9.999983603008e-03+j1.082943842604e-06
9.999983643116e-03+j8.784143079840e-07
9.999983669509e-03+j7.125152978194e-07
9.999983686880e-03+j5.779509778834e-07
9.999983698319e-03+j4.688035369502e-07
9.999983705859e-03+j3.802729360834e-07
9.999983710842e-03+j3.084658147137e-07
9.999983714153e-03+j2.502242701610e-07
9.999983716382e-03+j2.029869807653e-07
9.999983717926e-03+j1.646765651661e-07
9.999983719058e-03+j1.336082240564e-07
9.999983719980e-03+j1.084156466748e-07
9.999983720856e-03+j8.799092353103e-08
9.999983721841e-03+j7.143582276987e-08
9.999983723112e-03+j5.802228723754e-08
9.999983724893e-03+j4.716041465019e-08
9.999983727501e-03+j3.837251203913e-08
9.999983731399e-03+j3.127208220293e-08
9.999983737277e-03+j2.554681570200e-08
9.999983746175e-03+j2.094483608046e-08
9.999983759662e-03+j1.726358533152e-08
9.999983780108e-03+j1.434084589791e-08
9.999983811078e-03+j1.204747697883e-08
9.999983857922e-03+j1.028149603750e-08
9.999983928605e-03+j8.963156678768e-09
9.999984034871e-03+j8.030653030188e-09
9.999984193751e-03+j7.436007816570e-09
9.999984429333e-03+j7.140575243433e-09
9.999984774396e-03+j7.109451951050e-09
9.999985270845e-03+j7.304100667608e-09
9.999985967004e-03+j7.673047953253e-09
9.999986908875e-03+j8.142267692333e-09
9.999988123282e-03+j8.610146180028e-09
9.999989595441e-03+j8.955071012546e-09
9.999991252255e-03+j9.061437698388e-09
9.999992967849e-03+j8.857420858726e-09
9.999994597509e-03+j8.342449300942e-09
9.999996023170e-03+j7.583702995364e-09
9.999997182672e-03+j6.684154475437e-09
9.999998070146e-03+j5.745025788502e-09
9.999998717066e-03+j4.842496849474e-09
9.999999170413e-03+j4.022267933727e-09
9.999999477556e-03+j3.304947073871e-09
9.999999679117e-03+j2.694454849721e-09
9.999999807190e-03+j2.185144047308e-09
9.999999885979e-03+j1.766522349164e-09
9.999999933055e-03+j1.426084776602e-09
9.999999960589e-03+j1.151072907660e-09
9.999999976537e-03+j9.296239989832e-10
9.999999985801e-03+j7.514221921941e-10
</dep>
<dep ac.v(c) frequency>
-4.120361355082e-03-j1.237994244287e-02
-5.813914748940e-03-j1.449039911581e-02
-8.047987695948e-03-j1.668276983567e-02
-1.090624089681e-02-j1.881597186560e-02
-1.442601545572e-02-j2.068404738276e-02
-1.854815230062e-02-j2.203209412606e-02
-2.307594175876e-02-j2.261731207703e-02
-2.768751855120e-02-j2.230197066853e-02
-3.202018893104e-02-j2.112191934955e-02
-3.578405497778e-02-j1.927674826256e-02
-3.883376034609e-02-j1.704825279553e-02
-4.116687329746e-02-j1.470596978829e-02
-4.287402769778e-02-j1.244979693594e-02
-4.408271716634e-02-j1.039797945850e-02
-4.491862891499e-02-j8.602225769940e-03
-4.548737345497e-02-j7.070321188869e-03
-4.587005109452e-02-j5.785598335527e-03
-4.612560557069e-02-j4.720303203534e-03
-4.629541018992e-02-j3.843554931492e-03
-4.640786095527e-02-j3.125547217640e-03
-4.648216497496e-02-j2.539456519767e-03
-4.653119087162e-02-j2.062073850797e-03
-4.656350694421e-02-j1.673784872798e-03
-4.658479492931e-02-j1.358253637201e-03
-4.659881234682e-02-j1.102000100033e-03
-4.660803978737e-02-j8.939667820502e-04
-4.661411295626e-02-j7.251181453353e-04
-4.661810961761e-02-j5.880891385455e-04
-4.662073955254e-02-j4.768858667232e-04
-4.662247004596e-02-j3.866351289110e-04
-4.662360866835e-02-j3.133771245506e-04
-4.662435783586e-02-j2.538950592992e-04
-4.662485074844e-02-j2.055756795811e-04
-4.662517505254e-02-j1.662954164712e-04
-4.662538841719e-02-j1.343275666110e-04
-4.662552878523e-02-j1.082666603926e-04
-4.662562111908e-02-j8.696681529174e-05
-4.662568183925e-02-j6.949142944601e-05
-4.662572174424e-02-j5.507203846134e-05
-4.662574793085e-02-j4.307454490007e-05
-4.662576505615e-02-j3.297134542043e-05
-4.662577616576e-02-j2.431813507872e-05
-4.662578323546e-02-j1.673437162620e-05
-4.662578752256e-02-j9.886542242490e-06
-4.662578978948e-02-j3.473497487909e-06
-4.662579043939e-02+j2.786791926111e-06
-4.662578958786e-02+j9.169637731704e-06
-4.662578708347e-02+j1.595574138275e-05
-4.662578248081e-02+j2.344353845709e-05
-4.662577496133e-02+j3.196232274469e-05
-4.662576318773e-02+j4.188672725478e-05
-4.662574506617e-02+j5.365319875358e-05
-4.662571737383e-02+j6.777918968944e-05
-4.662567518582e-02+j8.488591118488e-05
-4.662561099932e-02+j1.057256460831e-04
-4.662551339931e-02+j1.312148202622e-04
-4.662536502859e-02+j1.624742830023e-04
-4.662513950123e-02+j2.008785569955e-04
-4.662479671068e-02+j2.481162076753e-04
-4.662427569866e-02+j3.062639561397e-04
-4.662348381790e-02+j3.778777316948e-04
-4.662228026404e-02+j4.661045598160e-04
-4.662045105456e-02+j5.748199929740e-04
-4.661767101970e-02+j7.087967371113e-04
-4.661344608047e-02+j8.739111476605e-04
-4.660702562767e-02+j1.077395303313e-03
-4.659726960367e-02+j1.328143152344e-03
-4.658244707240e-02+j1.637079382521e-03
-4.655993143462e-02+j2.017598212922e-03
-4.652574033844e-02+j2.486074646184e-03
-4.647384364634e-02+j3.062439490434e-03
-4.639512826771e-02+j3.770785895577e-03
-4.627586290852e-02+j4.639928397931e-03
-4.609545132369e-02+j5.703747485477e-03
-4.582321313723e-02+j7.000993286870e-03
-4.541392721027e-02+j8.573948061760e-03
-4.480201247817e-02+j1.046490939530e-02
-4.389471234261e-02+j1.270884283982e-02
-4.256585888786e-02+j1.531991826094e-02
-4.065419627968e-02+j1.826960516563e-02
-3.797394534160e-02+j2.145608399019e-02
-3.434860226570e-02+j2.467143086015e-02
-2.967615466188e-02+j2.758566484152e-02
-2.401585472574e-02+j2.977885948283e-02
-1.765300644753e-02+j3.084383477188e-02
-1.107808360639e-02+j3.053393002600e-02
-4.856383032081e-03+j2.887094193557e-02
5.468002212674e-04+j2.613367842948e-02
4.878476224577e-03+j2.273714776991e-02
8.099494769541e-03+j1.909087173992e-02
1.031288777649e-02+j1.551280795204e-02
1.168359049661e-02+j1.221193858652e-02
1.238714061941e-02+j9.310235199050e-03
1.259060048499e-02+j6.870775202960e-03
1.245053404194e-02+j4.913981124823e-03
1.211079675348e-02+j3.421705068778e-03
1.169269670676e-02+j2.340128803145e-03
1.128317785998e-02+j1.590910509026e-03
1.093084716273e-02+j1.089077932298e-03
1.065254876816e-02+j7.589348170174e-04
</dep>
<dep ac.v(e) frequency>
6.273283801163e-04+j2.390969815324e-03
9.229331929862e-04+j2.852267800641e-03
1.337378571258e-03+j3.351258991759e-03
1.897771567230e-03+j3.856001001401e-03
2.619529816294e-03+j4.315920648057e-03
3.493094059774e-03+j4.667035177689e-03
4.474307429176e-03+j4.847995849271e-03
5.488194342242e-03+j4.822740388122e-03
6.449439474143e-03+j4.596555062691e-03
7.289230242460e-03+j4.213586864483e-03
7.972095532874e-03+j3.737768954730e-03
8.495679297157e-03+j3.230834137304e-03
8.879337125596e-03+j2.738914257714e-03
9.151222221601e-03+j2.289610130309e-03
9.339365950392e-03+j1.895337355978e-03
9.467426361892e-03+j1.558436778319e-03
9.553613146378e-03+j1.275598433243e-03
9.611178749500e-03+j1.040908803443e-03
9.649432697762e-03+j8.476721734059e-04
9.674767654523e-03+j6.893774682428e-04
9.691509002281e-03+j5.601425007333e-04
9.702555307415e-03+j4.548665066663e-04
9.709836774052e-03+j3.692330474488e-04
9.714633452814e-03+j2.996442382623e-04
9.717791931103e-03+j2.431297224369e-04
9.719871118600e-03+j1.972522588343e-04
9.721239570152e-03+j1.600199905137e-04
9.722140129940e-03+j1.298092730554e-04
9.722732729097e-03+j1.052988498460e-04
9.723122659149e-03+j8.541472934560e-05
9.723379224135e-03+j6.928454736654e-05
9.723548034144e-03+j5.620005386264e-05
9.723659103054e-03+j4.558642033483e-05
9.723732180365e-03+j3.697720291838e-05
9.723780260958e-03+j2.999395883818e-05
9.723811895041e-03+j2.432967254789e-05
9.723832708274e-03+j1.973529082990e-05
9.723846402051e-03+j1.600878973247e-05
9.723855411678e-03+j1.298630055691e-05
9.723861339445e-03+j1.053490891926e-05
9.723865239560e-03+j8.546812491984e-06
9.723867805633e-03+j6.934581717003e-06
9.723869494024e-03+j5.627315718727e-06
9.723870605002e-03+j4.567524710756e-06
9.723871336147e-03+j3.708601977584e-06
9.723871817490e-03+j3.012774354069e-06
9.723872134636e-03+j2.449441122540e-06
9.723872343985e-03+j1.993828304462e-06
9.723872482771e-03+j1.625899180729e-06
9.723872575674e-03+j1.329473135854e-06
9.723872639219e-03+j1.091514079270e-06
9.723872684704e-03+j9.015571524749e-07
9.723872720221e-03+j7.512485110048e-07
9.723872752085e-03+j6.339779425346e-07
9.723872785963e-03+j5.445881643943e-07
9.723872827880e-03+j4.791480154449e-07
9.723872885291e-03+j4.347795668576e-07
9.723872968405e-03+j4.095315454308e-07
9.723873092004e-03+j4.022934981480e-07
9.723873278067e-03+j4.127469141165e-07
9.723873559682e-03+j4.413511357552e-07
9.723873986923e-03+j4.893634076349e-07
9.723874635756e-03+j5.588938819124e-07
9.723875621530e-03+j6.529978840957e-07
9.723877119463e-03+j7.758092782126e-07
9.723879395733e-03+j9.327203917849e-07
9.723882854649e-03+j1.130615649912e-06
9.723888110180e-03+j1.378167774645e-06
9.723896094264e-03+j1.686206916310e-06
9.723908220534e-03+j2.068174009666e-06
9.723926631075e-03+j2.540669099989e-06
9.723954566685e-03+j3.124101777158e-06
9.723996918720e-03+j3.843441126391e-06
9.724061042948e-03+j4.729041565362e-06
9.724157940397e-03+j5.817479789078e-06
9.724303926911e-03+j7.152264005559e-06
9.724522896681e-03+j8.784154578456e-06
9.724849179849e-03+j1.077065964628e-05
9.725330700694e-03+j1.317408004037e-05
9.726031532795e-03+j1.605744299792e-05
9.727031999407e-03+j1.947820436255e-05
9.728423673360e-03+j2.348140016196e-05
9.730297631822e-03+j2.809731600800e-05
9.732729703839e-03+j3.335178890137e-05
9.735776255136e-03+j3.929403050262e-05
9.739499738872e-03+j4.603187913649e-05
9.744031033600e-03+j5.374544182289e-05
9.749647684941e-03+j6.264899121696e-05
9.756829242874e-03+j7.289422057436e-05
9.766256505954e-03+j8.443152231661e-05
9.778730170432e-03+j9.685447663953e-05
9.794981578518e-03+j1.092678106347e-04
9.815363376166e-03+j1.202624440669e-04
9.839489976066e-03+j1.281189680833e-04
9.866033455814e-03+j1.312949695493e-04
9.892919226443e-03+j1.290284747082e-04
9.917938693287e-03+j1.216831690426e-04
9.939440580667e-03+j1.105752393169e-04
9.956688034091e-03+j9.741947587302e-05
9.969772302281e-03+j8.377658164823e-05
</dep>
<dep ac.v(uin) frequency>
1.000000000000e-02+j0.000000000000e+00
1.000000000000e-02+j0.000000000000e+00
1.000000000000e-02+j0.000000000000e+00
1.000000000000e-02+j0.000000000000e+00
1.000000000000e-02+j0.000000000000e+00
1.000000000000e-02+j0.000000000000e+00
1.000000000000e-02+j0.000000000000e+00
1.000000000000e-02+j0.000000000000e+00
1.000000000000e-02+j0.000000000000e+00
1.000000000000e-02+j0.000000000000e+00
1.000000000000e-02+j0.000000000000e+00
1.000000000000e-02+j0.000000000000e+00
1.000000000000e-02+j0.000000000000e+00
1.000000000000e-02+j0.000000000000e+00
1.000000000000e-02+j0.000000000000e+00
1.000000000000e-02+j0.000000000000e+00
1.000000000000e-02+j0.000000000000e+00
1.000000000000e-02+j0.000000000000e+00
1.000000000000e-02+j0.000000000000e+00
1.000000000000e-02+j0.000000000000e+00
1.000000000000e-02+j0.000000000000e+00
1.000000000000e-02+j0.000000000000e+00
1.000000000000e-02+j0.000000000000e+00
1.000000000000e-02+j0.000000000000e+00
1.000000000000e-02+j0.000000000000e+00
1.000000000000e-02+j0.000000000000e+00
1.000000000000e-02+j0.000000000000e+00
1.000000000000e-02+j0.000000000000e+00
1.000000000000e-02+j0.000000000000e+00
1.000000000000e-02+j0.000000000000e+00
1.000000000000e-02+j0.000000000000e+00
1.000000000000e-02+j0.000000000000e+00
1.000000000000e-02+j0.000000000000e+00
1.000000000000e-02+j0.000000000000e+00
1.000000000000e-02+j0.000000000000e+00
1.000000000000e-02+j0.000000000000e+00
1.000000000000e-02+j0.000000000000e+00
1.000000000000e-02+j0.000000000000e+00
1.000000000000e-02+j0.000000000000e+00
1.000000000000e-02+j0.000000000000e+00
1.000000000000e-02+j0.000000000000e+00
1.000000000000e-02+j0.000000000000e+00
1.000000000000e-02+j0.000000000000e+00
1.000000000000e-02+j0.000000000000e+00
1.000000000000e-02+j0.000000000000e+00
1.000000000000e-02+j0.000000000000e+00
1.000000000000e-02+j0.000000000000e+00
1.000000000000e-02+j0.000000000000e+00
1.000000000000e-02+j0.000000000000e+00
1.000000000000e-02+j0.000000000000e+00
1.000000000000e-02+j0.000000000000e+00
1.000000000000e-02+j0.000000000000e+00
1.000000000000e-02+j0.000000000000e+00
1.000000000000e-02+j0.000000000000e+00
1.000000000000e-02+j0.000000000000e+00
1.000000000000e-02+j0.000000000000e+00
1.000000000000e-02+j0.000000000000e+00
1.000000000000e-02+j0.000000000000e+00
1.000000000000e-02+j0.000000000000e+00
1.000000000000e-02+j0.000000000000e+00
1.000000000000e-02+j0.000000000000e+00
1.000000000000e-02+j0.000000000000e+00
1.000000000000e-02+j0.000000000000e+00
1.000000000000e-02+j0.000000000000e+00
1.000000000000e-02+j0.000000000000e+00
1.000000000000e-02+j0.000000000000e+00
1.000000000000e-02+j0.000000000000e+00
1.000000000000e-02+j0.000000000000e+00
1.000000000000e-02+j0.000000000000e+00
1.000000000000e-02+j0.000000000000e+00
1.000000000000e-02+j0.000000000000e+00
1.000000000000e-02+j0.000000000000e+00
1.000000000000e-02+j0.000000000000e+00
1.000000000000e-02+j0.000000000000e+00
1.000000000000e-02+j0.000000000000e+00
1.000000000000e-02+j0.000000000000e+00
1.000000000000e-02+j0.000000000000e+00
1.000000000000e-02+j0.000000000000e+00
1.000000000000e-02+j0.000000000000e+00
1.000000000000e-02+j0.000000000000e+00
1.000000000000e-02+j0.000000000000e+00
1.000000000000e-02+j0.000000000000e+00
1.000000000000e-02+j0.000000000000e+00
1.000000000000e-02+j0.000000000000e+00
1.000000000000e-02+j0.000000000000e+00
1.000000000000e-02+j0.000000000000e+00
1.000000000000e-02+j0.000000000000e+00
1.000000000000e-02+j0.000000000000e+00
1.000000000000e-02+j0.000000000000e+00
1.000000000000e-02+j0.000000000000e+00
1.000000000000e-02+j0.000000000000e+00
1.000000000000e-02+j0.000000000000e+00
1.000000000000e-02+j0.000000000000e+00
1.000000000000e-02+j0.000000000000e+00
1.000000000000e-02+j0.000000000000e+00
1.000000000000e-02+j0.000000000000e+00
1.000000000000e-02+j0.000000000000e+00
1.000000000000e-02+j0.000000000000e+00
1.000000000000e-02+j0.000000000000e+00
1.000000000000e-02+j0.000000000000e+00
</dep>
<dep ac.i(pr1) frequency>
1.759508311737e-08+j6.613004396786e-08
2.581656368095e-08+j7.881082064373e-08
3.730393961567e-08+j9.250241053371e-08
5.279103699699e-08+j1.063281852641e-07
7.269236111897e-08+j1.189050898917e-07
9.674081429519e-08+j1.284849379364e-07
1.237240649708e-07+j1.333919678530e-07
1.515870530443e-07+j1.326425420573e-07
1.779923068976e-07+j1.263852811716e-07
2.010552374685e-07+j1.158331109034e-07
2.198055311823e-07+j1.027405340117e-07
2.341807634769e-07+j8.880096649378e-08
2.447135802887e-07+j7.527947512908e-08
2.521775131733e-07+j6.293262722204e-08
2.573423943025e-07+j5.210041408280e-08
2.608578193237e-07+j4.284652212478e-08
2.632237316055e-07+j3.507973332168e-08
2.648039523451e-07+j2.863753799225e-08
2.658540479182e-07+j2.333610776694e-08
2.665495065976e-07+j1.899682375241e-08
2.670090649635e-07+j1.545846970203e-08
2.673122911664e-07+j1.258142645745e-08
2.675121706641e-07+j1.024776702447e-08
2.676438416145e-07+j8.359474595480e-09
2.677305433022e-07+j6.835976045385e-09
2.677876180935e-07+j5.611592327233e-09
2.678251830294e-07+j4.633183860484e-09
2.678499043568e-07+j3.858099660123e-09
2.678661723591e-07+j3.252454747491e-09
2.678768774955e-07+j2.789721824635e-09
2.678839224393e-07+j2.449608403553e-09
2.678885595851e-07+j2.217187750645e-09
2.678916134028e-07+j2.082254917593e-09
2.678936269011e-07+j2.038884610941e-09
2.678949581282e-07+j2.085174166264e-09
2.678958438172e-07+j2.223161770625e-09
2.678964414751e-07+j2.458917109530e-09
2.678968573888e-07+j2.802808837207e-09
2.678971655246e-07+j3.269960853014e-09
2.678974206821e-07+j3.880917567288e-09
2.678976682394e-07+j4.662547476003e-09
2.678979522229e-07+j5.649224814374e-09
2.678983231375e-07+j6.884341272984e-09
2.678988469482e-07+j8.422214266512e-09
2.678996168117e-07+j1.033047567915e-08
2.679007696438e-07+j1.269304613691e-08
2.679025104690e-07+j1.561382560263e-08
2.679051488832e-07+j1.922126258461e-08
2.679091541128e-07+j2.367400287750e-08
2.679152384641e-07+j2.916786620762e-08
2.679244840025e-07+j3.594445751234e-08
2.679385349893e-07+j4.430179139535e-08
2.679598903016e-07+j5.460739669268e-08
2.679923478343e-07+j6.731447688929e-08
2.680416799158e-07+j8.298183601905e-08
2.681166598384e-07+j1.022984443492e-07
