<Qucs Dataset 0.0.21>
<indep frequency 100>
1.000000000000e+00
1.232846739442e+00
1.519911082953e+00
1.873817422860e+00
2.310129700083e+00
2.848035868436e+00
3.511191734215e+00
4.328761281083e+00
5.336699231206e+00
6.579332246576e+00
8.111308307897e+00
1.000000000000e+01
1.232846739442e+01
1.519911082953e+01
1.873817422860e+01
2.310129700083e+01
2.848035868436e+01
3.511191734215e+01
4.328761281083e+01
5.336699231206e+01
6.579332246576e+01
8.111308307897e+01
1.000000000000e+02
1.232846739442e+02
1.519911082953e+02
1.873817422860e+02
2.310129700083e+02
2.848035868436e+02
3.511191734215e+02
4.328761281083e+02
5.336699231206e+02
6.579332246576e+02
8.111308307897e+02
1.000000000000e+03
1.232846739442e+03
1.519911082953e+03
1.873817422860e+03
2.310129700083e+03
2.848035868436e+03
3.511191734215e+03
4.328761281083e+03
5.336699231206e+03
6.579332246576e+03
8.111308307897e+03
1.000000000000e+04
1.232846739442e+04
1.519911082953e+04
1.873817422860e+04
2.310129700083e+04
2.848035868436e+04
3.511191734215e+04
4.328761281083e+04
5.336699231206e+04
6.579332246576e+04
8.111308307897e+04
1.000000000000e+05
1.232846739442e+05
1.519911082953e+05
1.873817422860e+05
2.310129700083e+05
2.848035868436e+05
3.511191734215e+05
4.328761281083e+05
5.336699231206e+05
6.579332246576e+05
8.111308307897e+05
1.000000000000e+06
1.232846739442e+06
1.519911082953e+06
1.873817422860e+06
2.310129700083e+06
2.848035868436e+06
3.511191734215e+06
4.328761281083e+06
5.336699231206e+06
6.579332246576e+06
8.111308307897e+06
1.000000000000e+07
1.232846739442e+07
1.519911082953e+07
1.873817422860e+07
2.310129700083e+07
2.848035868436e+07
3.511191734215e+07
4.328761281083e+07
5.336699231206e+07
6.579332246576e+07
8.111308307897e+07
1.000000000000e+08
1.232846739442e+08
1.519911082953e+08
1.873817422860e+08
2.310129700083e+08
2.848035868436e+08
3.511191734215e+08
4.328761281083e+08
5.336699231206e+08
6.579332246576e+08
8.111308307897e+08
1.000000000000e+09
</indep>
<dep ac.v(b) frequency>
6.454622939110e-04+j2.459125216322e-03
9.495403921909e-04+j2.933492399896e-03
1.375825010292e-03+j3.446594593817e-03
1.952179540034e-03+j3.965585936841e-03
2.694448875448e-03+j4.438467815340e-03
3.592798547599e-03+j4.799455687306e-03
4.601822274081e-03+j4.985473613368e-03
5.644426461532e-03+j4.959445405183e-03
6.632886639349e-03+j4.726810363820e-03
7.496447787856e-03+j4.332965471205e-03
8.198638642061e-03+j3.843652106069e-03
8.737038745756e-03+j3.322348362737e-03
9.131552629412e-03+j2.816489897398e-03
9.411130735422e-03+j2.354457222274e-03
9.604597870894e-03+j1.949016251199e-03
9.736281610516e-03+j1.602573321242e-03
9.824906928968e-03+j1.311724260646e-03
9.884101258576e-03+j1.070387814058e-03
9.923437536051e-03+j8.716784942283e-04
9.949489299386e-03+j7.089007504445e-04
9.966704312232e-03+j5.760057668557e-04
9.978063151481e-03+j4.677483007876e-04
9.985550633140e-03+j3.796896582270e-04
9.990483024580e-03+j3.081300542019e-04
9.993730865824e-03+j2.500150065091e-04
9.995868879843e-03+j2.028382477914e-04
9.997276049034e-03+j1.645515087860e-04
9.998202088384e-03+j1.334851606379e-04
9.998811453963e-03+j1.082805257001e-04
9.999212416314e-03+j8.783319348326e-05
9.999476240297e-03+j7.124609026102e-05
9.999649826450e-03+j5.779090327013e-05
9.999764037833e-03+j4.687651866207e-05
9.999839182718e-03+j3.802327526307e-05
9.999888623651e-03+j3.084200342762e-05
9.999921152749e-03+j2.501698139123e-05
9.999942554840e-03+j2.029208853569e-05
9.999956636036e-03+j1.645956207605e-05
9.999965900544e-03+j1.335087096512e-05
9.999971995981e-03+j1.082931007507e-05
9.999976006376e-03+j8.783991315995e-06
9.999978644950e-03+j7.124968689900e-06
9.999980380956e-03+j5.779283560847e-06
9.999981523133e-03+j4.687756579283e-06
9.999982274609e-03+j3.802385367705e-06
9.999982769030e-03+j3.084233625979e-06
9.999983094327e-03+j2.501718878575e-06
9.999983308351e-03+j2.029223591977e-06
9.999983449165e-03+j1.645968598058e-06
9.999983541813e-03+j1.335099287560e-06
9.999983602770e-03+j1.082944391100e-06
9.999983642879e-03+j8.784147530419e-07
9.999983669272e-03+j7.125156590112e-07
9.999983686643e-03+j5.779512710932e-07
9.999983698082e-03+j4.688037750729e-07
9.999983705622e-03+j3.802731295910e-07
9.999983710604e-03+j3.084659721160e-07
9.999983713916e-03+j2.502243983803e-07
9.999983716145e-03+j2.029870854405e-07
9.999983717689e-03+j1.646766509004e-07
9.999983718821e-03+j1.336082946200e-07
9.999983719743e-03+j1.084157051711e-07
9.999983720619e-03+j8.799097253221e-08
9.999983721604e-03+j7.143586443066e-08
9.999983722875e-03+j5.802232338955e-08
9.999983724656e-03+j4.716044688229e-08
9.999983727264e-03+j3.837254176693e-08
9.999983731162e-03+j3.127211073027e-08
9.999983737040e-03+j2.554684427685e-08
9.999983745939e-03+j2.094486594715e-08
9.999983759427e-03+j1.726361778048e-08
9.999983779873e-03+j1.434088231318e-08
9.999983810845e-03+j1.204751888178e-08
9.999983857691e-03+j1.028154512226e-08
9.999983928378e-03+j8.963214829145e-09
9.999984034648e-03+j8.030722299217e-09
9.999984193535e-03+j7.436090334939e-09
9.999984429128e-03+j7.140673004113e-09
9.999984774205e-03+j7.109566398988e-09
9.999985270675e-03+j7.304232028023e-09
9.999985966860e-03+j7.673194308440e-09
9.999986908764e-03+j8.142424032877e-09
9.999988123209e-03+j8.610304011829e-09
9.999989595406e-03+j8.955219334595e-09
9.999991252254e-03+j9.061565707658e-09
9.999992967871e-03+j8.857521382160e-09
9.999994597542e-03+j8.342520862168e-09
9.999996023206e-03+j7.583749215923e-09
9.999997182703e-03+j6.684181608494e-09
9.999998070170e-03+j5.745040223827e-09
9.999998717083e-03+j4.842503703397e-09
9.999999170425e-03+j4.022270711076e-09
9.999999477564e-03+j3.304947907627e-09
9.999999679122e-03+j2.694454902294e-09
9.999999807193e-03+j2.185143874203e-09
9.999999885981e-03+j1.766522169039e-09
9.999999933056e-03+j1.426084647975e-09
9.999999960589e-03+j1.151072828851e-09
9.999999976538e-03+j9.296239542995e-10
9.999999985802e-03+j7.514221678374e-10
</dep>
<dep ac.v(c) frequency>
-4.120362283154e-03-j1.237995070027e-02
-5.813916204439e-03-j1.449040930167e-02
-8.047990001380e-03-j1.668278237056e-02
-1.090624456940e-02-j1.881598719213e-02
-1.442602127507e-02-j2.068406586605e-02
-1.854816131657e-02-j2.203211587772e-02
-2.307595516031e-02-j2.261733675198e-02
-2.768753737680e-02-j2.230199736704e-02
-3.202021374127e-02-j2.112194674876e-02
-3.578408568943e-02-j1.927677494705e-02
-3.883379631983e-02-j1.704827759965e-02
-4.116691358769e-02-j1.470599197999e-02
-4.287407130632e-02-j1.244981621597e-02
-4.408276320604e-02-j1.039799585258e-02
-4.491867667571e-02-j8.602239499512e-03
-4.548742240520e-02-j7.070332566653e-03
-4.587010085356e-02-j5.785607697124e-03
-4.612565587365e-02-j4.720310869189e-03
-4.629546085596e-02-j3.843561188225e-03
-4.640791186249e-02-j3.125552313407e-03
-4.648221604187e-02-j2.539460663985e-03
-4.653124204404e-02-j2.062077217823e-03
-4.656355818623e-02-j1.673787606473e-03
-4.658484621721e-02-j1.358255855477e-03
-4.659886366494e-02-j1.102001899252e-03
-4.660809112539e-02-j8.939682406907e-04
-4.661416430738e-02-j7.251193271979e-04
-4.661816097735e-02-j5.880900954208e-04
-4.662079091796e-02-j4.768866405936e-04
-4.662252141510e-02-j3.866357537568e-04
-4.662366003995e-02-j3.133776278229e-04
-4.662440920908e-02-j2.538954631157e-04
-4.662490212272e-02-j2.055760016926e-04
-4.662522642752e-02-j1.662956710391e-04
-4.662543979263e-02-j1.343277648283e-04
-4.662558016097e-02-j1.082668109752e-04
-4.662567249502e-02-j8.696692486128e-05
-4.662573321532e-02-j6.949150282072e-05
-4.662577312040e-02-j5.507207886789e-05
-4.662579930706e-02-j4.307455411533e-05
-4.662581643239e-02-j3.297132384962e-05
-4.662582754202e-02-j2.431808177318e-05
-4.662583461172e-02-j1.673428424166e-05
-4.662583889881e-02-j9.886416936003e-06
-4.662584116571e-02-j3.473328748792e-06
-4.662584181558e-02+j2.787011518587e-06
-4.662584096399e-02+j9.169917834664e-06
-4.662583845949e-02+j1.595609431441e-05
-4.662583385667e-02+j2.344397973846e-05
-4.662582633695e-02+j3.196287178212e-05
-4.662581456300e-02+j4.188740819338e-05
-4.662579644088e-02+j5.365404153893e-05
-4.662576874771e-02+j6.778023138436e-05
-4.662572655842e-02+j8.488719759906e-05
-4.662566236999e-02+j1.057272337870e-04
-4.662556476704e-02+j1.312167790738e-04
-4.662541639185e-02+j1.624766990553e-04
-4.662519085769e-02+j2.008815365230e-04
-4.662484805681e-02+j2.481198816743e-04
-4.662432702908e-02+j3.062684861170e-04
-4.662353512446e-02+j3.778833167431e-04
-4.662233153433e-02+j4.661114453183e-04
-4.662050226974e-02+j5.748284813002e-04
-4.661772215112e-02+j7.088072007368e-04
-4.661349708461e-02+j8.739240452131e-04
-4.660707643842e-02+j1.077411199117e-03
-4.659732012064e-02+j1.328162740065e-03
-4.658249714322e-02+j1.637103513484e-03
-4.655998082814e-02+j2.017627929455e-03
-4.652578870441e-02+j2.486111219812e-03
-4.647389045488e-02+j3.062484463556e-03
-4.639517271914e-02+j3.770841122836e-03
-4.627590380036e-02+j4.639996078836e-03
-4.609548685797e-02+j5.703830171240e-03
-4.582324064861e-02+j7.001093829200e-03
-4.541394279924e-02+j8.574069446016e-03
-4.480201055431e-02+j1.046505436197e-02
-4.389468514053e-02+j1.270901314997e-02
-4.256579614689e-02+j1.532011342738e-02
-4.065408550729e-02+j1.826982052610e-02
-3.797377337394e-02+j2.145630829781e-02
-3.434835894262e-02+j2.467164429710e-02
-2.967583873962e-02+j2.758583943133e-02
-2.401548006989e-02+j2.977896428330e-02
-1.765260398457e-02+j3.084384610408e-02
-1.107769491197e-02+j3.053384216450e-02
-4.856047166345e-03+j2.887077081305e-02
5.470587660188e-04+j2.613345522208e-02
4.878651581405e-03+j2.273690716368e-02
8.099595850857e-03+j1.909064229524e-02
1.031293131174e-02+j1.551260798752e-02
1.168359503789e-02+j1.221177648226e-02
1.238712282496e-02+j9.310111672777e-03
1.259057328229e-02+j6.870685957836e-03
1.245050603100e-02+j4.913919304967e-03
1.211077252060e-02+j3.421663332944e-03
1.169267781009e-02+j2.340100771359e-03
1.128316407229e-02+j1.590891403613e-03
1.093083751706e-02+j1.089064540118e-03
1.065254219084e-02+j7.589251176922e-04
</dep>
<dep ac.v(e) frequency>
6.273284719171e-04+j2.390971449781e-03
9.229333630900e-04+j2.852269844520e-03
1.337378885279e-03+j3.351261544904e-03
1.897772136384e-03+j3.856004170726e-03
2.619530813301e-03+j4.315924524469e-03
3.493095721046e-03+j4.667039795655e-03
4.474310025530e-03+j4.848001140110e-03
5.488198113483e-03+j4.822746156745e-03
6.449444554445e-03+j4.596561016140e-03
7.289236621613e-03+j4.213592685974e-03
7.972103074747e-03+j3.737774381150e-03
8.495687795246e-03+j3.230839001502e-03
8.879346359999e-03+j2.738918489175e-03
9.151231996051e-03+j2.289613731510e-03
9.339376107413e-03+j1.895340373641e-03
9.467436783455e-03+j1.558439280062e-03
9.553623747872e-03+j1.275600492227e-03
9.611189472020e-03+j1.040910489753e-03
9.649443501083e-03+j8.476735499918e-04
9.674778511521e-03+j6.893785895554e-04
9.691519894822e-03+j5.601434127988e-04
9.702566223438e-03+j4.548672478279e-04
9.709847705568e-03+j3.692336493533e-04
9.714644394542e-03+j2.996447268725e-04
9.717802879558e-03+j2.431301189694e-04
9.719882071485e-03+j1.972525805826e-04
9.721250525952e-03+j1.600202515499e-04
9.722151087660e-03+j1.298094848180e-04
9.722743688079e-03+j1.052990216255e-04
9.723133618962e-03+j8.541486868483e-05
9.723390184495e-03+j6.928466038696e-05
9.723558994864e-03+j5.620014553126e-05
9.723670064010e-03+j4.558649468121e-05
9.723743141477e-03+j3.697726321115e-05
9.723791222172e-03+j2.999400772835e-05
9.723822856323e-03+j2.432971218526e-05
9.723843669600e-03+j1.973532295748e-05
9.723857363406e-03+j1.600881576308e-05
9.723866373053e-03+j1.298632163527e-05
9.723872300832e-03+j1.053492597231e-05
9.723876200956e-03+j8.546826269673e-06
9.723878767035e-03+j6.934592825234e-06
9.723880455429e-03+j5.627324646010e-06
9.723881566409e-03+j4.567531849688e-06
9.723882297556e-03+j3.708607642119e-06
9.723882778900e-03+j3.012778793318e-06
9.723883096046e-03+j2.449444531729e-06
9.723883305396e-03+j1.993830833520e-06
9.723883444182e-03+j1.625900940878e-06
9.723883537086e-03+j1.329474204501e-06
9.723883600630e-03+j1.091514503411e-06
9.723883646116e-03+j9.015569507622e-07
9.723883681632e-03+j7.512476745678e-07
9.723883713496e-03+j6.339764345886e-07
9.723883747374e-03+j5.445859186232e-07
9.723883789291e-03+j4.791449330845e-07
9.723883846702e-03+j4.347755123520e-07
9.723883929816e-03+j4.095263404705e-07
9.723884053414e-03+j4.022869138274e-07
9.723884239476e-03+j4.127386608655e-07
9.723884521088e-03+j4.413408506015e-07
9.723884948327e-03+j4.893506382353e-07
9.723885597156e-03+j5.588780666492e-07
9.723886582923e-03+j6.529783273571e-07
9.723888080847e-03+j7.757851197631e-07
9.723890357103e-03+j9.326905688620e-07
9.723893815998e-03+j1.130578850353e-06
9.723899071495e-03+j1.378122378929e-06
9.723907055529e-03+j1.686150925865e-06
9.723919181723e-03+j2.068104958099e-06
9.723937592146e-03+j2.540583942986e-06
9.723965527577e-03+j3.123996755602e-06
9.724007879334e-03+j3.843311595526e-06
9.724072003132e-03+j4.728881780535e-06
9.724168899908e-03+j5.817282635344e-06
9.724314885354e-03+j7.152020654129e-06
9.724533853402e-03+j8.783854048083e-06
9.724860133739e-03+j1.077028824458e-05
9.725341649827e-03+j1.317362066627e-05
9.726042473788e-03+j1.605687431990e-05
9.727042926321e-03+j1.947749997831e-05
9.728434576016e-03+j2.348052801756e-05
9.730308493600e-03+j2.809623854379e-05
9.732740499538e-03+j3.335046432625e-05
9.735786949814e-03+j3.929241491323e-05
9.739510287986e-03+j4.602992815739e-05
9.744041382984e-03+j5.374311049675e-05
9.749657768024e-03+j6.264623305770e-05
9.756838974156e-03+j7.289098932276e-05
9.766265773247e-03+j8.442778026583e-05
9.778738831256e-03+j9.685021104005e-05
9.794989467264e-03+j1.092630556614e-04
9.815370327143e-03+j1.202573004554e-04
9.839495861036e-03+j1.281136076607e-04
9.866038222961e-03+j1.312896137179e-04
9.892922919883e-03+j1.290233496454e-04
9.917941440371e-03+j1.216784577816e-04
9.939442555089e-03+j1.105710537148e-04
9.956689415873e-03+j9.741585591977e-05
9.969773250584e-03+j8.377351282918e-05
</dep>
<dep ac.v(uin) frequency>
1.000000000000e-02+j0.000000000000e+00
1.000000000000e-02+j0.000000000000e+00
1.000000000000e-02+j0.000000000000e+00
1.000000000000e-02+j0.000000000000e+00
1.000000000000e-02+j0.000000000000e+00
1.000000000000e-02+j0.000000000000e+00
1.000000000000e-02+j0.000000000000e+00
1.000000000000e-02+j0.000000000000e+00
1.000000000000e-02+j0.000000000000e+00
1.000000000000e-02+j0.000000000000e+00
1.000000000000e-02+j0.000000000000e+00
1.000000000000e-02+j0.000000000000e+00
1.000000000000e-02+j0.000000000000e+00
1.000000000000e-02+j0.000000000000e+00
1.000000000000e-02+j0.000000000000e+00
1.000000000000e-02+j0.000000000000e+00
1.000000000000e-02+j0.000000000000e+00
1.000000000000e-02+j0.000000000000e+00
1.000000000000e-02+j0.000000000000e+00
1.000000000000e-02+j0.000000000000e+00
1.000000000000e-02+j0.000000000000e+00
1.000000000000e-02+j0.000000000000e+00
1.000000000000e-02+j0.000000000000e+00
1.000000000000e-02+j0.000000000000e+00
1.000000000000e-02+j0.000000000000e+00
1.000000000000e-02+j0.000000000000e+00
1.000000000000e-02+j0.000000000000e+00
1.000000000000e-02+j0.000000000000e+00
1.000000000000e-02+j0.000000000000e+00
1.000000000000e-02+j0.000000000000e+00
1.000000000000e-02+j0.000000000000e+00
1.000000000000e-02+j0.000000000000e+00
1.000000000000e-02+j0.000000000000e+00
1.000000000000e-02+j0.000000000000e+00
1.000000000000e-02+j0.000000000000e+00
1.000000000000e-02+j0.000000000000e+00
1.000000000000e-02+j0.000000000000e+00
1.000000000000e-02+j0.000000000000e+00
1.000000000000e-02+j0.000000000000e+00
1.000000000000e-02+j0.000000000000e+00
1.000000000000e-02+j0.000000000000e+00
1.000000000000e-02+j0.000000000000e+00
1.000000000000e-02+j0.000000000000e+00
1.000000000000e-02+j0.000000000000e+00
1.000000000000e-02+j0.000000000000e+00
1.000000000000e-02+j0.000000000000e+00
1.000000000000e-02+j0.000000000000e+00
1.000000000000e-02+j0.000000000000e+00
1.000000000000e-02+j0.000000000000e+00
1.000000000000e-02+j0.000000000000e+00
1.000000000000e-02+j0.000000000000e+00
1.000000000000e-02+j0.000000000000e+00
1.000000000000e-02+j0.000000000000e+00
1.000000000000e-02+j0.000000000000e+00
1.000000000000e-02+j0.000000000000e+00
1.000000000000e-02+j0.000000000000e+00
1.000000000000e-02+j0.000000000000e+00
1.000000000000e-02+j0.000000000000e+00
1.000000000000e-02+j0.000000000000e+00
1.000000000000e-02+j0.000000000000e+00
1.000000000000e-02+j0.000000000000e+00
1.000000000000e-02+j0.000000000000e+00
1.000000000000e-02+j0.000000000000e+00
1.000000000000e-02+j0.000000000000e+00
1.000000000000e-02+j0.000000000000e+00
1.000000000000e-02+j0.000000000000e+00
1.000000000000e-02+j0.000000000000e+00
1.000000000000e-02+j0.000000000000e+00
1.000000000000e-02+j0.000000000000e+00
1.000000000000e-02+j0.000000000000e+00
1.000000000000e-02+j0.000000000000e+00
1.000000000000e-02+j0.000000000000e+00
1.000000000000e-02+j0.000000000000e+00
1.000000000000e-02+j0.000000000000e+00
1.000000000000e-02+j0.000000000000e+00
1.000000000000e-02+j0.000000000000e+00
1.000000000000e-02+j0.000000000000e+00
1.000000000000e-02+j0.000000000000e+00
1.000000000000e-02+j0.000000000000e+00
1.000000000000e-02+j0.000000000000e+00
1.000000000000e-02+j0.000000000000e+00
1.000000000000e-02+j0.000000000000e+00
1.000000000000e-02+j0.000000000000e+00
1.000000000000e-02+j0.000000000000e+00
1.000000000000e-02+j0.000000000000e+00
1.000000000000e-02+j0.000000000000e+00
1.000000000000e-02+j0.000000000000e+00
1.000000000000e-02+j0.000000000000e+00
1.000000000000e-02+j0.000000000000e+00
1.000000000000e-02+j0.000000000000e+00
1.000000000000e-02+j0.000000000000e+00
1.000000000000e-02+j0.000000000000e+00
1.000000000000e-02+j0.000000000000e+00
1.000000000000e-02+j0.000000000000e+00
1.000000000000e-02+j0.000000000000e+00
1.000000000000e-02+j0.000000000000e+00
1.000000000000e-02+j0.000000000000e+00
1.000000000000e-02+j0.000000000000e+00
1.000000000000e-02+j0.000000000000e+00
1.000000000000e-02+j0.000000000000e+00
</dep>
<dep ac.i(pr1) frequency>
1.759515011415e-08+j6.613031705947e-08
2.581666190346e-08+j7.881114754031e-08
3.730408181435e-08+j9.250279697583e-08
5.279123946169e-08+j1.063286342651e-07
7.269264307401e-08+j1.189055994931e-07
9.674119574838e-08+j1.284854989268e-07
1.237245628269e-07+j1.333925627309e-07
1.515876765502e-07+j1.326431466698e-07
1.779930546755e-07+j1.263858692310e-07
2.010560979612e-07+j1.158336595300e-07
2.198064861942e-07+j1.027410276426e-07
2.341817927086e-07+j8.880139782787e-08
2.447146648701e-07+j7.527984371595e-08
2.521786374739e-07+j6.293293711981e-08
2.573435463290e-07+j5.210067168405e-08
2.608589903345e-07+j4.284673459829e-08
2.632249154444e-07+j3.507990767771e-08
2.648051447751e-07+j2.863768061078e-08
2.658552460674e-07+j2.333622421735e-08
2.665507085391e-07+j1.899691877539e-08
2.670102694127e-07+j1.545854727140e-08
2.673134972713e-07+j1.258148987440e-08
2.675133778607e-07+j1.024781901890e-08
2.676450495304e-07+j8.359517422386e-09
2.677317516918e-07+j6.836011571307e-09
2.677888267951e-07+j5.611622105491e-09
2.678263919362e-07+j4.633209195834e-09
2.678511133987e-07+j3.858121664179e-09
2.678673814900e-07+j3.252474386566e-09
2.678780866849e-07+j2.789739961672e-09
2.678851316673e-07+j2.449625835786e-09
2.678897688385e-07+j2.217205244491e-09
2.678928226729e-07+j2.082273242277e-09
2.678948361825e-07+j2.038904572279e-09
2.678961674171e-07+j2.085196642075e-09
2.678970531114e-07+j2.223187749324e-09
2.678976507732e-07+j2.458947733588e-09
2.678980666902e-07+j2.802845453391e-09
2.678983748292e-07+j3.270005071611e-09
2.678986299903e-07+j3.880971332924e-09
2.678988775524e-07+j4.662613153159e-09
2.678991615427e-07+j5.649305291370e-09
2.678995324673e-07+j6.884440089002e-09
2.679000562930e-07+j8.422335767238e-09
2.679008261792e-07+j1.033062520788e-08
2.679019790456e-07+j1.269323026956e-08
2.679037199230e-07+j1.561405243689e-08
2.679063584164e-07+j1.922154209606e-08
2.679103637663e-07+j2.367434735833e-08
2.679164483006e-07+j2.916829080716e-08
2.679256941170e-07+j3.594498090328e-08
2.679397455264e-07+j4.430243659481e-08
2.679611014809e-07+j5.460819207433e-08
2.679935599897e-07+j6.731545743090e-08
2.680428935547e-07+j8.298304484026e-08
2.681178757323e-07+j1.022999346069e-07
