<Qucs Dataset 0.0.22>
<indep frequency 100>
1.000000000000e+00
1.232846739442e+00
1.519911082953e+00
1.873817422860e+00
2.310129700083e+00
2.848035868436e+00
3.511191734215e+00
4.328761281083e+00
5.336699231206e+00
6.579332246576e+00
8.111308307897e+00
1.000000000000e+01
1.232846739442e+01
1.519911082953e+01
1.873817422860e+01
2.310129700083e+01
2.848035868436e+01
3.511191734215e+01
4.328761281083e+01
5.336699231206e+01
6.579332246576e+01
8.111308307897e+01
1.000000000000e+02
1.232846739442e+02
1.519911082953e+02
1.873817422860e+02
2.310129700083e+02
2.848035868436e+02
3.511191734215e+02
4.328761281083e+02
5.336699231206e+02
6.579332246576e+02
8.111308307897e+02
1.000000000000e+03
1.232846739442e+03
1.519911082953e+03
1.873817422860e+03
2.310129700083e+03
2.848035868436e+03
3.511191734215e+03
4.328761281083e+03
5.336699231206e+03
6.579332246576e+03
8.111308307897e+03
1.000000000000e+04
1.232846739442e+04
1.519911082953e+04
1.873817422860e+04
2.310129700083e+04
2.848035868436e+04
3.511191734215e+04
4.328761281083e+04
5.336699231206e+04
6.579332246576e+04
8.111308307897e+04
1.000000000000e+05
1.232846739442e+05
1.519911082953e+05
1.873817422860e+05
2.310129700083e+05
2.848035868436e+05
3.511191734215e+05
4.328761281083e+05
5.336699231206e+05
6.579332246576e+05
8.111308307897e+05
1.000000000000e+06
1.232846739442e+06
1.519911082953e+06
1.873817422860e+06
2.310129700083e+06
2.848035868436e+06
3.511191734215e+06
4.328761281083e+06
5.336699231206e+06
6.579332246576e+06
8.111308307897e+06
1.000000000000e+07
1.232846739442e+07
1.519911082953e+07
1.873817422860e+07
2.310129700083e+07
2.848035868436e+07
3.511191734215e+07
4.328761281083e+07
5.336699231206e+07
6.579332246576e+07
8.111308307897e+07
1.000000000000e+08
1.232846739442e+08
1.519911082953e+08
1.873817422860e+08
2.310129700083e+08
2.848035868436e+08
3.511191734215e+08
4.328761281083e+08
5.336699231206e+08
6.579332246576e+08
8.111308307897e+08
1.000000000000e+09
</indep>
<dep ac.v(b) frequency>
6.515513816345e-04+j2.467992812942e-03
9.578529823935e-04+j2.942964243240e-03
1.386789411039e-03+j3.456109992517e-03
1.966043326728e-03+j3.974303527937e-03
2.711091738144e-03+j4.445320419705e-03
3.611559036099e-03+j4.803352781131e-03
4.621477739935e-03+j4.985647170755e-03
5.663445380447e-03+j4.955783217885e-03
6.649881832092e-03+j4.719939384935e-03
7.510563910892e-03+j4.324002620679e-03
8.209658150840e-03+j3.833799399561e-03
8.745228016952e-03+j3.312579867339e-03
9.137417880662e-03+j2.807434396786e-03
9.415221294141e-03+j2.346429828312e-03
9.607398427425e-03+j1.942109664901e-03
9.738175189394e-03+j1.596748218115e-03
9.826176912434e-03+j1.306875887360e-03
9.884948826629e-03+j1.066387634526e-03
9.924001782318e-03+j8.683972067189e-04
9.949864757267e-03+j7.062194446386e-04
9.966954516337e-03+j5.738202611912e-04
9.978230491545e-03+j4.659698779952e-04
9.985663256004e-03+j3.782440778279e-04
9.990559561086e-03+j3.069558700812e-04
9.993783622563e-03+j2.490617189088e-04
9.995905974888e-03+j2.020645417767e-04
9.997302832714e-03+j1.639236836556e-04
9.998222084834e-03+j1.329757797416e-04
9.998826983553e-03+j1.078672803790e-04
9.999225006439e-03+j8.749795968571e-05
9.999486896203e-03+j7.097415162708e-05
9.999659209662e-03+j5.757031469448e-05
9.999772583651e-03+j4.669758671792e-05
9.999847177567e-03+j3.787813497320e-05
9.999896255990e-03+j3.072427401745e-05
9.999928546578e-03+j2.492148655089e-05
9.999949791742e-03+j2.021462924441e-05
9.999963769691e-03+j1.639673218810e-05
9.999972966269e-03+j1.329990754852e-05
9.999979017013e-03+j1.078797197533e-05
9.999982998002e-03+j8.750460633443e-06
9.999985617229e-03+j7.097770853004e-06
9.999987340506e-03+j5.757222488924e-06
9.999988474308e-03+j4.669862087517e-06
9.999989220275e-03+j3.787870503842e-06
9.999989711071e-03+j3.072460063718e-06
9.999990033984e-03+j2.492168846397e-06
9.999990246439e-03+j2.021477103280e-06
9.999990386223e-03+j1.639684981416e-06
9.999990478194e-03+j1.330002204951e-06
9.999990538709e-03+j1.078809685302e-06
9.999990578529e-03+j8.750605897785e-07
9.999990604738e-03+j7.097945303366e-07
9.999990621996e-03+j5.757435083537e-07
9.999990633372e-03+j4.670122861587e-07
9.999990640889e-03+j3.788191290342e-07
9.999990645885e-03+j3.072855162401e-07
9.999990649247e-03+j2.492655731047e-07
9.999990651574e-03+j2.022077230221e-07
9.999990653280e-03+j1.640424751172e-07
9.999990654667e-03+j1.330914126707e-07
9.999990655983e-03+j1.079933796775e-07
9.999990657462e-03+j8.764461909673e-08
9.999990659365e-03+j7.115022964513e-08
9.999990662030e-03+j5.778480524925e-08
9.999990665928e-03+j4.696052418028e-08
9.999990671746e-03+j3.820128080772e-08
9.999990680503e-03+j3.112171552522e-08
9.999990693723e-03+j2.541020816082e-08
9.999990713678e-03+j2.081506445870e-08
9.999990743736e-03+j1.713324839312e-08
9.999990788835e-03+j1.420109687809e-08
9.999990856077e-03+j1.188649881207e-08
9.999990955385e-03+j1.008203400992e-08
9.999991100003e-03+j8.698579167640e-09
9.999991306339e-03+j7.658985254909e-09
9.999991592297e-03+j6.891799235269e-09
9.999991973046e-03+j6.325882849929e-09
9.999992453858e-03+j5.888121921680e-09
9.999993022046e-03+j5.507145261667e-09
9.999993643216e-03+j5.123866876440e-09
9.999994267289e-03+j4.704076876011e-09
9.999994843638e-03+j4.244100348601e-09
9.999995336664e-03+j3.764418885818e-09
9.999995732750e-03+j3.295604451585e-09
9.999996037236e-03+j2.865489962900e-09
9.999996266618e-03+j2.492728574587e-09
9.999996441383e-03+j2.186130907440e-09
9.999996581692e-03+j1.946728511825e-09
9.999996705564e-03+j1.770087017615e-09
9.999996828313e-03+j1.647788916476e-09
9.999996962061e-03+j1.568100299867e-09
9.999997114671e-03+j1.516529976957e-09
9.999997288279e-03+j1.477280165985e-09
9.999997478589e-03+j1.436107396957e-09
9.999997676392e-03+j1.383669273129e-09
9.999997871306e-03+j1.317159582753e-09
9.999998055586e-03+j1.238825634777e-09
9.999998225463e-03+j1.152551881259e-09
9.999998379717e-03+j1.061225239054e-09
</dep>
<dep ac.v(e) frequency>
6.340079133373e-04+j2.401540413078e-03
9.320621331931e-04+j2.863722911765e-03
1.349449153996e-03+j3.363051859745e-03
1.913106260296e-03+j3.867292678834e-03
2.638093731694e-03+j4.325627117884e-03
3.514315329403e-03+j4.674019212759e-03
4.497041278741e-03+j4.851405201521e-03
5.510953225130e-03+j4.822345356999e-03
6.470829198041e-03+j4.592851782303e-03
7.308336820935e-03+j4.207575888658e-03
7.988607468484e-03+j3.730571727545e-03
8.509756748235e-03+j3.223386391200e-03
8.891386630592e-03+j2.731842311867e-03
9.161709996427e-03+j2.283250611123e-03
9.348712628452e-03+j1.889817049663e-03
9.475968136315e-03+j1.553754701823e-03
9.561600352541e-03+j1.271687388601e-03
9.618789792594e-03+j1.037674454494e-03
9.656791220638e-03+j8.450150640190e-04
9.681957817230e-03+j6.872040607833e-04
9.698587422803e-03+j5.583698301251e-04
9.709559784636e-03+j4.534234096465e-04
9.716792416810e-03+j3.680597079633e-04
9.721556885516e-03+j2.986910101481e-04
9.724694136923e-03+j2.423557307899e-04
9.726759343456e-03+j1.966240244257e-04
9.728118589926e-03+j1.595101838014e-04
9.729013090552e-03+j1.293956334944e-04
9.729601701958e-03+j1.049632717433e-04
9.729989007806e-03+j8.514250025900e-05
9.730243846011e-03+j6.906371959191e-05
9.730411519816e-03+j5.602092888479e-05
9.730521841137e-03+j4.544112758614e-05
9.730594426569e-03+j3.685935646664e-05
9.730642183534e-03+j2.989837805202e-05
9.730673604694e-03+j2.425215506751e-05
9.730694277845e-03+j1.967242818574e-05
9.730707879471e-03+j1.595781767751e-05
9.730716828489e-03+j1.294497762375e-05
9.730722716410e-03+j1.050141791094e-05
9.730726590358e-03+j8.519680600815e-06
9.730729139286e-03+j6.912615772592e-06
9.730730816507e-03+j5.609549725112e-06
9.730731920304e-03+j4.553177369523e-06
9.730732646979e-03+j3.697042331035e-06
9.730733125768e-03+j3.003494038656e-06
9.730733441822e-03+j2.442032012939e-06
9.730733651347e-03+j1.987964565383e-06
9.730733791607e-03+j1.621322937194e-06
9.730733887547e-03+j1.325983131677e-06
9.730733956229e-03+j1.088956824634e-06
9.730734009867e-03+j8.998201705746e-07
9.730734058001e-03+j7.502553855196e-07
9.730734109190e-03+j6.336849455747e-07
9.730734172539e-03+j5.449823119786e-07
9.730734259312e-03+j4.802464563620e-07
9.730734384940e-03+j4.366302614130e-07
9.730734571761e-03+j4.122152334885e-07
9.730734852989e-03+j4.059269855420e-07
9.730735278616e-03+j4.174877139240e-07
9.730735924282e-03+j4.474034675245e-07
9.730736904690e-03+j4.969854405634e-07
9.730738393910e-03+j5.684058349011e-07
9.730740656121e-03+j6.647900189397e-07
9.730744092099e-03+j7.903476750263e-07
9.730749309347e-03+j9.505461701212e-07
9.730757227505e-03+j1.152329077758e-06
9.730769235849e-03+j1.404380801247e-06
9.730787426514e-03+j1.717433102170e-06
9.730814934952e-03+j2.104598446942e-06
9.730856425921e-03+j2.581694349101e-06
9.730918762375e-03+j3.167486688211e-06
9.731011870843e-03+j3.883723172088e-06
9.731149739714e-03+j4.754753887613e-06
9.731351306574e-03+j5.806477444259e-06
9.731640657442e-03+j7.064415397892e-06
9.732045515787e-03+j8.551135017651e-06
9.732592796536e-03+j1.028430980420e-05
9.733300936287e-03+j1.227835874578e-05
9.734171767619e-03+j1.455347086033e-05
9.735188880330e-03+j1.715308663886e-05
9.736329853064e-03+j2.016372073449e-05
9.737592199024e-03+j2.372546398529e-05
9.739023001112e-03+j2.802597258724e-05
9.740741879238e-03+j3.328194404483e-05
9.742956593881e-03+j3.971659722332e-05
9.745978078291e-03+j4.753495226961e-05
9.750239426972e-03+j5.688881609535e-05
9.756313457837e-03+j6.781795914461e-05
9.764909144571e-03+j8.015583551875e-05
9.776810365220e-03+j9.340184275295e-05
9.792710129197e-03+j1.065964659667e-04
9.812916830482e-03+j1.182915312410e-04
9.837001410840e-03+j1.267465518600e-04
9.863595346078e-03+j1.304115278640e-04
9.890588210122e-03+j1.285282408048e-04
9.915743252120e-03+j1.214728662314e-04
9.937390635106e-03+j1.105782271974e-04
9.954783403772e-03+j9.757489855006e-05
9.968007561043e-03+j8.403575709821e-05
</dep>
<dep ac.v(uin) frequency>
1.000000000000e-02+j0.000000000000e+00
1.000000000000e-02+j0.000000000000e+00
1.000000000000e-02+j0.000000000000e+00
1.000000000000e-02+j0.000000000000e+00
1.000000000000e-02+j0.000000000000e+00
1.000000000000e-02+j0.000000000000e+00
1.000000000000e-02+j0.000000000000e+00
1.000000000000e-02+j0.000000000000e+00
1.000000000000e-02+j0.000000000000e+00
1.000000000000e-02+j0.000000000000e+00
1.000000000000e-02+j0.000000000000e+00
1.000000000000e-02+j0.000000000000e+00
1.000000000000e-02+j0.000000000000e+00
1.000000000000e-02+j0.000000000000e+00
1.000000000000e-02+j0.000000000000e+00
1.000000000000e-02+j0.000000000000e+00
1.000000000000e-02+j0.000000000000e+00
1.000000000000e-02+j0.000000000000e+00
1.000000000000e-02+j0.000000000000e+00
1.000000000000e-02+j0.000000000000e+00
1.000000000000e-02+j0.000000000000e+00
1.000000000000e-02+j0.000000000000e+00
1.000000000000e-02+j0.000000000000e+00
1.000000000000e-02+j0.000000000000e+00
1.000000000000e-02+j0.000000000000e+00
1.000000000000e-02+j0.000000000000e+00
1.000000000000e-02+j0.000000000000e+00
1.000000000000e-02+j0.000000000000e+00
1.000000000000e-02+j0.000000000000e+00
1.000000000000e-02+j0.000000000000e+00
1.000000000000e-02+j0.000000000000e+00
1.000000000000e-02+j0.000000000000e+00
1.000000000000e-02+j0.000000000000e+00
1.000000000000e-02+j0.000000000000e+00
1.000000000000e-02+j0.000000000000e+00
1.000000000000e-02+j0.000000000000e+00
1.000000000000e-02+j0.000000000000e+00
1.000000000000e-02+j0.000000000000e+00
1.000000000000e-02+j0.000000000000e+00
1.000000000000e-02+j0.000000000000e+00
1.000000000000e-02+j0.000000000000e+00
1.000000000000e-02+j0.000000000000e+00
1.000000000000e-02+j0.000000000000e+00
1.000000000000e-02+j0.000000000000e+00
1.000000000000e-02+j0.000000000000e+00
1.000000000000e-02+j0.000000000000e+00
1.000000000000e-02+j0.000000000000e+00
1.000000000000e-02+j0.000000000000e+00
1.000000000000e-02+j0.000000000000e+00
1.000000000000e-02+j0.000000000000e+00
1.000000000000e-02+j0.000000000000e+00
1.000000000000e-02+j0.000000000000e+00
1.000000000000e-02+j0.000000000000e+00
1.000000000000e-02+j0.000000000000e+00
1.000000000000e-02+j0.000000000000e+00
1.000000000000e-02+j0.000000000000e+00
1.000000000000e-02+j0.000000000000e+00
1.000000000000e-02+j0.000000000000e+00
1.000000000000e-02+j0.000000000000e+00
1.000000000000e-02+j0.000000000000e+00
1.000000000000e-02+j0.000000000000e+00
1.000000000000e-02+j0.000000000000e+00
1.000000000000e-02+j0.000000000000e+00
1.000000000000e-02+j0.000000000000e+00
1.000000000000e-02+j0.000000000000e+00
1.000000000000e-02+j0.000000000000e+00
1.000000000000e-02+j0.000000000000e+00
1.000000000000e-02+j0.000000000000e+00
1.000000000000e-02+j0.000000000000e+00
1.000000000000e-02+j0.000000000000e+00
1.000000000000e-02+j0.000000000000e+00
1.000000000000e-02+j0.000000000000e+00
1.000000000000e-02+j0.000000000000e+00
1.000000000000e-02+j0.000000000000e+00
1.000000000000e-02+j0.000000000000e+00
1.000000000000e-02+j0.000000000000e+00
1.000000000000e-02+j0.000000000000e+00
1.000000000000e-02+j0.000000000000e+00
1.000000000000e-02+j0.000000000000e+00
1.000000000000e-02+j0.000000000000e+00
1.000000000000e-02+j0.000000000000e+00
1.000000000000e-02+j0.000000000000e+00
1.000000000000e-02+j0.000000000000e+00
1.000000000000e-02+j0.000000000000e+00
1.000000000000e-02+j0.000000000000e+00
1.000000000000e-02+j0.000000000000e+00
1.000000000000e-02+j0.000000000000e+00
1.000000000000e-02+j0.000000000000e+00
1.000000000000e-02+j0.000000000000e+00
1.000000000000e-02+j0.000000000000e+00
1.000000000000e-02+j0.000000000000e+00
1.000000000000e-02+j0.000000000000e+00
1.000000000000e-02+j0.000000000000e+00
1.000000000000e-02+j0.000000000000e+00
1.000000000000e-02+j0.000000000000e+00
1.000000000000e-02+j0.000000000000e+00
1.000000000000e-02+j0.000000000000e+00
1.000000000000e-02+j0.000000000000e+00
1.000000000000e-02+j0.000000000000e+00
1.000000000000e-02+j0.000000000000e+00
</dep>
<dep ac.i(pr1) frequency>
1.686069297346e-08+j6.386672305067e-08
2.478709355100e-08+j7.615805841120e-08
3.588700927889e-08+j8.943729162854e-08
5.087680548131e-08+j1.028471895120e-07
7.015699253848e-08+j1.150363097239e-07
9.345907288308e-08+j1.243017025609e-07
1.195935108930e-07+j1.290194631562e-07
1.465573037268e-07+j1.282471308713e-07
1.720840735533e-07+j1.221446116105e-07
1.943566013810e-07+j1.118993830377e-07
2.124475972285e-07+j9.921491921908e-08
2.263069479003e-07+j8.572803206643e-08
2.364559446892e-07+j7.265736390866e-08
2.436448758997e-07+j6.072928194713e-08
2.486179904287e-07+j5.026845811876e-08
2.520022006325e-07+j4.133383790680e-08
2.542794884702e-07+j3.383574846934e-08
2.558003742118e-07+j2.761634396740e-08
2.568109774008e-07+j2.249759481187e-08
2.574802533861e-07+j1.830671513870e-08
2.579224981704e-07+j1.488781653345e-08
2.582142952430e-07+j1.210588489538e-08
2.584066386380e-07+j9.846826959143e-09
2.585333441717e-07+j8.015719346343e-09
2.586167758348e-07+j6.534403407326e-09
2.586716978118e-07+j5.339001482182e-09
2.587078457402e-07+j4.377619832642e-09
2.587316344937e-07+j3.608340935174e-09
2.587472887772e-07+j2.997526923686e-09
2.587575900224e-07+j2.518418802697e-09
2.587643691241e-07+j2.150001608248e-09
2.587688312208e-07+j1.876102629418e-09
2.587717696606e-07+j1.684692136764e-09
2.587737069370e-07+j1.567360731555e-09
2.587749875444e-07+j1.518952930406e-09
2.587758392143e-07+j1.537342259437e-09
2.587764134040e-07+j1.623338708289e-09
2.587768122266e-07+j1.780724869624e-09
2.587771066091e-07+j2.016422564545e-09
2.587773489052e-07+j2.340797394211e-09
2.587775822055e-07+j2.768114670898e-09
2.587778480011e-07+j3.317166810656e-09
2.587781935622e-07+j4.012099794607e-09
2.587786803448e-07+j4.883475051377e-09
2.587793949202e-07+j5.969613460010e-09
2.587804643715e-07+j7.318280573461e-09
2.587820788941e-07+j8.988787160164e-09
2.587845256207e-07+j1.105459741131e-08
2.587882396854e-07+j1.360655946095e-08
2.587938816085e-07+j1.675690018478e-08
2.588024547619e-07+j2.064415976308e-08
2.588154838050e-07+j2.543928265013e-08
2.588352858158e-07+j3.135313212705e-08
2.588653823235e-07+j3.864575761876e-08
2.589111254840e-07+j4.763781990983e-08
2.589806496803e-07+j5.872467217966e-08
2.590863175987e-07+j7.239370761447e-08
2.592469175272e-07+j8.924572059267e-08
2.594910016634e-07+j1.100211910568e-07
2.598619568403e-07+j1.356325921866e-07
2.604257041850e-07+j1.672040376992e-07
2.612823848479e-07+j2.061198168334e-07
2.625840818851e-07+j2.540835857860e-07
2.645616650865e-07+j3.131901355182e-07
2.675653832989e-07+j3.860116177469e-07
2.721260789490e-07+j4.756996496773e-07
2.790471203733e-07+j5.861033907304e-07
2.895415901385e-07+j7.219006763905e-07
3.054349983556e-07+j8.887331544039e-07
3.294602257292e-07+j1.093324628560e-06
3.656762186796e-07+j1.343540578816e-06
4.200387875714e-07+j1.648310778205e-06
5.011259876099e-07+j2.017281210981e-06
6.209426710692e-07+j2.459989179835e-06
7.955512479433e-07+j2.984297943728e-06
1.044950175393e-06+j3.593885312979e-06
1.391185024106e-06+j4.284971994135e-06
1.853458999237e-06+j5.043482796710e-06
2.439849143456e-06+j5.845394973208e-06
3.138048641788e-06+j6.663863144295e-06
3.911395465476e-06+j7.484185609934e-06
4.706743974279e-06+j8.321013785264e-06
5.473494978693e-06+j9.227173340651e-06
6.183649665408e-06+j1.028800361206e-05
6.842308653747e-06+j1.160624135842e-05
7.487197848839e-06+j1.328773069042e-05
8.183520131851e-06+j1.543348831945e-05
9.020372707117e-06+j1.813643747628e-05
1.011044458645e-05+j2.147786292401e-05
1.159024463295e-05+j2.551937591247e-05
1.361497988728e-05+j3.028924069065e-05
1.634088342016e-05+j3.576730456964e-05
1.989118014373e-05+j4.188046879224e-05
2.431432868115e-05+j4.852553558428e-05
2.956142624871e-05+j5.562602174400e-05
3.551239156982e-05+j6.319844411050e-05
4.204508562587e-05+j7.137822499660e-05
4.909080400641e-05+j8.038044275916e-05
5.661842566840e-05+j9.043899801915e-05
6.455753651882e-05+j1.018054052514e-04
</dep>
<dep ac.i(pr2) frequency>
1.618931254801e-06+j6.132301881449e-06
2.380008966922e-06+j7.312478759131e-06
3.445801489556e-06+j8.587508550967e-06
4.885092840947e-06+j9.875080647654e-06
6.736339256166e-06+j1.104543125981e-05
8.973760116095e-06+j1.193504532848e-05
1.148313850210e-05+j1.238799726933e-05
1.407214994044e-05+j1.231379214143e-05
1.652318119823e-05+j1.172778172282e-05
1.866174640903e-05+j1.074398276808e-05
2.039880897540e-05+j9.525956415446e-06
2.172955712484e-05+j8.230862295820e-06
2.270404424293e-05+j6.975707295401e-06
2.339431156711e-05+j5.830229872872e-06
2.387182044253e-05+j4.825597102968e-06
2.419676578577e-05+j3.967459818730e-06
2.441542657586e-05+j3.247196712627e-06
2.456145909372e-05+j2.649638054094e-06
2.465849526356e-05+j2.157672923067e-06
2.472275785223e-05+j1.754689965619e-06
2.476522134138e-05+j1.425695447922e-06
2.479323912953e-05+j1.157693979998e-06
2.481170756481e-05+j9.396915931082e-07
2.482387357550e-05+j7.625259040033e-07
2.483188450702e-05+j6.186330643064e-07
2.483715798508e-05+j5.018066729732e-07
2.484062880250e-05+j4.069740062617e-07
2.484291289652e-05+j3.299992841748e-07
2.484441590515e-05+j2.675158914196e-07
2.484540488090e-05+j2.167858616456e-07
2.484605559964e-05+j1.755834969217e-07
2.484648374132e-05+j1.420996385771e-07
2.484676542830e-05+j1.148632536532e-07
2.484695074824e-05+j9.267735576669e-08
2.484707265547e-05+j7.456669193969e-08
2.484715282883e-05+j5.973502808367e-08
2.484720552602e-05+j4.753022582215e-08
2.484724011860e-05+j3.741561280507e-08
2.484726275854e-05+j2.894640772895e-08
2.484727747217e-05+j2.175017411632e-08
2.484728687620e-05+j1.551044903674e-08
2.484729264308e-05+j9.952829885850e-09
2.484729579839e-05+j4.832909003042e-09
2.484729690330e-05-j7.447359138745e-11
2.484729615430e-05-j4.985131492109e-09
2.484729341820e-05-j1.011502239032e-08
2.484728820839e-05-j1.568974491537e-08
2.484727959833e-05-j2.195445929982e-08
2.484726605680e-05-j2.918466790448e-08
2.484724517552e-05-j3.769832928629e-08
2.484721324093e-05-j4.786983779996e-08
2.484716457374e-05-j6.014648211928e-08
2.484709051900e-05-j7.506810386276e-08
2.484697790707e-05-j9.329081595504e-08
2.484680671183e-05-j1.156158146078e-07
2.484654649012e-05-j1.430245347798e-07
2.484615096985e-05-j1.767216629025e-07
2.484554982575e-05-j2.181878380260e-07
