<Qucs Dataset 0.0.21>
<indep frequency 100>
1.000000000000e+00
1.232846739442e+00
1.519911082953e+00
1.873817422860e+00
2.310129700083e+00
2.848035868436e+00
3.511191734215e+00
4.328761281083e+00
5.336699231206e+00
6.579332246576e+00
8.111308307897e+00
1.000000000000e+01
1.232846739442e+01
1.519911082953e+01
1.873817422860e+01
2.310129700083e+01
2.848035868436e+01
3.511191734215e+01
4.328761281083e+01
5.336699231206e+01
6.579332246576e+01
8.111308307897e+01
1.000000000000e+02
1.232846739442e+02
1.519911082953e+02
1.873817422860e+02
2.310129700083e+02
2.848035868436e+02
3.511191734215e+02
4.328761281083e+02
5.336699231206e+02
6.579332246576e+02
8.111308307897e+02
1.000000000000e+03
1.232846739442e+03
1.519911082953e+03
1.873817422860e+03
2.310129700083e+03
2.848035868436e+03
3.511191734215e+03
4.328761281083e+03
5.336699231206e+03
6.579332246576e+03
8.111308307897e+03
1.000000000000e+04
1.232846739442e+04
1.519911082953e+04
1.873817422860e+04
2.310129700083e+04
2.848035868436e+04
3.511191734215e+04
4.328761281083e+04
5.336699231206e+04
6.579332246576e+04
8.111308307897e+04
1.000000000000e+05
1.232846739442e+05
1.519911082953e+05
1.873817422860e+05
2.310129700083e+05
2.848035868436e+05
3.511191734215e+05
4.328761281083e+05
5.336699231206e+05
6.579332246576e+05
8.111308307897e+05
1.000000000000e+06
1.232846739442e+06
1.519911082953e+06
1.873817422860e+06
2.310129700083e+06
2.848035868436e+06
3.511191734215e+06
4.328761281083e+06
5.336699231206e+06
6.579332246576e+06
8.111308307897e+06
1.000000000000e+07
1.232846739442e+07
1.519911082953e+07
1.873817422860e+07
2.310129700083e+07
2.848035868436e+07
3.511191734215e+07
4.328761281083e+07
5.336699231206e+07
6.579332246576e+07
8.111308307897e+07
1.000000000000e+08
1.232846739442e+08
1.519911082953e+08
1.873817422860e+08
2.310129700083e+08
2.848035868436e+08
3.511191734215e+08
4.328761281083e+08
5.336699231206e+08
6.579332246576e+08
8.111308307897e+08
1.000000000000e+09
</indep>
<dep ac.v(b) frequency>
6.513252592537e-04+j2.467594151086e-03
9.575314406967e-04+j2.942522302753e-03
1.386345945967e-03+j3.455645996825e-03
1.965456876702e-03+j3.973855381547e-03
2.710357984367e-03+j4.444942055348e-03
3.610702229041e-03+j4.803104445847e-03
4.620554515819e-03+j4.985576267903e-03
5.662532976649e-03+j4.955904386425e-03
6.649053937080e-03+j4.720227598757e-03
7.509868763886e-03+j4.324404799471e-03
8.209111309816e-03+j3.834255476024e-03
8.744819341604e-03+j3.313039798946e-03
9.137123891538e-03+j2.807865067525e-03
9.415015452682e-03+j2.346813979137e-03
9.607256917912e-03+j1.942441477999e-03
9.738079026123e-03+j1.597028778166e-03
9.826111978272e-03+j1.307109784597e-03
9.884905069132e-03+j1.066580817406e-03
9.923972238224e-03+j8.685557814779e-04
9.949844688400e-03+j7.063490828445e-04
9.966940735778e-03+j5.739259594297e-04
9.978220871943e-03+j4.660559051637e-04
9.985656384338e-03+j3.783140134715e-04
9.990554501854e-03+j3.070126806501e-04
9.993779757732e-03+j2.491078443923e-04
9.995902896736e-03+j2.021019794411e-04
9.997300272509e-03+j1.639540632384e-04
9.998219865562e-03+j1.330004283547e-04
9.998824988659e-03+j1.078872772521e-04
9.999223159202e-03+j8.751418169358e-05
9.999485146126e-03+j7.098731081884e-05
9.999657523517e-03+j5.758098905600e-05
9.999770939570e-03+j4.670624529557e-05
9.999845561163e-03+j3.788515834412e-05
9.999894657796e-03+j3.072997094246e-05
9.999926960365e-03+j2.492610750822e-05
9.999948213412e-03+j2.021837742122e-05
9.999962196547e-03+j1.639977240338e-05
9.999971396537e-03+j1.330237349462e-05
9.999977449526e-03+j1.078997209382e-05
9.999981431992e-03+j8.752082882125e-06
9.999984052191e-03+j7.099086573080e-06
9.999985776108e-03+j5.758289541843e-06
9.999986910330e-03+j4.670727399287e-06
9.999987656573e-03+j3.788572128567e-06
9.999988147551e-03+j3.073028857038e-06
9.999988470583e-03+j2.492629822402e-06
9.999988683116e-03+j2.021850534545e-06
9.999988822950e-03+j1.639987290525e-06
9.999988914952e-03+j1.330246686718e-06
9.999988975485e-03+j1.079007091444e-06
9.999989015314e-03+j8.752196017443e-07
9.999989041522e-03+j7.099221411064e-07
9.999989058772e-03+j5.758453299773e-07
9.999989070129e-03+j4.670927965764e-07
9.999989077615e-03+j3.788818690349e-07
9.999989082560e-03+j3.073332452326e-07
9.999989085844e-03+j2.493003905738e-07
9.999989088051e-03+j2.022311610548e-07
9.999989089573e-03+j1.640555661458e-07
9.999989090681e-03+j1.330947355628e-07
9.999989091573e-03+j1.079870864779e-07
9.999989092407e-03+j8.762844411914e-08
9.999989093330e-03+j7.112348228839e-08
9.999989094507e-03+j5.774634804324e-08
9.999989096148e-03+j4.690873848599e-08
9.999989098543e-03+j3.813402495968e-08
9.999989102116e-03+j3.103628521225e-08
9.999989107499e-03+j2.530331865234e-08
9.999989115641e-03+j2.068289262498e-08
9.999989127970e-03+j1.697160539784e-08
9.999989146630e-03+j1.400585877731e-08
9.999989174835e-03+j1.165451208926e-08
9.999989217356e-03+j9.812839089256e-09
9.999989281202e-03+j8.397427039664e-09
9.999989376481e-03+j7.341639014929e-09
9.999989517371e-03+j6.591210610603e-09
9.999989722905e-03+j6.099505821749e-09
9.999990016896e-03+j5.822028683435e-09
9.999990425789e-03+j5.710232940167e-09
9.999990972861e-03+j5.705848498607e-09
9.999991668072e-03+j5.738863332710e-09
9.999992496015e-03+j5.733579600111e-09
9.999993409308e-03+j5.624612826783e-09
9.999994335826e-03+j5.376798333729e-09
9.999995200104e-03+j4.995989826140e-09
9.999995947015e-03+j4.522041583536e-09
9.999996553671e-03+j4.009035760201e-09
9.999997026119e-03+j3.505874920758e-09
9.999997387849e-03+j3.045793294729e-09
9.999997668268e-03+j2.644716731623e-09
9.999997894793e-03+j2.304382753726e-09
9.999998088450e-03+j2.016919242627e-09
9.999998261882e-03+j1.769647295453e-09
9.999998419454e-03+j1.549819611046e-09
9.999998559600e-03+j1.348489447973e-09
9.999998678713e-03+j1.162114439396e-09
9.999998774617e-03+j9.914138658633e-10
9.999998847995e-03+j8.387919414771e-10
9.999998901860e-03+j7.061911183000e-10
</dep>
<dep ac.v(e) frequency>
6.336323685557e-04+j2.400563320788e-03
9.315206283115e-04+j2.862590311938e-03
1.348686624540e-03+j3.361775284750e-03
1.912066326900e-03+j3.865907798305e-03
2.636732607662e-03+j4.324197663425e-03
3.512619498525e-03+j4.672630771095e-03
4.495039706051e-03+j4.850145847644e-03
5.508713397865e-03+j4.821279987283e-03
6.468436061629e-03+j4.592005230353e-03
7.305867329414e-03+j4.206934739946e-03
7.986115338035e-03+j3.730100053580e-03
8.507271157211e-03+j3.223042914281e-03
8.888918970861e-03+j2.731590977676e-03
9.159261761330e-03+j2.283064090292e-03
9.346281093404e-03+j1.889676148359e-03
9.473549491348e-03+j1.553646398176e-03
9.559191077004e-03+j1.271602899457e-03
9.616387086044e-03+j1.037607775654e-03
9.654393017080e-03+j8.449619889253e-04
9.679562656446e-03+j6.871615561434e-04
9.696194299145e-03+j5.583356466718e-04
9.707168016646e-03+j4.533958388183e-04
9.714401547456e-03+j3.680374268533e-04
9.719166610316e-03+j2.986729796581e-04
9.722304253901e-03+j2.423411262656e-04
9.724369719008e-03+j1.966121866310e-04
9.725729135840e-03+j1.595005830719e-04
9.726623748656e-03+j1.293878427698e-04
9.727212433920e-03+j1.049569458201e-04
9.727599788380e-03+j8.513735955746e-05
9.727854658576e-03+j6.905953729936e-05
9.728022353431e-03+j5.601752068071e-05
9.728132688603e-03+j4.543834337598e-05
9.728205283145e-03+j3.685707369553e-05
9.728253046101e-03+j2.989649626940e-05
9.728284471197e-03+j2.425059148524e-05
9.728305146931e-03+j1.967111402424e-05
9.728318750242e-03+j1.595669513404e-05
9.728327700351e-03+j1.294399732674e-05
9.728333588961e-03+j1.050053674673e-05
9.728337463318e-03+j8.518859816575e-06
9.728340012449e-03+j6.911819271512e-06
9.728341689702e-03+j5.608742478663e-06
9.728342793366e-03+j4.552323876848e-06
9.728343519721e-03+j3.696105057657e-06
9.728343997945e-03+j3.002431765826e-06
9.728344313086e-03+j2.440798025040e-06
9.728344521192e-03+j1.986504595720e-06
9.728344659272e-03+j1.619572781920e-06
9.728344751884e-03+j1.323865827115e-06
9.728344815497e-03+j1.086379264180e-06
9.728344861426e-03+j8.966690130807e-07
9.728344897837e-03+j7.463920764049e-07
9.728344931207e-03+j6.289396339901e-07
9.728344967470e-03+j5.391464007784e-07
9.728345013076e-03+j4.730634652307e-07
9.728345076134e-03+j4.277846162906e-07
9.728345167859e-03+j4.013185173076e-07
9.728345304563e-03+j3.925010981154e-07
9.728345510554e-03+j4.009442987249e-07
9.728345822461e-03+j4.270188847068e-07
9.728346295740e-03+j4.718705301988e-07
9.728347014525e-03+j5.374697853111e-07
9.728348106569e-03+j6.266979558901e-07
9.728349765902e-03+j7.434723552306e-07
9.728352287202e-03+j8.929158427207e-07
9.728356117886e-03+j1.081576996732e-06
9.728361936953e-03+j1.317708535962e-06
9.728370774068e-03+j1.611612382655e-06
9.728384188814e-03+j1.976059397955e-06
9.728404539195e-03+j2.426789060949e-06
9.728435380659e-03+j2.983086920181e-06
9.728482052030e-03+j3.668421547596e-06
9.728552519769e-03+j4.511091565041e-06
9.728658558406e-03+j5.544778047463e-06
9.728817321224e-03+j6.808809056965e-06
9.729053257130e-03+j8.347822855451e-06
9.729400082647e-03+j1.021040796730e-05
9.729902041197e-03+j1.244635221903e-05
9.730613016765e-03+j1.510268848089e-05
9.731591709999e-03+j1.822025303587e-05
9.732892373206e-03+j2.183496190481e-05
9.734555186918e-03+j2.598952279314e-05
9.736607153248e-03+j3.075739605667e-05
9.739086107733e-03+j3.626928153681e-05
9.742089291999e-03+j4.272162559595e-05
9.745830475901e-03+j5.035057079360e-05
9.750684148434e-03+j5.937096476459e-05
9.757203971947e-03+j6.988871399731e-05
9.766105882284e-03+j8.178966079568e-05
9.778192147378e-03+j9.460820695780e-05
9.794176162206e-03+j1.074062397989e-04
9.814385191519e-03+j1.187487869507e-04
9.838407826786e-03+j1.269039862953e-04
9.864893217507e-03+j1.303267052034e-04
9.891748482407e-03+j1.282589190430e-04
9.916752234891e-03+j1.210720006361e-04
9.938245604344e-03+j1.100907777616e-04
9.955487963390e-03+j9.703771176894e-05
9.968568971377e-03+j8.347951461097e-05
</dep>
<dep ac.v(uin) frequency>
1.000000000000e-02+j0.000000000000e+00
1.000000000000e-02+j0.000000000000e+00
1.000000000000e-02+j0.000000000000e+00
1.000000000000e-02+j0.000000000000e+00
1.000000000000e-02+j0.000000000000e+00
1.000000000000e-02+j0.000000000000e+00
1.000000000000e-02+j0.000000000000e+00
1.000000000000e-02+j0.000000000000e+00
1.000000000000e-02+j0.000000000000e+00
1.000000000000e-02+j0.000000000000e+00
1.000000000000e-02+j0.000000000000e+00
1.000000000000e-02+j0.000000000000e+00
1.000000000000e-02+j0.000000000000e+00
1.000000000000e-02+j0.000000000000e+00
1.000000000000e-02+j0.000000000000e+00
1.000000000000e-02+j0.000000000000e+00
1.000000000000e-02+j0.000000000000e+00
1.000000000000e-02+j0.000000000000e+00
1.000000000000e-02+j0.000000000000e+00
1.000000000000e-02+j0.000000000000e+00
1.000000000000e-02+j0.000000000000e+00
1.000000000000e-02+j0.000000000000e+00
1.000000000000e-02+j0.000000000000e+00
1.000000000000e-02+j0.000000000000e+00
1.000000000000e-02+j0.000000000000e+00
1.000000000000e-02+j0.000000000000e+00
1.000000000000e-02+j0.000000000000e+00
1.000000000000e-02+j0.000000000000e+00
1.000000000000e-02+j0.000000000000e+00
1.000000000000e-02+j0.000000000000e+00
1.000000000000e-02+j0.000000000000e+00
1.000000000000e-02+j0.000000000000e+00
1.000000000000e-02+j0.000000000000e+00
1.000000000000e-02+j0.000000000000e+00
1.000000000000e-02+j0.000000000000e+00
1.000000000000e-02+j0.000000000000e+00
1.000000000000e-02+j0.000000000000e+00
1.000000000000e-02+j0.000000000000e+00
1.000000000000e-02+j0.000000000000e+00
1.000000000000e-02+j0.000000000000e+00
1.000000000000e-02+j0.000000000000e+00
1.000000000000e-02+j0.000000000000e+00
1.000000000000e-02+j0.000000000000e+00
1.000000000000e-02+j0.000000000000e+00
1.000000000000e-02+j0.000000000000e+00
1.000000000000e-02+j0.000000000000e+00
1.000000000000e-02+j0.000000000000e+00
1.000000000000e-02+j0.000000000000e+00
1.000000000000e-02+j0.000000000000e+00
1.000000000000e-02+j0.000000000000e+00
1.000000000000e-02+j0.000000000000e+00
1.000000000000e-02+j0.000000000000e+00
1.000000000000e-02+j0.000000000000e+00
1.000000000000e-02+j0.000000000000e+00
1.000000000000e-02+j0.000000000000e+00
1.000000000000e-02+j0.000000000000e+00
1.000000000000e-02+j0.000000000000e+00
1.000000000000e-02+j0.000000000000e+00
1.000000000000e-02+j0.000000000000e+00
1.000000000000e-02+j0.000000000000e+00
1.000000000000e-02+j0.000000000000e+00
1.000000000000e-02+j0.000000000000e+00
1.000000000000e-02+j0.000000000000e+00
1.000000000000e-02+j0.000000000000e+00
1.000000000000e-02+j0.000000000000e+00
1.000000000000e-02+j0.000000000000e+00
1.000000000000e-02+j0.000000000000e+00
1.000000000000e-02+j0.000000000000e+00
1.000000000000e-02+j0.000000000000e+00
1.000000000000e-02+j0.000000000000e+00
1.000000000000e-02+j0.000000000000e+00
1.000000000000e-02+j0.000000000000e+00
1.000000000000e-02+j0.000000000000e+00
1.000000000000e-02+j0.000000000000e+00
1.000000000000e-02+j0.000000000000e+00
1.000000000000e-02+j0.000000000000e+00
1.000000000000e-02+j0.000000000000e+00
1.000000000000e-02+j0.000000000000e+00
1.000000000000e-02+j0.000000000000e+00
1.000000000000e-02+j0.000000000000e+00
1.000000000000e-02+j0.000000000000e+00
1.000000000000e-02+j0.000000000000e+00
1.000000000000e-02+j0.000000000000e+00
1.000000000000e-02+j0.000000000000e+00
1.000000000000e-02+j0.000000000000e+00
1.000000000000e-02+j0.000000000000e+00
1.000000000000e-02+j0.000000000000e+00
1.000000000000e-02+j0.000000000000e+00
1.000000000000e-02+j0.000000000000e+00
1.000000000000e-02+j0.000000000000e+00
1.000000000000e-02+j0.000000000000e+00
1.000000000000e-02+j0.000000000000e+00
1.000000000000e-02+j0.000000000000e+00
1.000000000000e-02+j0.000000000000e+00
1.000000000000e-02+j0.000000000000e+00
1.000000000000e-02+j0.000000000000e+00
1.000000000000e-02+j0.000000000000e+00
1.000000000000e-02+j0.000000000000e+00
1.000000000000e-02+j0.000000000000e+00
1.000000000000e-02+j0.000000000000e+00
</dep>
<dep ac.i(pr1) frequency>
1.688360966382e-08+j6.396549537492e-08
2.482106575151e-08+j7.627671064039e-08
3.593676658195e-08+j8.957806535248e-08
5.094844126777e-08+j1.030112968082e-07
7.025771779480e-08+j1.152230729926e-07
9.359638088852e-08+j1.245077031130e-07
1.197737041013e-07+j1.292381799509e-07
1.467837998420e-07+j1.284695877729e-07
1.723563299789e-07+j1.223610807144e-07
1.946703141554e-07+j1.121014403436e-07
2.127960325093e-07+j9.939687245194e-08
2.266826201617e-07+j8.588724911050e-08
2.368519123806e-07+j7.279373949771e-08
2.440553987822e-07+j6.084437159323e-08
2.490386691456e-07+j5.036468034313e-08
2.524298310588e-07+j4.141390589659e-08
2.547118153413e-07+j3.390233188020e-08
2.562358459039e-07+j2.767190124473e-08
2.572485424496e-07+j2.254431297770e-08
2.579192063821e-07+j1.834650998594e-08
2.583623689981e-07+j1.492236337621e-08
2.586547719660e-07+j1.213666286534e-08
2.588475148728e-07+j9.875168077588e-09
2.589744836275e-07+j8.042858471069e-09
2.590580886173e-07+j6.561527894343e-09
2.591131246717e-07+j5.367300910927e-09
2.591493476377e-07+j4.408336986291e-09
2.591731857004e-07+j3.642825741402e-09
2.591888723192e-07+j3.037295439675e-09
2.591991946701e-07+j2.565219683834e-09
2.592059873988e-07+j2.205892900902e-09
2.592104580660e-07+j1.943542220717e-09
2.592134015434e-07+j1.766645815493e-09
2.592153412205e-07+j1.667432599808e-09
2.592166220182e-07+j1.641543894451e-09
2.592174717020e-07+j1.687843566259e-09
2.592180413759e-07+j1.808369037188e-09
2.592184323499e-07+j2.008421404640e-09
2.592187141552e-07+j2.296798847937e-09
2.592189369087e-07+j2.686183698488e-09
2.592191402254e-07+j3.193700256209e-09
2.592193602641e-07+j3.841667915494e-09
2.592196361572e-07+j4.658582738051e-09
2.592200169709e-07+j5.680370647982e-09
2.592205704305e-07+j6.951967364647e-09
2.592213949658e-07+j8.529294554101e-09
2.592226372155e-07+j1.048171910045e-08
2.592245181064e-07+j1.289510363859e-08
2.592273721439e-07+j1.587558248131e-08
2.592317069011e-07+j1.955422895485e-08
2.592382932876e-07+j2.409281932202e-08
2.592483026488e-07+j2.969094662839e-08
2.592635150795e-07+j3.659479704358e-08
2.592866359933e-07+j4.510797414002e-08
2.593217772422e-07+j5.560484616063e-08
2.593751883341e-07+j6.854700143007e-08
2.594563677499e-07+j8.450353215875e-08
2.595797519145e-07+j1.041760322630e-07
2.597672819847e-07+j1.284293965377e-07
2.600523044618e-07+j1.583297531583e-07
2.604854982202e-07+j1.951911555465e-07
2.611438794699e-07+j2.406330080543e-07
2.621444802057e-07+j2.966506030614e-07
2.636651190802e-07+j3.657015947302e-07
2.659759270691e-07+j4.508116942716e-07
2.694871616262e-07+j5.557032660323e-07
2.748216445207e-07+j6.849506693569e-07
2.829243181838e-07+j8.441658001381e-07
2.952275118444e-07+j1.040215704367e-06
3.138992582200e-07+j1.281470170675e-06
3.422141243128e-07+j1.578068669948e-06
3.851017910196e-07+j1.942178996482e-06
4.499466668867e-07+j2.388187815779e-06
5.477263034585e-07+j2.932705430937e-06
6.945708977056e-07+j3.594168663801e-06
9.137623031070e-07+j4.391672268034e-06
1.237990912998e-06+j5.342455105094e-06
1.711222594805e-06+j6.457288216925e-06
2.388652486309e-06+j7.733115198990e-06
3.331995549038e-06+j9.143258684531e-06
4.596594544895e-06+j1.062813835733e-05
6.208734272491e-06+j1.209377015595e-05
8.138879442249e-06+j1.342818253500e-05
1.028751104310e-05+j1.454003227644e-05
1.250282524974e-05+j1.540565004547e-05
1.463107729360e-05+j1.609475618309e-05
1.657253046775e-05+j1.675470046886e-05
1.831078050190e-05+j1.756416632915e-05
1.990685030053e-05+j1.868544647726e-05
2.147212621726e-05+j2.023425545964e-05
2.313552368789e-05+j2.226777102852e-05
2.500953569005e-05+j2.478573784038e-05
2.715431661248e-05+j2.774608977692e-05
2.954616139982e-05+j3.110315972399e-05
3.207008445728e-05+j3.486916838204e-05
3.455555609950e-05+j3.917658213580e-05
3.684619385073e-05+j4.430468114898e-05
3.886300823681e-05+j5.065632014578e-05
4.062769627093e-05+j5.871177450310e-05
4.225008469736e-05+j6.899815407608e-05
</dep>
<dep ac.i(pr2) frequency>
2.313640223722e-06+j8.765396741539e-06
3.401347061547e-06+j1.045243816694e-05
4.924583683825e-06+j1.227515788795e-05
6.981703877320e-06+j1.411594293998e-05
9.627744608742e-06+j1.578933840891e-05
1.282595108098e-05+j1.706160365992e-05
1.641315246387e-05+j1.770978001245e-05
2.011447257233e-05+j1.760437845753e-05
2.361879632329e-05+j1.676720521296e-05
2.667658623728e-05+j1.536116037679e-05
2.916043844079e-05+j1.362004813358e-05
3.106338268087e-05+j1.176858143674e-05
3.245692849193e-05+j9.974094926307e-06
3.344405602086e-05+j8.336343951201e-06
3.412693693221e-05+j6.899926084202e-06
3.459164375480e-05+j5.672944477055e-06
3.490435476394e-05+j4.643086623535e-06
3.511319981939e-05+j3.788670724434e-06
3.525197437563e-05+j3.085235616156e-06
3.534387859790e-05+j2.509032274910e-06
3.540460724658e-05+j2.038623464504e-06
3.544467659188e-05+j1.655428706800e-06
3.547108904900e-05+j1.343729025336e-06
3.548848816170e-05+j1.090424306355e-06
3.549994492844e-05+j8.847001952555e-07
3.550748675101e-05+j7.176834635139e-07
3.551245051428e-05+j5.821221219354e-07
3.551571709552e-05+j4.721041905069e-07
3.551786661484e-05+j3.828178761873e-07
3.551928099573e-05+j3.103507469150e-07
3.552021162351e-05+j2.515234348646e-07
3.552082393825e-05+j2.037528932800e-07
3.552122680774e-05+j1.649404436833e-07
3.552149186751e-05+j1.333803583898e-07
3.552166625150e-05+j1.076853150393e-07
3.552178097057e-05+j8.672563547995e-08
3.552185642585e-05+j6.957973867098e-08
3.552190603617e-05+j5.549368298642e-08
3.552193862427e-05+j4.384804769241e-08
3.552195998567e-05+j3.413071260804e-08
3.552197391934e-05+j2.591434712796e-08
3.552198290328e-05+j1.883762303916e-08
3.552198853524e-05+j1.258932727150e-08
3.552199181682e-05+j6.894677157709e-09
3.552199333163e-05+j1.503237055246e-09
3.552199334908e-05-j3.822094702433e-09
3.552199187226e-05-j9.315512647604e-09
3.552198863854e-05-j1.521860323249e-08
3.552198307280e-05-j2.179096892054e-08
3.552197418523e-05-j2.932164441667e-08
3.552196039521e-05-j3.814180690909e-08
3.552193925030e-05-j4.863933896133e-08
3.552190699001e-05-j6.127588389359e-08
3.552185787709e-05-j7.660714258660e-08
3.552178317727e-05-j9.530730221458e-08
3.552166960593e-05-j1.181986672949e-07
3.552149696588e-05-j1.462877887959e-07
3.552123455596e-05-j1.808096663825e-07
