<Qucs Dataset 0.0.23>
<indep frequency 100>
1.000000000000e+0
1.232846739442e+0
1.519911082953e+0
1.873817422860e+0
2.310129700083e+0
2.848035868436e+0
3.511191734215e+0
4.328761281083e+0
5.336699231206e+0
6.579332246576e+0
8.111308307897e+0
1.000000000000e+1
1.232846739442e+1
1.519911082953e+1
1.873817422860e+1
2.310129700083e+1
2.848035868436e+1
3.511191734215e+1
4.328761281083e+1
5.336699231206e+1
6.579332246576e+1
8.111308307897e+1
1.000000000000e+2
1.232846739442e+2
1.519911082953e+2
1.873817422860e+2
2.310129700083e+2
2.848035868436e+2
3.511191734215e+2
4.328761281083e+2
5.336699231206e+2
6.579332246576e+2
8.111308307897e+2
1.000000000000e+3
1.232846739442e+3
1.519911082953e+3
1.873817422860e+3
2.310129700083e+3
2.848035868436e+3
3.511191734215e+3
4.328761281083e+3
5.336699231206e+3
6.579332246576e+3
8.111308307897e+3
1.000000000000e+4
1.232846739442e+4
1.519911082953e+4
1.873817422860e+4
2.310129700083e+4
2.848035868436e+4
3.511191734215e+4
4.328761281083e+4
5.336699231206e+4
6.579332246576e+4
8.111308307897e+4
1.000000000000e+5
1.232846739442e+5
1.519911082953e+5
1.873817422860e+5
2.310129700083e+5
2.848035868436e+5
3.511191734215e+5
4.328761281083e+5
5.336699231206e+5
6.579332246576e+5
8.111308307897e+5
1.000000000000e+6
1.232846739442e+6
1.519911082953e+6
1.873817422860e+6
2.310129700083e+6
2.848035868436e+6
3.511191734215e+6
4.328761281083e+6
5.336699231206e+6
6.579332246576e+6
8.111308307897e+6
1.000000000000e+7
1.232846739442e+7
1.519911082953e+7
1.873817422860e+7
2.310129700083e+7
2.848035868436e+7
3.511191734215e+7
4.328761281083e+7
5.336699231206e+7
6.579332246576e+7
8.111308307897e+7
1.000000000000e+8
1.232846739442e+8
1.519911082953e+8
1.873817422860e+8
2.310129700083e+8
2.848035868436e+8
3.511191734215e+8
4.328761281083e+8
5.336699231206e+8
6.579332246576e+8
8.111308307897e+8
1.000000000000e+9
</indep>
<dep ac.v(b) frequency>
6.017074840939e-2+j2.943392282393e-1
8.958581858848e-2+j3.554617780938e-1
1.320618121205e-1+j4.250321715638e-1
1.919365814270e-1+j5.010640173622e-1
2.735295328123e-1+j5.792027211686e-1
3.797385511012e-1+j6.522317979719e-1
5.100375745761e-1+j7.105757136086e-1
6.587551575702e-1+j7.444287298509e-1
8.151308719048e-1+j7.471664248930e-1
9.660015818217e-1+j7.182220809223e-1
1.099948161543e+0+j6.633519995520e-1
1.210369660444e+0+j5.920805061549e-1
1.295966348854e+0+j5.142181094862e-1
1.359208530560e+0+j4.374522385203e-1
1.404295757043e+0+j3.666013369403e-1
1.435627976542e+0+j3.039962895595e-1
1.457016403056e+0+j2.502543988447e-1
1.471439588168e+0+j2.049984721740e-1
1.481085844218e+0+j1.673706598181e-1
1.487501715506e+0+j1.363475948592e-1
1.491753333602e+0+j1.109118456579e-1
1.494563894996e+0+j9.013351563885e-2
1.496418840029e+0+j7.320081237818e-2
1.497641783336e+0+j5.942396013569e-2
1.498447489162e+0+j4.822653726058e-2
1.498978062779e+0+j3.913188223374e-2
1.499327349765e+0+j3.174847234880e-2
1.499557246072e+0+j2.575611340837e-2
1.499708540946e+0+j2.089368548144e-2
1.499808099522e+0+j1.694863752826e-2
1.499873609627e+0+j1.374816291875e-2
1.499916714023e+0+j1.115187929130e-2
1.499945075188e+0+j9.045804153765e-3
1.499963735526e+0+j7.337421919858e-3
1.499976013036e+0+j5.951657852926e-3
1.499984090927e+0+j4.827599177075e-3
1.499989405688e+0+j3.915828405901e-3
1.499992902466e+0+j3.176256552736e-3
1.499995203121e+0+j2.576363568170e-3
1.499996716802e+0+j2.089770030531e-3
1.499997712705e+0+j1.695078026730e-3
1.499998367944e+0+j1.374930649028e-3
1.499998799047e+0+j1.115248960579e-3
1.499999082684e+0+j9.046129875157e-4
1.499999269299e+0+j7.337595760459e-4
1.499999392079e+0+j5.951750640391e-4
1.499999472860e+0+j4.827648711496e-4
1.499999526008e+0+j3.915854861086e-4
1.499999560976e+0+j3.176270695838e-4
1.499999583983e+0+j2.576371146421e-4
1.499999599120e+0+j2.089774112409e-4
1.499999609079e+0+j1.695080251450e-4
1.499999615632e+0+j1.374931893429e-4
1.499999619943e+0+j1.115249695115e-4
1.499999622779e+0+j9.046134663536e-5
1.499999624645e+0+j7.337599386452e-5
1.499999625873e+0+j5.951753895336e-5
1.499999626681e+0+j4.827652075747e-5
1.499999627212e+0+j3.915858662556e-5
1.499999627562e+0+j3.176275197745e-5
1.499999627792e+0+j2.576376598000e-5
1.499999627943e+0+j2.089780780759e-5
1.499999628043e+0+j1.695088444424e-5
1.499999628109e+0+j1.374941979119e-5
1.499999628152e+0+j1.115262121217e-5
1.499999628180e+0+j9.046287815400e-6
1.499999628199e+0+j7.337788175988e-6
1.499999628212e+0+j5.951986630870e-6
1.499999628220e+0+j4.827938994867e-6
1.499999628226e+0+j3.916212383324e-6
1.499999628230e+0+j3.176711273638e-6
1.499999628234e+0+j2.576914200971e-6
1.499999628238e+0+j2.090443542095e-6
1.499999628242e+0+j1.695905489431e-6
1.499999628247e+0+j1.375949199302e-6
1.499999628255e+0+j1.116503736349e-6
1.499999628267e+0+j9.061592536933e-7
1.499999628284e+0+j7.356651888526e-7
1.499999628310e+0+j5.975233964786e-7
1.499999628349e+0+j4.856583047702e-7
1.499999628409e+0+j3.951495525105e-7
1.499999628499e+0+j3.220152798706e-7
1.499999628636e+0+j2.630364165275e-7
1.499999628842e+0+j2.156140117227e-7
1.499999629154e+0+j1.776529278234e-7
1.499999629622e+0+j1.474660881819e-7
1.499999630321e+0+j1.236939358024e-7
1.499999631355e+0+j1.052338743885e-7
1.499999632864e+0+j9.117449819758e-8
1.499999635023e+0+j8.073021480237e-8
1.499999638030e+0+j7.317530164019e-8
1.499999642059e+0+j6.778518396998e-8
1.499999647188e+0+j6.380707766961e-8
1.499999653308e+0+j6.049231139517e-8
1.499999660074e+0+j5.720516306611e-8
1.499999666951e+0+j5.356534544238e-8
1.499999673372e+0+j4.952784444616e-8
1.499999678914e+0+j4.533255009014e-8
1.499999683393e+0+j4.135797422153e-8
1.499999686842e+0+j3.797645916960e-8
</dep>
<dep ac.v(uin) frequency>
1.500000000000e+0+j0.000000000000e+0
1.500000000000e+0+j0.000000000000e+0
1.500000000000e+0+j0.000000000000e+0
1.500000000000e+0+j0.000000000000e+0
1.500000000000e+0+j0.000000000000e+0
1.500000000000e+0+j0.000000000000e+0
1.500000000000e+0+j0.000000000000e+0
1.500000000000e+0+j0.000000000000e+0
1.500000000000e+0+j0.000000000000e+0
1.500000000000e+0+j0.000000000000e+0
1.500000000000e+0+j0.000000000000e+0
1.500000000000e+0+j0.000000000000e+0
1.500000000000e+0+j0.000000000000e+0
1.500000000000e+0+j0.000000000000e+0
1.500000000000e+0+j0.000000000000e+0
1.500000000000e+0+j0.000000000000e+0
1.500000000000e+0+j0.000000000000e+0
1.500000000000e+0+j0.000000000000e+0
1.500000000000e+0+j0.000000000000e+0
1.500000000000e+0+j0.000000000000e+0
1.500000000000e+0+j0.000000000000e+0
1.500000000000e+0+j0.000000000000e+0
1.500000000000e+0+j0.000000000000e+0
1.500000000000e+0+j0.000000000000e+0
1.500000000000e+0+j0.000000000000e+0
1.500000000000e+0+j0.000000000000e+0
1.500000000000e+0+j0.000000000000e+0
1.500000000000e+0+j0.000000000000e+0
1.500000000000e+0+j0.000000000000e+0
1.500000000000e+0+j0.000000000000e+0
1.500000000000e+0+j0.000000000000e+0
1.500000000000e+0+j0.000000000000e+0
1.500000000000e+0+j0.000000000000e+0
1.500000000000e+0+j0.000000000000e+0
1.500000000000e+0+j0.000000000000e+0
1.500000000000e+0+j0.000000000000e+0
1.500000000000e+0+j0.000000000000e+0
1.500000000000e+0+j0.000000000000e+0
1.500000000000e+0+j0.000000000000e+0
1.500000000000e+0+j0.000000000000e+0
1.500000000000e+0+j0.000000000000e+0
1.500000000000e+0+j0.000000000000e+0
1.500000000000e+0+j0.000000000000e+0
1.500000000000e+0+j0.000000000000e+0
1.500000000000e+0+j0.000000000000e+0
1.500000000000e+0+j0.000000000000e+0
1.500000000000e+0+j0.000000000000e+0
1.500000000000e+0+j0.000000000000e+0
1.500000000000e+0+j0.000000000000e+0
1.500000000000e+0+j0.000000000000e+0
1.500000000000e+0+j0.000000000000e+0
1.500000000000e+0+j0.000000000000e+0
1.500000000000e+0+j0.000000000000e+0
1.500000000000e+0+j0.000000000000e+0
1.500000000000e+0+j0.000000000000e+0
1.500000000000e+0+j0.000000000000e+0
1.500000000000e+0+j0.000000000000e+0
1.500000000000e+0+j0.000000000000e+0
1.500000000000e+0+j0.000000000000e+0
1.500000000000e+0+j0.000000000000e+0
1.500000000000e+0+j0.000000000000e+0
1.500000000000e+0+j0.000000000000e+0
1.500000000000e+0+j0.000000000000e+0
1.500000000000e+0+j0.000000000000e+0
1.500000000000e+0+j0.000000000000e+0
1.500000000000e+0+j0.000000000000e+0
1.500000000000e+0+j0.000000000000e+0
1.500000000000e+0+j0.000000000000e+0
1.500000000000e+0+j0.000000000000e+0
1.500000000000e+0+j0.000000000000e+0
1.500000000000e+0+j0.000000000000e+0
1.500000000000e+0+j0.000000000000e+0
1.500000000000e+0+j0.000000000000e+0
1.500000000000e+0+j0.000000000000e+0
1.500000000000e+0+j0.000000000000e+0
1.500000000000e+0+j0.000000000000e+0
1.500000000000e+0+j0.000000000000e+0
1.500000000000e+0+j0.000000000000e+0
1.500000000000e+0+j0.000000000000e+0
1.500000000000e+0+j0.000000000000e+0
1.500000000000e+0+j0.000000000000e+0
1.500000000000e+0+j0.000000000000e+0
1.500000000000e+0+j0.000000000000e+0
1.500000000000e+0+j0.000000000000e+0
1.500000000000e+0+j0.000000000000e+0
1.500000000000e+0+j0.000000000000e+0
1.500000000000e+0+j0.000000000000e+0
1.500000000000e+0+j0.000000000000e+0
1.500000000000e+0+j0.000000000000e+0
1.500000000000e+0+j0.000000000000e+0
1.500000000000e+0+j0.000000000000e+0
1.500000000000e+0+j0.000000000000e+0
1.500000000000e+0+j0.000000000000e+0
1.500000000000e+0+j0.000000000000e+0
1.500000000000e+0+j0.000000000000e+0
1.500000000000e+0+j0.000000000000e+0
1.500000000000e+0+j0.000000000000e+0
1.500000000000e+0+j0.000000000000e+0
1.500000000000e+0+j0.000000000000e+0
1.500000000000e+0+j0.000000000000e+0
</dep>
<dep ac.i(pr1) frequency>
4.426546191834e-7+j2.165371512617e-6
6.590507424258e-7+j2.615033632723e-6
9.715313952081e-7+j3.126844775416e-6
1.412008602267e-6+j3.686192067196e-6
2.012258686873e-6+j4.261040682731e-6
2.793600348517e-6+j4.798301977788e-6
3.752163539784e-6+j5.227532733824e-6
4.846225468651e-6+j5.476596332210e-6
5.996625523631e-6+j5.496760117051e-6
7.106527235171e-6+j5.283855984038e-6
8.091924189754e-6+j4.880232256470e-6
8.904255560691e-6+j4.355957554487e-6
9.533959702869e-6+j3.783206213188e-6
9.999209755418e-6+j3.218534282816e-6
1.033090031265e-5+j2.697392274576e-6
1.056140021596e-5+j2.236931307736e-6
1.071874720007e-5+j1.841697137244e-6
1.082485340088e-5+j1.508920417932e-6
1.089581744756e-5+j1.232297069295e-6
1.094301671194e-5+j1.004306946451e-6
1.097429434169e-5+j8.174755238163e-7
1.099497063404e-5+j6.649746508072e-7
1.100861679952e-5+j5.408479990371e-7
1.101761355495e-5+j4.400405375024e-7
1.102354084388e-5+j3.583356582246e-7
1.102744408387e-5+j2.922562222971e-7
1.103001366319e-5+j2.389582929364e-7
1.103170492821e-5+j1.961311368510e-7
1.103281795085e-5+j1.619090452738e-7
1.103355036837e-5+j1.347964797501e-7
1.103403230388e-5+j1.136061494890e-7
1.103434940924e-5+j9.740885319358e-8
1.103455805486e-5+j8.549371321597e-8
1.103469533638e-5+j7.733749928020e-8
1.103478566384e-5+j7.258193114363e-8
1.103484509946e-5+j7.101808941324e-8
1.103488421263e-5+j7.257731697467e-8
1.103490995904e-5+j7.732824722575e-8
1.103492691738e-5+j8.547984781444e-8
1.103493810352e-5+j9.739062408835e-8
1.103494550681e-5+j1.135843925255e-7
1.103495044389e-5+j1.347733207726e-7
1.103495379276e-5+j1.618892491083e-7
1.103495614902e-5+j1.961246716146e-7
1.103495793170e-5+j2.389851797551e-7
1.103495945784e-5+j2.923556749417e-7
1.103496099886e-5+j3.585832620838e-7
1.103496282882e-5+j4.405804696445e-7
1.103496527318e-5+j5.419533356055e-7
1.103496876663e-5+j6.671599922673e-7
1.103497393048e-5+j8.217067240618e-7
1.103498168309e-5+j1.012390120521e-6
1.103499340320e-5+j1.247595973679e-6
1.103501117519e-5+j1.537668064659e-6
1.103503815969e-5+j1.895363057707e-6
1.103507915574e-5+j2.336411506671e-6
1.103514145426e-5+j2.880209645391e-6
1.103523613467e-5+j3.550672384771e-6
1.103538003533e-5+j4.377285028404e-6
1.103559874813e-5+j5.396399956999e-6
1.103593116980e-5+j6.652835303544e-6
1.103643641948e-5+j8.201845919260e-6
1.103720435251e-5+j1.011155329780e-5
1.103837154047e-5+j1.246594129950e-5
1.104014555884e-5+j1.536854938227e-5
1.104284190155e-5+j1.894702568706e-5
1.104694008589e-5+j2.335874007765e-5
1.105316892315e-5+j2.879770373212e-5
1.106263611305e-5+j3.550309912291e-5
1.107702519473e-5+j4.376979463340e-5
1.109889484557e-5+j5.396130456933e-5
1.113213367562e-5+j6.652576142617e-5
1.118265121325e-5+j8.201559704792e-5
1.125942753792e-5+j1.011117873708e-4
1.137610723412e-5+j1.246537066879e-4
1.155341883981e-5+j1.536758663829e-4
1.182284476156e-5+j1.894530827919e-4
1.223218207504e-5+j2.335559278657e-4
1.285395492406e-5+j2.879186536193e-4
1.379810960218e-5+j3.549221165849e-4
1.523110069158e-5+j4.374944939299e-4
1.740442039485e-5+j5.392326422491e-4
2.069686415952e-5+j6.645465468057e-4
2.567628013879e-5+j8.188279901167e-4
3.318781531969e-5+j1.008641597156e-3
4.447558522710e-5+j1.241930749183e-3
6.134049702064e-5+j1.528221467958e-3
8.632300639368e-5+j1.878794581839e-3
1.228663776054e-4+j2.306785800766e-3
1.753528642364e-4+j2.827183531962e-3
2.488156766196e-4+j3.456767941891e-3
3.480718245856e-4+j4.214232795416e-3
4.761581147405e-4+j5.121060634321e-3
6.324941143793e-4+j6.203957480256e-3
8.120299944215e-4+j7.499257946175e-3
1.006892288459e-3+j9.058397188379e-3
1.210741538024e-3+j1.095233033315e-2
1.424009805565e-3+j1.327344465157e-2
1.657803179095e-3+j1.613584384922e-2
1.936131396679e-3+j1.967631857758e-2
</dep>
<dep ac.i(pr3) frequency>
5.980535262396e-5+j2.925518096865e-4
8.904179543087e-5+j3.533031838059e-4
1.312598471984e-4+j4.224511007598e-4
1.907710180963e-4+j4.980212319172e-4
2.718684841945e-4+j5.756854268771e-4
3.774325324825e-4+j6.482710238034e-4
5.069402958305e-4+j7.062606373832e-4
6.547547692658e-4+j7.399080761879e-4
8.101808689045e-4+j7.426291461953e-4
9.601353940804e-4+j7.138605710719e-4
1.093268563349e-3+j6.593236964376e-4
1.203019511337e-3+j5.884850097899e-4
1.288096401173e-3+j5.110954441177e-4
1.350954535359e-3+j4.347957453467e-4
1.395767962979e-3+j3.643750964494e-4
1.426909912933e-3+j3.021502275996e-4
1.448168455057e-3+j2.487346926079e-4
1.462504053240e-3+j2.037535894163e-4
1.472091730971e-3+j1.663542777220e-4
1.478468640930e-3+j1.355196051629e-4
1.482694440446e-3+j1.102383186148e-4
1.485487934289e-3+j8.958616845004e-5
1.487331614893e-3+j7.275629199069e-5
1.488547131696e-3+j5.906310228180e-5
1.489347944754e-3+j4.793367810294e-5
1.489875296384e-3+j3.889425256291e-5
1.490222462273e-3+j3.155568057223e-5
1.490450962500e-3+j2.559971240608e-5
1.490601338614e-3+j2.076681387955e-5
1.490700292606e-3+j1.684572477032e-5
1.490765404891e-3+j1.366468792818e-5
1.490808247529e-3+j1.108417359025e-5
1.490836436467e-3+j8.990891570683e-6
1.490854983488e-3+j7.292888258952e-6
1.490867186440e-3+j5.915545019556e-6
1.490875215277e-3+j4.798319223411e-6
1.490880497763e-3+j3.892093781108e-6
1.490883973307e-3+j3.157023524595e-6
1.490886259991e-3+j2.560786346273e-6
1.490887764481e-3+j2.077163583284e-6
1.490888754336e-3+j1.684887962170e-6
1.490889405596e-3+j1.366708837653e-6
1.490889834083e-3+j1.108633829651e-6
1.490890115999e-3+j8.993136210111e-7
1.490890301483e-3+j7.295429214282e-7
1.490890423520e-3+j5.918556834714e-7
1.490890503816e-3+j4.801967865465e-7
1.490890556650e-3+j3.896557594593e-7
1.490890591417e-3+j3.162508362575e-7
1.490890614303e-3+j2.567538512716e-7
1.490890629375e-3+j2.085482740646e-7
1.490890639316e-3+j1.695141417587e-7
1.490890645892e-3+j1.379348287399e-7
1.490890650274e-3+j1.124215539121e-7
1.490890653241e-3+j9.185230562563e-8
1.490890655320e-3+j7.532249840696e-8
1.490890656882e-3+j6.210519152312e-8
1.490890658203e-3+j5.161911990477e-8
1.490890659520e-3+j4.340313150947e-8
1.490890661065e-3+j3.709590693818e-8
1.490890663114e-3+j3.242006940759e-8
1.490890666031e-3+j2.916998624168e-8
1.490890670335e-3+j2.720272535996e-8
1.490890676792e-3+j2.643176893404e-8
1.490890686550e-3+j2.682320753534e-8
1.490890701344e-3+j2.839424699085e-8
1.490890723805e-3+j3.121396151194e-8
1.490890757927e-3+j3.540632477406e-8
1.490890809779e-3+j4.115564954287e-8
1.490890888581e-3+j4.871467000235e-8
1.490891008346e-3+j5.841561273444e-8
1.490891190369e-3+j7.068472544370e-8
1.490891467011e-3+j8.606086905770e-8
1.490891887448e-3+j1.052189284593e-7
1.490892526395e-3+j1.289989546044e-7
1.490893497359e-3+j1.584421010415e-7
1.490894972722e-3+j1.948345264055e-7
1.490897214186e-3+j2.397604296966e-7
1.490900618804e-3+j2.951651253960e-7
1.490905788423e-3+j3.634282789125e-7
1.490913634033e-3+j4.474456003614e-7
1.490925531596e-3+j5.507135043036e-7
1.490943552575e-3+j6.774038267239e-7
1.490970799981e-3+j8.324018166216e-7
1.491011886831e-3+j1.021255770030e-6
1.491073591610e-3+j1.249944520372e-6
1.491165698403e-3+j1.524303194518e-6
1.491301944815e-3+j1.848859569238e-6
1.491500803126e-3+j2.224754143337e-6
1.491785446730e-3+j2.646454175698e-6
1.492181723338e-3+j3.097369892910e-6
1.492712601355e-3+j3.545589660402e-6
1.493388312086e-3+j3.942807615021e-6
1.494194478196e-3+j4.230828812824e-6
1.495085245159e-3+j4.357707239300e-6
1.495989783722e-3+j4.297942223830e-6
1.496832870139e-3+j4.064095657420e-6
1.497558196655e-3+j3.700969028639e-6
1.498140455022e-3+j3.266901887350e-6
1.498582444100e-3+j2.815068852807e-6
</dep>
<dep ac.i(pr4) frequency>
-1.203414968188e-5-j5.886784564787e-5
-1.791716371770e-5-j7.109235561877e-5
-2.641236242411e-5-j8.500643431275e-5
-3.838731628539e-5-j1.002128034724e-4
-5.470590656247e-5-j1.158405442337e-4
-7.594771022024e-5-j1.304463595944e-4
-1.020075149152e-4-j1.421151427217e-4
-1.317510315140e-4-j1.488857459702e-4
-1.630261743810e-4-j1.494332849786e-4
-1.932003163643e-4-j1.436444161845e-4
-2.199896323087e-4-j1.326703999104e-4
-2.420739320889e-4-j1.184161012310e-4
-2.591932697708e-4-j1.028436218972e-4
-2.718417061119e-4-j8.749044770406e-5
-2.808591514086e-4-j7.332026738807e-5
-2.871255953084e-4-j6.079925791190e-5
-2.914032806112e-4-j5.005087976894e-5
-2.942879176336e-4-j4.099969443480e-5
-2.962171688435e-4-j3.347413196363e-5
-2.975003431012e-4-j2.726951897183e-5
-2.983506667205e-4-j2.218236913158e-5
-2.989127789991e-4-j1.802670312777e-5
-2.992837680058e-4-j1.464016247564e-5
-2.995283566672e-4-j1.188479202714e-5
-2.996894978324e-4-j9.645307452117e-6
-2.997956125558e-4-j7.826376446748e-6
-2.998654699529e-4-j6.349694469761e-6
-2.999114492143e-4-j5.151222681673e-6
-2.999417081892e-4-j4.178737096287e-6
-2.999616199044e-4-j3.389727505652e-6
-2.999747219254e-4-j2.749632583749e-6
-2.999833428046e-4-j2.230375858260e-6
-2.999890150377e-4-j1.809160830753e-6
-2.999927471053e-4-j1.467484383972e-6
-2.999952026072e-4-j1.190331570585e-6
-2.999968181854e-4-j9.655198354150e-7
-2.999978811375e-4-j7.831656811801e-7
-2.999985804931e-4-j6.352513105473e-7
-2.999990406242e-4-j5.152727136341e-7
-2.999993433604e-4-j4.179540061061e-7
-2.999995425410e-4-j3.390156053460e-7
-2.999996735887e-4-j2.749861298057e-7
-2.999997598094e-4-j2.230497921158e-7
-2.999998165369e-4-j1.809225975031e-7
-2.999998538598e-4-j1.467519152092e-7
-2.999998784158e-4-j1.190350128078e-7
-2.999998945720e-4-j9.655297422991e-8
-2.999999052017e-4-j7.831709722172e-8
-2.999999121953e-4-j6.352541391676e-8
-2.999999167966e-4-j5.152742292841e-8
-2.999999198240e-4-j4.179548224818e-8
-2.999999218158e-4-j3.390160502900e-8
-2.999999231263e-4-j2.749863786857e-8
-2.999999239885e-4-j2.230499390230e-8
-2.999999245558e-4-j1.809226932707e-8
-2.999999249290e-4-j1.467519877290e-8
-2.999999251746e-4-j1.190350779067e-8
-2.999999253361e-4-j9.655304151494e-9
-2.999999254424e-4-j7.831717325113e-9
-2.999999255124e-4-j6.352550395490e-9
-2.999999255584e-4-j5.152753196000e-9
-2.999999255887e-4-j4.179561561519e-9
-2.999999256086e-4-j3.390176888848e-9
-2.999999256217e-4-j2.749883958239e-9
-2.999999256304e-4-j2.230524242433e-9
-2.999999256360e-4-j1.809257563080e-9
-2.999999256398e-4-j1.467557635198e-9
-2.999999256423e-4-j1.190397326174e-9
-2.999999256440e-4-j9.655877989734e-10
-2.999999256452e-4-j7.832424766649e-10
-2.999999256461e-4-j6.353422547275e-10
-2.999999256468e-4-j5.153828401942e-10
-2.999999256475e-4-j4.180887084190e-10
-2.999999256484e-4-j3.391810978862e-10
-2.999999256495e-4-j2.751898398604e-10
-2.999999256510e-4-j2.233007472697e-10
-2.999999256533e-4-j1.812318507387e-10
-2.999999256568e-4-j1.471330377705e-10
-2.999999256620e-4-j1.195046792957e-10
-2.999999256698e-4-j9.713166095404e-11
-2.999999256817e-4-j7.902991050210e-11
-2.999999256998e-4-j6.440305597413e-11
-2.999999257271e-4-j5.260728330549e-11
