<Qucs Dataset 0.0.23>
<indep frequency 100>
1.000000000000e+0
1.232846739442e+0
1.519911082953e+0
1.873817422860e+0
2.310129700083e+0
2.848035868436e+0
3.511191734215e+0
4.328761281083e+0
5.336699231206e+0
6.579332246576e+0
8.111308307897e+0
1.000000000000e+1
1.232846739442e+1
1.519911082953e+1
1.873817422860e+1
2.310129700083e+1
2.848035868436e+1
3.511191734215e+1
4.328761281083e+1
5.336699231206e+1
6.579332246576e+1
8.111308307897e+1
1.000000000000e+2
1.232846739442e+2
1.519911082953e+2
1.873817422860e+2
2.310129700083e+2
2.848035868436e+2
3.511191734215e+2
4.328761281083e+2
5.336699231206e+2
6.579332246576e+2
8.111308307897e+2
1.000000000000e+3
1.232846739442e+3
1.519911082953e+3
1.873817422860e+3
2.310129700083e+3
2.848035868436e+3
3.511191734215e+3
4.328761281083e+3
5.336699231206e+3
6.579332246576e+3
8.111308307897e+3
1.000000000000e+4
1.232846739442e+4
1.519911082953e+4
1.873817422860e+4
2.310129700083e+4
2.848035868436e+4
3.511191734215e+4
4.328761281083e+4
5.336699231206e+4
6.579332246576e+4
8.111308307897e+4
1.000000000000e+5
1.232846739442e+5
1.519911082953e+5
1.873817422860e+5
2.310129700083e+5
2.848035868436e+5
3.511191734215e+5
4.328761281083e+5
5.336699231206e+5
6.579332246576e+5
8.111308307897e+5
1.000000000000e+6
1.232846739442e+6
1.519911082953e+6
1.873817422860e+6
2.310129700083e+6
2.848035868436e+6
3.511191734215e+6
4.328761281083e+6
5.336699231206e+6
6.579332246576e+6
8.111308307897e+6
1.000000000000e+7
1.232846739442e+7
1.519911082953e+7
1.873817422860e+7
2.310129700083e+7
2.848035868436e+7
3.511191734215e+7
4.328761281083e+7
5.336699231206e+7
6.579332246576e+7
8.111308307897e+7
1.000000000000e+8
1.232846739442e+8
1.519911082953e+8
1.873817422860e+8
2.310129700083e+8
2.848035868436e+8
3.511191734215e+8
4.328761281083e+8
5.336699231206e+8
6.579332246576e+8
8.111308307897e+8
1.000000000000e+9
</indep>
<dep ac.v(b) frequency>
6.513380101373e-4+j2.467616620643e-3
9.575495720953e-4+j2.942547210020e-3
1.386370952226e-3+j3.455672144227e-3
1.965489945017e-3+j3.973880630638e-3
2.710399357348e-3+j4.444963363678e-3
3.610750537567e-3+j4.803118414964e-3
4.620606563738e-3+j4.985580224180e-3
5.662584405658e-3+j4.955897504998e-3
6.649100589380e-3+j4.720211292917e-3
7.509907918002e-3+j4.324382065491e-3
8.209142088729e-3+j3.834229704275e-3
8.744842318639e-3+j3.313013813801e-3
9.137140392783e-3+j2.807840737847e-3
9.415026976747e-3+j2.346792278682e-3
9.607264809571e-3+j1.942422734700e-3
9.738084357390e-3+j1.597012930357e-3
9.826115546251e-3+j1.307096572775e-3
9.884907441417e-3+j1.066569905452e-3
9.923973807981e-3+j8.685468244163e-4
9.949845723161e-3+j7.063417602843e-4
9.966941415484e-3+j5.739199891225e-4
9.978221316711e-3+j4.660510459735e-4
9.985656673950e-3+j3.783100632046e-4
9.990554689131e-3+j3.070094717458e-4
9.993779877570e-3+j2.491052390282e-4
9.995902972156e-3+j2.020998648021e-4
9.997300318684e-3+j1.639523472697e-4
9.998219892487e-3+j1.329990360950e-4
9.998825002916e-3+j1.078861477418e-4
9.999223165121e-3+j8.751326540292e-5
9.999485146560e-3+j7.098656752809e-5
9.999657520340e-3+j5.758038611788e-5
9.999770934019e-3+j4.670575621614e-5
9.999845554049e-3+j3.788476162648e-5
9.999894649653e-3+j3.072964914615e-5
9.999926951546e-3+j2.492584648472e-5
9.999948204148e-3+j2.021816569313e-5
9.999962186990e-3+j1.639960066035e-5
9.999971386788e-3+j1.330223418432e-5
9.999977439650e-3+j1.078985908998e-5
9.999981422033e-3+j8.751991215258e-6
9.999984042177e-3+j7.099012211977e-6
9.999985766057e-3+j5.758229216324e-6
9.999986900256e-3+j4.670678456404e-6
9.999987646483e-3+j3.788532415944e-6
9.999988137451e-3+j3.072996628215e-6
9.999988460475e-3+j2.492603660039e-6
9.999988673004e-3+j2.021829288086e-6
9.999988812834e-3+j1.639970025602e-6
9.999988904834e-3+j1.330232644064e-6
9.999988965365e-3+j1.078995653498e-6
9.999989005192e-3+j8.752102654964e-7
9.999989031398e-3+j7.099144959738e-7
9.999989048644e-3+j5.758390397519e-7
9.999989059998e-3+j4.670875846414e-7
9.999989067477e-3+j3.788775062044e-7
9.999989072413e-3+j3.073295396817e-7
9.999989075682e-3+j2.492971794200e-7
9.999989077867e-3+j2.022283032262e-7
9.999989079356e-3+j1.640529362373e-7
9.999989080415e-3+j1.330922184332e-7
9.999989081230e-3+j1.079845723966e-7
9.999989081947e-3+j8.762582433371e-8
9.999989082694e-3+j7.112064497906e-8
9.999989083604e-3+j5.774317478547e-8
9.999989084838e-3+j4.690510162522e-8
9.999989086616e-3+j3.812978682801e-8
9.999989089254e-3+j3.103130110004e-8
9.999989093220e-3+j2.529744728382e-8
9.999989099219e-3+j2.067602129154e-8
9.999989108316e-3+j1.696370314879e-8
9.999989122125e-3+j1.399708234931e-8
9.999989143091e-3+j1.164540914723e-8
9.999989174917e-3+j9.804727088261e-9
9.999989223208e-3+j8.393079481040e-9
9.999989296411e-3+j7.346484947600e-9
9.999989407206e-3+j6.615324867167e-9
9.999989574456e-3+j6.160639104170e-9
9.999989825760e-3+j5.949518119097e-9
9.999990200242e-3+j5.948230778684e-9
9.999990749866e-3+j6.111018839332e-9
9.999991534223e-3+j6.362602448856e-9
9.999992597824e-3+j6.577265191842e-9
9.999993917184e-3+j6.574859569943e-9
9.999995334565e-3+j6.179660879690e-9
9.999996569384e-3+j5.356351971163e-9
9.999997383597e-3+j4.290836512136e-9
9.999997749407e-3+j3.264581249598e-9
9.999997813028e-3+j2.459881048452e-9
9.999997746050e-3+j1.911483427492e-9
9.999997662695e-3+j1.572187512672e-9
9.999997617548e-3+j1.376199580103e-9
9.999997627961e-3+j1.266144355030e-9
9.999997691573e-3+j1.198534544053e-9
9.999997795669e-3+j1.143188471176e-9
9.999997922808e-3+j1.082414696950e-9
9.999998055785e-3+j1.009698006653e-9
9.999998181663e-3+j9.265629054559e-10
9.999998293312e-3+j8.382331234610e-10
9.999998388340e-3+j7.501095429811e-10
</dep>
<dep ac.v(e) frequency>
6.336433103061e-4+j2.400579638241e-3
9.315361167341e-4+j2.862607934291e-3
1.348707838033e-3+j3.361792961182e-3
1.912094082873e-3+j3.865923437044e-3
2.636766769805e-3+j4.324208410501e-3
3.512658385822e-3+j4.672633573983e-3
4.495079963247e-3+j4.850138499913e-3
5.508750712909e-3+j4.821262162904e-3
6.468466514221e-3+j4.591978766864e-3
7.305888554321e-3+j4.206902911876e-3
7.986126844921e-3+j3.730066371026e-3
8.507273871087e-3+j3.223010194656e-3
8.888914503844e-3+j2.731561003044e-3
9.159251828262e-3+j2.283037708863e-3
9.346267194878e-3+j1.889653551864e-3
9.473532808189e-3+j1.553627394209e-3
9.559172480758e-3+j1.271587110935e-3
9.616367194551e-3+j1.037594764663e-3
9.654372257124e-3+j8.449513243993e-4
9.679541317924e-3+j6.871528459462e-4
9.696172576820e-3+j5.583285493239e-4
9.707146040432e-3+j4.533900645794e-4
9.714379403603e-3+j3.680327338019e-4
9.719144355908e-3+j2.986691678420e-4
9.722281926643e-3+j2.423380314945e-4
9.724347343770e-3+j1.966096746451e-4
9.725706729014e-3+j1.594985443839e-4
9.726601321038e-3+j1.293861882483e-4
9.727189992618e-3+j1.049556029838e-4
9.727577338073e-3+j8.513626950139e-5
9.727832202344e-3+j6.905865216541e-5
9.727999893300e-3+j5.601680158547e-5
9.728110225905e-3+j4.543775871817e-5
9.728182818759e-3+j3.685659777546e-5
9.728230580603e-3+j2.989610816375e-5
9.728262004967e-3+j2.425027412953e-5
9.728282680217e-3+j1.967085346378e-5
9.728296283207e-3+j1.595647991100e-5
9.728305233101e-3+j1.294381797666e-5
9.728311121564e-3+j1.050038538251e-5
9.728314995815e-3+j8.518729781740e-6
9.728317544863e-3+j6.911704847529e-6
9.728319222041e-3+j5.608638633495e-6
9.728320325625e-3+j4.552226043675e-6
9.728321051879e-3+j3.696008934056e-6
9.728321529965e-3+j3.002333124579e-6
9.728321844906e-3+j2.440692528254e-6
9.728322052714e-3+j1.986387604103e-6
9.728322190345e-3+j1.619439150841e-6
9.728322282277e-3+j1.323709680503e-6
9.728322344859e-3+j1.086193736399e-6
9.728322389221e-3+j8.964459475270e-7
9.728322423253e-3+j7.461216678027e-7
9.728322453006e-3+j6.286099990551e-7
9.728322483773e-3+j5.387430591359e-7
9.728322521025e-3+j4.725687091925e-7
9.728322571387e-3+j4.271767444591e-7
9.728322643815e-3+j4.005709033321e-7
9.728322751191e-3+j3.915810630713e-7
9.728322912611e-3+j3.998117551791e-7
9.728323156780e-3+j4.256247259104e-7
9.728323527123e-3+j4.701547555096e-7
9.728324089499e-3+j5.353593953930e-7
9.728324943916e-3+j6.241047422431e-7
9.728326242308e-3+j7.402908930288e-7
9.728328215548e-3+j8.890223579918e-7
9.728331214468e-3+j1.076830475652e-6
9.728335772190e-3+j1.311956766585e-6
9.728342698769e-3+j1.604708102586e-6
9.728353224875e-3+j1.967896335475e-6
9.728369219772e-3+j2.417376127494e-6
9.728393521673e-3+j2.972694110720e-6
9.728430437603e-3+j3.657858072369e-6
9.728486497767e-3+j4.502222443439e-6
9.728571589029e-3+j5.541457747796e-6
9.728700645249e-3+j6.818510766489e-6
9.728896133991e-3+j8.384337844124e-6
9.729191621251e-3+j1.029794774871e-5
9.729636617366e-3+j1.262482454520e-5
9.730302404851e-3+j1.543200010637e-5
9.731286839751e-3+j1.877701082811e-5
9.732711685174e-3+j2.268803081863e-5
9.734698144466e-3+j2.713890490516e-5
9.737304351365e-3+j3.204631861147e-5
9.740449425922e-3+j3.735031620364e-5
9.743949849804e-3+j4.319403560928e-5
9.747771441752e-3+j5.001609309794e-5
9.752285507936e-3+j5.834282411848e-5
9.758240143242e-3+j6.846095795101e-5
9.766555054894e-3+j8.025611801507e-5
9.778148713389e-3+j9.317426274652e-5
9.793771326585e-3+j1.061830289512e-4
9.813744252954e-3+j1.177779453989e-4
9.837633930949e-3+j1.261834979844e-4
9.864063805716e-3+j1.298299860896e-4
9.890916776777e-3+j1.279479515993e-4
9.915951025559e-3+j1.209063858033e-4
9.937492309099e-3+j1.100333830159e-4
9.954789735978e-3+j9.705714967664e-5
9.967926604820e-3+j8.355035062648e-5
</dep>
<dep ac.v(uin) frequency>
1.000000000000e-2+j0.000000000000e+0
1.000000000000e-2+j0.000000000000e+0
1.000000000000e-2+j0.000000000000e+0
1.000000000000e-2+j0.000000000000e+0
1.000000000000e-2+j0.000000000000e+0
1.000000000000e-2+j0.000000000000e+0
1.000000000000e-2+j0.000000000000e+0
1.000000000000e-2+j0.000000000000e+0
1.000000000000e-2+j0.000000000000e+0
1.000000000000e-2+j0.000000000000e+0
1.000000000000e-2+j0.000000000000e+0
1.000000000000e-2+j0.000000000000e+0
1.000000000000e-2+j0.000000000000e+0
1.000000000000e-2+j0.000000000000e+0
1.000000000000e-2+j0.000000000000e+0
1.000000000000e-2+j0.000000000000e+0
1.000000000000e-2+j0.000000000000e+0
1.000000000000e-2+j0.000000000000e+0
1.000000000000e-2+j0.000000000000e+0
1.000000000000e-2+j0.000000000000e+0
1.000000000000e-2+j0.000000000000e+0
1.000000000000e-2+j0.000000000000e+0
1.000000000000e-2+j0.000000000000e+0
1.000000000000e-2+j0.000000000000e+0
1.000000000000e-2+j0.000000000000e+0
1.000000000000e-2+j0.000000000000e+0
1.000000000000e-2+j0.000000000000e+0
1.000000000000e-2+j0.000000000000e+0
1.000000000000e-2+j0.000000000000e+0
1.000000000000e-2+j0.000000000000e+0
1.000000000000e-2+j0.000000000000e+0
1.000000000000e-2+j0.000000000000e+0
1.000000000000e-2+j0.000000000000e+0
1.000000000000e-2+j0.000000000000e+0
1.000000000000e-2+j0.000000000000e+0
1.000000000000e-2+j0.000000000000e+0
1.000000000000e-2+j0.000000000000e+0
1.000000000000e-2+j0.000000000000e+0
1.000000000000e-2+j0.000000000000e+0
1.000000000000e-2+j0.000000000000e+0
1.000000000000e-2+j0.000000000000e+0
1.000000000000e-2+j0.000000000000e+0
1.000000000000e-2+j0.000000000000e+0
1.000000000000e-2+j0.000000000000e+0
1.000000000000e-2+j0.000000000000e+0
1.000000000000e-2+j0.000000000000e+0
1.000000000000e-2+j0.000000000000e+0
1.000000000000e-2+j0.000000000000e+0
1.000000000000e-2+j0.000000000000e+0
1.000000000000e-2+j0.000000000000e+0
1.000000000000e-2+j0.000000000000e+0
1.000000000000e-2+j0.000000000000e+0
1.000000000000e-2+j0.000000000000e+0
1.000000000000e-2+j0.000000000000e+0
1.000000000000e-2+j0.000000000000e+0
1.000000000000e-2+j0.000000000000e+0
1.000000000000e-2+j0.000000000000e+0
1.000000000000e-2+j0.000000000000e+0
1.000000000000e-2+j0.000000000000e+0
1.000000000000e-2+j0.000000000000e+0
1.000000000000e-2+j0.000000000000e+0
1.000000000000e-2+j0.000000000000e+0
1.000000000000e-2+j0.000000000000e+0
1.000000000000e-2+j0.000000000000e+0
1.000000000000e-2+j0.000000000000e+0
1.000000000000e-2+j0.000000000000e+0
1.000000000000e-2+j0.000000000000e+0
1.000000000000e-2+j0.000000000000e+0
1.000000000000e-2+j0.000000000000e+0
1.000000000000e-2+j0.000000000000e+0
1.000000000000e-2+j0.000000000000e+0
1.000000000000e-2+j0.000000000000e+0
1.000000000000e-2+j0.000000000000e+0
1.000000000000e-2+j0.000000000000e+0
1.000000000000e-2+j0.000000000000e+0
1.000000000000e-2+j0.000000000000e+0
1.000000000000e-2+j0.000000000000e+0
1.000000000000e-2+j0.000000000000e+0
1.000000000000e-2+j0.000000000000e+0
1.000000000000e-2+j0.000000000000e+0
1.000000000000e-2+j0.000000000000e+0
1.000000000000e-2+j0.000000000000e+0
1.000000000000e-2+j0.000000000000e+0
1.000000000000e-2+j0.000000000000e+0
1.000000000000e-2+j0.000000000000e+0
1.000000000000e-2+j0.000000000000e+0
1.000000000000e-2+j0.000000000000e+0
1.000000000000e-2+j0.000000000000e+0
1.000000000000e-2+j0.000000000000e+0
1.000000000000e-2+j0.000000000000e+0
1.000000000000e-2+j0.000000000000e+0
1.000000000000e-2+j0.000000000000e+0
1.000000000000e-2+j0.000000000000e+0
1.000000000000e-2+j0.000000000000e+0
1.000000000000e-2+j0.000000000000e+0
1.000000000000e-2+j0.000000000000e+0
1.000000000000e-2+j0.000000000000e+0
1.000000000000e-2+j0.000000000000e+0
1.000000000000e-2+j0.000000000000e+0
1.000000000000e-2+j0.000000000000e+0
</dep>
<dep ac.i(pr1) frequency>
1.688231673481e-8+j6.395992794370e-8
2.481914906515e-8+j7.627002278542e-8
3.593395927022e-8+j8.957013086552e-8
5.094439948909e-8+j1.030020476284e-7
7.025203460632e-8+j1.152125477669e-7
9.358863336222e-8+j1.244960952832e-7
1.197635364464e-7+j1.292258582055e-7
1.467710190195e-7+j1.284570595971e-7
1.723409664485e-7+j1.223488963272e-7
1.946526106998e-7+j1.120900767189e-7
2.127763691148e-7+j9.938665275873e-8
2.266614192974e-7+j8.587832421446e-8
2.368295658505e-7+j7.278611813638e-8
2.440322306031e-7+j6.083796937262e-8
2.490149276556e-7+j5.035936491701e-8
2.524056971315e-7+j4.140952923361e-8
2.546874162889e-7+j3.389874958242e-8
2.562112693182e-7+j2.766898229216e-8
2.572238476879e-7+j2.254194346980e-8
2.578944332664e-7+j1.834459355182e-8
2.583375440674e-7+j1.492081995707e-8
2.586299128296e-7+j1.213542685248e-8
2.588226331810e-7+j9.874186329138e-9
2.589495870734e-7+j8.042088462299e-9
2.590331822744e-7+j6.560936109751e-9
2.590882118825e-7+j5.366861510995e-9
2.591244306031e-7+j4.408030746476e-9
2.591482658678e-7+j3.642639246988e-9
2.591639506395e-7+j3.037220517367e-9
2.591742717659e-7+j2.565253053825e-9
2.591810636752e-7+j2.206036038784e-9
2.591855337824e-7+j1.943801425652e-9
2.591884768596e-7+j1.767032488991e-9
2.591904162252e-7+j1.667963748077e-9
2.591916967446e-7+j1.642242876795e-9
2.591925461339e-7+j1.688741122650e-9
2.591931154447e-7+j1.809504640307e-9
2.591935059225e-7+j2.009844995924e-9
2.591937870102e-7+j2.298573034034e-9
2.591940086969e-7+j2.688386504777e-9
2.591942104082e-7+j3.196428558564e-9
2.591944280172e-7+j3.845041701388e-9
2.591947002242e-7+j4.662750384681e-9
2.591950754398e-7+j5.685515450107e-9
2.591956203939e-7+j6.958315600243e-9
2.591964320035e-7+j8.537125444518e-9
2.591976546087e-7+j1.049137710674e-8
2.591995056427e-7+j1.290701364167e-8
2.592023143013e-7+j1.589026852638e-8
2.592065800880e-7+j1.957233740853e-8
2.592130616477e-7+j2.411514750585e-8
2.592229116867e-7+j2.971847827250e-8
2.592378819733e-7+j3.662874627852e-8
2.592606348758e-7+j4.514984025866e-8
2.592952168412e-7+j5.565648211553e-8
2.593477780121e-7+j6.861070012275e-8
2.594276659479e-7+j8.458213627130e-8
2.595490879266e-7+j1.042730761267e-7
2.597336373787e-7+j1.285492931425e-7
2.600141335776e-7+j1.584780473851e-7
2.604404570267e-7+j1.953748788411e-7
2.610884173400e-7+j2.408611952223e-7
2.620732284281e-7+j2.969350782830e-7
2.635699821828e-7+j3.660582191368e-7
2.658447495593e-7+j4.512624247023e-7
2.693018119500e-7+j5.562796652726e-7
2.745553573845e-7+j6.857000451471e-7
2.825382413873e-7+j8.451621391180e-7
2.946668060505e-7+j1.041579376538e-6
3.130902623678e-7+j1.283403654065e-6
3.410671191668e-7+j1.580921360379e-6
3.835312774972e-7+j1.946564176598e-6
4.479384309490e-7+j2.395191154951e-6
5.455199772293e-7+j2.944248179335e-6
6.931131096831e-7+j3.613615090658e-6
9.157655881313e-7+j4.424772686924e-6
1.250280731820e-6+j5.398600270458e-6
1.749633800483e-6+j6.550561173013e-6
2.487408451121e-6+j7.881173338440e-6
3.559280747725e-6+j9.358652812931e-6
5.073623598602e-6+j1.089068344860e-5
7.114089943202e-6+j1.228805044014e-5
9.648632608493e-6+j1.324599745997e-5
1.238389477694e-5+j1.341958414606e-5
1.468648344991e-5+j1.268924075746e-5
1.583942425579e-5+j1.150335841067e-5
1.561674773347e-5+j1.081598879267e-5
1.451667876489e-5+j1.147011267433e-5
1.333467680373e-5+j1.374115268549e-5
1.268552992144e-5+j1.745955655596e-5
1.289299515049e-5+j2.232098797288e-5
1.408153207803e-5+j2.804990195000e-5
1.625683949569e-5+j3.443008635659e-5
1.932624896697e-5+j4.130868898603e-5
2.309920458142e-5+j4.863077085952e-5
2.731874625730e-5+j5.649632961376e-5
3.173544691061e-5+j6.519239128839e-5
3.618212389402e-5+j7.516852954190e-5
4.059921631045e-5+j8.698109765685e-5
4.500956081299e-5+j1.012635620728e-4
</dep>
<dep ac.i(pr2) frequency>
2.322343414747e-6+j8.798277319271e-6
3.414139676233e-6+j1.049164041320e-5
4.943100818912e-6+j1.232118524720e-5
7.007947577937e-6+j1.416885539019e-5
9.663919502476e-6+j1.584849872601e-5
1.287411851098e-5+j1.712549868477e-5
1.647475666769e-5+j1.777606485109e-5
2.018992504699e-5+j1.767023025573e-5
2.370734507645e-5+j1.682989069709e-5
2.677655061931e-5+j1.541856149652e-5
2.926966762842e-5+j1.367092314891e-5
3.117970493907e-5+j1.181252747530e-5
3.257844236101e-5+j1.001133188312e-5
3.356924601175e-5+j8.367461820262e-6
3.425466933755e-5+j6.925679445373e-6
3.472110598129e-5+j5.694116846782e-6
3.503498087967e-5+j4.660414743224e-6
3.524460317784e-5+j3.802809933393e-6
3.538389417223e-5+j3.096749693920e-6
3.547614039600e-5+j2.518396226807e-6
3.553709502761e-5+j2.046232222629e-6
3.557731347623e-5+j1.661607832959e-6
3.560382421658e-5+j1.348745413937e-6
3.562128807258e-5+j1.094495972362e-6
3.563278747058e-5+j8.880048143634e-7
3.564035735667e-5+j7.203656242696e-7
3.564533959042e-5+j5.842993837657e-7
3.564861832695e-5+j4.738720929444e-7
3.565077584505e-5+j3.842540545672e-7
3.565219548945e-5+j3.115183007068e-7
3.565312958099e-5+j2.524736781345e-7
3.565374417550e-5+j2.045275982790e-7
3.565414854609e-5+j1.655736709077e-7
3.565441459522e-5+j1.338999507525e-7
3.565458963276e-5+j1.081141203446e-7
3.565470478579e-5+j8.708251015233e-8
3.565478053260e-5+j6.988037644874e-8
3.565483034390e-5+j5.575130479121e-8
3.565486307815e-5+j4.407398289139e-8
3.565488455686e-5+j3.433489716476e-8
3.565489859986e-5+j2.610576051405e-8
3.565490770462e-5+j1.902468310150e-8
3.565491349034e-5+j1.278026040883e-8
3.565491698599e-5+j7.097880077952e-9
3.565491881324e-5+j1.727646014819e-9
3.565491929706e-5-j3.566610950342e-9
3.565491852350e-5-j9.017718933841e-9
3.565491635498e-5-j1.486540403359e-8
3.565491240583e-5-j2.136683274299e-8
3.565490597374e-5-j2.880792130933e-8
3.565489591479e-5-j3.751590931349e-8
3.565488044004e-5-j4.787375029542e-8
3.565485679742e-5-j6.033695205511e-8
3.565482078222e-5-j7.545360679056e-8
3.565476598935e-5-j9.388849113954e-8
3.565468267425e-5-j1.164522944696e-7
3.565455601989e-5-j1.441372579653e-7
3.565436350165e-5-j1.781607865097e-7
3.565407088168e-5-j2.200189413325e-7
3.565362612009e-5-j2.715521472112e-7
3.565295012068e-5-j3.350259688470e-7
3.565192266569e-5-j4.132304431367e-7
3.565036103937e-5-j5.096022127365e-7
3.564798754148e-5-j6.283746015535e-7
3.564438011919e-5-j7.747618000669e-7
3.563889735233e-5-j9.551844505821e-7
3.563056448428e-5-j1.177545034489e-6
3.561790030749e-5-j1.451562324010e-6
3.559865429679e-5-j1.789174261641e-6
3.556940766174e-5-j2.205016947004e-6
3.552496835276e-5-j2.716981924349e-6
3.545745474803e-5-j3.346840743747e-6
3.535491058377e-5-j4.120897197078e-6
3.519921811586e-5-j5.070568942816e-6
3.496297104824e-5-j6.232682748761e-6
3.460483305821e-5-j7.649035490177e-6
3.406276751678e-5-j9.364318506894e-6
3.324449236599e-5-j1.142062426716e-5
3.201496854167e-5-j1.384511175613e-5
3.018277923720e-5-j1.662460823051e-5
2.749373984533e-5-j1.965735953370e-5
2.365650466506e-5-j2.267261345702e-5
1.845411888316e-5-j2.513230398560e-5
1.200385897187e-5-j2.621477367981e-5
5.083041091091e-6-j2.510613636177e-5
-9.256227662289e-7-j2.167004898149e-5
