<Qucs Dataset 0.0.21>
<indep frequency 100>
1.000000000000e+00
1.232846739442e+00
1.519911082953e+00
1.873817422860e+00
2.310129700083e+00
2.848035868436e+00
3.511191734215e+00
4.328761281083e+00
5.336699231206e+00
6.579332246576e+00
8.111308307897e+00
1.000000000000e+01
1.232846739442e+01
1.519911082953e+01
1.873817422860e+01
2.310129700083e+01
2.848035868436e+01
3.511191734215e+01
4.328761281083e+01
5.336699231206e+01
6.579332246576e+01
8.111308307897e+01
1.000000000000e+02
1.232846739442e+02
1.519911082953e+02
1.873817422860e+02
2.310129700083e+02
2.848035868436e+02
3.511191734215e+02
4.328761281083e+02
5.336699231206e+02
6.579332246576e+02
8.111308307897e+02
1.000000000000e+03
1.232846739442e+03
1.519911082953e+03
1.873817422860e+03
2.310129700083e+03
2.848035868436e+03
3.511191734215e+03
4.328761281083e+03
5.336699231206e+03
6.579332246576e+03
8.111308307897e+03
1.000000000000e+04
1.232846739442e+04
1.519911082953e+04
1.873817422860e+04
2.310129700083e+04
2.848035868436e+04
3.511191734215e+04
4.328761281083e+04
5.336699231206e+04
6.579332246576e+04
8.111308307897e+04
1.000000000000e+05
1.232846739442e+05
1.519911082953e+05
1.873817422860e+05
2.310129700083e+05
2.848035868436e+05
3.511191734215e+05
4.328761281083e+05
5.336699231206e+05
6.579332246576e+05
8.111308307897e+05
1.000000000000e+06
1.232846739442e+06
1.519911082953e+06
1.873817422860e+06
2.310129700083e+06
2.848035868436e+06
3.511191734215e+06
4.328761281083e+06
5.336699231206e+06
6.579332246576e+06
8.111308307897e+06
1.000000000000e+07
1.232846739442e+07
1.519911082953e+07
1.873817422860e+07
2.310129700083e+07
2.848035868436e+07
3.511191734215e+07
4.328761281083e+07
5.336699231206e+07
6.579332246576e+07
8.111308307897e+07
1.000000000000e+08
1.232846739442e+08
1.519911082953e+08
1.873817422860e+08
2.310129700083e+08
2.848035868436e+08
3.511191734215e+08
4.328761281083e+08
5.336699231206e+08
6.579332246576e+08
8.111308307897e+08
1.000000000000e+09
</indep>
<dep ac.v(b) frequency>
6.515508929701e-04+j2.467991951940e-03
9.578522875404e-04+j2.942963288855e-03
1.386788452746e-03+j3.456108990655e-03
1.966042059527e-03+j3.974302560553e-03
2.711090152777e-03+j4.445319603381e-03
3.611557185070e-03+j4.803352246062e-03
4.621475745738e-03+j4.985647019329e-03
5.663443410062e-03+j4.955783481639e-03
6.649880044778e-03+j4.719940009668e-03
7.510562410852e-03+j4.324003491578e-03
8.209656971623e-03+j3.833800386751e-03
8.745227136564e-03+j3.312580862649e-03
9.137417248293e-03+j2.807435328652e-03
9.415220852386e-03+j2.346430659453e-03
9.607398124779e-03+j1.942110382769e-03
9.738174984799e-03+j1.596748825078e-03
9.826176775364e-03+j1.306876393363e-03
9.884948735348e-03+j1.066388052444e-03
9.924001721769e-03+j8.683975497646e-04
9.949864717205e-03+j7.062197250841e-04
9.966954489872e-03+j5.738204898466e-04
9.978230474076e-03+j4.659700640960e-04
9.985663244478e-03+j3.782442291180e-04
9.990559553478e-03+j3.069559929780e-04
9.993783617537e-03+j2.490618186908e-04
9.995905971564e-03+j2.020646227645e-04
9.997302830509e-03+j1.639237493749e-04
9.998222083367e-03+j1.329758330633e-04
9.998826982570e-03+j1.078673236377e-04
9.999225005775e-03+j8.749799477835e-05
9.999486895750e-03+j7.097418009404e-05
9.999659209347e-03+j5.757033778611e-05
9.999772583427e-03+j4.669760544889e-05
9.999847177403e-03+j3.787815016680e-05
9.999896255865e-03+j3.072428634163e-05
9.999928546479e-03+j2.492149654751e-05
9.999949791660e-03+j2.021463735304e-05
9.999963769620e-03+j1.639673876529e-05
9.999972966206e-03+j1.329991288350e-05
9.999979016954e-03+j1.078797630271e-05
9.999982997947e-03+j8.750464143520e-06
9.999985617176e-03+j7.097773700144e-06
9.999987340455e-03+j5.757224798336e-06
9.999988474258e-03+j4.669863960762e-06
9.999989220225e-03+j3.787872023301e-06
9.999989711022e-03+j3.072461296212e-06
9.999990033934e-03+j2.492169846128e-06
9.999990246390e-03+j2.021477914215e-06
9.999990386174e-03+j1.639685639217e-06
9.999990478145e-03+j1.330002738546e-06
9.999990538659e-03+j1.078810118159e-06
9.999990578480e-03+j8.750609409316e-07
9.999990604689e-03+j7.097948152294e-07
9.999990621947e-03+j5.757437395149e-07
9.999990633323e-03+j4.670124737544e-07
9.999990640840e-03+j3.788192813143e-07
9.999990645836e-03+j3.072856399016e-07
9.999990649198e-03+j2.492656735857e-07
9.999990651525e-03+j2.022078047417e-07
9.999990653231e-03+j1.640425416691e-07
9.999990654618e-03+j1.330914669816e-07
9.999990655934e-03+j1.079934241358e-07
9.999990657413e-03+j8.764465565745e-08
9.999990659316e-03+j7.115025991564e-08
9.999990661981e-03+j5.778483055999e-08
9.999990665879e-03+j4.696054564290e-08
9.999990671697e-03+j3.820129936338e-08
9.999990680455e-03+j3.112173198488e-08
9.999990693675e-03+j2.541022323890e-08
9.999990713630e-03+j2.081507880076e-08
9.999990743688e-03+j1.713326259748e-08
9.999990788788e-03+j1.420111151000e-08
9.999990856030e-03+j1.188651440712e-08
9.999990955340e-03+j1.008205106130e-08
9.999991099960e-03+j8.698598089200e-09
9.999991306298e-03+j7.659006312642e-09
9.999991592260e-03+j6.891822447312e-09
9.999991973013e-03+j6.325907877526e-09
9.999992453830e-03+j5.888148008188e-09
9.999993022024e-03+j5.507171297348e-09
9.999993643199e-03+j5.123891623563e-09
9.999994267276e-03+j4.704099274469e-09
9.999994843629e-03+j4.244119739120e-09
9.999995336658e-03+j3.764435046430e-09
9.999995732746e-03+j3.295617484646e-09
9.999996037233e-03+j2.865500141908e-09
9.999996266616e-03+j2.492736228429e-09
9.999996441381e-03+j2.186136361479e-09
9.999996581690e-03+j1.946732074618e-09
9.999996705561e-03+j1.770088997299e-09
9.999996828310e-03+j1.647789653206e-09
9.999996962057e-03+j1.568100198282e-09
9.999997114666e-03+j1.516529514662e-09
9.999997288273e-03+j1.477279851949e-09
9.999997478583e-03+j1.436107676483e-09
9.999997676385e-03+j1.383670422091e-09
9.999997871300e-03+j1.317161657176e-09
9.999998055580e-03+j1.238828502529e-09
9.999998225458e-03+j1.152555300995e-09
9.999998379712e-03+j1.061228936767e-09
</dep>
<dep ac.v(e) frequency>
6.340081418665e-04+j2.401542242058e-03
9.320624920607e-04+j2.863725163110e-03
1.349449720005e-03+j3.363054619371e-03
1.913107151630e-03+j3.867296031947e-03
2.638095118494e-03+j4.325631126949e-03
3.514317430697e-03+j4.674023882378e-03
4.497044331993e-03+j4.851410441434e-03
5.510957427457e-03+j4.822350968644e-03
6.470834644406e-03+j4.592857490366e-03
7.308343476854e-03+j4.207581408426e-03
7.988615191996e-03+j3.730576830783e-03
8.509765341244e-03+j3.223390939133e-03
8.891395888724e-03+j2.731846252227e-03
9.161719740223e-03+j2.283253955330e-03
9.348722715268e-03+j1.889819846757e-03
9.475978459854e-03+j1.553757017816e-03
9.561610836878e-03+j1.271689293129e-03
9.618800384993e-03+j1.037676013447e-03
9.656801885141e-03+j8.450163361767e-04
9.681968529614e-03+j6.872050967841e-04
9.698598166885e-03+j5.583706726652e-04
9.709570549656e-03+j4.534240942390e-04
9.716803195643e-03+j3.680602638891e-04
9.721567673453e-03+j2.986914614134e-04
9.724704930857e-03+j2.423560970038e-04
9.726770141338e-03+j1.966243215670e-04
9.728129390407e-03+j1.595104248702e-04
9.729023892745e-03+j1.293958290563e-04
9.729612505276e-03+j1.049634303794e-04
9.729999811865e-03+j8.514262893539e-05
9.730254650557e-03+j6.906382396202e-05
9.730422324682e-03+j5.602101353564e-05
9.730532646215e-03+j4.544119623891e-05
9.730605231786e-03+j3.685941213968e-05
9.730652988842e-03+j2.989842319325e-05
9.730684410062e-03+j2.425219166189e-05
9.730705083253e-03+j1.967245784248e-05
9.730718684904e-03+j1.595784170077e-05
9.730727633940e-03+j1.294499706998e-05
9.730733521872e-03+j1.050143363533e-05
9.730737395827e-03+j8.519693294861e-06
9.730739944761e-03+j6.912625994546e-06
9.730741621985e-03+j5.609557924508e-06
9.730742725783e-03+j4.553183906948e-06
9.730743452460e-03+j3.697047493989e-06
9.730743931250e-03+j3.003498054193e-06
9.730744247304e-03+j2.442035057652e-06
9.730744456830e-03+j1.987966773171e-06
9.730744597090e-03+j1.621324405150e-06
9.730744693030e-03+j1.325983924359e-06
9.730744761712e-03+j1.088956976901e-06
9.730744815350e-03+j8.998196891234e-07
9.730744863483e-03+j7.502542491781e-07
9.730744914672e-03+j6.336831043702e-07
9.730744978019e-03+j5.449796849410e-07
9.730745064791e-03+j4.802429279640e-07
9.730745190417e-03+j4.366256764903e-07
9.730745377234e-03+j4.122093904190e-07
9.730745658456e-03+j4.059196273830e-07
9.730746084074e-03+j4.174785171220e-07
9.730746729728e-03+j4.473920277021e-07
9.730747710116e-03+j4.969712547665e-07
9.730749199306e-03+j5.683882795383e-07
9.730751461472e-03+j6.647683224656e-07
9.730754897380e-03+j7.903208842134e-07
9.730760114523e-03+j9.505131085170e-07
9.730768032521e-03+j1.152288294654e-06
9.730780040623e-03+j1.404330509200e-06
9.730798230920e-03+j1.717371100851e-06
9.730825738801e-03+j2.104522030936e-06
9.730867228927e-03+j2.581600197370e-06
9.730929564109e-03+j3.167370733536e-06
9.731022670663e-03+j3.883580450347e-06
9.731160536673e-03+j4.754578369734e-06
9.731362099287e-03+j5.806261858566e-06
9.731651443928e-03+j7.064151056547e-06
9.732056293296e-03+j8.550811663774e-06
9.732603561395e-03+j1.028391548455e-05
9.733311683852e-03+j1.227787966808e-05
9.734182492358e-03+j1.455289110516e-05
9.735199575975e-03+j1.715238751105e-05
9.736340512525e-03+j2.016287958723e-05
9.737602813614e-03+j2.372445261244e-05
9.739033558760e-03+j2.802475559513e-05
9.740752361629e-03+j3.328047771139e-05
9.742966972629e-03+j3.971482925160e-05
9.745988310160e-03+j4.753282285554e-05
9.750249448171e-03+j5.688626104812e-05
9.756323177863e-03+j6.781491630736e-05
9.764918441172e-03+j8.015225605171e-05
9.776819083939e-03+j9.339770822661e-05
9.792718092853e-03+j1.065918095715e-04
9.812923863559e-03+j1.182864561894e-04
9.837007377693e-03+j1.267412346719e-04
9.863600190127e-03+j1.304061956657e-04
9.890591973175e-03+j1.285231254416e-04
9.915746061085e-03+j1.214681555414e-04
9.937392664328e-03+j1.105740366217e-04
9.954784834348e-03+j9.757127050333e-05
9.968008553226e-03+j8.403267861447e-05
</dep>
<dep ac.v(uin) frequency>
1.000000000000e-02+j0.000000000000e+00
1.000000000000e-02+j0.000000000000e+00
1.000000000000e-02+j0.000000000000e+00
1.000000000000e-02+j0.000000000000e+00
1.000000000000e-02+j0.000000000000e+00
1.000000000000e-02+j0.000000000000e+00
1.000000000000e-02+j0.000000000000e+00
1.000000000000e-02+j0.000000000000e+00
1.000000000000e-02+j0.000000000000e+00
1.000000000000e-02+j0.000000000000e+00
1.000000000000e-02+j0.000000000000e+00
1.000000000000e-02+j0.000000000000e+00
1.000000000000e-02+j0.000000000000e+00
1.000000000000e-02+j0.000000000000e+00
1.000000000000e-02+j0.000000000000e+00
1.000000000000e-02+j0.000000000000e+00
1.000000000000e-02+j0.000000000000e+00
1.000000000000e-02+j0.000000000000e+00
1.000000000000e-02+j0.000000000000e+00
1.000000000000e-02+j0.000000000000e+00
1.000000000000e-02+j0.000000000000e+00
1.000000000000e-02+j0.000000000000e+00
1.000000000000e-02+j0.000000000000e+00
1.000000000000e-02+j0.000000000000e+00
1.000000000000e-02+j0.000000000000e+00
1.000000000000e-02+j0.000000000000e+00
1.000000000000e-02+j0.000000000000e+00
1.000000000000e-02+j0.000000000000e+00
1.000000000000e-02+j0.000000000000e+00
1.000000000000e-02+j0.000000000000e+00
1.000000000000e-02+j0.000000000000e+00
1.000000000000e-02+j0.000000000000e+00
1.000000000000e-02+j0.000000000000e+00
1.000000000000e-02+j0.000000000000e+00
1.000000000000e-02+j0.000000000000e+00
1.000000000000e-02+j0.000000000000e+00
1.000000000000e-02+j0.000000000000e+00
1.000000000000e-02+j0.000000000000e+00
1.000000000000e-02+j0.000000000000e+00
1.000000000000e-02+j0.000000000000e+00
1.000000000000e-02+j0.000000000000e+00
1.000000000000e-02+j0.000000000000e+00
1.000000000000e-02+j0.000000000000e+00
1.000000000000e-02+j0.000000000000e+00
1.000000000000e-02+j0.000000000000e+00
1.000000000000e-02+j0.000000000000e+00
1.000000000000e-02+j0.000000000000e+00
1.000000000000e-02+j0.000000000000e+00
1.000000000000e-02+j0.000000000000e+00
1.000000000000e-02+j0.000000000000e+00
1.000000000000e-02+j0.000000000000e+00
1.000000000000e-02+j0.000000000000e+00
1.000000000000e-02+j0.000000000000e+00
1.000000000000e-02+j0.000000000000e+00
1.000000000000e-02+j0.000000000000e+00
1.000000000000e-02+j0.000000000000e+00
1.000000000000e-02+j0.000000000000e+00
1.000000000000e-02+j0.000000000000e+00
1.000000000000e-02+j0.000000000000e+00
1.000000000000e-02+j0.000000000000e+00
1.000000000000e-02+j0.000000000000e+00
1.000000000000e-02+j0.000000000000e+00
1.000000000000e-02+j0.000000000000e+00
1.000000000000e-02+j0.000000000000e+00
1.000000000000e-02+j0.000000000000e+00
1.000000000000e-02+j0.000000000000e+00
1.000000000000e-02+j0.000000000000e+00
1.000000000000e-02+j0.000000000000e+00
1.000000000000e-02+j0.000000000000e+00
1.000000000000e-02+j0.000000000000e+00
1.000000000000e-02+j0.000000000000e+00
1.000000000000e-02+j0.000000000000e+00
1.000000000000e-02+j0.000000000000e+00
1.000000000000e-02+j0.000000000000e+00
1.000000000000e-02+j0.000000000000e+00
1.000000000000e-02+j0.000000000000e+00
1.000000000000e-02+j0.000000000000e+00
1.000000000000e-02+j0.000000000000e+00
1.000000000000e-02+j0.000000000000e+00
1.000000000000e-02+j0.000000000000e+00
1.000000000000e-02+j0.000000000000e+00
1.000000000000e-02+j0.000000000000e+00
1.000000000000e-02+j0.000000000000e+00
1.000000000000e-02+j0.000000000000e+00
1.000000000000e-02+j0.000000000000e+00
1.000000000000e-02+j0.000000000000e+00
1.000000000000e-02+j0.000000000000e+00
1.000000000000e-02+j0.000000000000e+00
1.000000000000e-02+j0.000000000000e+00
1.000000000000e-02+j0.000000000000e+00
1.000000000000e-02+j0.000000000000e+00
1.000000000000e-02+j0.000000000000e+00
1.000000000000e-02+j0.000000000000e+00
1.000000000000e-02+j0.000000000000e+00
1.000000000000e-02+j0.000000000000e+00
1.000000000000e-02+j0.000000000000e+00
1.000000000000e-02+j0.000000000000e+00
1.000000000000e-02+j0.000000000000e+00
1.000000000000e-02+j0.000000000000e+00
1.000000000000e-02+j0.000000000000e+00
</dep>
<dep ac.i(pr1) frequency>
1.686074253121e-08+j6.386693639111e-08
2.478716701551e-08+j7.615831468114e-08
3.588711687652e-08+j8.943759566056e-08
5.087696038620e-08+j1.028475439090e-07
7.015721033936e-08+j1.150367129992e-07
9.345936977643e-08+j1.243021472973e-07
1.195939004979e-07+j1.290199352261e-07
1.465577934243e-07+j1.282476108366e-07
1.720846621629e-07+j1.221450784044e-07
1.943572795935e-07+j1.118998184057e-07
2.124483504855e-07+j9.921531080166e-08
2.263077600210e-07+j8.572837410435e-08
2.364568006703e-07+j7.265765608593e-08
2.436457633353e-07+j6.072952751479e-08
2.486188998112e-07+j5.026866216577e-08
2.520031250376e-07+j4.133400612579e-08
2.542804230241e-07+j3.383588641825e-08
2.558013155616e-07+j2.761645669798e-08
2.568119232742e-07+j2.249768672805e-08
2.574812022588e-07+j1.830678998294e-08
2.579234490266e-07+j1.488787743566e-08
2.582152474084e-07+j1.210593444714e-08
2.584075916668e-07+j9.846867293126e-09
2.585342977694e-07+j8.015752211456e-09
2.586177298071e-07+j6.534430235594e-09
2.586726520307e-07+j5.339023446341e-09
2.587088001214e-07+j4.377637894825e-09
2.587325889818e-07+j3.608355887686e-09
2.587482433356e-07+j2.997539423020e-09
2.587585446271e-07+j2.518429397965e-09
2.587653237592e-07+j2.150010765096e-09
2.587697858760e-07+j1.876110750377e-09
2.587727243290e-07+j1.684699578886e-09
2.587746616143e-07+j1.567367822081e-09
2.587759422274e-07+j1.518959981134e-09
2.587767939012e-07+j1.537349580429e-09
2.587773680936e-07+j1.623346621496e-09
2.587777669183e-07+j1.780733723046e-09
2.587780613025e-07+j2.016432747532e-09
2.587783036001e-07+j2.340809354585e-09
2.587785369023e-07+j2.768128934647e-09
2.587788027003e-07+j3.317184005063e-09
2.587791482647e-07+j4.012120675840e-09
2.587796350521e-07+j4.883500537740e-09
2.587803496349e-07+j5.969644672328e-09
2.587814190973e-07+j7.318318884371e-09
2.587830336367e-07+j8.988834254478e-09
2.587854803888e-07+j1.105465536010e-08
2.587891944922e-07+j1.360663081263e-08
2.587948364742e-07+j1.675698807716e-08
2.588034097171e-07+j2.064426806135e-08
2.588164388961e-07+j2.543941611676e-08
2.588362411135e-07+j3.135329663115e-08
2.588663379352e-07+j3.864596039405e-08
2.589120815730e-07+j4.763806987242e-08
2.589816064947e-07+j5.872498031959e-08
2.590872755157e-07+j7.239408747787e-08
2.592478771199e-07+j8.924618887545e-08
2.594919638027e-07+j1.100217683350e-07
2.598629228499e-07+j1.356333038139e-07
2.604266760759e-07+j1.672049149084e-07
2.612833656752e-07+j2.061208980842e-07
2.625850762888e-07+j2.540849184087e-07
2.645626801114e-07+j3.131917777053e-07
2.675664296340e-07+j3.860136409448e-07
2.721271727987e-07+j4.757021414157e-07
2.790482862701e-07+j5.861064578884e-07
2.895428651480e-07+j7.219044488134e-07
3.054364383044e-07+j8.887377886084e-07
3.294619143070e-07+j1.093330310930e-06
3.656782804485e-07+j1.343547527088e-06
4.200414059217e-07+j1.648319239009e-06
5.011294281163e-07+j2.017291449602e-06
6.209473087806e-07+j2.460001456252e-06
7.955575926296e-07+j2.984312467133e-06
1.044958880493e-06+j3.593902167947e-06
1.391196854097e-06+j4.284991040606e-06
1.853474724547e-06+j5.043503569265e-06
2.439869350604e-06+j5.845416639504e-06
3.138073505563e-06+j6.663884598147e-06
3.911424601609e-06+j7.484205720792e-06
4.706776485582e-06+j8.321031705049e-06
5.473529677520e-06+j9.227188698341e-06
6.183685318092e-06+j1.028801651308e-05
6.842344101600e-06+j1.160625226370e-05
7.487231980550e-06+j1.328774031272e-05
8.183551772194e-06+j1.543349762828e-05
9.020400503550e-06+j1.813644784212e-05
1.011046697214e-05+j2.147787640742e-05
1.159025996799e-05+j2.551939568487e-05
1.361498692297e-05+j3.028927150700e-05
1.634088222415e-05+j3.576735305707e-05
1.989117343353e-05+j4.188054312068e-05
2.431432306155e-05+j4.852564408518e-05
2.956143241544e-05+j5.562617058151e-05
3.551242281977e-05+j6.319863503197e-05
4.204515518434e-05+j7.137845447670e-05
4.909092255689e-05+j8.038070285358e-05
5.661859995474e-05+j9.043927808360e-05
6.455776885298e-05+j1.018056937221e-04
</dep>
<dep ac.i(pr2) frequency>
1.618935169755e-06+j6.132319170669e-06
2.380014780827e-06+j7.312499555400e-06
3.445810025564e-06+j8.587533268864e-06
4.885105169417e-06+j9.875109530553e-06
6.736356659263e-06+j1.104546422600e-05
8.973783947772e-06+j1.193508181202e-05
1.148316992835e-05+j1.238803614118e-05
1.407218962846e-05+j1.231383180980e-05
1.652322910658e-05+j1.172782043150e-05
1.866180180667e-05+j1.074401897150e-05
2.039887067363e-05+j9.525989048825e-06
2.172962378171e-05+j8.230890846203e-06
2.270411460347e-05+j6.975731711503e-06
2.339438458820e-05+j5.830250409545e-06
2.387189532214e-05+j4.825614175259e-06
2.419684193852e-05+j3.967473896654e-06
2.441550358916e-05+j3.247208257706e-06
2.456153668345e-05+j2.649647487073e-06
2.465857323708e-05+j2.157680611319e-06
2.472283608026e-05+j1.754696221545e-06
2.476529973773e-05+j1.425700532788e-06
2.479331763700e-05+j1.157698109982e-06
2.481178614556e-05+j9.396949458485e-07
2.482395220453e-05+j7.625286248109e-07
2.483196316784e-05+j6.186352716944e-07
2.483723666684e-05+j5.018084634076e-07
2.484070749804e-05+j4.069754581557e-07
2.484299160113e-05+j3.300004612053e-07
2.484449461573e-05+j2.675168452567e-07
2.484548359540e-05+j2.167866341873e-07
2.484613431673e-05+j1.755841221159e-07
2.484656246011e-05+j1.421001439042e-07
2.484684414820e-05+j1.148636613288e-07
2.484702946888e-05+j9.267768371537e-08
2.484715137659e-05+j7.456695458165e-08
2.484723155028e-05+j5.973523696813e-08
2.484728424767e-05+j4.753039013472e-08
2.484731884039e-05+j3.741573977150e-08
2.484734148042e-05+j2.894650293274e-08
2.484735619411e-05+j2.175024174422e-08
2.484736559817e-05+j1.551049206279e-08
2.484737136506e-05+j9.952850202215e-09
2.484737452039e-05+j4.832907503176e-09
2.484737562529e-05-j7.449697344744e-11
2.484737487628e-05-j4.985177784646e-09
2.484737214015e-05-j1.011509362916e-08
2.484736693029e-05-j1.568984423338e-08
2.484735832017e-05-j2.195459106473e-08
2.484734477852e-05-j2.918483791087e-08
2.484732389708e-05-j3.769854501045e-08
2.484729196222e-05-j4.787010872855e-08
2.484724329464e-05-j6.014682016640e-08
2.484716923931e-05-j7.506852389364e-08
2.484705662646e-05-j9.329133643925e-08
2.484688542983e-05-j1.156164584306e-07
2.484662520602e-05-j1.430253302465e-07
2.484622968255e-05-j1.767226449804e-07
2.484562853359e-05-j2.181890498751e-07
