<Qucs Dataset 0.0.22>
<indep frequency 100>
1.000000000000e+00
1.232846739442e+00
1.519911082953e+00
1.873817422860e+00
2.310129700083e+00
2.848035868436e+00
3.511191734215e+00
4.328761281083e+00
5.336699231206e+00
6.579332246576e+00
8.111308307897e+00
1.000000000000e+01
1.232846739442e+01
1.519911082953e+01
1.873817422860e+01
2.310129700083e+01
2.848035868436e+01
3.511191734215e+01
4.328761281083e+01
5.336699231206e+01
6.579332246576e+01
8.111308307897e+01
1.000000000000e+02
1.232846739442e+02
1.519911082953e+02
1.873817422860e+02
2.310129700083e+02
2.848035868436e+02
3.511191734215e+02
4.328761281083e+02
5.336699231206e+02
6.579332246576e+02
8.111308307897e+02
1.000000000000e+03
1.232846739442e+03
1.519911082953e+03
1.873817422860e+03
2.310129700083e+03
2.848035868436e+03
3.511191734215e+03
4.328761281083e+03
5.336699231206e+03
6.579332246576e+03
8.111308307897e+03
1.000000000000e+04
1.232846739442e+04
1.519911082953e+04
1.873817422860e+04
2.310129700083e+04
2.848035868436e+04
3.511191734215e+04
4.328761281083e+04
5.336699231206e+04
6.579332246576e+04
8.111308307897e+04
1.000000000000e+05
1.232846739442e+05
1.519911082953e+05
1.873817422860e+05
2.310129700083e+05
2.848035868436e+05
3.511191734215e+05
4.328761281083e+05
5.336699231206e+05
6.579332246576e+05
8.111308307897e+05
1.000000000000e+06
1.232846739442e+06
1.519911082953e+06
1.873817422860e+06
2.310129700083e+06
2.848035868436e+06
3.511191734215e+06
4.328761281083e+06
5.336699231206e+06
6.579332246576e+06
8.111308307897e+06
1.000000000000e+07
1.232846739442e+07
1.519911082953e+07
1.873817422860e+07
2.310129700083e+07
2.848035868436e+07
3.511191734215e+07
4.328761281083e+07
5.336699231206e+07
6.579332246576e+07
8.111308307897e+07
1.000000000000e+08
1.232846739442e+08
1.519911082953e+08
1.873817422860e+08
2.310129700083e+08
2.848035868436e+08
3.511191734215e+08
4.328761281083e+08
5.336699231206e+08
6.579332246576e+08
8.111308307897e+08
1.000000000000e+09
</indep>
<dep ac.v(b) frequency>
6.513385288046e-04+j2.467617534691e-03
9.575503096265e-04+j2.942548223241e-03
1.386371969408e-03+j3.455673207911e-03
1.965491290144e-03+j3.973881657805e-03
2.710401040295e-03+j4.444964230575e-03
3.610752502651e-03+j4.803118983358e-03
4.620608680961e-03+j4.985580385315e-03
5.662586497750e-03+j4.955897225317e-03
6.649102487224e-03+j4.720210629897e-03
7.509909510901e-03+j4.324381140997e-03
8.209143341005e-03+j3.834228656203e-03
8.744843253605e-03+j3.313012757028e-03
9.137141064371e-03+j2.807839748387e-03
9.415027445906e-03+j2.346791396143e-03
9.607265130995e-03+j1.942421972423e-03
9.738084574679e-03+j1.597012285835e-03
9.826115691825e-03+j1.307096035457e-03
9.884907538360e-03+j1.066569461667e-03
9.923973872284e-03+j8.685464601363e-04
9.949845765704e-03+j7.063414624786e-04
9.966941443586e-03+j5.739197463124e-04
9.978221335258e-03+j4.660508483520e-04
9.985656686187e-03+j3.783099025487e-04
9.990554697206e-03+j3.070093412409e-04
9.993779882902e-03+j2.491051330690e-04
9.995902975682e-03+j2.020997788006e-04
9.997300321020e-03+j1.639522774819e-04
9.998219894040e-03+j1.329989794724e-04
9.998825003954e-03+j1.078861018051e-04
9.999223165820e-03+j8.751322813777e-05
9.999485147036e-03+j7.098653729881e-05
9.999657520669e-03+j5.758036159671e-05
9.999770934251e-03+j4.670573632558e-05
9.999845554218e-03+j3.788474549227e-05
9.999894649780e-03+j3.072963605900e-05
9.999926951645e-03+j2.492583586923e-05
9.999948204229e-03+j2.021815708252e-05
9.999962187060e-03+j1.639959367599e-05
9.999971386850e-03+j1.330222851907e-05
9.999977439706e-03+j1.078985449471e-05
9.999981422086e-03+j8.751987487889e-06
9.999984042227e-03+j7.099009188589e-06
9.999985766106e-03+j5.758226763957e-06
9.999986900304e-03+j4.670676467209e-06
9.999987646531e-03+j3.788530802441e-06
9.999988137498e-03+j3.072995319448e-06
9.999988460522e-03+j2.492602598450e-06
9.999988673051e-03+j2.021828426989e-06
9.999988812881e-03+j1.639969327130e-06
9.999988904881e-03+j1.330232077499e-06
9.999988965411e-03+j1.078995193923e-06
9.999989005239e-03+j8.752098927006e-07
9.999989031445e-03+j7.099141935628e-07
9.999989048691e-03+j5.758387944265e-07
9.999989060044e-03+j4.670873856127e-07
9.999989067524e-03+j3.788773447197e-07
9.999989072459e-03+j3.073294086393e-07
9.999989075729e-03+j2.492970730569e-07
9.999989077914e-03+j2.022282168648e-07
9.999989079403e-03+j1.640528660796e-07
9.999989080461e-03+j1.330921613940e-07
9.999989081276e-03+j1.079845259674e-07
9.999989081994e-03+j8.762578647265e-08
9.999989082741e-03+j7.112061402116e-08
9.999989083651e-03+j5.774314936935e-08
9.999989084885e-03+j4.690508063328e-08
9.999989086663e-03+j3.812976933734e-08
9.999989089300e-03+j3.103128634192e-08
9.999989093266e-03+j2.529743461014e-08
9.999989099265e-03+j2.067601014664e-08
9.999989108363e-03+j1.696369304572e-08
9.999989122171e-03+j1.399707284968e-08
9.999989143137e-03+j1.164539984427e-08
9.999989174963e-03+j9.804717593244e-09
9.999989223253e-03+j8.393069413916e-09
9.999989296456e-03+j7.346473934043e-09
9.999989407251e-03+j6.615312545684e-09
9.999989574499e-03+j6.160625148386e-09
9.999989825801e-03+j5.949502279147e-09
9.999990200281e-03+j5.948212934853e-09
9.999990749902e-03+j6.110999027060e-09
9.999991534258e-03+j6.362580749343e-09
9.999992597856e-03+j6.577241365172e-09
9.999993917212e-03+j6.574832659086e-09
9.999995334587e-03+j6.179629908195e-09
9.999996569397e-03+j5.356318378989e-09
9.999997383600e-03+j4.290805151855e-09
9.999997749401e-03+j3.264557087873e-09
9.999997813018e-03+j2.459865835735e-09
9.999997746041e-03+j1.911475974114e-09
9.999997662688e-03+j1.572185544119e-09
9.999997617543e-03+j1.376200946248e-09
9.999997627959e-03+j1.266147385076e-09
9.999997691575e-03+j1.198538027573e-09
9.999997795673e-03+j1.143191589204e-09
9.999997922812e-03+j1.082416984305e-09
9.999998055790e-03+j1.009699306136e-09
9.999998181668e-03+j9.265632807148e-10
9.999998293317e-03+j8.382327529940e-10
9.999998388345e-03+j7.501086363794e-10
</dep>
<dep ac.v(e) frequency>
6.336431073157e-04+j2.400577846816e-03
9.315357940155e-04+j2.862605723414e-03
1.348707321527e-03+j3.361790241976e-03
1.912093256290e-03+j3.865920119369e-03
2.636765462649e-03+j4.324204425160e-03
3.512656375061e-03+j4.672628909174e-03
4.495077003456e-03+j4.850133240697e-03
5.508746596741e-03+j4.821256507093e-03
6.468461137403e-03+j4.591972994161e-03
7.305881945723e-03+j4.206897314802e-03
7.986119145357e-03+j3.730061186198e-03
8.507265280887e-03+j3.223005567575e-03
8.888905231257e-03+j2.731556990231e-03
9.159242056870e-03+j2.283034300915e-03
9.346257070931e-03+j1.889650700189e-03
9.473522440823e-03+j1.553625032319e-03
9.559161947995e-03+j1.271585168280e-03
9.616356550610e-03+j1.037593174292e-03
9.654361538991e-03+j8.449500264912e-04
9.679530550518e-03+j6.871517889148e-04
9.696161776794e-03+j5.583276896478e-04
9.707135218856e-03+j4.533893660460e-04
9.714368567811e-03+j3.680321665460e-04
9.719133510747e-03+j2.986687073747e-04
9.722271075310e-03+j2.423376578102e-04
9.724336488373e-03+j1.966093714410e-04
9.725695870942e-03+j1.594982983955e-04
9.726590461205e-03+j1.293859886951e-04
9.727179131626e-03+j1.049554411097e-04
9.727566476319e-03+j8.513613819826e-05
9.727821340088e-03+j6.905854566451e-05
9.727989030714e-03+j5.601671520619e-05
9.728099363102e-03+j4.543768866338e-05
9.728171955813e-03+j3.685654096517e-05
9.728219717563e-03+j2.989606210006e-05
9.728251141865e-03+j2.425023678690e-05
9.728271817074e-03+j1.967082320011e-05
9.728285420038e-03+j1.595645539544e-05
9.728294369914e-03+j1.294379813111e-05
9.728300258365e-03+j1.050036933423e-05
9.728304132609e-03+j8.518716824978e-06
9.728306681652e-03+j6.911694412482e-06
9.728308358827e-03+j5.608630261259e-06
9.728309462408e-03+j4.552219366061e-06
9.728310188661e-03+j3.696003657400e-06
9.728310666746e-03+j3.002329016826e-06
9.728310981687e-03+j2.440689408755e-06
9.728311189494e-03+j1.986385335671e-06
9.728311327125e-03+j1.619437633716e-06
9.728311419057e-03+j1.323708847965e-06
9.728311481639e-03+j1.086193551835e-06
9.728311526001e-03+j8.964464028206e-07
9.728311560033e-03+j7.461227829765e-07
9.728311589786e-03+j6.286118231516e-07
9.728311620554e-03+j5.387456723742e-07
9.728311657806e-03+j4.725722264964e-07
9.728311708170e-03+j4.271813205103e-07
9.728311780600e-03+j4.005767393732e-07
9.728311887979e-03+j3.915884157553e-07
9.728312049403e-03+j3.998209478554e-07
9.728312293580e-03+j4.256361628434e-07
9.728312663934e-03+j4.701689396546e-07
9.728313226326e-03+j5.353769505095e-07
9.728314080768e-03+j6.241264403160e-07
9.728315379198e-03+j7.403176881995e-07
9.728317352495e-03+j8.890554284835e-07
9.728320351502e-03+j1.076871275518e-06
9.728324909357e-03+j1.312007089530e-06
9.728331836137e-03+j1.604770160611e-06
9.728342362550e-03+j1.967972855713e-06
9.728358357913e-03+j2.417470471296e-06
9.728382660523e-03+j2.972810419886e-06
9.728419577532e-03+j3.658001448229e-06
9.728475639337e-03+j4.502399165287e-06
9.728560733099e-03+j5.541675537465e-06
9.728689793130e-03+j6.818779104901e-06
9.728885287687e-03+j8.384668341357e-06
9.729180783832e-03+j1.029835455695e-05
9.729625793535e-03+j1.262532477359e-05
9.730291601776e-03+j1.543261412828e-05
9.731276068198e-03+j1.877776223881e-05
9.732700960702e-03+j2.268894562777e-05
9.734687487795e-03+j2.714000963660e-05
9.737293786153e-03+j3.204763828572e-05
9.740438973695e-03+j3.735187621594e-05
9.743939528423e-03+j4.319587119674e-05
9.747761276316e-03+j5.001825900509e-05
9.752275548427e-03+j5.834539103178e-05
9.758230474931e-03+j6.846399752843e-05
9.766545800095e-03+j8.025968609542e-05
9.778140028182e-03+j9.317838169584e-05
9.793763389651e-03+j1.061876676240e-04
9.813737240851e-03+j1.177830017636e-04
9.837627980066e-03+j1.261887963769e-04
9.864058973288e-03+j1.298353000819e-04
9.890913021679e-03+j1.279530498615e-04
9.915948221561e-03+j1.209110807780e-04
9.937490282443e-03+j1.100375593233e-04
9.954788306004e-03+j9.706076482836e-05
9.967925611562e-03+j8.355341748102e-05
</dep>
<dep ac.v(uin) frequency>
1.000000000000e-02+j0.000000000000e+00
1.000000000000e-02+j0.000000000000e+00
1.000000000000e-02+j0.000000000000e+00
1.000000000000e-02+j0.000000000000e+00
1.000000000000e-02+j0.000000000000e+00
1.000000000000e-02+j0.000000000000e+00
1.000000000000e-02+j0.000000000000e+00
1.000000000000e-02+j0.000000000000e+00
1.000000000000e-02+j0.000000000000e+00
1.000000000000e-02+j0.000000000000e+00
1.000000000000e-02+j0.000000000000e+00
1.000000000000e-02+j0.000000000000e+00
1.000000000000e-02+j0.000000000000e+00
1.000000000000e-02+j0.000000000000e+00
1.000000000000e-02+j0.000000000000e+00
1.000000000000e-02+j0.000000000000e+00
1.000000000000e-02+j0.000000000000e+00
1.000000000000e-02+j0.000000000000e+00
1.000000000000e-02+j0.000000000000e+00
1.000000000000e-02+j0.000000000000e+00
1.000000000000e-02+j0.000000000000e+00
1.000000000000e-02+j0.000000000000e+00
1.000000000000e-02+j0.000000000000e+00
1.000000000000e-02+j0.000000000000e+00
1.000000000000e-02+j0.000000000000e+00
1.000000000000e-02+j0.000000000000e+00
1.000000000000e-02+j0.000000000000e+00
1.000000000000e-02+j0.000000000000e+00
1.000000000000e-02+j0.000000000000e+00
1.000000000000e-02+j0.000000000000e+00
1.000000000000e-02+j0.000000000000e+00
1.000000000000e-02+j0.000000000000e+00
1.000000000000e-02+j0.000000000000e+00
1.000000000000e-02+j0.000000000000e+00
1.000000000000e-02+j0.000000000000e+00
1.000000000000e-02+j0.000000000000e+00
1.000000000000e-02+j0.000000000000e+00
1.000000000000e-02+j0.000000000000e+00
1.000000000000e-02+j0.000000000000e+00
1.000000000000e-02+j0.000000000000e+00
1.000000000000e-02+j0.000000000000e+00
1.000000000000e-02+j0.000000000000e+00
1.000000000000e-02+j0.000000000000e+00
1.000000000000e-02+j0.000000000000e+00
1.000000000000e-02+j0.000000000000e+00
1.000000000000e-02+j0.000000000000e+00
1.000000000000e-02+j0.000000000000e+00
1.000000000000e-02+j0.000000000000e+00
1.000000000000e-02+j0.000000000000e+00
1.000000000000e-02+j0.000000000000e+00
1.000000000000e-02+j0.000000000000e+00
1.000000000000e-02+j0.000000000000e+00
1.000000000000e-02+j0.000000000000e+00
1.000000000000e-02+j0.000000000000e+00
1.000000000000e-02+j0.000000000000e+00
1.000000000000e-02+j0.000000000000e+00
1.000000000000e-02+j0.000000000000e+00
1.000000000000e-02+j0.000000000000e+00
1.000000000000e-02+j0.000000000000e+00
1.000000000000e-02+j0.000000000000e+00
1.000000000000e-02+j0.000000000000e+00
1.000000000000e-02+j0.000000000000e+00
1.000000000000e-02+j0.000000000000e+00
1.000000000000e-02+j0.000000000000e+00
1.000000000000e-02+j0.000000000000e+00
1.000000000000e-02+j0.000000000000e+00
1.000000000000e-02+j0.000000000000e+00
1.000000000000e-02+j0.000000000000e+00
1.000000000000e-02+j0.000000000000e+00
1.000000000000e-02+j0.000000000000e+00
1.000000000000e-02+j0.000000000000e+00
1.000000000000e-02+j0.000000000000e+00
1.000000000000e-02+j0.000000000000e+00
1.000000000000e-02+j0.000000000000e+00
1.000000000000e-02+j0.000000000000e+00
1.000000000000e-02+j0.000000000000e+00
1.000000000000e-02+j0.000000000000e+00
1.000000000000e-02+j0.000000000000e+00
1.000000000000e-02+j0.000000000000e+00
1.000000000000e-02+j0.000000000000e+00
1.000000000000e-02+j0.000000000000e+00
1.000000000000e-02+j0.000000000000e+00
1.000000000000e-02+j0.000000000000e+00
1.000000000000e-02+j0.000000000000e+00
1.000000000000e-02+j0.000000000000e+00
1.000000000000e-02+j0.000000000000e+00
1.000000000000e-02+j0.000000000000e+00
1.000000000000e-02+j0.000000000000e+00
1.000000000000e-02+j0.000000000000e+00
1.000000000000e-02+j0.000000000000e+00
1.000000000000e-02+j0.000000000000e+00
1.000000000000e-02+j0.000000000000e+00
1.000000000000e-02+j0.000000000000e+00
1.000000000000e-02+j0.000000000000e+00
1.000000000000e-02+j0.000000000000e+00
1.000000000000e-02+j0.000000000000e+00
1.000000000000e-02+j0.000000000000e+00
1.000000000000e-02+j0.000000000000e+00
1.000000000000e-02+j0.000000000000e+00
1.000000000000e-02+j0.000000000000e+00
</dep>
<dep ac.i(pr1) frequency>
1.688226414582e-08+j6.395970146588e-08
2.481907110530e-08+j7.626975072905e-08
3.593384508493e-08+j8.956980809580e-08
5.094423509297e-08+j1.030016713753e-07
7.025180344751e-08+j1.152121196002e-07
9.358831823881e-08+j1.244956230682e-07
1.197631228874e-07+j1.292253569347e-07
1.467704991736e-07+j1.284565499076e-07
1.723403415550e-07+j1.223484005926e-07
1.946518906339e-07+j1.120896143325e-07
2.127755693320e-07+j9.938623685632e-08
2.266605569810e-07+j8.587796092175e-08
2.368286569364e-07+j7.278580779591e-08
2.440312882700e-07+j6.083770853607e-08
2.490139620044e-07+j5.035914818212e-08
2.524047155186e-07+j4.140935055568e-08
2.546864238926e-07+j3.389860305906e-08
2.562102697011e-07+j2.766886255829e-08
2.572228432643e-07+j2.254184584827e-08
2.578934256559e-07+j1.834451406810e-08
2.583365343495e-07+j1.492075528736e-08
2.586289017205e-07+j1.213537424497e-08
2.588216211545e-07+j9.874143519694e-09
2.589485744425e-07+j8.042053594711e-09
2.590321692454e-07+j6.560907664765e-09
2.590871985915e-07+j5.366838245223e-09
2.591234171396e-07+j4.408011640782e-09
2.591472522908e-07+j3.642623463303e-09
2.591629369877e-07+j3.037207362714e-09
2.591732580650e-07+j2.565241950309e-09
2.591800499419e-07+j2.206026498425e-09
2.591845200278e-07+j1.943793029065e-09
2.591874630910e-07+j1.767024867006e-09
2.591894024474e-07+j1.667956565548e-09
2.591906829607e-07+j1.642235817879e-09
2.591915323459e-07+j1.688733876927e-09
2.591921016540e-07+j1.809496889135e-09
2.591924921299e-07+j2.009836398430e-09
2.591927732162e-07+j2.298563212123e-09
2.591929949018e-07+j2.688375026506e-09
2.591931966121e-07+j3.196414919147e-09
2.591934142199e-07+j3.845025300997e-09
2.591936864255e-07+j4.662730502068e-09
2.591940616390e-07+j5.685491210883e-09
2.591946065901e-07+j6.958285938426e-09
2.591954181952e-07+j8.537089055654e-09
2.591966407936e-07+j1.049133239054e-08
2.591984918174e-07+j1.290695863162e-08
2.592013004604e-07+j1.589020080329e-08
2.592055662234e-07+j1.957225399410e-08
2.592120477472e-07+j2.411504473174e-08
2.592218977315e-07+j2.971835161900e-08
2.592368679350e-07+j3.662859017579e-08
2.592596207112e-07+j4.514964784181e-08
2.592942024847e-07+j5.565624492281e-08
2.593467633639e-07+j6.861040772347e-08
2.594266508564e-07+j8.458177580736e-08
2.595480721613e-07+j1.042726317475e-07
2.597326205893e-07+j1.285487453085e-07
2.600131152318e-07+j1.584773720099e-07
2.604394363153e-07+j1.953740462345e-07
2.610873930333e-07+j2.408601687893e-07
2.620721986575e-07+j2.969338129230e-07
2.635689441090e-07+j3.660566592760e-07
2.658436988683e-07+j4.512605018801e-07
2.693007420891e-07+j5.562772951867e-07
2.745542584033e-07+j6.856971240513e-07
2.825370981834e-07+j8.451585394564e-07
2.946655957190e-07+j1.041574941702e-06
3.130889502085e-07+j1.283398192192e-06
3.410656526990e-07+j1.580914637183e-06
3.835295775533e-07+j1.946555907423e-06
4.479363785706e-07+j2.395180996582e-06
5.455173947260e-07+j2.944235722783e-06
6.931097340186e-07+j3.613599857300e-06
9.157610352098e-07+j4.424754132138e-06
1.250274452185e-06+j5.398577801097e-06
1.749625031796e-06+j6.550534186150e-06
2.487396181163e-06+j7.881141284155e-06
3.559263707066e-06+j9.358615262991e-06
5.073600272533e-06+j1.089064010691e-05
7.114058446409e-06+j1.228800100851e-05
9.648589971285e-06+j1.324594155176e-05
1.238383540763e-05+j1.341952250846e-05
1.468639921237e-05+j1.268917967933e-05
1.583931161629e-05+j1.150331380084e-05
1.561661809269e-05+j1.081597908724e-05
1.451655562502e-05+j1.147014378300e-05
1.333458121942e-05+j1.374121425429e-05
1.268547218605e-05+j1.745963068211e-05
1.289297635104e-05+j2.232105720073e-05
1.408154816239e-05+j2.804995170586e-05
1.625688347672e-05+j3.443010451132e-05
1.932631130364e-05+j4.130866551582e-05
2.309927336969e-05+j4.863069857961e-05
2.731880846970e-05+j5.649620520779e-05
3.173549048420e-05+j6.519221530691e-05
3.618213940691e-05+j7.516830501267e-05
4.059919742964e-05+j8.698082819865e-05
4.500950384953e-05+j1.012632504480e-04
</dep>
<dep ac.i(pr2) frequency>
2.322342685366e-06+j8.798270808868e-06
3.414138514902e-06+j1.049163237612e-05
4.943098956946e-06+j1.232117535855e-05
7.007944592493e-06+j1.416884331973e-05
9.663914772386e-06+j1.584848421907e-05
1.287411122230e-05+j1.712548169555e-05
1.647474592339e-05+j1.777604568742e-05
2.018991008783e-05+j1.767020963786e-05
2.370732551903e-05+j1.682986964552e-05
2.677652656663e-05+j1.541854107978e-05
2.926963959294e-05+j1.367090423209e-05
3.117967365136e-05+j1.181251059098e-05
3.257840858109e-05+j1.001131723881e-05
3.356921040991e-05+j8.367449382507e-06
3.425463244787e-05+j6.925669037334e-06
3.472106820241e-05+j5.694108226102e-06
3.503494249656e-05+j4.660407652577e-06
3.524456438858e-05+j3.802804128505e-06
3.538385511193e-05+j3.096744956497e-06
3.547610115568e-05+j2.518392368587e-06
3.553705566812e-05+j2.046229084772e-06
3.557727403802e-05+j1.661605283295e-06
3.560378472644e-05+j1.348743343463e-06
3.562124854820e-05+j1.094494291696e-06
3.563274792365e-05+j8.880034504884e-07
3.564031779489e-05+j7.203645176837e-07
3.564530001887e-05+j5.842984860594e-07
3.564857874896e-05+j4.738713647750e-07
3.565073626284e-05+j3.842534639845e-07
3.565215590445e-05+j3.115178217771e-07
3.565308999415e-05+j2.524732898164e-07
3.565370458746e-05+j2.045272835064e-07
3.565410895726e-05+j1.655734158435e-07
3.565437500586e-05+j1.338997441828e-07
3.565455004306e-05+j1.081139531866e-07
3.565466519586e-05+j8.708237505574e-08
3.565474094253e-05+j6.988026747282e-08
3.565479075373e-05+j5.575121714372e-08
3.565482348791e-05+j4.407391271795e-08
3.565484496658e-05+j3.433484137938e-08
3.565485900956e-05+j2.610571666347e-08
3.565486811430e-05+j1.902464925729e-08
3.565487390000e-05+j1.278023508261e-08
3.565487739564e-05+j7.097862155957e-09
3.565487922289e-05+j1.727634708878e-09
3.565487970672e-05-j3.566616137436e-09
3.565487893316e-05-j9.017718230208e-09
3.565487676464e-05-j1.486539740829e-08
3.565487281551e-05-j2.136681990467e-08
3.565486638344e-05-j2.880790169341e-08
3.565485632452e-05-j3.751588205736e-08
3.565484084982e-05-j4.787371420050e-08
3.565481720727e-05-j6.033690553416e-08
3.565478119218e-05-j7.545354779797e-08
3.565472639947e-05-j9.388841708144e-08
3.565464308463e-05-j1.164522020901e-07
3.565451643064e-05-j1.441371432034e-07
3.565432391298e-05-j1.781606443217e-07
