<Qucs Dataset 0.0.22>
<indep frequency 100>
1.000000000000e+00
1.232846739442e+00
1.519911082953e+00
1.873817422860e+00
2.310129700083e+00
2.848035868436e+00
3.511191734215e+00
4.328761281083e+00
5.336699231206e+00
6.579332246576e+00
8.111308307897e+00
1.000000000000e+01
1.232846739442e+01
1.519911082953e+01
1.873817422860e+01
2.310129700083e+01
2.848035868436e+01
3.511191734215e+01
4.328761281083e+01
5.336699231206e+01
6.579332246576e+01
8.111308307897e+01
1.000000000000e+02
1.232846739442e+02
1.519911082953e+02
1.873817422860e+02
2.310129700083e+02
2.848035868436e+02
3.511191734215e+02
4.328761281083e+02
5.336699231206e+02
6.579332246576e+02
8.111308307897e+02
1.000000000000e+03
1.232846739442e+03
1.519911082953e+03
1.873817422860e+03
2.310129700083e+03
2.848035868436e+03
3.511191734215e+03
4.328761281083e+03
5.336699231206e+03
6.579332246576e+03
8.111308307897e+03
1.000000000000e+04
1.232846739442e+04
1.519911082953e+04
1.873817422860e+04
2.310129700083e+04
2.848035868436e+04
3.511191734215e+04
4.328761281083e+04
5.336699231206e+04
6.579332246576e+04
8.111308307897e+04
1.000000000000e+05
1.232846739442e+05
1.519911082953e+05
1.873817422860e+05
2.310129700083e+05
2.848035868436e+05
3.511191734215e+05
4.328761281083e+05
5.336699231206e+05
6.579332246576e+05
8.111308307897e+05
1.000000000000e+06
1.232846739442e+06
1.519911082953e+06
1.873817422860e+06
2.310129700083e+06
2.848035868436e+06
3.511191734215e+06
4.328761281083e+06
5.336699231206e+06
6.579332246576e+06
8.111308307897e+06
1.000000000000e+07
1.232846739442e+07
1.519911082953e+07
1.873817422860e+07
2.310129700083e+07
2.848035868436e+07
3.511191734215e+07
4.328761281083e+07
5.336699231206e+07
6.579332246576e+07
8.111308307897e+07
1.000000000000e+08
1.232846739442e+08
1.519911082953e+08
1.873817422860e+08
2.310129700083e+08
2.848035868436e+08
3.511191734215e+08
4.328761281083e+08
5.336699231206e+08
6.579332246576e+08
8.111308307897e+08
1.000000000000e+09
</indep>
<dep ac.v(b) frequency>
6.508355729198e-04+j2.467959572725e-03
9.568880557560e-04+j2.943146030571e-03
1.385568338868e-03+j3.456678856857e-03
1.964645413865e-03+j3.975488283968e-03
2.709744691215e-03+j4.447360577561e-03
3.610672649722e-03+j4.806390065364e-03
4.621584513939e-03+j4.989579459152e-03
5.665017156981e-03+j4.960175612335e-03
6.653098463398e-03+j4.724098724374e-03
7.515188778920e-03+j4.327213564870e-03
8.215113309260e-03+j3.835585126932e-03
8.750814675777e-03+j3.312836052358e-03
9.142545073531e-03+j2.806389702318e-03
9.419535218268e-03+j2.344494971931e-03
9.610789192413e-03+j1.939715167263e-03
9.740705549225e-03+j1.594239854384e-03
9.827994270221e-03+j1.304480859632e-03
9.886218893937e-03+j1.064227682667e-03
9.924872734160e-03+j8.665192153615e-04
9.950454495077e-03+j7.046250421069e-04
9.967350626741e-03+j5.724875975763e-04
9.978495315159e-03+j4.648673595102e-04
9.985839966670e-03+j3.773380968939e-04
9.990677533611e-03+j3.062146916535e-04
9.993862613595e-03+j2.484571347557e-04
9.995959172145e-03+j2.015723263675e-04
9.997338995594e-03+j1.635234589929e-04
9.998247012516e-03+j1.326506245253e-04
9.998844507197e-03+j1.076032587039e-04
9.999237653506e-03+j8.728365491174e-05
9.999496332549e-03+j7.080024300893e-05
9.999666532589e-03+j5.742920962067e-05
9.999778515666e-03+j4.658310934567e-05
9.999852194271e-03+j3.778526667581e-05
9.999900670401e-03+j3.064893911195e-05
9.999932564686e-03+j2.486037649550e-05
9.999953549094e-03+j2.016505897142e-05
9.999967355476e-03+j1.635652300038e-05
9.999976439173e-03+j1.326729182844e-05
9.999982415646e-03+j1.076151572822e-05
9.999986347770e-03+j8.729000572854e-06
9.999988934847e-03+j7.080363321698e-06
9.999990636971e-03+j5.743102001517e-06
9.999991756855e-03+j4.658407688924e-06
9.999992493664e-03+j3.778578473266e-06
9.999992978436e-03+j3.064921768673e-06
9.999993297383e-03+j2.486052775490e-06
9.999993507229e-03+j2.016514288980e-06
9.999993645294e-03+j1.635657172492e-06
9.999993736131e-03+j1.326732268842e-06
9.999993795896e-03+j1.076153818538e-06
9.999993835217e-03+j8.729019939999e-07
9.999993861088e-03+j7.080382758766e-07
9.999993878110e-03+j5.743123595132e-07
9.999993889309e-03+j4.658433046112e-07
9.999993896678e-03+j3.778609060002e-07
9.999993901526e-03+j3.064959117313e-07
9.999993904717e-03+j2.486098628449e-07
9.999993906817e-03+j2.016570716075e-07
9.999993908200e-03+j1.635726683691e-07
9.999993909112e-03+j1.326817936237e-07
9.999993909716e-03+j1.076259417622e-07
9.999993910118e-03+j8.730321729891e-08
9.999993910391e-03+j7.081987618457e-08
9.999993910582e-03+j5.745102111223e-08
9.999993910726e-03+j4.660872228862e-08
9.999993910848e-03+j3.781616169796e-08
9.999993910971e-03+j3.068666378075e-08
9.999993911115e-03+j2.490669033779e-08
9.999993911306e-03+j2.022205179909e-08
9.999993911579e-03+j1.642672842856e-08
9.999993911983e-03+j1.335380978512e-08
9.999993912587e-03+j1.086815386111e-08
9.999993913501e-03+j8.860442842860e-09
9.999993914886e-03+j7.242373665202e-09
9.999993916989e-03+j5.942771077448e-09
9.999993920180e-03+j4.904450837141e-09
9.999993925024e-03+j4.081692394155e-09
9.999993932373e-03+j3.438204937186e-09
9.999993943513e-03+j2.945488176958e-09
9.999993960377e-03+j2.581499018424e-09
9.999993985856e-03+j2.329535329913e-09
9.999994024230e-03+j2.177234620049e-09
9.999994081755e-03+j2.115553424051e-09
9.999994167388e-03+j2.137538353479e-09
9.999994293538e-03+j2.236628207554e-09
9.999994476528e-03+j2.404179389603e-09
9.999994736068e-03+j2.626008589868e-09
9.999995092554e-03+j2.878256743633e-09
9.999995560857e-03+j3.124111744252e-09
9.999996140458e-03+j3.314729572424e-09
9.999996805363e-03+j3.398372923646e-09
9.999997501691e-03+j3.338085726128e-09
9.999998160202e-03+j3.129606909606e-09
9.999998720550e-03+j2.805806588296e-09
9.999999151942e-03+j2.422006563226e-09
9.999999456721e-03+j2.032585088103e-09
9.999999658450e-03+j1.674753820065e-09
9.999999786471e-03+j1.365677422559e-09
9.999999866054e-03+j1.108100307279e-09
</dep>
<dep ac.v(c) frequency>
-2.863617987528e-03-j8.631748493699e-03
-4.196250936217e-03-j1.017349621120e-02
-6.045750816890e-03-j1.173642755855e-02
-8.508094865785e-03-j1.313336644476e-02
-1.160331122704e-02-j1.408819772278e-02
-1.520494798414e-02-j1.427098210433e-02
-1.899146982035e-02-j1.339277078452e-02
-2.247349161553e-02-j1.133831443505e-02
-2.511958197083e-02-j8.265265796197e-03
-2.653198815904e-02-j4.597599223370e-03
-2.658181419211e-02-j9.052016924573e-04
-2.544054472958e-02+j2.272024254396e-03
-2.350132984503e-02+j4.578009931955e-03
-2.123069211863e-02+j5.910785207780e-03
-1.902228683533e-02+j6.388325893281e-03
-1.711739770919e-02+j6.246141297175e-03
-1.560625054608e-02+j5.732785082952e-03
-1.447620952521e-02+j5.047500124504e-03
-1.366534336172e-02+j4.323101046592e-03
-1.309983282127e-02+j3.635236283196e-03
-1.271300516994e-02+j3.019719348251e-03
-1.245183400165e-02+j2.488200386702e-03
-1.227703373015e-02+j2.039291108921e-03
-1.216071828006e-02+j1.665474899796e-03
-1.208361701644e-02+j1.357015783727e-03
-1.203263926525e-02+j1.103990491878e-03
-1.199899039071e-02+j8.972382526811e-04
-1.197680436294e-02+j7.287243309472e-04
-1.196218690872e-02+j5.916052615143e-04
-1.195256069957e-02+j4.801546878640e-04
-1.194622344008e-02+j3.896337764465e-04
-1.194205227590e-02+j3.161484809415e-04
-1.193930720486e-02+j2.565134867629e-04
-1.193750081803e-02+j2.081309644150e-04
-1.193631220031e-02+j1.688863940275e-04
-1.193553011022e-02+j1.370609549440e-04
-1.193501552131e-02+j1.112588101724e-04
-1.193467694451e-02+j9.034725544649e-05
-1.193445417783e-02+j7.340772488942e-05
-1.193430760864e-02+j5.969583202509e-05
-1.193421117271e-02+j4.860886688177e-05
-1.193414772043e-02+j3.965941484902e-05
-1.193410596757e-02+j3.245398785690e-05
-1.193407848882e-02+j2.667575520790e-05
-1.193406039732e-02+j2.207062907240e-05
-1.193404847562e-02+j1.843610042751e-05
-1.193404060354e-02+j1.561233859867e-05
-1.193403538109e-02+j1.347516516977e-05
-1.193403187947e-02+j1.193059445294e-05
-1.193402947595e-02+j1.091070104919e-05
-1.193402774307e-02+j1.037063308773e-05
-1.193402637266e-02+j1.028663997441e-05
-1.193402512099e-02+j1.065502801890e-05
-1.193402376546e-02+j1.149199804206e-05
-1.193402206500e-02+j1.283435785810e-05
-1.193401971719e-02+j1.474114094297e-05
-1.193401630449e-02+j1.729620248914e-05
-1.193401121997e-02+j2.061190697450e-05
-1.193400355937e-02+j2.483406925401e-05
-1.193399196031e-02+j3.014836646228e-05
-1.193397435998e-02+j3.678850225853e-05
-1.193394762829e-02+j4.504648209696e-05
-1.193390701121e-02+j5.528545005817e-05
-1.193384528539e-02+j6.795565029218e-05
-1.193375147359e-02+j8.361421094843e-05
-1.193360889271e-02+j1.029496142789e-04
-1.193339218744e-02+j1.268119157593e-04
-1.193306282225e-02+j1.562500186431e-04
-1.193256223138e-02+j1.925575965626e-04
-1.193180141054e-02+j2.373296027506e-04
-1.193064510510e-02+j2.925316927742e-04
-1.192888779519e-02+j3.605853217193e-04
-1.192621723612e-02+j4.444717106089e-04
-1.192215913746e-02+j5.478582281111e-04
-1.191599329800e-02+j6.752508274401e-04
-1.190662664078e-02+j8.321756628387e-04
-1.189240139582e-02+j1.025391192095e-03
-1.187080622076e-02+j1.263127675558e-03
-1.183804325609e-02+j1.555341596918e-03
-1.178838412352e-02+j1.913953844350e-03
-1.171322313079e-02+j2.353004859239e-03
-1.159971082935e-02+j2.888594746865e-03
-1.142884012265e-02+j3.538361823147e-03
-1.117289763333e-02+j4.320064180651e-03
-1.079236820278e-02+j5.248547050843e-03
-1.023285079570e-02+j6.330037948724e-03
-9.423558132998e-03+j7.552516542372e-03
-8.280742044110e-03+j8.871461233421e-03
-6.721555712473e-03+j1.019281537111e-02
-4.694295732737e-03+j1.136098161067e-02
-2.224663635059e-03+j1.216806978064e-02
5.400422797351e-04+j1.240293424378e-02
3.328017965275e-03+j1.193883077474e-02
5.814648315890e-03+j1.081535170284e-02
7.746880974468e-03+j9.245954788911e-03
9.038119810434e-03+j7.528601280755e-03
9.767264749808e-03+j5.921524744766e-03
1.009970900112e-02+j4.569541022850e-03
1.020123483031e-02+j3.506921498176e-03
1.019254446801e-02+j2.701728187826e-03
</dep>
<dep ac.v(e) frequency>
6.330045801706e-04+j2.400958219963e-03
9.306759680555e-04+j2.863277209001e-03
1.347621762122e-03+j3.362932632783e-03
1.910857383606e-03+j3.867772218866e-03
2.635593574805e-03+j4.327025513640e-03
3.511938567426e-03+j4.676603476252e-03
4.495336608571e-03+j4.855238001601e-03
5.510487759641e-03+j4.827170072407e-03
6.471967235611e-03+j4.598121436526e-03
7.311094654525e-03+j4.212639096737e-03
7.992677966756e-03+j3.734901140196e-03
8.514666424011e-03+j3.226715515974e-03
8.896673610316e-03+j2.734165714016e-03
9.167036314961e-03+j2.284732841919e-03
9.353890702386e-03+j1.890683737203e-03
9.480929980019e-03+j1.554215512418e-03
9.566349353219e-03+j1.271902423823e-03
9.623360680909e-03+j1.037751481994e-03
9.661225756236e-03+j8.450204441786e-04
9.686293451452e-03+j6.871759709069e-04
9.702853725174e-03+j5.583289804410e-04
9.713778540036e-03+j4.533803570391e-04
9.720979027613e-03+j3.680193883651e-04
9.725721966631e-03+j2.986553808457e-04
9.728844885937e-03+j2.423252465276e-04
9.730900589971e-03+j1.965984344387e-04
9.732253552678e-03+j1.594889482189e-04
9.733143905209e-03+j1.293781322728e-04
9.733729781457e-03+j1.049489031960e-04
9.734115285157e-03+j8.513072230578e-05
9.734368936542e-03+j6.905406225779e-05
9.734535829009e-03+j5.601299309602e-05
9.734645636049e-03+j4.543457803263e-05
9.734717883023e-03+j3.685391242168e-05
9.734765417258e-03+j2.989380400004e-05
9.734796691851e-03+j2.424825193463e-05
9.734817268549e-03+j1.966902543275e-05
9.734830806690e-03+j1.595476625261e-05
9.734839713905e-03+j1.294214364917e-05
9.734845574271e-03+j1.049867692429e-05
9.734849430012e-03+j8.516912150309e-06
9.734851966846e-03+j6.909698156643e-06
9.734853635931e-03+j5.606354659793e-06
9.734854734106e-03+j4.549564357443e-06
9.734855456673e-03+j3.692852488231e-06
9.734855932138e-03+j2.998543110333e-06
9.734856245058e-03+j2.436102272148e-06
9.734856451084e-03+j1.980795239081e-06
9.734856586858e-03+j1.612598739114e-06
9.734856676525e-03+j1.315320398147e-06
9.734856736033e-03+j1.075886644161e-06
9.734856775965e-03+j8.837677661807e-07
9.734856803422e-03+j7.305148446993e-07
9.734856823288e-03+j6.093881895201e-07
9.734856839095e-03+j5.150609449336e-07
9.734856853655e-03+j4.433848276562e-07
9.734856869557e-03+j3.912076953061e-07
9.734856889629e-03+j3.562349224798e-07
9.734856917441e-03+j3.369284879141e-07
9.734856957939e-03+j3.324393345556e-07
9.734857018325e-03+j3.425700272434e-07
9.734857109339e-03+j3.677660646742e-07
9.734857247167e-03+j4.091354613097e-07
9.734857456321e-03+j4.684974564356e-07
9.734857773996e-03+j5.484624847088e-07
9.734858256689e-03+j6.525469108946e-07
9.734858990242e-03+j7.853275475434e-07
9.734860105105e-03+j9.526427009729e-07
9.734861799538e-03+j1.161848492271e-06
9.734864374854e-03+j1.422141549841e-06
9.734868288982e-03+j1.744961933467e-06
9.734874237856e-03+j2.144493390130e-06
9.734883279051e-03+j2.638281781324e-06
9.734897019572e-03+j3.247996705624e-06
9.734917900967e-03+j4.000365742918e-06
9.734949631965e-03+j4.928314796074e-06
9.734997844414e-03+j6.072350450800e-06
9.735071086469e-03+j7.482218580247e-06
9.735182323469e-03+j9.218862619782e-06
9.735351199150e-03+j1.135667560476e-05
9.735607426604e-03+j1.398597469244e-05
9.735995837324e-03+j1.721549386185e-05
9.736583816471e-03+j2.117443444460e-05
9.737472064531e-03+j2.601314227646e-05
9.738809750342e-03+j3.190065493425e-05
9.740814902799e-03+j3.901600617899e-05
9.743799769317e-03+j4.752816459458e-05
9.748197804953e-03+j5.755705239757e-05
9.754582417637e-03+j6.910655196382e-05
9.763656407906e-03+j8.196339829777e-05
9.776177343645e-03+j9.557029522660e-05
9.792779214293e-03+j1.089151108060e-04
9.813679730376e-03+j1.205266855292e-04
9.838351440040e-03+j1.286929936564e-04
9.865357214750e-03+j1.319410047006e-04
9.892571987001e-03+j1.296066121379e-04
9.917791400148e-03+j1.221402534369e-04
9.939397601582e-03+j1.109121587318e-04
9.956690923169e-03+j9.765962885106e-05
9.969790601476e-03+j8.394651601383e-05
</dep>
<dep ac.v(uin) frequency>
1.000000000000e-02+j0.000000000000e+00
1.000000000000e-02+j0.000000000000e+00
1.000000000000e-02+j0.000000000000e+00
1.000000000000e-02+j0.000000000000e+00
1.000000000000e-02+j0.000000000000e+00
1.000000000000e-02+j0.000000000000e+00
1.000000000000e-02+j0.000000000000e+00
1.000000000000e-02+j0.000000000000e+00
1.000000000000e-02+j0.000000000000e+00
1.000000000000e-02+j0.000000000000e+00
1.000000000000e-02+j0.000000000000e+00
1.000000000000e-02+j0.000000000000e+00
1.000000000000e-02+j0.000000000000e+00
1.000000000000e-02+j0.000000000000e+00
1.000000000000e-02+j0.000000000000e+00
1.000000000000e-02+j0.000000000000e+00
1.000000000000e-02+j0.000000000000e+00
1.000000000000e-02+j0.000000000000e+00
1.000000000000e-02+j0.000000000000e+00
1.000000000000e-02+j0.000000000000e+00
1.000000000000e-02+j0.000000000000e+00
1.000000000000e-02+j0.000000000000e+00
1.000000000000e-02+j0.000000000000e+00
1.000000000000e-02+j0.000000000000e+00
1.000000000000e-02+j0.000000000000e+00
1.000000000000e-02+j0.000000000000e+00
1.000000000000e-02+j0.000000000000e+00
1.000000000000e-02+j0.000000000000e+00
1.000000000000e-02+j0.000000000000e+00
1.000000000000e-02+j0.000000000000e+00
1.000000000000e-02+j0.000000000000e+00
1.000000000000e-02+j0.000000000000e+00
1.000000000000e-02+j0.000000000000e+00
1.000000000000e-02+j0.000000000000e+00
1.000000000000e-02+j0.000000000000e+00
1.000000000000e-02+j0.000000000000e+00
1.000000000000e-02+j0.000000000000e+00
1.000000000000e-02+j0.000000000000e+00
1.000000000000e-02+j0.000000000000e+00
1.000000000000e-02+j0.000000000000e+00
1.000000000000e-02+j0.000000000000e+00
1.000000000000e-02+j0.000000000000e+00
1.000000000000e-02+j0.000000000000e+00
1.000000000000e-02+j0.000000000000e+00
1.000000000000e-02+j0.000000000000e+00
1.000000000000e-02+j0.000000000000e+00
1.000000000000e-02+j0.000000000000e+00
1.000000000000e-02+j0.000000000000e+00
1.000000000000e-02+j0.000000000000e+00
1.000000000000e-02+j0.000000000000e+00
1.000000000000e-02+j0.000000000000e+00
1.000000000000e-02+j0.000000000000e+00
1.000000000000e-02+j0.000000000000e+00
1.000000000000e-02+j0.000000000000e+00
1.000000000000e-02+j0.000000000000e+00
1.000000000000e-02+j0.000000000000e+00
1.000000000000e-02+j0.000000000000e+00
1.000000000000e-02+j0.000000000000e+00
1.000000000000e-02+j0.000000000000e+00
1.000000000000e-02+j0.000000000000e+00
1.000000000000e-02+j0.000000000000e+00
1.000000000000e-02+j0.000000000000e+00
1.000000000000e-02+j0.000000000000e+00
1.000000000000e-02+j0.000000000000e+00
1.000000000000e-02+j0.000000000000e+00
1.000000000000e-02+j0.000000000000e+00
1.000000000000e-02+j0.000000000000e+00
1.000000000000e-02+j0.000000000000e+00
1.000000000000e-02+j0.000000000000e+00
1.000000000000e-02+j0.000000000000e+00
1.000000000000e-02+j0.000000000000e+00
1.000000000000e-02+j0.000000000000e+00
1.000000000000e-02+j0.000000000000e+00
1.000000000000e-02+j0.000000000000e+00
1.000000000000e-02+j0.000000000000e+00
1.000000000000e-02+j0.000000000000e+00
1.000000000000e-02+j0.000000000000e+00
1.000000000000e-02+j0.000000000000e+00
1.000000000000e-02+j0.000000000000e+00
1.000000000000e-02+j0.000000000000e+00
1.000000000000e-02+j0.000000000000e+00
1.000000000000e-02+j0.000000000000e+00
1.000000000000e-02+j0.000000000000e+00
1.000000000000e-02+j0.000000000000e+00
1.000000000000e-02+j0.000000000000e+00
1.000000000000e-02+j0.000000000000e+00
1.000000000000e-02+j0.000000000000e+00
1.000000000000e-02+j0.000000000000e+00
1.000000000000e-02+j0.000000000000e+00
1.000000000000e-02+j0.000000000000e+00
1.000000000000e-02+j0.000000000000e+00
1.000000000000e-02+j0.000000000000e+00
1.000000000000e-02+j0.000000000000e+00
1.000000000000e-02+j0.000000000000e+00
1.000000000000e-02+j0.000000000000e+00
1.000000000000e-02+j0.000000000000e+00
1.000000000000e-02+j0.000000000000e+00
1.000000000000e-02+j0.000000000000e+00
1.000000000000e-02+j0.000000000000e+00
1.000000000000e-02+j0.000000000000e+00
</dep>
<dep ac.i(pr1) frequency>
1.701044264124e-08+j6.391874959379e-08
2.500585657740e-08+j7.619424265300e-08
3.620035046682e-08+j8.943323439869e-08
5.131282020245e-08+j1.027604614861e-07
7.073885812754e-08+j1.147990724646e-07
9.419060826482e-08+j1.238160466599e-07
1.204383824208e-07+j1.281617854621e-07
1.474185580028e-07+j1.268879126218e-07
1.727964454863e-07+j1.201837437195e-07
1.947029462442e-07+j1.093063918985e-07
2.122005357453e-07+j9.605591508481e-08
2.252828648531e-07+j8.216348852520e-08
2.345591166213e-07+j6.890733730772e-08
2.408820358816e-07+j5.701995896553e-08
2.450795653751e-07+j4.678425042711e-08
2.478245744585e-07+j3.819310460228e-08
2.496081491736e-07+j3.109167066782e-08
2.507657950458e-07+j2.527256060712e-08
2.515183922843e-07+j2.052710614921e-08
2.520088913894e-07+j1.666744415712e-08
2.523293548181e-07+j1.353301547221e-08
2.525391512654e-07+j1.099008279086e-08
2.526767084646e-07+j8.928698876803e-09
2.527670000103e-07+j7.259099707485e-09
2.528263122447e-07+j5.908293419406e-09
2.528652947032e-07+j4.817090672529e-09
2.528909246568e-07+j3.937612744561e-09
2.529077796834e-07+j3.231238946776e-09
2.529188658213e-07+j2.666934201250e-09
2.529261583582e-07+j2.219897270475e-09
2.529309558282e-07+j1.870476750290e-09
2.529341121270e-07+j1.603310317939e-09
2.529361888848e-07+j1.406650949871e-09
2.529375555711e-07+j1.271851272363e-09
2.529384552997e-07+j1.192983776875e-09
2.529390481067e-07+j1.166580411007e-09
2.529394394299e-07+j1.191480204661e-09
2.529396988685e-07+j1.268778289340e-09
2.529398725642e-07+j1.401874099836e-09
2.529399914086e-07+j1.596620894670e-09
2.529400765378e-07+j1.861583179673e-09
2.529401430919e-07+j2.208413360250e-09
2.529402029071e-07+j2.652364189081e-09
2.529402666213e-07+j3.212959546778e-09
2.529403455656e-07+j3.914853055466e-09
2.529404537800e-07+j4.788912285358e-09
2.529406105096e-07+j5.873576235136e-09
2.529408436279e-07+j7.216545784701e-09
2.529411945938e-07+j8.876881461884e-09
2.529417258245e-07+j1.092760077694e-08
2.529425317963e-07+j1.345888934763e-08
2.529437558468e-07+j1.658206702939e-08
2.529456156663e-07+j2.043448346535e-08
2.529484420130e-07+j2.518555833990e-08
2.529527375363e-07+j3.104423195111e-08
2.529592661701e-07+j3.826815372174e-08
