<Qucs Dataset 0.0.21>
<indep frequency 100>
1.000000000000e+00
1.232846739442e+00
1.519911082953e+00
1.873817422860e+00
2.310129700083e+00
2.848035868436e+00
3.511191734215e+00
4.328761281083e+00
5.336699231206e+00
6.579332246576e+00
8.111308307897e+00
1.000000000000e+01
1.232846739442e+01
1.519911082953e+01
1.873817422860e+01
2.310129700083e+01
2.848035868436e+01
3.511191734215e+01
4.328761281083e+01
5.336699231206e+01
6.579332246576e+01
8.111308307897e+01
1.000000000000e+02
1.232846739442e+02
1.519911082953e+02
1.873817422860e+02
2.310129700083e+02
2.848035868436e+02
3.511191734215e+02
4.328761281083e+02
5.336699231206e+02
6.579332246576e+02
8.111308307897e+02
1.000000000000e+03
1.232846739442e+03
1.519911082953e+03
1.873817422860e+03
2.310129700083e+03
2.848035868436e+03
3.511191734215e+03
4.328761281083e+03
5.336699231206e+03
6.579332246576e+03
8.111308307897e+03
1.000000000000e+04
1.232846739442e+04
1.519911082953e+04
1.873817422860e+04
2.310129700083e+04
2.848035868436e+04
3.511191734215e+04
4.328761281083e+04
5.336699231206e+04
6.579332246576e+04
8.111308307897e+04
1.000000000000e+05
1.232846739442e+05
1.519911082953e+05
1.873817422860e+05
2.310129700083e+05
2.848035868436e+05
3.511191734215e+05
4.328761281083e+05
5.336699231206e+05
6.579332246576e+05
8.111308307897e+05
1.000000000000e+06
1.232846739442e+06
1.519911082953e+06
1.873817422860e+06
2.310129700083e+06
2.848035868436e+06
3.511191734215e+06
4.328761281083e+06
5.336699231206e+06
6.579332246576e+06
8.111308307897e+06
1.000000000000e+07
1.232846739442e+07
1.519911082953e+07
1.873817422860e+07
2.310129700083e+07
2.848035868436e+07
3.511191734215e+07
4.328761281083e+07
5.336699231206e+07
6.579332246576e+07
8.111308307897e+07
1.000000000000e+08
1.232846739442e+08
1.519911082953e+08
1.873817422860e+08
2.310129700083e+08
2.848035868436e+08
3.511191734215e+08
4.328761281083e+08
5.336699231206e+08
6.579332246576e+08
8.111308307897e+08
1.000000000000e+09
</indep>
<dep ac.v(b) frequency>
6.513380101373e-04+j2.467616620643e-03
9.575495720953e-04+j2.942547210020e-03
1.386370952226e-03+j3.455672144227e-03
1.965489945017e-03+j3.973880630638e-03
2.710399357348e-03+j4.444963363678e-03
3.610750537567e-03+j4.803118414964e-03
4.620606563738e-03+j4.985580224180e-03
5.662584405658e-03+j4.955897504998e-03
6.649100589380e-03+j4.720211292917e-03
7.509907918002e-03+j4.324382065491e-03
8.209142088729e-03+j3.834229704275e-03
8.744842318639e-03+j3.313013813801e-03
9.137140392783e-03+j2.807840737847e-03
9.415026976747e-03+j2.346792278682e-03
9.607264809571e-03+j1.942422734700e-03
9.738084357390e-03+j1.597012930357e-03
9.826115546251e-03+j1.307096572775e-03
9.884907441417e-03+j1.066569905452e-03
9.923973807981e-03+j8.685468244163e-04
9.949845723161e-03+j7.063417602843e-04
9.966941415484e-03+j5.739199891225e-04
9.978221316711e-03+j4.660510459735e-04
9.985656673950e-03+j3.783100632046e-04
9.990554689131e-03+j3.070094717458e-04
9.993779877570e-03+j2.491052390282e-04
9.995902972156e-03+j2.020998648021e-04
9.997300318684e-03+j1.639523472697e-04
9.998219892487e-03+j1.329990360950e-04
9.998825002916e-03+j1.078861477418e-04
9.999223165121e-03+j8.751326540292e-05
9.999485146560e-03+j7.098656752809e-05
9.999657520340e-03+j5.758038611788e-05
9.999770934019e-03+j4.670575621614e-05
9.999845554049e-03+j3.788476162648e-05
9.999894649653e-03+j3.072964914615e-05
9.999926951546e-03+j2.492584648472e-05
9.999948204148e-03+j2.021816569313e-05
9.999962186990e-03+j1.639960066035e-05
9.999971386788e-03+j1.330223418432e-05
9.999977439650e-03+j1.078985908998e-05
9.999981422033e-03+j8.751991215258e-06
9.999984042177e-03+j7.099012211977e-06
9.999985766057e-03+j5.758229216324e-06
9.999986900256e-03+j4.670678456404e-06
9.999987646483e-03+j3.788532415944e-06
9.999988137451e-03+j3.072996628215e-06
9.999988460475e-03+j2.492603660039e-06
9.999988673004e-03+j2.021829288086e-06
9.999988812834e-03+j1.639970025602e-06
9.999988904834e-03+j1.330232644064e-06
9.999988965365e-03+j1.078995653498e-06
9.999989005192e-03+j8.752102654964e-07
9.999989031398e-03+j7.099144959738e-07
9.999989048644e-03+j5.758390397519e-07
9.999989059998e-03+j4.670875846414e-07
9.999989067477e-03+j3.788775062044e-07
9.999989072413e-03+j3.073295396817e-07
9.999989075682e-03+j2.492971794200e-07
9.999989077867e-03+j2.022283032262e-07
9.999989079356e-03+j1.640529362373e-07
9.999989080415e-03+j1.330922184332e-07
9.999989081230e-03+j1.079845723966e-07
9.999989081947e-03+j8.762582433371e-08
9.999989082694e-03+j7.112064497906e-08
9.999989083604e-03+j5.774317478547e-08
9.999989084838e-03+j4.690510162522e-08
9.999989086616e-03+j3.812978682801e-08
9.999989089254e-03+j3.103130110004e-08
9.999989093220e-03+j2.529744728382e-08
9.999989099219e-03+j2.067602129154e-08
9.999989108316e-03+j1.696370314879e-08
9.999989122125e-03+j1.399708234931e-08
9.999989143091e-03+j1.164540914723e-08
9.999989174917e-03+j9.804727088261e-09
9.999989223208e-03+j8.393079481040e-09
9.999989296411e-03+j7.346484947600e-09
9.999989407206e-03+j6.615324867167e-09
9.999989574456e-03+j6.160639104170e-09
9.999989825760e-03+j5.949518119097e-09
9.999990200242e-03+j5.948230778684e-09
9.999990749866e-03+j6.111018839332e-09
9.999991534223e-03+j6.362602448856e-09
9.999992597824e-03+j6.577265191842e-09
9.999993917184e-03+j6.574859569943e-09
9.999995334565e-03+j6.179660879690e-09
9.999996569384e-03+j5.356351971163e-09
9.999997383597e-03+j4.290836512136e-09
9.999997749407e-03+j3.264581249598e-09
9.999997813028e-03+j2.459881048452e-09
9.999997746050e-03+j1.911483427492e-09
9.999997662695e-03+j1.572187512672e-09
9.999997617548e-03+j1.376199580103e-09
9.999997627961e-03+j1.266144355030e-09
9.999997691573e-03+j1.198534544053e-09
9.999997795669e-03+j1.143188471176e-09
9.999997922808e-03+j1.082414696950e-09
9.999998055785e-03+j1.009698006653e-09
9.999998181663e-03+j9.265629054559e-10
9.999998293312e-03+j8.382331234610e-10
9.999998388340e-03+j7.501095429811e-10
</dep>
<dep ac.v(e) frequency>
6.336433103061e-04+j2.400579638241e-03
9.315361167341e-04+j2.862607934291e-03
1.348707838033e-03+j3.361792961182e-03
1.912094082873e-03+j3.865923437044e-03
2.636766769805e-03+j4.324208410501e-03
3.512658385822e-03+j4.672633573983e-03
4.495079963247e-03+j4.850138499913e-03
5.508750712909e-03+j4.821262162904e-03
6.468466514221e-03+j4.591978766864e-03
7.305888554321e-03+j4.206902911876e-03
7.986126844921e-03+j3.730066371026e-03
8.507273871087e-03+j3.223010194656e-03
8.888914503844e-03+j2.731561003044e-03
9.159251828262e-03+j2.283037708863e-03
9.346267194878e-03+j1.889653551864e-03
9.473532808189e-03+j1.553627394209e-03
9.559172480758e-03+j1.271587110935e-03
9.616367194551e-03+j1.037594764663e-03
9.654372257124e-03+j8.449513243993e-04
9.679541317924e-03+j6.871528459462e-04
9.696172576820e-03+j5.583285493239e-04
9.707146040432e-03+j4.533900645794e-04
9.714379403603e-03+j3.680327338019e-04
9.719144355908e-03+j2.986691678420e-04
9.722281926643e-03+j2.423380314945e-04
9.724347343770e-03+j1.966096746451e-04
9.725706729014e-03+j1.594985443839e-04
9.726601321038e-03+j1.293861882483e-04
9.727189992618e-03+j1.049556029838e-04
9.727577338073e-03+j8.513626950139e-05
9.727832202344e-03+j6.905865216541e-05
9.727999893300e-03+j5.601680158547e-05
9.728110225905e-03+j4.543775871817e-05
9.728182818759e-03+j3.685659777546e-05
9.728230580603e-03+j2.989610816375e-05
9.728262004967e-03+j2.425027412953e-05
9.728282680217e-03+j1.967085346378e-05
9.728296283207e-03+j1.595647991100e-05
9.728305233101e-03+j1.294381797666e-05
9.728311121564e-03+j1.050038538251e-05
9.728314995815e-03+j8.518729781740e-06
9.728317544863e-03+j6.911704847529e-06
9.728319222041e-03+j5.608638633495e-06
9.728320325625e-03+j4.552226043675e-06
9.728321051879e-03+j3.696008934056e-06
9.728321529965e-03+j3.002333124579e-06
9.728321844906e-03+j2.440692528254e-06
9.728322052714e-03+j1.986387604103e-06
9.728322190345e-03+j1.619439150841e-06
9.728322282277e-03+j1.323709680503e-06
9.728322344859e-03+j1.086193736399e-06
9.728322389221e-03+j8.964459475270e-07
9.728322423253e-03+j7.461216678027e-07
9.728322453006e-03+j6.286099990551e-07
9.728322483773e-03+j5.387430591359e-07
9.728322521025e-03+j4.725687091925e-07
9.728322571387e-03+j4.271767444591e-07
9.728322643815e-03+j4.005709033321e-07
9.728322751191e-03+j3.915810630713e-07
9.728322912611e-03+j3.998117551791e-07
9.728323156780e-03+j4.256247259104e-07
9.728323527123e-03+j4.701547555096e-07
9.728324089499e-03+j5.353593953930e-07
9.728324943916e-03+j6.241047422431e-07
9.728326242308e-03+j7.402908930288e-07
9.728328215548e-03+j8.890223579918e-07
9.728331214468e-03+j1.076830475652e-06
9.728335772190e-03+j1.311956766585e-06
9.728342698769e-03+j1.604708102586e-06
9.728353224875e-03+j1.967896335475e-06
9.728369219772e-03+j2.417376127494e-06
9.728393521673e-03+j2.972694110720e-06
9.728430437603e-03+j3.657858072369e-06
9.728486497767e-03+j4.502222443439e-06
9.728571589029e-03+j5.541457747796e-06
9.728700645249e-03+j6.818510766489e-06
9.728896133991e-03+j8.384337844124e-06
9.729191621251e-03+j1.029794774871e-05
9.729636617366e-03+j1.262482454520e-05
9.730302404851e-03+j1.543200010637e-05
9.731286839751e-03+j1.877701082811e-05
9.732711685174e-03+j2.268803081863e-05
9.734698144466e-03+j2.713890490516e-05
9.737304351365e-03+j3.204631861147e-05
9.740449425922e-03+j3.735031620364e-05
9.743949849804e-03+j4.319403560928e-05
9.747771441752e-03+j5.001609309794e-05
9.752285507936e-03+j5.834282411848e-05
9.758240143242e-03+j6.846095795101e-05
9.766555054894e-03+j8.025611801507e-05
9.778148713389e-03+j9.317426274652e-05
9.793771326585e-03+j1.061830289512e-04
9.813744252954e-03+j1.177779453989e-04
9.837633930949e-03+j1.261834979844e-04
9.864063805716e-03+j1.298299860896e-04
9.890916776777e-03+j1.279479515993e-04
9.915951025559e-03+j1.209063858033e-04
9.937492309099e-03+j1.100333830159e-04
9.954789735978e-03+j9.705714967664e-05
9.967926604820e-03+j8.355035062648e-05
</dep>
<dep ac.v(uin) frequency>
1.000000000000e-02+j0.000000000000e+00
1.000000000000e-02+j0.000000000000e+00
1.000000000000e-02+j0.000000000000e+00
1.000000000000e-02+j0.000000000000e+00
1.000000000000e-02+j0.000000000000e+00
1.000000000000e-02+j0.000000000000e+00
1.000000000000e-02+j0.000000000000e+00
1.000000000000e-02+j0.000000000000e+00
1.000000000000e-02+j0.000000000000e+00
1.000000000000e-02+j0.000000000000e+00
1.000000000000e-02+j0.000000000000e+00
1.000000000000e-02+j0.000000000000e+00
1.000000000000e-02+j0.000000000000e+00
1.000000000000e-02+j0.000000000000e+00
1.000000000000e-02+j0.000000000000e+00
1.000000000000e-02+j0.000000000000e+00
1.000000000000e-02+j0.000000000000e+00
1.000000000000e-02+j0.000000000000e+00
1.000000000000e-02+j0.000000000000e+00
1.000000000000e-02+j0.000000000000e+00
1.000000000000e-02+j0.000000000000e+00
1.000000000000e-02+j0.000000000000e+00
1.000000000000e-02+j0.000000000000e+00
1.000000000000e-02+j0.000000000000e+00
1.000000000000e-02+j0.000000000000e+00
1.000000000000e-02+j0.000000000000e+00
1.000000000000e-02+j0.000000000000e+00
1.000000000000e-02+j0.000000000000e+00
1.000000000000e-02+j0.000000000000e+00
1.000000000000e-02+j0.000000000000e+00
1.000000000000e-02+j0.000000000000e+00
1.000000000000e-02+j0.000000000000e+00
1.000000000000e-02+j0.000000000000e+00
1.000000000000e-02+j0.000000000000e+00
1.000000000000e-02+j0.000000000000e+00
1.000000000000e-02+j0.000000000000e+00
1.000000000000e-02+j0.000000000000e+00
1.000000000000e-02+j0.000000000000e+00
1.000000000000e-02+j0.000000000000e+00
1.000000000000e-02+j0.000000000000e+00
1.000000000000e-02+j0.000000000000e+00
1.000000000000e-02+j0.000000000000e+00
1.000000000000e-02+j0.000000000000e+00
1.000000000000e-02+j0.000000000000e+00
1.000000000000e-02+j0.000000000000e+00
1.000000000000e-02+j0.000000000000e+00
1.000000000000e-02+j0.000000000000e+00
1.000000000000e-02+j0.000000000000e+00
1.000000000000e-02+j0.000000000000e+00
1.000000000000e-02+j0.000000000000e+00
1.000000000000e-02+j0.000000000000e+00
1.000000000000e-02+j0.000000000000e+00
1.000000000000e-02+j0.000000000000e+00
1.000000000000e-02+j0.000000000000e+00
1.000000000000e-02+j0.000000000000e+00
1.000000000000e-02+j0.000000000000e+00
1.000000000000e-02+j0.000000000000e+00
1.000000000000e-02+j0.000000000000e+00
1.000000000000e-02+j0.000000000000e+00
1.000000000000e-02+j0.000000000000e+00
1.000000000000e-02+j0.000000000000e+00
1.000000000000e-02+j0.000000000000e+00
1.000000000000e-02+j0.000000000000e+00
1.000000000000e-02+j0.000000000000e+00
1.000000000000e-02+j0.000000000000e+00
1.000000000000e-02+j0.000000000000e+00
1.000000000000e-02+j0.000000000000e+00
1.000000000000e-02+j0.000000000000e+00
1.000000000000e-02+j0.000000000000e+00
1.000000000000e-02+j0.000000000000e+00
1.000000000000e-02+j0.000000000000e+00
1.000000000000e-02+j0.000000000000e+00
1.000000000000e-02+j0.000000000000e+00
1.000000000000e-02+j0.000000000000e+00
1.000000000000e-02+j0.000000000000e+00
1.000000000000e-02+j0.000000000000e+00
1.000000000000e-02+j0.000000000000e+00
1.000000000000e-02+j0.000000000000e+00
1.000000000000e-02+j0.000000000000e+00
1.000000000000e-02+j0.000000000000e+00
1.000000000000e-02+j0.000000000000e+00
1.000000000000e-02+j0.000000000000e+00
1.000000000000e-02+j0.000000000000e+00
1.000000000000e-02+j0.000000000000e+00
1.000000000000e-02+j0.000000000000e+00
1.000000000000e-02+j0.000000000000e+00
1.000000000000e-02+j0.000000000000e+00
1.000000000000e-02+j0.000000000000e+00
1.000000000000e-02+j0.000000000000e+00
1.000000000000e-02+j0.000000000000e+00
1.000000000000e-02+j0.000000000000e+00
1.000000000000e-02+j0.000000000000e+00
1.000000000000e-02+j0.000000000000e+00
1.000000000000e-02+j0.000000000000e+00
1.000000000000e-02+j0.000000000000e+00
1.000000000000e-02+j0.000000000000e+00
1.000000000000e-02+j0.000000000000e+00
1.000000000000e-02+j0.000000000000e+00
1.000000000000e-02+j0.000000000000e+00
1.000000000000e-02+j0.000000000000e+00
</dep>
<dep ac.i(pr1) frequency>
1.688231673481e-08+j6.395992794370e-08
2.481914906515e-08+j7.627002278542e-08
3.593395927022e-08+j8.957013086552e-08
5.094439948909e-08+j1.030020476284e-07
7.025203460632e-08+j1.152125477669e-07
9.358863336222e-08+j1.244960952832e-07
1.197635364464e-07+j1.292258582055e-07
1.467710190195e-07+j1.284570595971e-07
1.723409664485e-07+j1.223488963272e-07
1.946526106998e-07+j1.120900767189e-07
2.127763691148e-07+j9.938665275873e-08
2.266614192974e-07+j8.587832421446e-08
2.368295658505e-07+j7.278611813638e-08
2.440322306031e-07+j6.083796937262e-08
2.490149276556e-07+j5.035936491701e-08
2.524056971315e-07+j4.140952923361e-08
2.546874162889e-07+j3.389874958242e-08
2.562112693182e-07+j2.766898229216e-08
2.572238476879e-07+j2.254194346980e-08
2.578944332664e-07+j1.834459355182e-08
2.583375440674e-07+j1.492081995707e-08
2.586299128296e-07+j1.213542685248e-08
2.588226331810e-07+j9.874186329138e-09
2.589495870734e-07+j8.042088462299e-09
2.590331822744e-07+j6.560936109751e-09
2.590882118825e-07+j5.366861510995e-09
2.591244306031e-07+j4.408030746476e-09
2.591482658678e-07+j3.642639246988e-09
2.591639506395e-07+j3.037220517367e-09
2.591742717659e-07+j2.565253053825e-09
2.591810636752e-07+j2.206036038784e-09
2.591855337824e-07+j1.943801425652e-09
2.591884768596e-07+j1.767032488991e-09
2.591904162252e-07+j1.667963748077e-09
2.591916967446e-07+j1.642242876795e-09
2.591925461339e-07+j1.688741122650e-09
2.591931154447e-07+j1.809504640307e-09
2.591935059225e-07+j2.009844995924e-09
2.591937870102e-07+j2.298573034034e-09
2.591940086969e-07+j2.688386504777e-09
2.591942104082e-07+j3.196428558564e-09
2.591944280172e-07+j3.845041701388e-09
2.591947002242e-07+j4.662750384681e-09
2.591950754398e-07+j5.685515450107e-09
2.591956203939e-07+j6.958315600243e-09
2.591964320035e-07+j8.537125444518e-09
2.591976546087e-07+j1.049137710674e-08
2.591995056427e-07+j1.290701364167e-08
2.592023143013e-07+j1.589026852638e-08
2.592065800880e-07+j1.957233740853e-08
2.592130616477e-07+j2.411514750585e-08
2.592229116867e-07+j2.971847827250e-08
2.592378819733e-07+j3.662874627852e-08
2.592606348758e-07+j4.514984025866e-08
2.592952168412e-07+j5.565648211553e-08
2.593477780121e-07+j6.861070012275e-08
2.594276659479e-07+j8.458213627130e-08
2.595490879266e-07+j1.042730761267e-07
2.597336373787e-07+j1.285492931425e-07
2.600141335776e-07+j1.584780473851e-07
2.604404570267e-07+j1.953748788411e-07
2.610884173400e-07+j2.408611952223e-07
2.620732284281e-07+j2.969350782830e-07
2.635699821828e-07+j3.660582191368e-07
2.658447495593e-07+j4.512624247023e-07
2.693018119500e-07+j5.562796652726e-07
2.745553573845e-07+j6.857000451471e-07
2.825382413873e-07+j8.451621391180e-07
2.946668060505e-07+j1.041579376538e-06
3.130902623678e-07+j1.283403654065e-06
3.410671191668e-07+j1.580921360379e-06
3.835312774972e-07+j1.946564176598e-06
4.479384309490e-07+j2.395191154951e-06
5.455199772293e-07+j2.944248179335e-06
6.931131096831e-07+j3.613615090658e-06
9.157655881313e-07+j4.424772686924e-06
1.250280731820e-06+j5.398600270458e-06
1.749633800483e-06+j6.550561173013e-06
2.487408451121e-06+j7.881173338440e-06
3.559280747725e-06+j9.358652812931e-06
5.073623598602e-06+j1.089068344860e-05
7.114089943202e-06+j1.228805044014e-05
9.648632608493e-06+j1.324599745997e-05
1.238389477694e-05+j1.341958414606e-05
1.468648344991e-05+j1.268924075746e-05
1.583942425579e-05+j1.150335841067e-05
1.561674773347e-05+j1.081598879267e-05
1.451667876489e-05+j1.147011267433e-05
1.333467680373e-05+j1.374115268549e-05
1.268552992144e-05+j1.745955655596e-05
1.289299515049e-05+j2.232098797288e-05
1.408153207803e-05+j2.804990195000e-05
1.625683949569e-05+j3.443008635659e-05
1.932624896697e-05+j4.130868898603e-05
2.309920458142e-05+j4.863077085952e-05
2.731874625730e-05+j5.649632961376e-05
3.173544691061e-05+j6.519239128839e-05
3.618212389402e-05+j7.516852954190e-05
4.059921631045e-05+j8.698109765685e-05
4.500956081299e-05+j1.012635620728e-04
</dep>
<dep ac.i(pr2) frequency>
2.322343414747e-06+j8.798277319271e-06
3.414139676233e-06+j1.049164041320e-05
4.943100818912e-06+j1.232118524720e-05
7.007947577937e-06+j1.416885539019e-05
9.663919502476e-06+j1.584849872601e-05
1.287411851098e-05+j1.712549868477e-05
1.647475666769e-05+j1.777606485109e-05
2.018992504699e-05+j1.767023025573e-05
2.370734507645e-05+j1.682989069709e-05
2.677655061931e-05+j1.541856149652e-05
2.926966762842e-05+j1.367092314891e-05
3.117970493907e-05+j1.181252747530e-05
3.257844236101e-05+j1.001133188312e-05
3.356924601175e-05+j8.367461820262e-06
3.425466933755e-05+j6.925679445373e-06
3.472110598129e-05+j5.694116846782e-06
3.503498087967e-05+j4.660414743224e-06
3.524460317784e-05+j3.802809933393e-06
3.538389417223e-05+j3.096749693920e-06
3.547614039600e-05+j2.518396226807e-06
3.553709502761e-05+j2.046232222629e-06
3.557731347623e-05+j1.661607832959e-06
3.560382421658e-05+j1.348745413937e-06
3.562128807258e-05+j1.094495972362e-06
3.563278747058e-05+j8.880048143634e-07
3.564035735667e-05+j7.203656242696e-07
3.564533959042e-05+j5.842993837657e-07
3.564861832695e-05+j4.738720929444e-07
3.565077584505e-05+j3.842540545672e-07
3.565219548945e-05+j3.115183007068e-07
3.565312958099e-05+j2.524736781345e-07
3.565374417550e-05+j2.045275982790e-07
3.565414854609e-05+j1.655736709077e-07
3.565441459522e-05+j1.338999507525e-07
3.565458963276e-05+j1.081141203446e-07
3.565470478579e-05+j8.708251015233e-08
3.565478053260e-05+j6.988037644874e-08
3.565483034390e-05+j5.575130479121e-08
3.565486307815e-05+j4.407398289139e-08
3.565488455686e-05+j3.433489716476e-08
3.565489859986e-05+j2.610576051405e-08
3.565490770462e-05+j1.902468310150e-08
3.565491349034e-05+j1.278026040883e-08
3.565491698599e-05+j7.097880077952e-09
3.565491881324e-05+j1.727646014819e-09
3.565491929706e-05-j3.566610950342e-09
3.565491852350e-05-j9.017718933841e-09
3.565491635498e-05-j1.486540403359e-08
3.565491240583e-05-j2.136683274299e-08
3.565490597374e-05-j2.880792130933e-08
3.565489591479e-05-j3.751590931349e-08
3.565488044004e-05-j4.787375029542e-08
3.565485679742e-05-j6.033695205511e-08
3.565482078222e-05-j7.545360679056e-08
3.565476598935e-05-j9.388849113954e-08
3.565468267425e-05-j1.164522944696e-07
3.565455601989e-05-j1.441372579653e-07
3.565436350165e-05-j1.781607865097e-07
