<Qucs Dataset 0.0.24>
<indep frequency 100>
1.000000000000e+00
1.232846739442e+00
1.519911082953e+00
1.873817422860e+00
2.310129700083e+00
2.848035868436e+00
3.511191734215e+00
4.328761281083e+00
5.336699231206e+00
6.579332246576e+00
8.111308307897e+00
1.000000000000e+01
1.232846739442e+01
1.519911082953e+01
1.873817422860e+01
2.310129700083e+01
2.848035868436e+01
3.511191734215e+01
4.328761281083e+01
5.336699231206e+01
6.579332246576e+01
8.111308307897e+01
1.000000000000e+02
1.232846739442e+02
1.519911082953e+02
1.873817422860e+02
2.310129700083e+02
2.848035868436e+02
3.511191734215e+02
4.328761281083e+02
5.336699231206e+02
6.579332246576e+02
8.111308307897e+02
1.000000000000e+03
1.232846739442e+03
1.519911082953e+03
1.873817422860e+03
2.310129700083e+03
2.848035868436e+03
3.511191734215e+03
4.328761281083e+03
5.336699231206e+03
6.579332246576e+03
8.111308307897e+03
1.000000000000e+04
1.232846739442e+04
1.519911082953e+04
1.873817422860e+04
2.310129700083e+04
2.848035868436e+04
3.511191734215e+04
4.328761281083e+04
5.336699231206e+04
6.579332246576e+04
8.111308307897e+04
1.000000000000e+05
1.232846739442e+05
1.519911082953e+05
1.873817422860e+05
2.310129700083e+05
2.848035868436e+05
3.511191734215e+05
4.328761281083e+05
5.336699231206e+05
6.579332246576e+05
8.111308307897e+05
1.000000000000e+06
1.232846739442e+06
1.519911082953e+06
1.873817422860e+06
2.310129700083e+06
2.848035868436e+06
3.511191734215e+06
4.328761281083e+06
5.336699231206e+06
6.579332246576e+06
8.111308307897e+06
1.000000000000e+07
1.232846739442e+07
1.519911082953e+07
1.873817422860e+07
2.310129700083e+07
2.848035868436e+07
3.511191734215e+07
4.328761281083e+07
5.336699231206e+07
6.579332246576e+07
8.111308307897e+07
1.000000000000e+08
1.232846739442e+08
1.519911082953e+08
1.873817422860e+08
2.310129700083e+08
2.848035868436e+08
3.511191734215e+08
4.328761281083e+08
5.336699231206e+08
6.579332246576e+08
8.111308307897e+08
1.000000000000e+09
</indep>
<dep ac.v(b) frequency>
6.513385288046e-03+j2.467617534691e-02
9.575503096265e-03+j2.942548223241e-02
1.386371969408e-02+j3.455673207911e-02
1.965491290144e-02+j3.973881657805e-02
2.710401040295e-02+j4.444964230575e-02
3.610752502651e-02+j4.803118983358e-02
4.620608680961e-02+j4.985580385315e-02
5.662586497750e-02+j4.955897225317e-02
6.649102487224e-02+j4.720210629897e-02
7.509909510901e-02+j4.324381140997e-02
8.209143341005e-02+j3.834228656203e-02
8.744843253605e-02+j3.313012757028e-02
9.137141064371e-02+j2.807839748387e-02
9.415027445906e-02+j2.346791396143e-02
9.607265130995e-02+j1.942421972423e-02
9.738084574679e-02+j1.597012285835e-02
9.826115691825e-02+j1.307096035457e-02
9.884907538360e-02+j1.066569461667e-02
9.923973872284e-02+j8.685464601363e-03
9.949845765704e-02+j7.063414624786e-03
9.966941443586e-02+j5.739197463124e-03
9.978221335258e-02+j4.660508483520e-03
9.985656686187e-02+j3.783099025487e-03
9.990554697206e-02+j3.070093412409e-03
9.993779882902e-02+j2.491051330690e-03
9.995902975682e-02+j2.020997788006e-03
9.997300321020e-02+j1.639522774819e-03
9.998219894040e-02+j1.329989794724e-03
9.998825003954e-02+j1.078861018051e-03
9.999223165820e-02+j8.751322813777e-04
9.999485147036e-02+j7.098653729881e-04
9.999657520669e-02+j5.758036159671e-04
9.999770934251e-02+j4.670573632558e-04
9.999845554218e-02+j3.788474549227e-04
9.999894649780e-02+j3.072963605900e-04
9.999926951645e-02+j2.492583586923e-04
9.999948204229e-02+j2.021815708252e-04
9.999962187060e-02+j1.639959367599e-04
9.999971386850e-02+j1.330222851907e-04
9.999977439706e-02+j1.078985449471e-04
9.999981422086e-02+j8.751987487889e-05
9.999984042227e-02+j7.099009188589e-05
9.999985766106e-02+j5.758226763957e-05
9.999986900304e-02+j4.670676467209e-05
9.999987646531e-02+j3.788530802441e-05
9.999988137498e-02+j3.072995319448e-05
9.999988460522e-02+j2.492602598450e-05
9.999988673051e-02+j2.021828426989e-05
9.999988812881e-02+j1.639969327130e-05
9.999988904881e-02+j1.330232077499e-05
9.999988965411e-02+j1.078995193923e-05
9.999989005239e-02+j8.752098927006e-06
9.999989031445e-02+j7.099141935628e-06
9.999989048691e-02+j5.758387944265e-06
9.999989060044e-02+j4.670873856127e-06
9.999989067524e-02+j3.788773447197e-06
9.999989072459e-02+j3.073294086393e-06
9.999989075729e-02+j2.492970730569e-06
9.999989077914e-02+j2.022282168648e-06
9.999989079403e-02+j1.640528660796e-06
9.999989080461e-02+j1.330921613940e-06
9.999989081276e-02+j1.079845259674e-06
9.999989081994e-02+j8.762578647265e-07
9.999989082741e-02+j7.112061402116e-07
9.999989083651e-02+j5.774314936935e-07
9.999989084885e-02+j4.690508063328e-07
9.999989086663e-02+j3.812976933734e-07
9.999989089300e-02+j3.103128634192e-07
9.999989093266e-02+j2.529743461014e-07
9.999989099265e-02+j2.067601014664e-07
9.999989108363e-02+j1.696369304572e-07
9.999989122171e-02+j1.399707284968e-07
9.999989143137e-02+j1.164539984427e-07
9.999989174963e-02+j9.804717593244e-08
9.999989223253e-02+j8.393069413916e-08
9.999989296456e-02+j7.346473934043e-08
9.999989407251e-02+j6.615312545684e-08
9.999989574499e-02+j6.160625148386e-08
9.999989825801e-02+j5.949502279147e-08
9.999990200281e-02+j5.948212934853e-08
9.999990749902e-02+j6.110999027060e-08
9.999991534258e-02+j6.362580749343e-08
9.999992597856e-02+j6.577241365172e-08
9.999993917212e-02+j6.574832659086e-08
9.999995334587e-02+j6.179629908195e-08
9.999996569397e-02+j5.356318378989e-08
9.999997383600e-02+j4.290805151855e-08
9.999997749401e-02+j3.264557087873e-08
9.999997813018e-02+j2.459865835735e-08
9.999997746041e-02+j1.911475974114e-08
9.999997662688e-02+j1.572185544119e-08
9.999997617543e-02+j1.376200946248e-08
9.999997627959e-02+j1.266147385076e-08
9.999997691575e-02+j1.198538027573e-08
9.999997795673e-02+j1.143191589204e-08
9.999997922812e-02+j1.082416984305e-08
9.999998055790e-02+j1.009699306136e-08
9.999998181668e-02+j9.265632807148e-09
9.999998293317e-02+j8.382327529940e-09
9.999998388345e-02+j7.501086363794e-09
</dep>
<dep ac.v(e) frequency>
6.336431073157e-03+j2.400577846816e-02
9.315357940155e-03+j2.862605723414e-02
1.348707321527e-02+j3.361790241976e-02
1.912093256290e-02+j3.865920119369e-02
2.636765462649e-02+j4.324204425160e-02
3.512656375061e-02+j4.672628909174e-02
4.495077003456e-02+j4.850133240697e-02
5.508746596741e-02+j4.821256507093e-02
6.468461137403e-02+j4.591972994161e-02
7.305881945723e-02+j4.206897314802e-02
7.986119145357e-02+j3.730061186198e-02
8.507265280887e-02+j3.223005567575e-02
8.888905231257e-02+j2.731556990231e-02
9.159242056870e-02+j2.283034300915e-02
9.346257070931e-02+j1.889650700189e-02
9.473522440823e-02+j1.553625032319e-02
9.559161947995e-02+j1.271585168280e-02
9.616356550610e-02+j1.037593174292e-02
9.654361538991e-02+j8.449500264912e-03
9.679530550517e-02+j6.871517889148e-03
9.696161776794e-02+j5.583276896478e-03
9.707135218856e-02+j4.533893660460e-03
9.714368567811e-02+j3.680321665460e-03
9.719133510747e-02+j2.986687073747e-03
9.722271075310e-02+j2.423376578102e-03
9.724336488373e-02+j1.966093714410e-03
9.725695870942e-02+j1.594982983955e-03
9.726590461205e-02+j1.293859886951e-03
9.727179131626e-02+j1.049554411097e-03
9.727566476319e-02+j8.513613819826e-04
9.727821340088e-02+j6.905854566451e-04
9.727989030714e-02+j5.601671520619e-04
9.728099363102e-02+j4.543768866338e-04
9.728171955813e-02+j3.685654096517e-04
9.728219717563e-02+j2.989606210006e-04
9.728251141865e-02+j2.425023678690e-04
9.728271817074e-02+j1.967082320011e-04
9.728285420038e-02+j1.595645539544e-04
9.728294369914e-02+j1.294379813111e-04
9.728300258365e-02+j1.050036933423e-04
9.728304132609e-02+j8.518716824978e-05
9.728306681652e-02+j6.911694412482e-05
9.728308358827e-02+j5.608630261259e-05
9.728309462408e-02+j4.552219366061e-05
9.728310188661e-02+j3.696003657400e-05
9.728310666746e-02+j3.002329016826e-05
9.728310981687e-02+j2.440689408755e-05
9.728311189494e-02+j1.986385335671e-05
9.728311327125e-02+j1.619437633716e-05
9.728311419057e-02+j1.323708847965e-05
9.728311481639e-02+j1.086193551835e-05
9.728311526001e-02+j8.964464028206e-06
9.728311560033e-02+j7.461227829765e-06
9.728311589786e-02+j6.286118231516e-06
9.728311620554e-02+j5.387456723742e-06
9.728311657806e-02+j4.725722264964e-06
9.728311708170e-02+j4.271813205103e-06
9.728311780600e-02+j4.005767393732e-06
9.728311887979e-02+j3.915884157553e-06
9.728312049403e-02+j3.998209478554e-06
9.728312293580e-02+j4.256361628434e-06
9.728312663934e-02+j4.701689396546e-06
9.728313226326e-02+j5.353769505095e-06
9.728314080768e-02+j6.241264403160e-06
9.728315379198e-02+j7.403176881995e-06
9.728317352495e-02+j8.890554284835e-06
9.728320351502e-02+j1.076871275518e-05
9.728324909357e-02+j1.312007089530e-05
9.728331836137e-02+j1.604770160611e-05
9.728342362550e-02+j1.967972855713e-05
9.728358357913e-02+j2.417470471296e-05
9.728382660523e-02+j2.972810419886e-05
9.728419577532e-02+j3.658001448229e-05
9.728475639337e-02+j4.502399165287e-05
9.728560733099e-02+j5.541675537465e-05
9.728689793130e-02+j6.818779104901e-05
9.728885287687e-02+j8.384668341357e-05
9.729180783832e-02+j1.029835455695e-04
9.729625793535e-02+j1.262532477359e-04
9.730291601776e-02+j1.543261412828e-04
9.731276068198e-02+j1.877776223881e-04
9.732700960702e-02+j2.268894562777e-04
9.734687487795e-02+j2.714000963660e-04
9.737293786153e-02+j3.204763828572e-04
9.740438973695e-02+j3.735187621594e-04
9.743939528423e-02+j4.319587119674e-04
9.747761276316e-02+j5.001825900509e-04
9.752275548427e-02+j5.834539103178e-04
9.758230474931e-02+j6.846399752843e-04
9.766545800095e-02+j8.025968609542e-04
9.778140028182e-02+j9.317838169584e-04
9.793763389651e-02+j1.061876676240e-03
9.813737240851e-02+j1.177830017636e-03
9.837627980066e-02+j1.261887963769e-03
9.864058973288e-02+j1.298353000819e-03
9.890913021679e-02+j1.279530498615e-03
9.915948221561e-02+j1.209110807780e-03
9.937490282443e-02+j1.100375593233e-03
9.954788306004e-02+j9.706076482836e-04
9.967925611562e-02+j8.355341748102e-04
</dep>
<dep ac.v(uin) frequency>
1.000000000000e-01+j0.000000000000e+00
1.000000000000e-01+j0.000000000000e+00
1.000000000000e-01+j0.000000000000e+00
1.000000000000e-01+j0.000000000000e+00
1.000000000000e-01+j0.000000000000e+00
1.000000000000e-01+j0.000000000000e+00
1.000000000000e-01+j0.000000000000e+00
1.000000000000e-01+j0.000000000000e+00
1.000000000000e-01+j0.000000000000e+00
1.000000000000e-01+j0.000000000000e+00
1.000000000000e-01+j0.000000000000e+00
1.000000000000e-01+j0.000000000000e+00
1.000000000000e-01+j0.000000000000e+00
1.000000000000e-01+j0.000000000000e+00
1.000000000000e-01+j0.000000000000e+00
1.000000000000e-01+j0.000000000000e+00
1.000000000000e-01+j0.000000000000e+00
1.000000000000e-01+j0.000000000000e+00
1.000000000000e-01+j0.000000000000e+00
1.000000000000e-01+j0.000000000000e+00
1.000000000000e-01+j0.000000000000e+00
1.000000000000e-01+j0.000000000000e+00
1.000000000000e-01+j0.000000000000e+00
1.000000000000e-01+j0.000000000000e+00
1.000000000000e-01+j0.000000000000e+00
1.000000000000e-01+j0.000000000000e+00
1.000000000000e-01+j0.000000000000e+00
1.000000000000e-01+j0.000000000000e+00
1.000000000000e-01+j0.000000000000e+00
1.000000000000e-01+j0.000000000000e+00
1.000000000000e-01+j0.000000000000e+00
1.000000000000e-01+j0.000000000000e+00
1.000000000000e-01+j0.000000000000e+00
1.000000000000e-01+j0.000000000000e+00
1.000000000000e-01+j0.000000000000e+00
1.000000000000e-01+j0.000000000000e+00
1.000000000000e-01+j0.000000000000e+00
1.000000000000e-01+j0.000000000000e+00
1.000000000000e-01+j0.000000000000e+00
1.000000000000e-01+j0.000000000000e+00
1.000000000000e-01+j0.000000000000e+00
1.000000000000e-01+j0.000000000000e+00
1.000000000000e-01+j0.000000000000e+00
1.000000000000e-01+j0.000000000000e+00
1.000000000000e-01+j0.000000000000e+00
1.000000000000e-01+j0.000000000000e+00
1.000000000000e-01+j0.000000000000e+00
1.000000000000e-01+j0.000000000000e+00
1.000000000000e-01+j0.000000000000e+00
1.000000000000e-01+j0.000000000000e+00
1.000000000000e-01+j0.000000000000e+00
1.000000000000e-01+j0.000000000000e+00
1.000000000000e-01+j0.000000000000e+00
1.000000000000e-01+j0.000000000000e+00
1.000000000000e-01+j0.000000000000e+00
1.000000000000e-01+j0.000000000000e+00
1.000000000000e-01+j0.000000000000e+00
1.000000000000e-01+j0.000000000000e+00
1.000000000000e-01+j0.000000000000e+00
1.000000000000e-01+j0.000000000000e+00
1.000000000000e-01+j0.000000000000e+00
1.000000000000e-01+j0.000000000000e+00
1.000000000000e-01+j0.000000000000e+00
1.000000000000e-01+j0.000000000000e+00
1.000000000000e-01+j0.000000000000e+00
1.000000000000e-01+j0.000000000000e+00
1.000000000000e-01+j0.000000000000e+00
1.000000000000e-01+j0.000000000000e+00
1.000000000000e-01+j0.000000000000e+00
1.000000000000e-01+j0.000000000000e+00
1.000000000000e-01+j0.000000000000e+00
1.000000000000e-01+j0.000000000000e+00
1.000000000000e-01+j0.000000000000e+00
1.000000000000e-01+j0.000000000000e+00
1.000000000000e-01+j0.000000000000e+00
1.000000000000e-01+j0.000000000000e+00
1.000000000000e-01+j0.000000000000e+00
1.000000000000e-01+j0.000000000000e+00
1.000000000000e-01+j0.000000000000e+00
1.000000000000e-01+j0.000000000000e+00
1.000000000000e-01+j0.000000000000e+00
1.000000000000e-01+j0.000000000000e+00
1.000000000000e-01+j0.000000000000e+00
1.000000000000e-01+j0.000000000000e+00
1.000000000000e-01+j0.000000000000e+00
1.000000000000e-01+j0.000000000000e+00
1.000000000000e-01+j0.000000000000e+00
1.000000000000e-01+j0.000000000000e+00
1.000000000000e-01+j0.000000000000e+00
1.000000000000e-01+j0.000000000000e+00
1.000000000000e-01+j0.000000000000e+00
1.000000000000e-01+j0.000000000000e+00
1.000000000000e-01+j0.000000000000e+00
1.000000000000e-01+j0.000000000000e+00
1.000000000000e-01+j0.000000000000e+00
1.000000000000e-01+j0.000000000000e+00
1.000000000000e-01+j0.000000000000e+00
1.000000000000e-01+j0.000000000000e+00
1.000000000000e-01+j0.000000000000e+00
1.000000000000e-01+j0.000000000000e+00
</dep>
<dep ac.i(pr1) frequency>
1.688226414582e-07+j6.395970146588e-07
2.481907110530e-07+j7.626975072905e-07
3.593384508493e-07+j8.956980809580e-07
5.094423509297e-07+j1.030016713753e-06
7.025180344751e-07+j1.152121196002e-06
9.358831823881e-07+j1.244956230682e-06
1.197631228874e-06+j1.292253569347e-06
1.467704991736e-06+j1.284565499076e-06
1.723403415550e-06+j1.223484005926e-06
1.946518906339e-06+j1.120896143325e-06
2.127755693320e-06+j9.938623685632e-07
2.266605569810e-06+j8.587796092175e-07
2.368286569364e-06+j7.278580779591e-07
2.440312882700e-06+j6.083770853607e-07
2.490139620044e-06+j5.035914818212e-07
2.524047155186e-06+j4.140935055568e-07
2.546864238926e-06+j3.389860305906e-07
2.562102697011e-06+j2.766886255829e-07
2.572228432643e-06+j2.254184584827e-07
2.578934256559e-06+j1.834451406810e-07
2.583365343495e-06+j1.492075528736e-07
2.586289017205e-06+j1.213537424497e-07
2.588216211545e-06+j9.874143519694e-08
2.589485744425e-06+j8.042053594711e-08
2.590321692454e-06+j6.560907664765e-08
2.590871985915e-06+j5.366838245223e-08
2.591234171396e-06+j4.408011640782e-08
2.591472522908e-06+j3.642623463303e-08
2.591629369877e-06+j3.037207362714e-08
2.591732580650e-06+j2.565241950309e-08
2.591800499419e-06+j2.206026498425e-08
2.591845200278e-06+j1.943793029065e-08
2.591874630911e-06+j1.767024867006e-08
2.591894024474e-06+j1.667956565548e-08
2.591906829607e-06+j1.642235817879e-08
2.591915323459e-06+j1.688733876927e-08
2.591921016540e-06+j1.809496889135e-08
2.591924921299e-06+j2.009836398430e-08
2.591927732162e-06+j2.298563212123e-08
2.591929949018e-06+j2.688375026506e-08
2.591931966121e-06+j3.196414919147e-08
2.591934142199e-06+j3.845025300997e-08
2.591936864255e-06+j4.662730502068e-08
2.591940616390e-06+j5.685491210883e-08
2.591946065901e-06+j6.958285938426e-08
2.591954181952e-06+j8.537089055654e-08
2.591966407936e-06+j1.049133239054e-07
2.591984918174e-06+j1.290695863162e-07
2.592013004604e-06+j1.589020080329e-07
2.592055662234e-06+j1.957225399410e-07
2.592120477472e-06+j2.411504473174e-07
2.592218977315e-06+j2.971835161900e-07
2.592368679350e-06+j3.662859017579e-07
2.592596207112e-06+j4.514964784181e-07
2.592942024847e-06+j5.565624492281e-07
2.593467633639e-06+j6.861040772347e-07
2.594266508564e-06+j8.458177580736e-07
2.595480721613e-06+j1.042726317475e-06
2.597326205893e-06+j1.285487453085e-06
2.600131152318e-06+j1.584773720099e-06
2.604394363153e-06+j1.953740462345e-06
2.610873930333e-06+j2.408601687893e-06
2.620721986575e-06+j2.969338129230e-06
2.635689441090e-06+j3.660566592760e-06
2.658436988683e-06+j4.512605018801e-06
2.693007420891e-06+j5.562772951867e-06
2.745542584033e-06+j6.856971240513e-06
2.825370981834e-06+j8.451585394564e-06
2.946655957190e-06+j1.041574941702e-05
3.130889502085e-06+j1.283398192192e-05
3.410656526990e-06+j1.580914637183e-05
3.835295775533e-06+j1.946555907423e-05
4.479363785706e-06+j2.395180996582e-05
5.455173947260e-06+j2.944235722783e-05
6.931097340186e-06+j3.613599857300e-05
9.157610352098e-06+j4.424754132138e-05
1.250274452185e-05+j5.398577801097e-05
1.749625031796e-05+j6.550534186150e-05
2.487396181163e-05+j7.881141284155e-05
3.559263707066e-05+j9.358615262991e-05
5.073600272533e-05+j1.089064010691e-04
7.114058446409e-05+j1.228800100851e-04
9.648589971285e-05+j1.324594155176e-04
1.238383540763e-04+j1.341952250846e-04
1.468639921237e-04+j1.268917967933e-04
1.583931161629e-04+j1.150331380084e-04
1.561661809269e-04+j1.081597908724e-04
1.451655562502e-04+j1.147014378300e-04
1.333458121942e-04+j1.374121425429e-04
1.268547218605e-04+j1.745963068211e-04
1.289297635104e-04+j2.232105720073e-04
1.408154816239e-04+j2.804995170586e-04
1.625688347672e-04+j3.443010451132e-04
1.932631130364e-04+j4.130866551581e-04
2.309927336969e-04+j4.863069857961e-04
2.731880846970e-04+j5.649620520779e-04
3.173549048420e-04+j6.519221530691e-04
3.618213940691e-04+j7.516830501267e-04
4.059919742964e-04+j8.698082819865e-04
4.500950384953e-04+j1.012632504480e-03
</dep>
<dep ac.i(pr2) frequency>
2.322342685366e-05+j8.798270808868e-05
3.414138514902e-05+j1.049163237612e-04
4.943098956946e-05+j1.232117535855e-04
7.007944592493e-05+j1.416884331973e-04
9.663914772386e-05+j1.584848421907e-04
1.287411122230e-04+j1.712548169555e-04
1.647474592339e-04+j1.777604568742e-04
2.018991008783e-04+j1.767020963786e-04
2.370732551903e-04+j1.682986964552e-04
2.677652656663e-04+j1.541854107978e-04
2.926963959294e-04+j1.367090423209e-04
3.117967365136e-04+j1.181251059098e-04
3.257840858109e-04+j1.001131723881e-04
3.356921040991e-04+j8.367449382507e-05
3.425463244787e-04+j6.925669037334e-05
3.472106820241e-04+j5.694108226102e-05
3.503494249656e-04+j4.660407652577e-05
3.524456438858e-04+j3.802804128505e-05
3.538385511193e-04+j3.096744956497e-05
3.547610115568e-04+j2.518392368587e-05
3.553705566812e-04+j2.046229084772e-05
3.557727403802e-04+j1.661605283295e-05
3.560378472644e-04+j1.348743343463e-05
3.562124854820e-04+j1.094494291696e-05
3.563274792365e-04+j8.880034504884e-06
3.564031779489e-04+j7.203645176837e-06
3.564530001887e-04+j5.842984860594e-06
3.564857874896e-04+j4.738713647750e-06
3.565073626284e-04+j3.842534639845e-06
3.565215590445e-04+j3.115178217771e-06
3.565308999415e-04+j2.524732898164e-06
3.565370458746e-04+j2.045272835064e-06
3.565410895726e-04+j1.655734158435e-06
3.565437500586e-04+j1.338997441828e-06
3.565455004306e-04+j1.081139531866e-06
3.565466519586e-04+j8.708237505574e-07
3.565474094253e-04+j6.988026747282e-07
3.565479075373e-04+j5.575121714372e-07
3.565482348791e-04+j4.407391271795e-07
3.565484496658e-04+j3.433484137938e-07
3.565485900956e-04+j2.610571666347e-07
3.565486811430e-04+j1.902464925729e-07
3.565487390000e-04+j1.278023508261e-07
3.565487739564e-04+j7.097862155957e-08
3.565487922289e-04+j1.727634708878e-08
3.565487970672e-04-j3.566616137436e-08
3.565487893316e-04-j9.017718230208e-08
3.565487676464e-04-j1.486539740829e-07
3.565487281551e-04-j2.136681990467e-07
3.565486638344e-04-j2.880790169341e-07
3.565485632452e-04-j3.751588205736e-07
3.565484084982e-04-j4.787371420050e-07
3.565481720727e-04-j6.033690553416e-07
3.565478119218e-04-j7.545354779797e-07
3.565472639947e-04-j9.388841708144e-07
3.565464308463e-04-j1.164522020901e-06
3.565451643064e-04-j1.441371432034e-06
3.565432391298e-04-j1.781606443217e-06
