<Qucs Dataset 0.0.19>
<indep VCE 1>
  +4.00000000000000000000e+00
</indep>
<indep VBE 151>
  +5.00000000000000000000e-01
  +5.02000000000000001776e-01
  +5.04000000000000003553e-01
  +5.06000000000000005329e-01
  +5.08000000000000007105e-01
  +5.10000000000000008882e-01
  +5.12000000000000010658e-01
  +5.14000000000000012434e-01
  +5.16000000000000014211e-01
  +5.18000000000000015987e-01
  +5.20000000000000017764e-01
  +5.22000000000000019540e-01
  +5.24000000000000021316e-01
  +5.26000000000000023093e-01
  +5.28000000000000024869e-01
  +5.30000000000000026645e-01
  +5.32000000000000028422e-01
  +5.34000000000000030198e-01
  +5.36000000000000031974e-01
  +5.38000000000000033751e-01
  +5.40000000000000035527e-01
  +5.42000000000000037303e-01
  +5.44000000000000039080e-01
  +5.46000000000000040856e-01
  +5.48000000000000042633e-01
  +5.50000000000000044409e-01
  +5.52000000000000046185e-01
  +5.54000000000000047962e-01
  +5.56000000000000049738e-01
  +5.58000000000000051514e-01
  +5.60000000000000053291e-01
  +5.62000000000000055067e-01
  +5.64000000000000056843e-01
  +5.66000000000000058620e-01
  +5.68000000000000060396e-01
  +5.70000000000000062172e-01
  +5.72000000000000063949e-01
  +5.74000000000000065725e-01
  +5.76000000000000067502e-01
  +5.78000000000000069278e-01
  +5.80000000000000071054e-01
  +5.82000000000000072831e-01
  +5.84000000000000074607e-01
  +5.86000000000000076383e-01
  +5.88000000000000078160e-01
  +5.90000000000000079936e-01
  +5.92000000000000081712e-01
  +5.94000000000000083489e-01
  +5.96000000000000085265e-01
  +5.97999999999999976019e-01
  +5.99999999999999977796e-01
  +6.01999999999999979572e-01
  +6.03999999999999981348e-01
  +6.05999999999999983125e-01
  +6.07999999999999984901e-01
  +6.09999999999999986677e-01
  +6.11999999999999988454e-01
  +6.13999999999999990230e-01
  +6.15999999999999992006e-01
  +6.17999999999999993783e-01
  +6.19999999999999995559e-01
  +6.21999999999999997335e-01
  +6.23999999999999999112e-01
  +6.26000000000000000888e-01
  +6.28000000000000002665e-01
  +6.30000000000000004441e-01
  +6.32000000000000006217e-01
  +6.34000000000000007994e-01
  +6.36000000000000009770e-01
  +6.38000000000000011546e-01
  +6.40000000000000013323e-01
  +6.42000000000000015099e-01
  +6.44000000000000016875e-01
  +6.46000000000000018652e-01
  +6.48000000000000020428e-01
  +6.50000000000000022204e-01
  +6.52000000000000023981e-01
  +6.54000000000000025757e-01
  +6.56000000000000027534e-01
  +6.58000000000000029310e-01
  +6.60000000000000031086e-01
  +6.62000000000000032863e-01
  +6.64000000000000034639e-01
  +6.66000000000000036415e-01
  +6.68000000000000038192e-01
  +6.70000000000000039968e-01
  +6.72000000000000041744e-01
  +6.74000000000000043521e-01
  +6.76000000000000045297e-01
  +6.78000000000000047073e-01
  +6.80000000000000048850e-01
  +6.82000000000000050626e-01
  +6.84000000000000052403e-01
  +6.86000000000000054179e-01
  +6.88000000000000055955e-01
  +6.90000000000000057732e-01
  +6.92000000000000059508e-01
  +6.94000000000000061284e-01
  +6.96000000000000063061e-01
  +6.98000000000000064837e-01
  +7.00000000000000066613e-01
  +7.02000000000000068390e-01
  +7.04000000000000070166e-01
  +7.06000000000000071942e-01
  +7.08000000000000073719e-01
  +7.10000000000000075495e-01
  +7.12000000000000077272e-01
  +7.14000000000000079048e-01
  +7.16000000000000080824e-01
  +7.18000000000000082601e-01
  +7.20000000000000084377e-01
  +7.22000000000000086153e-01
  +7.24000000000000087930e-01
  +7.26000000000000089706e-01
  +7.28000000000000091482e-01
  +7.30000000000000093259e-01
  +7.32000000000000095035e-01
  +7.34000000000000096811e-01
  +7.35999999999999987566e-01
  +7.37999999999999989342e-01
  +7.39999999999999991118e-01
  +7.41999999999999992895e-01
  +7.43999999999999994671e-01
  +7.45999999999999996447e-01
  +7.47999999999999998224e-01
  +7.50000000000000000000e-01
  +7.52000000000000001776e-01
  +7.54000000000000003553e-01
  +7.56000000000000005329e-01
  +7.58000000000000007105e-01
  +7.60000000000000008882e-01
  +7.62000000000000010658e-01
  +7.64000000000000012434e-01
  +7.66000000000000014211e-01
  +7.68000000000000015987e-01
  +7.70000000000000017764e-01
  +7.72000000000000019540e-01
  +7.74000000000000021316e-01
  +7.76000000000000023093e-01
  +7.78000000000000024869e-01
  +7.80000000000000026645e-01
  +7.82000000000000028422e-01
  +7.84000000000000030198e-01
  +7.86000000000000031974e-01
  +7.88000000000000033751e-01
  +7.90000000000000035527e-01
  +7.92000000000000037303e-01
  +7.94000000000000039080e-01
  +7.96000000000000040856e-01
  +7.98000000000000042633e-01
  +8.00000000000000044409e-01
</indep>
<dep V1.I VBE>
  -3.63603311691886203825e-06
  -3.92837563850082631693e-06
  -4.24421907835149402380e-06
  -4.58545199026660456126e-06
  -4.95411458595943548843e-06
  -5.35241089520202076584e-06
  -5.78272189906247424072e-06
  -6.24761971289400309184e-06
  -6.74988289865751690810e-06
  -7.29251300418280094215e-06
  -7.87875241704839304139e-06
  -8.51210364597747409766e-06
  -9.19635013332717071472e-06
  -9.93557872969487070665e-06
  -1.07342039490975082083e-05
  -1.15969941594495980789e-05
  -1.25290998443054509823e-05
  -1.35360841113186965146e-05
  -1.46239556143041002964e-05
  -1.57992040804683709406e-05
  -1.70688386444013300892e-05
  -1.84404292075913630884e-05
  -1.99221510532809809762e-05
  -2.15228329721000766921e-05
  -2.32520091641889223289e-05
  -2.51199752075738652493e-05
  -2.71378484020111957137e-05
  -2.93176328186137953667e-05
  -3.16722894103631377391e-05
  -3.42158115644534678535e-05
  -3.69633064952095273287e-05
  -3.99310829183045478134e-05
  -4.31367454589538922992e-05
  -4.65992962902013162772e-05
  -5.03392445214136086910e-05
  -5.43787238911594720744e-05
  -5.87416193510894836744e-05
  -6.34537031668284788469e-05
  -6.85427811895757095129e-05
  -7.40388499941298347702e-05
  -7.99742656128707180441e-05
  -8.63839246300953381629e-05
  -9.33054584387839526126e-05
  -1.00779441496554056108e-04
  -1.08849614446212322109e-04
  -1.17563123001732252422e-04
  -1.26970773527030581385e-04
  -1.37127306253108366537e-04
  -1.48091687101425034450e-04
  -1.59927419091888907204e-04
  -1.72702874311491994018e-04
  -1.86491647418798070198e-04
  -2.01372931634857647593e-04
  -2.17431918140107560819e-04
  -2.34760219745947141959e-04
  -2.53456319643817484799e-04
  -2.73626045939616543892e-04
  -2.95383072572412679752e-04
  -3.18849447070636597083e-04
  -3.44156145429611308884e-04
  -3.71443654187064980100e-04
  -4.00862579528876424115e-04
  -4.32574282986312682632e-04
  -4.66751542952793243776e-04
  -5.03579240890370677386e-04
  -5.43255070691144969879e-04
  -5.85990269202799041702e-04
  -6.32010365440986406418e-04
  -6.81555945485078822424e-04
  -7.34883429491379612693e-04
  -7.92265856675245720535e-04
  -8.53993673525527065456e-04
  -9.20375519915497884542e-04
  -9.91739007209664017589e-04
  -1.06843148192171184981e-03
  -1.15082076802592420638e-03
  -1.23929588063078472381e-03
  -1.33426770348110462425e-03
  -1.43616962263637642887e-03
  -1.54545810876385034463e-03
  -1.66261324076816762417e-03
  -1.78813916401849974137e-03
  -1.92256447723834268150e-03
  -2.06644254319196616493e-03
  -2.22035171969578535439e-03
  -2.38489550911593489735e-03
  -2.56070262645072830102e-03
  -2.74842698824431146479e-03
  -2.94874762691989603103e-03
  -3.16236853757880355745e-03
  -3.39001846681844919845e-03
  -3.63245065557026101249e-03
  -3.89044255028904266414e-03
  -4.16479549888171696886e-03
  -4.45633444952101172298e-03
  -4.76590767179629719308e-03
  -5.09438652049210016770e-03
  -5.44266526256171299936e-03
  -5.81166098759516597944e-03
  -6.20231362122313726465e-03
  -6.61558605953015219786e-03
  -7.05246444068078140455e-03
  -7.51395856770460494889e-03
  -8.00110249382254314077e-03
  -8.51495527893398294894e-03
  -9.05660192305342802432e-03
  -9.62715447966976806127e-03
  -1.02277533493501677359e-02
  -1.08595687514581457078e-02
  -1.15238023697443597859e-02
  -1.22216891657789868825e-02
  -1.29544993528200886451e-02
  -1.37235405217402493122e-02
  -1.45301599100405923193e-02
  -1.53757468047881831752e-02
  -1.62617350704336270650e-02
  -1.71896057929109384588e-02
  -1.81608900320807814532e-02
  -1.91771716754607288169e-02
  -2.02400903871960413660e-02
  -2.13513446473281402749e-02
  -2.25126948775894522581e-02
  -2.37259666511161551594e-02
  -2.49930539846355374844e-02
  -2.63159227127968999016e-02
  -2.76966139453651699620e-02
  -2.91372476089772486363e-02
  -3.06400260760578933839e-02
  -3.22072378843006115745e-02
  -3.38412615508431324773e-02
  -3.55445694858951624640e-02
  -3.73197320111683245036e-02
  -3.91694214889014916126e-02
  -4.10964165677356468853e-02
  -4.31036065520324432332e-02
  -4.51939959015560110966e-02
  -4.73707088686985480774e-02
  -4.96369942806790392931e-02
  -5.19962304743261313766e-02
  -5.44519303912661609135e-02
  -5.70077468414779478523e-02
  -5.96674779433338242640e-02
  -6.24350727483977338550e-02
  -6.53146370593615521738e-02
  -6.83104394496656386337e-02
  -7.14269174934443196179e-02
  -7.46686842146016271915e-02
  -7.80405347639322732878e-02
  -8.15474533333533230239e-02
  -8.51946203164469784141e-02
  -8.89874197246586784438e-02
</dep>
<dep Pr1.I VBE>
  +3.63603311691886203825e-06
  +3.92837563850082631693e-06
  +4.24421907835149402380e-06
  +4.58545199026660456126e-06
  +4.95411458595943548843e-06
  +5.35241089520202076584e-06
  +5.78272189906247424072e-06
  +6.24761971289400309184e-06
  +6.74988289865751690810e-06
  +7.29251300418280094215e-06
  +7.87875241704839304139e-06
  +8.51210364597747409766e-06
  +9.19635013332717071472e-06
  +9.93557872969487070665e-06
  +1.07342039490975082083e-05
  +1.15969941594495980789e-05
  +1.25290998443054509823e-05
  +1.35360841113186965146e-05
  +1.46239556143041002964e-05
  +1.57992040804683709406e-05
  +1.70688386444013300892e-05
  +1.84404292075913630884e-05
  +1.99221510532809809762e-05
  +2.15228329721000766921e-05
  +2.32520091641889223289e-05
  +2.51199752075738652493e-05
  +2.71378484020111957137e-05
  +2.93176328186137953667e-05
  +3.16722894103631377391e-05
  +3.42158115644534678535e-05
  +3.69633064952095273287e-05
  +3.99310829183045478134e-05
  +4.31367454589538922992e-05
  +4.65992962902013162772e-05
  +5.03392445214136086910e-05
  +5.43787238911594720744e-05
  +5.87416193510894836744e-05
  +6.34537031668284788469e-05
  +6.85427811895757095129e-05
  +7.40388499941298347702e-05
  +7.99742656128707180441e-05
  +8.63839246300953381629e-05
  +9.33054584387839526126e-05
  +1.00779441496554056108e-04
  +1.08849614446212322109e-04
  +1.17563123001732252422e-04
  +1.26970773527030581385e-04
  +1.37127306253108366537e-04
  +1.48091687101425034450e-04
  +1.59927419091888907204e-04
  +1.72702874311491994018e-04
  +1.86491647418798070198e-04
  +2.01372931634857647593e-04
  +2.17431918140107560819e-04
  +2.34760219745947141959e-04
  +2.53456319643817484799e-04
  +2.73626045939616543892e-04
  +2.95383072572412679752e-04
  +3.18849447070636597083e-04
  +3.44156145429611308884e-04
  +3.71443654187064980100e-04
  +4.00862579528876424115e-04
  +4.32574282986312682632e-04
  +4.66751542952793243776e-04
  +5.03579240890370677386e-04
  +5.43255070691144969879e-04
  +5.85990269202799041702e-04
  +6.32010365440986406418e-04
  +6.81555945485078822424e-04
  +7.34883429491379612693e-04
  +7.92265856675245720535e-04
  +8.53993673525527065456e-04
  +9.20375519915497884542e-04
  +9.91739007209664017589e-04
  +1.06843148192171184981e-03
  +1.15082076802592420638e-03
  +1.23929588063078472381e-03
  +1.33426770348110462425e-03
  +1.43616962263637642887e-03
  +1.54545810876385034463e-03
  +1.66261324076816762417e-03
  +1.78813916401849974137e-03
  +1.92256447723834268150e-03
  +2.06644254319196616493e-03
  +2.22035171969578535439e-03
  +2.38489550911593489735e-03
  +2.56070262645072830102e-03
  +2.74842698824431146479e-03
  +2.94874762691989603103e-03
  +3.16236853757880355745e-03
  +3.39001846681844919845e-03
  +3.63245065557026101249e-03
  +3.89044255028904266414e-03
  +4.16479549888171696886e-03
  +4.45633444952101172298e-03
  +4.76590767179629719308e-03
  +5.09438652049210016770e-03
  +5.44266526256171299936e-03
  +5.81166098759516597944e-03
  +6.20231362122313726465e-03
  +6.61558605953015219786e-03
  +7.05246444068078140455e-03
  +7.51395856770460494889e-03
  +8.00110249382254314077e-03
  +8.51495527893398294894e-03
  +9.05660192305342802432e-03
  +9.62715447966976806127e-03
  +1.02277533493501677359e-02
  +1.08595687514581457078e-02
  +1.15238023697443597859e-02
  +1.22216891657789868825e-02
  +1.29544993528200886451e-02
  +1.37235405217402493122e-02
  +1.45301599100405923193e-02
  +1.53757468047881831752e-02
  +1.62617350704336270650e-02
  +1.71896057929109384588e-02
  +1.81608900320807814532e-02
  +1.91771716754607288169e-02
  +2.02400903871960413660e-02
  +2.13513446473281402749e-02
  +2.25126948775894522581e-02
  +2.37259666511161551594e-02
  +2.49930539846355374844e-02
  +2.63159227127968999016e-02
  +2.76966139453651699620e-02
  +2.91372476089772486363e-02
  +3.06400260760578933839e-02
  +3.22072378843006115745e-02
  +3.38412615508431324773e-02
  +3.55445694858951624640e-02
  +3.73197320111683245036e-02
  +3.91694214889014916126e-02
  +4.10964165677356468853e-02
  +4.31036065520324432332e-02
  +4.51939959015560110966e-02
  +4.73707088686985480774e-02
  +4.96369942806790392931e-02
  +5.19962304743261313766e-02
  +5.44519303912661609135e-02
  +5.70077468414779478523e-02
  +5.96674779433338242640e-02
  +6.24350727483977338550e-02
  +6.53146370593615521738e-02
  +6.83104394496656386337e-02
  +7.14269174934443196179e-02
  +7.46686842146016271915e-02
  +7.80405347639322732878e-02
  +8.15474533333533230239e-02
  +8.51946203164469784141e-02
  +8.89874197246586784438e-02
</dep>
<dep V2.I VBE>
  -1.31074142665010449139e-07
  -1.38333898563735922735e-07
  -1.46003815980682999277e-07
  -1.54107688448994694382e-07
  -1.62670736505213234653e-07
  -1.71719696702955833334e-07
  -1.81282916422559467804e-07
  -1.91390454870717895286e-07
  -2.02074190691991786260e-07
  -2.13367936643985135362e-07
  -2.25307561820087602268e-07
  -2.37931121938149714450e-07
  -2.51278998250444060277e-07
  -2.65394045670003939868e-07
  -2.80321750751078361809e-07
  -2.96110400207274141358e-07
  -3.12811260700134112197e-07
  -3.30478770683813367970e-07
  -3.49170745148244422661e-07
  -3.68948594164272312609e-07
  -3.89877556199745426561e-07
  -4.12026947246093147968e-07
  -4.35470426870598811261e-07
  -4.60286282391045690890e-07
  -4.86557732456925586146e-07
  -5.14373251415523401103e-07
  -5.43826915942369469298e-07
  -5.75018775524394206489e-07
  -6.08055248501146858572e-07
  -6.43049545495341659633e-07
  -6.80122122199367891350e-07
  -7.19401163630124994886e-07
  -7.61023102121242758246e-07
  -8.05133171490425801948e-07
  -8.51886000001042680085e-07
  -9.01446244932531495909e-07
  -9.53989271784163869532e-07
  -1.00970188136322910476e-06
  -1.06878308825189414912e-06
  -1.13144495440954095583e-06
  -1.19791348194931332608e-06
  -1.26842956943165308025e-06
  -1.34325003634501424006e-06
  -1.42264872079591923319e-06
  -1.50691765581052213499e-06
  -1.59636833005824597975e-06
  -1.69133303924845731989e-06
  -1.79216633492536891267e-06
  -1.89924657789719216119e-06
  -2.01297760408601546171e-06
  -2.13379051117768697032e-06
  -2.26214557509008720089e-06
  -2.39853430596643137044e-06
  -2.54348165414210166193e-06
  -2.69754837733314531113e-06
  -2.86133358115583223097e-06
  -3.03547744601559061459e-06
  -3.22066415440434951681e-06
  -3.41762503372422520663e-06
  -3.62714193091854394125e-06
  -3.85005083644460309754e-06
  -4.08724577647499283460e-06
  -4.33968299367009005795e-06
  -4.60838543843706445751e-06
  -4.89444759428371681297e-06
  -5.19904066270264349464e-06
  -5.52341813499057226615e-06
  -5.86892178053287569137e-06
  -6.23698808337293064105e-06
  -6.62915516135723981769e-06
  -7.04707020481231958858e-06
  -7.49249747458187922836e-06
  -7.96732690235532217498e-06
  -8.47358333955951299374e-06
  -9.01343650469519745434e-06
  -9.58921168288910872311e-06
  -1.02034012356314629950e-05
  -1.08586769831959525446e-05
  -1.15579035271266040036e-05
  -1.23041525854448940237e-05
  -1.31007184189209055400e-05
  -1.39511344328847789571e-05
  -1.48591910456807751897e-05
  -1.58289549220064469182e-05
  -1.68647896770925726677e-05
  -1.79713781659970567685e-05
  -1.91537464812655995063e-05
  -2.04172897919005909241e-05
  -2.17678001670341469216e-05
  -2.32114965389906918139e-05
  -2.47550569725987029376e-05
  -2.64056534207606943387e-05
  -2.81709891604752928431e-05
  -3.00593391188230951044e-05
  -3.20795933149521636843e-05
  -3.42413036619444119965e-05
  -3.65547343917038512892e-05
  -3.90309163867925027294e-05
  -4.16817057255855307244e-05
  -4.45198467713396226712e-05
  -4.75590401619235947210e-05
  -5.08140160851878810457e-05
  -5.43006132554335683559e-05
  -5.80358640393396178216e-05
  -6.20380862152384443542e-05
  -6.63269818879737071754e-05
  -7.09237441229905869440e-05
  -7.58511719080048830901e-05
  -8.11337940988788951626e-05
  -8.67980030584317136617e-05
  -9.28721987532007476392e-05
  -9.93869441339126520867e-05
  -1.06375132691042327917e-04
  -1.13872169147654551968e-04
  -1.21916164328243168151e-04
  -1.30548145324861246180e-04
  -1.39812282170979841796e-04
  -1.49756132329944196884e-04
  -1.60430904408755061093e-04
  -1.71891742620281862478e-04
  -1.84198033638296630125e-04
  -1.97413737620624968674e-04
  -2.11607745317298758751e-04
  -2.26854263332996975919e-04
  -2.43233229778526372725e-04
  -2.60830762723602519338e-04
  -2.79739644056158543069e-04
  -3.00059841560752218418e-04
  -3.21899072253186129683e-04
  -3.45373410250813086056e-04
  -3.70607942719639558982e-04
  -3.97737477721973582776e-04
  -4.26907308093779679428e-04
  -4.58274035810444287792e-04
  -4.92006461655879775811e-04
  -5.28286545394448343524e-04
  -5.67310442060579346070e-04
  -6.09289620429726746023e-04
  -6.54452070218725177192e-04
  -7.03043605087256542538e-04
  -7.55329269077310893124e-04
  -8.11594854738113087242e-04
  -8.72148541843815149066e-04
  -9.37322666323315298667e-04
  -1.00747562979134285509e-03
  -1.08299396090088249391e-03
  -1.16429454063497338397e-03
  -1.25182700462556821888e-03
  -1.34607633663455820636e-03
  -1.44756566846377093122e-03
  -1.55685930278242224550e-03
</dep>
<dep Pr2.I VBE>
  +1.31074142665010449139e-07
  +1.38333898563735922735e-07
  +1.46003815980682999277e-07
  +1.54107688448994694382e-07
  +1.62670736505213234653e-07
  +1.71719696702955833334e-07
  +1.81282916422559467804e-07
  +1.91390454870717895286e-07
  +2.02074190691991786260e-07
  +2.13367936643985135362e-07
  +2.25307561820087602268e-07
  +2.37931121938149714450e-07
  +2.51278998250444060277e-07
  +2.65394045670003939868e-07
  +2.80321750751078361809e-07
  +2.96110400207274141358e-07
  +3.12811260700134112197e-07
  +3.30478770683813367970e-07
  +3.49170745148244422661e-07
  +3.68948594164272312609e-07
  +3.89877556199745426561e-07
  +4.12026947246093147968e-07
  +4.35470426870598811261e-07
  +4.60286282391045690890e-07
  +4.86557732456925586146e-07
  +5.14373251415523401103e-07
  +5.43826915942369469298e-07
  +5.75018775524394206489e-07
  +6.08055248501146858572e-07
  +6.43049545495341659633e-07
  +6.80122122199367891350e-07
  +7.19401163630124994886e-07
  +7.61023102121242758246e-07
  +8.05133171490425801948e-07
  +8.51886000001042680085e-07
  +9.01446244932531495909e-07
  +9.53989271784163869532e-07
  +1.00970188136322910476e-06
  +1.06878308825189414912e-06
  +1.13144495440954095583e-06
  +1.19791348194931332608e-06
  +1.26842956943165308025e-06
  +1.34325003634501424006e-06
  +1.42264872079591923319e-06
  +1.50691765581052213499e-06
  +1.59636833005824597975e-06
  +1.69133303924845731989e-06
  +1.79216633492536891267e-06
  +1.89924657789719216119e-06
  +2.01297760408601546171e-06
  +2.13379051117768697032e-06
  +2.26214557509008720089e-06
  +2.39853430596643137044e-06
  +2.54348165414210166193e-06
  +2.69754837733314531113e-06
  +2.86133358115583223097e-06
