<Qucs Dataset 0.0.21>
<indep frequency 100>
1.000000000000e+00
1.232846739442e+00
1.519911082953e+00
1.873817422860e+00
2.310129700083e+00
2.848035868436e+00
3.511191734215e+00
4.328761281083e+00
5.336699231206e+00
6.579332246576e+00
8.111308307897e+00
1.000000000000e+01
1.232846739442e+01
1.519911082953e+01
1.873817422860e+01
2.310129700083e+01
2.848035868436e+01
3.511191734215e+01
4.328761281083e+01
5.336699231206e+01
6.579332246576e+01
8.111308307897e+01
1.000000000000e+02
1.232846739442e+02
1.519911082953e+02
1.873817422860e+02
2.310129700083e+02
2.848035868436e+02
3.511191734215e+02
4.328761281083e+02
5.336699231206e+02
6.579332246576e+02
8.111308307897e+02
1.000000000000e+03
1.232846739442e+03
1.519911082953e+03
1.873817422860e+03
2.310129700083e+03
2.848035868436e+03
3.511191734215e+03
4.328761281083e+03
5.336699231206e+03
6.579332246576e+03
8.111308307897e+03
1.000000000000e+04
1.232846739442e+04
1.519911082953e+04
1.873817422860e+04
2.310129700083e+04
2.848035868436e+04
3.511191734215e+04
4.328761281083e+04
5.336699231206e+04
6.579332246576e+04
8.111308307897e+04
1.000000000000e+05
1.232846739442e+05
1.519911082953e+05
1.873817422860e+05
2.310129700083e+05
2.848035868436e+05
3.511191734215e+05
4.328761281083e+05
5.336699231206e+05
6.579332246576e+05
8.111308307897e+05
1.000000000000e+06
1.232846739442e+06
1.519911082953e+06
1.873817422860e+06
2.310129700083e+06
2.848035868436e+06
3.511191734215e+06
4.328761281083e+06
5.336699231206e+06
6.579332246576e+06
8.111308307897e+06
1.000000000000e+07
1.232846739442e+07
1.519911082953e+07
1.873817422860e+07
2.310129700083e+07
2.848035868436e+07
3.511191734215e+07
4.328761281083e+07
5.336699231206e+07
6.579332246576e+07
8.111308307897e+07
1.000000000000e+08
1.232846739442e+08
1.519911082953e+08
1.873817422860e+08
2.310129700083e+08
2.848035868436e+08
3.511191734215e+08
4.328761281083e+08
5.336699231206e+08
6.579332246576e+08
8.111308307897e+08
1.000000000000e+09
</indep>
<dep ac.v(b) frequency>
1.086812048937e-02+j6.585233042579e-03
1.196723838415e-02+j5.881968290109e-03
1.282027945013e-02+j5.111510301123e-03
1.345111770956e-02+j4.350606618832e-03
1.390116461545e-02+j3.647603884213e-03
1.421406737600e-02+j3.026065974223e-03
1.442774603356e-02+j2.492415882899e-03
1.457188874693e-02+j2.043095140574e-03
1.466833322908e-02+j1.669701321282e-03
1.473252787184e-02+j1.362148339308e-03
1.477513400261e-02+j1.110390940296e-03
1.480339653529e-02+j9.052490970190e-04
1.482219598107e-02+j7.387201239996e-04
1.483481111943e-02+j6.040222997497e-04
1.484345501694e-02+j4.955105641486e-04
1.484964631360e-02+j4.085397898921e-04
1.485446583960e-02+j3.393126742097e-04
1.485873483082e-02+j2.847272141417e-04
1.486313771987e-02+j2.422262907196e-04
1.486829923081e-02+j2.096460285441e-04
1.487481159134e-02+j1.850610239523e-04
1.488319581111e-02+j1.666373357405e-04
1.489378258422e-02+j1.525311485260e-04
1.490653341281e-02+j1.408996503331e-04
1.492089523232e-02+j1.300776409324e-04
1.493583317429e-02+j1.188732109913e-04
1.495010988493e-02+j1.067987265887e-04
1.496268286668e-02+j9.404735730360e-05
1.497297880121e-02+j8.121573515501e-05
1.498091844923e-02+j6.896194810631e-05
1.498676168053e-02+j5.777936356334e-05
1.499091575716e-02+j4.792906720154e-05
1.499379681864e-02+j3.947448595575e-05
1.499576085374e-02+j3.234951866528e-05
1.499708407077e-02+j2.642034191303e-05
1.499796849352e-02+j2.152830500574e-05
1.499855649385e-02+j1.751510686109e-05
1.499894603850e-02+j1.423544975241e-05
1.499920350302e-02+j1.156205923421e-05
1.499937340693e-02+j9.386526337388e-06
1.499948541375e-02+j7.618104347053e-06
1.499955920283e-02+j6.181666188932e-06
1.499960779281e-02+j5.015456653103e-06
1.499963977987e-02+j4.068946007209e-06
1.499966083311e-02+j3.300913786524e-06
1.499967468824e-02+j2.677800030028e-06
1.499968380562e-02+j2.172317179386e-06
1.499968980514e-02+j1.762296976538e-06
1.499969375309e-02+j1.429740638653e-06
1.499969635130e-02+j1.160040711415e-06
1.499969806170e-02+j9.413458213664e-07
1.499969918843e-02+j7.640432993627e-07
1.499969993185e-02+j6.203384758609e-07
1.499970042415e-02+j5.039129758556e-07
1.499970075289e-02+j4.096474281980e-07
1.499970097653e-02+j3.333966293921e-07
1.499970113484e-02+j2.718073968483e-07
1.499970125596e-02+j2.221711620840e-07
1.499970136144e-02+j1.823048448828e-07
1.499970147001e-02+j1.504547658788e-07
1.499970160093e-02+j1.252193390930e-07
1.499970177737e-02+j1.054870704674e-07
1.499970203048e-02+j9.038699024863e-08
1.499970240469e-02+j7.924906740295e-08
1.499970296526e-02+j7.157236432820e-08
1.499970380890e-02+j6.699862337915e-08
1.499970507879e-02+j6.528850875882e-08
1.499970698525e-02+j6.629667165403e-08
1.499970983232e-02+j6.993996002632e-08
1.499971404844e-02+j7.615045499270e-08
1.499972021321e-02+j8.480242135000e-08
1.499972906114e-02+j9.560279570036e-08
1.499974142634e-02+j1.079458303921e-07
1.499975807854e-02+j1.207652444227e-07
1.499977941924e-02+j1.324755459179e-07
1.499980509576e-02+j1.411432797502e-07
1.499983374344e-02+j1.449732845421e-07
1.499986313558e-02+j1.429643883597e-07
1.499989080844e-02+j1.353390953610e-07
1.499991483300e-02+j1.234223626443e-07
1.499993426502e-02+j1.090635994209e-07
1.499994910224e-02+j9.400907837685e-08
1.499995994020e-02+j7.953860153767e-08
1.499996760333e-02+j6.640019430084e-08
1.499997289779e-02+j5.491504868590e-08
1.499997649755e-02+j4.512556153107e-08
1.499997891846e-02+j3.692036505499e-08
1.499998053463e-02+j3.011924346265e-08
1.499998160827e-02+j2.452332611925e-08
1.499998231916e-02+j1.994140210055e-08
1.499998278885e-02+j1.620176201860e-08
1.499998309874e-02+j1.315602433705e-08
1.499998330299e-02+j1.067888936464e-08
1.499998343754e-02+j8.666054486348e-09
1.499998352613e-02+j7.031482048362e-09
1.499998358445e-02+j5.704614853073e-09
1.499998362284e-02+j4.627809843914e-09
1.499998364809e-02+j3.754090651814e-09
1.499998366472e-02+j3.045235558193e-09
1.499998367565e-02+j2.470178857782e-09
</dep>
<dep ac.v(c) frequency>
-3.798138182197e-02-j2.970863882800e-02
-4.183920887650e-02-j2.881786254502e-02
-4.484873856844e-02-j2.805663624695e-02
-4.709891680759e-02-j2.777756108559e-02
-4.874282293777e-02-j2.825370263595e-02
-4.994575963302e-02-j2.969570089478e-02
-5.085974327125e-02-j3.228389337552e-02
-5.161822977620e-02-j3.619987775678e-02
-5.234269759744e-02-j4.165227647634e-02
-5.315567783454e-02-j4.889692016206e-02
-5.419827911169e-02-j5.825321583988e-02
-5.565283062388e-02-j7.011805154166e-02
-5.777306482264e-02-j8.497728841774e-02
-6.092563302759e-02-j1.034129021321e-01
-6.564777766919e-02-j1.261007743878e-01
-7.272618099786e-02-j1.537892384834e-01
-8.329981767348e-02-j1.872408289214e-01
-9.898160643525e-02-j2.271089075900e-01
-1.219735026196e-01-j2.737092554788e-01
-1.551089464360e-01-j3.266442875618e-01
-2.016921289997e-01-j3.842697867705e-01
-2.649412012850e-01-j4.431045824819e-01
-3.468771192116e-01-j4.975010532691e-01
-4.467930859803e-01-j5.401217236518e-01
-5.600273208767e-01-j5.636621036675e-01
-6.781767508499e-01-j5.634613365747e-01
-7.912874068803e-01-j5.395499591624e-01
-8.909939184354e-01-j4.966346091345e-01
-9.726876648620e-01-j4.420316755618e-01
-1.035706000680e+00-j3.830605079288e-01
-1.082094103596e+00-j3.253364483629e-01
-1.115076578107e+00-j2.723079286355e-01
-1.137953438566e+00-j2.255921266538e-01
-1.153549528566e+00-j1.855656887577e-01
-1.164057335479e+00-j1.518959041871e-01
-1.171080778307e+00-j1.239139856212e-01
-1.175750306171e+00-j1.008413542403e-01
-1.178843836802e+00-j8.191138699103e-02
-1.180888453378e+00-j6.642643594523e-02
-1.182237687351e+00-j5.377835545209e-02
-1.183127095058e+00-j4.345010199993e-02
-1.183712940909e+00-j3.500848857994e-02
-1.184098584377e+00-j2.809353283028e-02
-1.184352250052e+00-j2.240715438406e-02
-1.184518894943e+00-j1.770249917709e-02
-1.184628088319e+00-j1.377438774052e-02
-1.184699220332e+00-j1.045099012612e-02
-1.184744928738e+00-j7.586642751458e-03
-1.184773337036e+00-j5.055642366068e-03
-1.184789495125e+00-j2.746825309180e-03
-1.184796275645e+00-j5.587372850580e-04
-1.184794884133e+00+j1.604795024308e-03
-1.184785073168e+00+j3.838871633271e-03
-1.184765098404e+00+j6.241682413899e-03
-1.184731408703e+00+j8.918801062741e-03
-1.184678015526e+00+j1.198778885953e-02
-1.184595430116e+00+j1.558329468328e-02
-1.184468981112e+00+j1.986284729070e-02
-1.184276217199e+00+j2.501354177202e-02
-1.183982941648e+00+j3.125981692493e-02
-1.183537193815e+00+j3.887248266151e-02
-1.182860153871e+00+j4.817905602958e-02
-1.181832460516e+00+j5.957522980879e-02
-1.180273754176e+00+j7.353681574869e-02
-1.177912368717e+00+j9.063055580198e-02
-1.174341054372e+00+j1.115204164086e-01
-1.168953717168e+00+j1.369627794586e-01
-1.160858255271e+00+j1.677784734880e-01
-1.148763692072e+00+j2.047809438836e-01
-1.130850156015e+00+j2.486279969723e-01
-1.104655122053e+00+j2.995530028687e-01
-1.067057566389e+00+j3.569332930813e-01
-1.014513298904e+00+j4.186998646057e-01
-9.437514820386e-01+j4.807313180410e-01
-8.530660330862e-01+j5.366225286430e-01
-7.439557552556e-01+j5.784269646358e-01
-6.222196456176e-01+j5.987348547670e-01
-4.973199996635e-01+j5.934691343698e-01
-3.797262269449e-01+j5.637191664944e-01
-2.776356683777e-01+j5.152319390524e-01
-1.950607269885e-01+j4.559610237756e-01
-1.320110841793e-01+j3.934038462484e-01
-8.595597031138e-02+j3.330611000634e-01
-5.339207261653e-02+j2.781619722877e-01
-3.089365827079e-02+j2.301123133516e-01
-1.559673787174e-02+j1.891255162490e-01
-5.309247101785e-03+j1.547552861879e-01
1.558542700308e-03+j1.262576729011e-01
6.120876231434e-03+j1.028053243818e-01
9.141773364066e-03+j8.360008855345e-02
1.113769431410e-02+j6.792396685121e-02
1.245452048244e-02+j5.515588699780e-02
1.332248687272e-02+j4.477107383064e-02
1.389423748359e-02+j3.633252783227e-02
1.427070890885e-02+j2.947968904827e-02
1.451853096446e-02+j2.391682665714e-02
1.468163720496e-02+j1.940231377043e-02
1.478897441771e-02+j1.573922318359e-02
1.485960561392e-02+j1.276732085347e-02
1.490608076101e-02+j1.035636875718e-02
</dep>
<dep ac.v(e) frequency>
1.038461509028e-02+j6.207530829711e-03
1.143462368356e-02+j5.515720855158e-03
1.224935522092e-02+j4.755095225665e-03
1.285155184048e-02+j3.997919034632e-03
1.328067689563e-02+j3.289070417689e-03
1.357827421583e-02+j2.649441206870e-03
1.378033009665e-02+j2.083170279272e-03
1.391483597907e-02+j1.584401660998e-03
1.400208647227e-02+j1.142094622167e-03
1.405597518763e-02+j7.429277072719e-04
1.408537478114e-02+j3.728156162744e-04
1.409522067215e-02+j1.755740172226e-05
1.408718077951e-02-j3.369969508298e-04
1.405989255861e-02-j7.049933024684e-04
1.400876896014e-02-j1.100629698453e-03
1.392537168137e-02-j1.538021535660e-03
1.379636597499e-02-j2.030616404482e-03
1.360215914876e-02-j2.589785122857e-03
1.331556666982e-02-j3.222081309018e-03
1.290135199807e-02-j3.924636925215e-03
1.231828810185e-02-j4.678567818659e-03
1.152616570668e-02-j5.441649392334e-03
1.049973743021e-02-j6.144247714570e-03
9.247910274992e-03-j6.695340687182e-03
7.829132598852e-03-j7.004146463558e-03
6.348722306729e-03-j7.012869280936e-03
4.931423602943e-03-j6.722385870896e-03
3.682069587425e-03-j6.192075496449e-03
2.658415554529e-03-j5.513944859738e-03
1.868768978551e-03-j4.779977659922e-03
1.287505108583e-03-j4.060756899936e-03
8.742192701443e-04-j3.399674030988e-03
5.875612461264e-04-j2.817142878383e-03
3.921346242772e-04-j2.318008358594e-03
2.604665704473e-04-j1.898207957817e-03
1.724592250918e-04-j1.549453871947e-03
1.139474982215e-04-j1.262072578704e-03
7.518366340522e-05-j1.026534043789e-03
4.956304660662e-05-j8.341695651717e-04
3.265562601626e-05-j6.774322150603e-04
2.150961354181e-05-j5.499201213602e-04
1.416670902589e-05-j4.462890624656e-04
9.331417611173e-06-j3.621226819130e-04
6.148320108936e-06-j2.937950126620e-04
4.053275364831e-06-j2.383415044686e-04
2.674538389573e-06-j1.933449935262e-04
1.767275412170e-06-j1.568381489737e-04
1.170293690346e-06-j1.272216317268e-04
7.774921856916e-07-j1.031962587054e-04
5.190431567779e-07-j8.370720281560e-05
3.489958030872e-07-j6.789831700258e-05
2.371137500606e-07-j5.507486351163e-05
1.635018267024e-07-j4.467316413486e-05
1.150696170065e-07-j3.623591943167e-05
8.320418077434e-08-j2.939215567611e-05
6.223862750426e-08-j2.384094121680e-05
4.844443772593e-08-j1.933816871601e-05
3.936843010528e-08-j1.568582869776e-05
3.339650440356e-08-j1.272330626545e-05
2.946659492154e-08-j1.032032015221e-05
2.687979351256e-08-j8.371194600352e-06
2.517605569215e-08-j6.790212704524e-06
2.405238683590e-08-j5.507847157529e-06
2.330896034544e-08-j4.467702785991e-06
2.281358806833e-08-j3.624036488802e-06
2.247823034567e-08-j2.939745537441e-06
2.224338156115e-08-j2.384735759963e-06
2.206758388280e-08-j1.934597802568e-06
2.192026836215e-08-j1.569533169589e-06
2.177678408209e-08-j1.273482677834e-06
2.161499572279e-08-j1.033418822892e-06
2.141332090577e-08-j8.387707960681e-07
2.115058820250e-08-j6.809569741176e-07
2.080847693054e-08-j5.530051119082e-07
2.037701864703e-08-j4.492454860340e-07
1.986191343022e-08-j3.650663430624e-07
1.928941934787e-08-j2.967224389019e-07
1.870322078153e-08-j2.411849314603e-07
1.815190580620e-08-j1.960175935789e-07
1.767356454987e-08-j1.592670701941e-07
1.728679989802e-08-j1.293643301185e-07
1.699155093261e-08-j1.050415756451e-07
1.677591246597e-08-j8.526774129301e-08
1.662345503985e-08-j6.920073373758e-08
1.651812772888e-08-j5.615183037100e-08
1.644651698591e-08-j4.555805217260e-08
1.639835837535e-08-j3.695985290454e-08
1.636620880537e-08-j2.998269424666e-08
1.634485176473e-08-j2.432172948276e-08
1.633071053194e-08-j1.972909383160e-08
1.632136739112e-08-j1.600340639505e-08
1.631520318941e-08-j1.298114002123e-08
1.631114015474e-08-j1.052955456691e-08
1.630846373788e-08-j8.540927386433e-09
1.630670144208e-08-j6.927852810967e-09
1.630554136586e-08-j5.619418117705e-09
1.630477785187e-08-j4.558095624538e-09
1.630427539748e-08-j3.697218476745e-09
1.630394476704e-08-j2.998931409922e-09
1.630372721307e-08-j2.432527602187e-09
</dep>
<dep ac.v(uin) frequency>
1.500000000000e-02+j0.000000000000e+00
1.500000000000e-02+j0.000000000000e+00
1.500000000000e-02+j0.000000000000e+00
1.500000000000e-02+j0.000000000000e+00
1.500000000000e-02+j0.000000000000e+00
1.500000000000e-02+j0.000000000000e+00
1.500000000000e-02+j0.000000000000e+00
1.500000000000e-02+j0.000000000000e+00
1.500000000000e-02+j0.000000000000e+00
1.500000000000e-02+j0.000000000000e+00
1.500000000000e-02+j0.000000000000e+00
1.500000000000e-02+j0.000000000000e+00
1.500000000000e-02+j0.000000000000e+00
1.500000000000e-02+j0.000000000000e+00
1.500000000000e-02+j0.000000000000e+00
1.500000000000e-02+j0.000000000000e+00
1.500000000000e-02+j0.000000000000e+00
1.500000000000e-02+j0.000000000000e+00
1.500000000000e-02+j0.000000000000e+00
1.500000000000e-02+j0.000000000000e+00
1.500000000000e-02+j0.000000000000e+00
1.500000000000e-02+j0.000000000000e+00
1.500000000000e-02+j0.000000000000e+00
1.500000000000e-02+j0.000000000000e+00
1.500000000000e-02+j0.000000000000e+00
1.500000000000e-02+j0.000000000000e+00
1.500000000000e-02+j0.000000000000e+00
1.500000000000e-02+j0.000000000000e+00
1.500000000000e-02+j0.000000000000e+00
1.500000000000e-02+j0.000000000000e+00
1.500000000000e-02+j0.000000000000e+00
1.500000000000e-02+j0.000000000000e+00
1.500000000000e-02+j0.000000000000e+00
1.500000000000e-02+j0.000000000000e+00
1.500000000000e-02+j0.000000000000e+00
1.500000000000e-02+j0.000000000000e+00
1.500000000000e-02+j0.000000000000e+00
1.500000000000e-02+j0.000000000000e+00
1.500000000000e-02+j0.000000000000e+00
1.500000000000e-02+j0.000000000000e+00
1.500000000000e-02+j0.000000000000e+00
1.500000000000e-02+j0.000000000000e+00
1.500000000000e-02+j0.000000000000e+00
1.500000000000e-02+j0.000000000000e+00
1.500000000000e-02+j0.000000000000e+00
1.500000000000e-02+j0.000000000000e+00
1.500000000000e-02+j0.000000000000e+00
1.500000000000e-02+j0.000000000000e+00
1.500000000000e-02+j0.000000000000e+00
1.500000000000e-02+j0.000000000000e+00
1.500000000000e-02+j0.000000000000e+00
1.500000000000e-02+j0.000000000000e+00
1.500000000000e-02+j0.000000000000e+00
1.500000000000e-02+j0.000000000000e+00
1.500000000000e-02+j0.000000000000e+00
1.500000000000e-02+j0.000000000000e+00
1.500000000000e-02+j0.000000000000e+00
1.500000000000e-02+j0.000000000000e+00
1.500000000000e-02+j0.000000000000e+00
1.500000000000e-02+j0.000000000000e+00
1.500000000000e-02+j0.000000000000e+00
1.500000000000e-02+j0.000000000000e+00
1.500000000000e-02+j0.000000000000e+00
1.500000000000e-02+j0.000000000000e+00
1.500000000000e-02+j0.000000000000e+00
1.500000000000e-02+j0.000000000000e+00
1.500000000000e-02+j0.000000000000e+00
1.500000000000e-02+j0.000000000000e+00
1.500000000000e-02+j0.000000000000e+00
1.500000000000e-02+j0.000000000000e+00
1.500000000000e-02+j0.000000000000e+00
1.500000000000e-02+j0.000000000000e+00
1.500000000000e-02+j0.000000000000e+00
1.500000000000e-02+j0.000000000000e+00
1.500000000000e-02+j0.000000000000e+00
1.500000000000e-02+j0.000000000000e+00
1.500000000000e-02+j0.000000000000e+00
1.500000000000e-02+j0.000000000000e+00
1.500000000000e-02+j0.000000000000e+00
1.500000000000e-02+j0.000000000000e+00
1.500000000000e-02+j0.000000000000e+00
1.500000000000e-02+j0.000000000000e+00
1.500000000000e-02+j0.000000000000e+00
1.500000000000e-02+j0.000000000000e+00
1.500000000000e-02+j0.000000000000e+00
1.500000000000e-02+j0.000000000000e+00
1.500000000000e-02+j0.000000000000e+00
1.500000000000e-02+j0.000000000000e+00
1.500000000000e-02+j0.000000000000e+00
1.500000000000e-02+j0.000000000000e+00
1.500000000000e-02+j0.000000000000e+00
1.500000000000e-02+j0.000000000000e+00
1.500000000000e-02+j0.000000000000e+00
1.500000000000e-02+j0.000000000000e+00
1.500000000000e-02+j0.000000000000e+00
1.500000000000e-02+j0.000000000000e+00
1.500000000000e-02+j0.000000000000e+00
1.500000000000e-02+j0.000000000000e+00
1.500000000000e-02+j0.000000000000e+00
1.500000000000e-02+j0.000000000000e+00
</dep>
<dep ac.i(pr1) frequency>
5.081075206532e-08+j3.969326964944e-08
5.597152040548e-08+j3.848976329619e-08
5.999732851224e-08+j3.745681513181e-08
6.300710967821e-08+j3.706549351128e-08
6.520556441045e-08+j3.768031651364e-08
6.681369966001e-08+j3.958210808884e-08
6.803467838859e-08+j4.301093164847e-08
6.904672779622e-08+j4.820826594814e-08
7.001189147962e-08+j5.545141586121e-08
7.109337874749e-08+j6.508044863702e-08
7.247888544079e-08+j7.752002071709e-08
7.441070028524e-08+j9.329791031281e-08
7.722580790947e-08+j1.130603396423e-07
8.141102484686e-08+j1.375815253092e-07
8.767957384368e-08+j1.677608290265e-07
9.707576211096e-08+j2.045943789626e-07
1.111115184821e-07+j2.490978716138e-07
1.319278818731e-07+j3.021429581894e-07
1.624477810378e-07+j3.641542442075e-07
2.064323837765e-07+j4.346107050491e-07
2.682677376322e-07+j5.113381158086e-07
3.522256769656e-07+j5.897258150087e-07
4.609888574338e-07+j6.622897774602e-07
5.936190677577e-07+j7.193058167595e-07
7.439281822258e-07+j7.510972032473e-07
9.007618191707e-07+j7.515009353739e-07
1.050906911878e-06+j7.205870234662e-07
1.183259129035e-06+j6.646394862972e-07
1.291700917871e-06+j5.934150411509e-07
1.375352686967e-06+j5.166847750168e-07
1.436929264564e-06+j4.419707158548e-07
1.480711082823e-06+j3.739343630779e-07
1.511078692935e-06+j3.148259375397e-07
1.531781924582e-06+j2.652730704963e-07
1.545731249992e-06+j2.249915081949e-07
1.555055931169e-06+j1.932875326715e-07
1.561256837782e-06+j1.693668699417e-07
1.565367034923e-06+j1.525068199184e-07
1.568086856134e-06+j1.421449150395e-07
1.569886609884e-06+j1.379221585132e-07
1.571080535151e-06+j1.397048612812e-07
1.571878427137e-06+j1.475993272391e-07
1.572421084789e-06+j1.619676753889e-07
1.572804538920e-06+j1.834497736417e-07
1.573096777566e-06+j2.129946037335e-07
1.573349683914e-06+j2.519037176692e-07
1.573608196864e-06+j3.018893870255e-07
1.573918274176e-06+j3.651503691587e-07
1.574335052962e-06+j4.444688102266e-07
1.574932649285e-06+j5.433326304340e-07
1.575817335068e-06+j6.660887870681e-07
1.577146432616e-06+j8.181341035722e-07
1.579156283071e-06+j1.006151918516e-06
1.582204255091e-06+j1.238404680570e-06
1.586832247486e-06+j1.525094818736e-06
1.593862939820e-06+j1.878808743487e-06
