<Qucs Dataset 0.0.21>
<indep frequency 127>
1.000000000000e-01
1.115883992508e-01
1.245197084735e-01
1.389495494373e-01
1.550515779833e-01
1.730195738846e-01
1.930697728883e-01
2.154434690032e-01
2.404099183510e-01
2.682695795280e-01
2.993577294720e-01
3.340484983513e-01
3.727593720315e-01
4.159562163072e-01
4.641588833613e-01
5.179474679231e-01
5.779692884153e-01
6.449466771038e-01
7.196856730012e-01
8.030857221392e-01
8.961505019466e-01
1.000000000000e+00
1.115883992508e+00
1.245197084735e+00
1.389495494373e+00
1.550515779833e+00
1.730195738846e+00
1.930697728883e+00
2.154434690032e+00
2.404099183510e+00
2.682695795280e+00
2.993577294720e+00
3.340484983513e+00
3.727593720315e+00
4.159562163072e+00
4.641588833613e+00
5.179474679231e+00
5.779692884153e+00
6.449466771038e+00
7.196856730011e+00
8.030857221391e+00
8.961505019466e+00
1.000000000000e+01
1.115883992508e+01
1.245197084735e+01
1.389495494373e+01
1.550515779833e+01
1.730195738846e+01
1.930697728883e+01
2.154434690032e+01
2.404099183510e+01
2.682695795280e+01
2.993577294720e+01
3.340484983513e+01
3.727593720315e+01
4.159562163072e+01
4.641588833613e+01
5.179474679231e+01
5.779692884153e+01
6.449466771038e+01
7.196856730011e+01
8.030857221391e+01
8.961505019466e+01
1.000000000000e+02
1.115883992508e+02
1.245197084735e+02
1.389495494373e+02
1.550515779833e+02
1.730195738846e+02
1.930697728883e+02
2.154434690032e+02
2.404099183510e+02
2.682695795280e+02
2.993577294720e+02
3.340484983513e+02
3.727593720315e+02
4.159562163072e+02
4.641588833613e+02
5.179474679231e+02
5.779692884153e+02
6.449466771038e+02
7.196856730011e+02
8.030857221391e+02
8.961505019466e+02
1.000000000000e+03
1.115883992508e+03
1.245197084735e+03
1.389495494373e+03
1.550515779833e+03
1.730195738846e+03
1.930697728883e+03
2.154434690032e+03
2.404099183510e+03
2.682695795280e+03
2.993577294720e+03
3.340484983513e+03
3.727593720315e+03
4.159562163072e+03
4.641588833613e+03
5.179474679231e+03
5.779692884153e+03
6.449466771038e+03
7.196856730011e+03
8.030857221391e+03
8.961505019466e+03
1.000000000000e+04
1.115883992508e+04
1.245197084735e+04
1.389495494373e+04
1.550515779833e+04
1.730195738846e+04
1.930697728883e+04
2.154434690032e+04
2.404099183510e+04
2.682695795280e+04
2.993577294720e+04
3.340484983513e+04
3.727593720315e+04
4.159562163072e+04
4.641588833613e+04
5.179474679231e+04
5.779692884153e+04
6.449466771038e+04
7.196856730011e+04
8.030857221391e+04
8.961505019466e+04
1.000000000000e+05
</indep>
<dep ac.v(vin) frequency>
1.000000000000e+00+j0.000000000000e+00
1.000000000000e+00+j0.000000000000e+00
1.000000000000e+00+j0.000000000000e+00
1.000000000000e+00+j0.000000000000e+00
1.000000000000e+00+j0.000000000000e+00
1.000000000000e+00+j0.000000000000e+00
1.000000000000e+00+j0.000000000000e+00
1.000000000000e+00+j0.000000000000e+00
1.000000000000e+00+j0.000000000000e+00
1.000000000000e+00+j0.000000000000e+00
1.000000000000e+00+j0.000000000000e+00
1.000000000000e+00+j0.000000000000e+00
1.000000000000e+00+j0.000000000000e+00
1.000000000000e+00+j0.000000000000e+00
1.000000000000e+00+j0.000000000000e+00
1.000000000000e+00+j0.000000000000e+00
1.000000000000e+00+j0.000000000000e+00
1.000000000000e+00+j0.000000000000e+00
1.000000000000e+00+j0.000000000000e+00
1.000000000000e+00+j0.000000000000e+00
1.000000000000e+00+j0.000000000000e+00
1.000000000000e+00+j0.000000000000e+00
1.000000000000e+00+j0.000000000000e+00
1.000000000000e+00+j0.000000000000e+00
1.000000000000e+00+j0.000000000000e+00
1.000000000000e+00+j0.000000000000e+00
1.000000000000e+00+j0.000000000000e+00
1.000000000000e+00+j0.000000000000e+00
1.000000000000e+00+j0.000000000000e+00
1.000000000000e+00+j0.000000000000e+00
1.000000000000e+00+j0.000000000000e+00
1.000000000000e+00+j0.000000000000e+00
1.000000000000e+00+j0.000000000000e+00
1.000000000000e+00+j0.000000000000e+00
1.000000000000e+00+j0.000000000000e+00
1.000000000000e+00+j0.000000000000e+00
1.000000000000e+00+j0.000000000000e+00
1.000000000000e+00+j0.000000000000e+00
1.000000000000e+00+j0.000000000000e+00
1.000000000000e+00+j0.000000000000e+00
1.000000000000e+00+j0.000000000000e+00
1.000000000000e+00+j0.000000000000e+00
1.000000000000e+00+j0.000000000000e+00
1.000000000000e+00+j0.000000000000e+00
1.000000000000e+00+j0.000000000000e+00
1.000000000000e+00+j0.000000000000e+00
1.000000000000e+00+j0.000000000000e+00
1.000000000000e+00+j0.000000000000e+00
1.000000000000e+00+j0.000000000000e+00
1.000000000000e+00+j0.000000000000e+00
1.000000000000e+00+j0.000000000000e+00
1.000000000000e+00+j0.000000000000e+00
1.000000000000e+00+j0.000000000000e+00
1.000000000000e+00+j0.000000000000e+00
1.000000000000e+00+j0.000000000000e+00
1.000000000000e+00+j0.000000000000e+00
1.000000000000e+00+j0.000000000000e+00
1.000000000000e+00+j0.000000000000e+00
1.000000000000e+00+j0.000000000000e+00
1.000000000000e+00+j0.000000000000e+00
1.000000000000e+00+j0.000000000000e+00
1.000000000000e+00+j0.000000000000e+00
1.000000000000e+00+j0.000000000000e+00
1.000000000000e+00+j0.000000000000e+00
1.000000000000e+00+j0.000000000000e+00
1.000000000000e+00+j0.000000000000e+00
1.000000000000e+00+j0.000000000000e+00
1.000000000000e+00+j0.000000000000e+00
1.000000000000e+00+j0.000000000000e+00
1.000000000000e+00+j0.000000000000e+00
1.000000000000e+00+j0.000000000000e+00
1.000000000000e+00+j0.000000000000e+00
1.000000000000e+00+j0.000000000000e+00
1.000000000000e+00+j0.000000000000e+00
1.000000000000e+00+j0.000000000000e+00
1.000000000000e+00+j0.000000000000e+00
1.000000000000e+00+j0.000000000000e+00
1.000000000000e+00+j0.000000000000e+00
1.000000000000e+00+j0.000000000000e+00
1.000000000000e+00+j0.000000000000e+00
1.000000000000e+00+j0.000000000000e+00
1.000000000000e+00+j0.000000000000e+00
1.000000000000e+00+j0.000000000000e+00
1.000000000000e+00+j0.000000000000e+00
1.000000000000e+00+j0.000000000000e+00
1.000000000000e+00+j0.000000000000e+00
1.000000000000e+00+j0.000000000000e+00
1.000000000000e+00+j0.000000000000e+00
1.000000000000e+00+j0.000000000000e+00
1.000000000000e+00+j0.000000000000e+00
1.000000000000e+00+j0.000000000000e+00
1.000000000000e+00+j0.000000000000e+00
1.000000000000e+00+j0.000000000000e+00
1.000000000000e+00+j0.000000000000e+00
1.000000000000e+00+j0.000000000000e+00
1.000000000000e+00+j0.000000000000e+00
1.000000000000e+00+j0.000000000000e+00
1.000000000000e+00+j0.000000000000e+00
1.000000000000e+00+j0.000000000000e+00
1.000000000000e+00+j0.000000000000e+00
1.000000000000e+00+j0.000000000000e+00
1.000000000000e+00+j0.000000000000e+00
1.000000000000e+00+j0.000000000000e+00
1.000000000000e+00+j0.000000000000e+00
1.000000000000e+00+j0.000000000000e+00
1.000000000000e+00+j0.000000000000e+00
1.000000000000e+00+j0.000000000000e+00
1.000000000000e+00+j0.000000000000e+00
1.000000000000e+00+j0.000000000000e+00
1.000000000000e+00+j0.000000000000e+00
1.000000000000e+00+j0.000000000000e+00
1.000000000000e+00+j0.000000000000e+00
1.000000000000e+00+j0.000000000000e+00
1.000000000000e+00+j0.000000000000e+00
1.000000000000e+00+j0.000000000000e+00
1.000000000000e+00+j0.000000000000e+00
1.000000000000e+00+j0.000000000000e+00
1.000000000000e+00+j0.000000000000e+00
1.000000000000e+00+j0.000000000000e+00
1.000000000000e+00+j0.000000000000e+00
1.000000000000e+00+j0.000000000000e+00
1.000000000000e+00+j0.000000000000e+00
1.000000000000e+00+j0.000000000000e+00
1.000000000000e+00+j0.000000000000e+00
1.000000000000e+00+j0.000000000000e+00
1.000000000000e+00+j0.000000000000e+00
1.000000000000e+00+j0.000000000000e+00
</dep>
<dep ac.v(vout) frequency>
1.099938946257e+01-j1.218115773109e-06
1.099938946258e+01-j1.359275962122e-06
1.099938946253e+01-j1.516794117556e-06
1.099938946253e+01-j1.692566373377e-06
1.099938946256e+01-j1.888707709111e-06
1.099938946252e+01-j2.107578636161e-06
1.099938946256e+01-j2.351813457863e-06
1.099938946256e+01-j2.624350891416e-06
1.099938946254e+01-j2.928471077203e-06
1.099938946257e+01-j3.267834271020e-06
1.099938946255e+01-j3.646523882281e-06
1.099938946253e+01-j4.069097165709e-06
1.099938946253e+01-j4.540640686113e-06
1.099938946255e+01-j5.066828334249e-06
1.099938946256e+01-j5.653992568983e-06
1.099938946255e+01-j6.309199833640e-06
1.099938946255e+01-j7.040335574959e-06
1.099938946256e+01-j7.856197440368e-06
1.099938946254e+01-j8.766604919893e-06
1.099938946255e+01-j9.782513415561e-06
1.099938946256e+01-j1.091615129297e-05
1.099938946254e+01-j1.218115826270e-05
1.099938946252e+01-j1.359275894473e-05
1.099938946252e+01-j1.516794268848e-05
1.099938946250e+01-j1.692566406908e-05
1.099938946255e+01-j1.888707845229e-05
1.099938946252e+01-j2.107578794479e-05
1.099938946250e+01-j2.351813356951e-05
1.099938946250e+01-j2.624350854269e-05
1.099938946244e+01-j2.928471157933e-05
1.099938946249e+01-j3.267834099439e-05
1.099938946240e+01-j3.646523576626e-05
1.099938946243e+01-j4.069097830146e-05
1.099938946237e+01-j4.540640692036e-05
1.099938946231e+01-j5.066828370448e-05
1.099938946226e+01-j5.653992851609e-05
1.099938946220e+01-j6.309200306942e-05
1.099938946213e+01-j7.040335154307e-05
1.099938946197e+01-j7.856197231501e-05
1.099938946186e+01-j8.766604730667e-05
1.099938946168e+01-j9.782513864018e-05
1.099938946150e+01-j1.091615154019e-04
1.099938946117e+01-j1.218115728871e-04
1.099938946084e+01-j1.359275847462e-04
1.099938946046e+01-j1.516794227965e-04
1.099938945994e+01-j1.692566442521e-04
1.099938945929e+01-j1.888707786075e-04
1.099938945852e+01-j2.107578764993e-04
1.099938945753e+01-j2.351813401919e-04
1.099938945629e+01-j2.624350955066e-04
1.099938945475e+01-j2.928471049210e-04
1.099938945282e+01-j3.267834067431e-04
1.099938945046e+01-j3.646523870384e-04
1.099938944751e+01-j4.069097589395e-04
1.099938944380e+01-j4.540640844320e-04
1.099938943919e+01-j5.066828302578e-04
1.099938943348e+01-j5.653992638659e-04
1.099938942633e+01-j6.309199705960e-04
1.099938941747e+01-j7.040335058857e-04
1.099938940643e+01-j7.856197344673e-04
1.099938939267e+01-j8.766604901497e-04
1.099938937554e+01-j9.782513974829e-04
1.099938935421e+01-j1.091615083115e-03
1.099938932764e+01-j1.218115781371e-03
1.099938929457e+01-j1.359275905970e-03
1.099938925338e+01-j1.516794208890e-03
1.099938920210e+01-j1.692566377774e-03
1.099938913823e+01-j1.888707710662e-03
1.099938905871e+01-j2.107578680377e-03
1.099938895970e+01-j2.351813308105e-03
1.099938883640e+01-j2.624350789772e-03
1.099938868287e+01-j2.928470986627e-03
1.099938849169e+01-j3.267833833021e-03
1.099938825364e+01-j3.646523392969e-03
1.099938795723e+01-j4.069096980475e-03
1.099938758813e+01-j4.540640030337e-03
1.099938712853e+01-j5.066827314851e-03
1.099938655623e+01-j5.653991194173e-03
1.099938584361e+01-j6.309197858327e-03
1.099938495626e+01-j7.040332328411e-03
1.099938385134e+01-j7.856193361642e-03
1.099938247549e+01-j8.766599314169e-03
1.099938076229e+01-j9.782506318485e-03
1.099937862901e+01-j1.091614009441e-02
1.099937597266e+01-j1.218114304693e-02
1.099937266499e+01-j1.359273844954e-02
1.099936854629e+01-j1.516791357044e-02
1.099936341769e+01-j1.692562406104e-02
1.099935703159e+01-j1.888702198739e-02
1.099934907965e+01-j2.107571026422e-02
1.099933917792e+01-j2.351802654341e-02
1.099932684835e+01-j2.624335993791e-02
1.099931149564e+01-j2.928450438999e-02
1.099929237856e+01-j3.267805288121e-02
1.099926857411e+01-j3.646483719993e-02
1.099923893302e+01-j4.069041846749e-02
1.099920202425e+01-j4.540563425363e-02
1.099915606590e+01-j5.066720872837e-02
1.099909883924e+01-j5.653843300343e-02
1.099902758160e+01-j6.308992361994e-02
1.099893885308e+01-j7.040046793463e-02
1.099882837059e+01-j7.855796612380e-02
1.099869080122e+01-j8.766048044235e-02
1.099851950505e+01-j9.781740344646e-02
1.099830621502e+01-j1.091507579349e-01
1.099804063846e+01-j1.217966424502e-01
1.099770996122e+01-j1.359068372281e-01
1.099729823069e+01-j1.516505864519e-01
1.099678558812e+01-j1.692165734237e-01
1.099614731389e+01-j1.888151057287e-01
1.099535264025e+01-j2.106805273877e-01
1.099436327549e+01-j2.350738741318e-01
1.099313157024e+01-j2.622857858708e-01
1.099159824016e+01-j2.926396866228e-01
1.098968953984e+01-j3.264952358543e-01
1.098731375820e+01-j3.642520452729e-01
1.098435687732e+01-j4.063536401534e-01
1.098067720181e+01-j4.532916222339e-01
1.097609872533e+01-j5.056099593501e-01
1.097040295410e+01-j5.639092815781e-01
1.096331885425e+01-j6.288509997837e-01
1.095451053258e+01-j7.011609736096e-01
1.094356220138e+01-j7.816323336676e-01
1.092995992439e+01-j8.711268963767e-01
1.091306960258e+01-j9.705743865477e-01
1.089211065389e+01-j1.080968387443e+00
1.086612489783e+01-j1.203357554774e+00
</dep>
<indep time 63>
0.000000000000e+00
1.000000000000e-07
1.115772461976e-07
1.347317385927e-07
1.810407233829e-07
2.736586929633e-07
4.588946321242e-07
7.700263585863e-07
1.281731352535e-06
2.269520102697e-06
4.245097603021e-06
8.196252603670e-06
1.609856260497e-05
3.190318260756e-05
5.190318260756e-05
7.190318260756e-05
9.190318260756e-05
1.119031826076e-04
1.319031826076e-04
1.519031826076e-04
1.719031826076e-04
1.919031826076e-04
2.119031826076e-04
2.319031826076e-04
2.519031826076e-04
2.719031826076e-04
2.919031826076e-04
3.119031826076e-04
3.319031826076e-04
3.519031826076e-04
3.719031826076e-04
3.919031826076e-04
4.119031826076e-04
4.319031826076e-04
4.519031826076e-04
4.719031826076e-04
4.919031826076e-04
5.119031826076e-04
5.319031826076e-04
5.519031826076e-04
5.719031826076e-04
5.919031826076e-04
6.119031826076e-04
6.319031826076e-04
6.519031826076e-04
6.719031826076e-04
6.919031826076e-04
7.119031826076e-04
7.319031826076e-04
7.519031826076e-04
7.719031826076e-04
7.919031826076e-04
8.119031826076e-04
8.319031826076e-04
8.519031826076e-04
8.719031826076e-04
8.919031826076e-04
9.119031826076e-04
9.319031826076e-04
9.519031826076e-04
9.719031826076e-04
9.919031826076e-04
1.000000000000e-03
</indep>
<dep tran.v(vin) time>
0.000000000000e+00
1.256636730702e-03
1.402120568433e-03
1.693088151785e-03
2.275022863833e-03
3.438889779552e-03
5.766608059493e-03
9.676285599211e-03
1.610601479603e-02
2.851576471893e-02
5.332017215822e-02
1.028151383971e-01
2.009234502299e-01
3.902537836017e-01
6.069638449500e-01
7.855361356633e-01
9.147503019730e-01
9.864873425934e-01
9.962397554321e-01
9.433947605234e-01
8.312728032478e-01
6.669189185366e-01
4.606600654176e-01
2.254562461992e-01
-2.391381813803e-02
-2.717812893327e-01
-5.025717425770e-01
-7.017837649056e-01
-8.569001323050e-01
-9.581743129335e-01
-9.992428775617e-01
-9.775253372345e-01
-8.943862848821e-01
-7.550496529280e-01
-5.682704744019e-01
-3.457847720166e-01
-1.015721406981e-01
1.490226417767e-01
3.902537836017e-01
6.069638449500e-01
7.855361356633e-01
9.147503019730e-01
9.864873425934e-01
9.962397554321e-01
9.433947605234e-01
8.312728032478e-01
6.669189185366e-01
4.606600654176e-01
2.254562461992e-01
-2.391381813803e-02
-2.717812893327e-01
-5.025717425770e-01
-7.017837649056e-01
-8.569001323050e-01
-9.581743129335e-01
-9.992428775617e-01
-9.775253372345e-01
-8.943862848821e-01
-7.550496529279e-01
-5.682704744019e-01
-3.457847720166e-01
-1.015721406981e-01
-4.898587196589e-16
</dep>
<dep tran.v(vout) time>
0.000000000000e+00
5.003443766714e-03
5.645633700426e-03
7.048113957185e-03
1.047939643475e-02
1.919564548593e-02
4.085013659780e-02
8.218279908695e-02
1.527758509267e-01
2.893114641671e-01
5.621503233511e-01
1.106663140679e+00
2.186122979099e+00
4.269986804338e+00
6.656730841654e+00
8.625223214669e+00
1.005174640263e+01
1.084669557666e+01
1.096009328718e+01
1.038484124294e+01
9.157058673519e+00
7.353916745543e+00
5.088689294024e+00
2.503732256052e+00
-2.385545668713e-01
-2.965841433583e+00
-5.506783900361e+00
-7.701704914864e+00
-9.412709106687e+00
-1.053226887911e+01
-1.099005642983e+01
-1.075728966014e+01
-9.848611175016e+00
-8.321100162120e+00
-6.270751610720e+00
-3.826381155623e+00
-1.141592357438e+00
1.614933893015e+00
4.269981144381e+00
6.656736305549e+00
8.625217940046e+00
1.005175149453e+01
1.084669066114e+01
1.096009803242e+01
1.038483666207e+01
9.157063095707e+00
7.353912476541e+00
5.088693415146e+00
2.503728277687e+00
-2.385507263181e-01
-2.965845141098e+00
-5.506780321275e+00
-7.701708369969e+00
-9.412705771269e+00
-1.053227209899e+01
-1.099005332149e+01
-1.075729266080e+01
-9.848608278292e+00
-8.321102958499e+00
-6.270748911207e+00
-3.826383761622e+00
-1.141589841711e+00
-2.428546810973e-02
</dep>
