<Qucs Dataset 0.0.21>
<indep frequency 190>
1.000000000000e-01
1.115883992508e-01
1.245197084735e-01
1.389495494373e-01
1.550515779833e-01
1.730195738846e-01
1.930697728883e-01
2.154434690032e-01
2.404099183510e-01
2.682695795280e-01
2.993577294720e-01
3.340484983513e-01
3.727593720315e-01
4.159562163072e-01
4.641588833613e-01
5.179474679231e-01
5.779692884153e-01
6.449466771038e-01
7.196856730012e-01
8.030857221392e-01
8.961505019466e-01
1.000000000000e+00
1.115883992508e+00
1.245197084735e+00
1.389495494373e+00
1.550515779833e+00
1.730195738846e+00
1.930697728883e+00
2.154434690032e+00
2.404099183510e+00
2.682695795280e+00
2.993577294720e+00
3.340484983513e+00
3.727593720315e+00
4.159562163072e+00
4.641588833613e+00
5.179474679231e+00
5.779692884153e+00
6.449466771038e+00
7.196856730011e+00
8.030857221391e+00
8.961505019466e+00
1.000000000000e+01
1.115883992508e+01
1.245197084735e+01
1.389495494373e+01
1.550515779833e+01
1.730195738846e+01
1.930697728883e+01
2.154434690032e+01
2.404099183510e+01
2.682695795280e+01
2.993577294720e+01
3.340484983513e+01
3.727593720315e+01
4.159562163072e+01
4.641588833613e+01
5.179474679231e+01
5.779692884153e+01
6.449466771038e+01
7.196856730011e+01
8.030857221391e+01
8.961505019466e+01
1.000000000000e+02
1.115883992508e+02
1.245197084735e+02
1.389495494373e+02
1.550515779833e+02
1.730195738846e+02
1.930697728883e+02
2.154434690032e+02
2.404099183510e+02
2.682695795280e+02
2.993577294720e+02
3.340484983513e+02
3.727593720315e+02
4.159562163072e+02
4.641588833613e+02
5.179474679231e+02
5.779692884153e+02
6.449466771038e+02
7.196856730011e+02
8.030857221391e+02
8.961505019466e+02
1.000000000000e+03
1.115883992508e+03
1.245197084735e+03
1.389495494373e+03
1.550515779833e+03
1.730195738846e+03
1.930697728883e+03
2.154434690032e+03
2.404099183510e+03
2.682695795280e+03
2.993577294720e+03
3.340484983513e+03
3.727593720315e+03
4.159562163072e+03
4.641588833613e+03
5.179474679231e+03
5.779692884153e+03
6.449466771038e+03
7.196856730011e+03
8.030857221391e+03
8.961505019466e+03
1.000000000000e+04
1.115883992508e+04
1.245197084735e+04
1.389495494373e+04
1.550515779833e+04
1.730195738846e+04
1.930697728883e+04
2.154434690032e+04
2.404099183510e+04
2.682695795280e+04
2.993577294720e+04
3.340484983513e+04
3.727593720315e+04
4.159562163072e+04
4.641588833613e+04
5.179474679231e+04
5.779692884153e+04
6.449466771038e+04
7.196856730011e+04
8.030857221391e+04
8.961505019466e+04
1.000000000000e+05
1.115883992508e+05
1.245197084735e+05
1.389495494373e+05
1.550515779833e+05
1.730195738846e+05
1.930697728883e+05
2.154434690032e+05
2.404099183510e+05
2.682695795280e+05
2.993577294720e+05
3.340484983513e+05
3.727593720315e+05
4.159562163072e+05
4.641588833613e+05
5.179474679231e+05
5.779692884153e+05
6.449466771038e+05
7.196856730011e+05
8.030857221391e+05
8.961505019466e+05
1.000000000000e+06
1.115883992508e+06
1.245197084735e+06
1.389495494373e+06
1.550515779833e+06
1.730195738846e+06
1.930697728883e+06
2.154434690032e+06
2.404099183510e+06
2.682695795280e+06
2.993577294720e+06
3.340484983513e+06
3.727593720315e+06
4.159562163072e+06
4.641588833613e+06
5.179474679231e+06
5.779692884153e+06
6.449466771038e+06
7.196856730011e+06
8.030857221391e+06
8.961505019466e+06
1.000000000000e+07
1.115883992508e+07
1.245197084735e+07
1.389495494373e+07
1.550515779833e+07
1.730195738846e+07
1.930697728883e+07
2.154434690032e+07
2.404099183510e+07
2.682695795280e+07
2.993577294720e+07
3.340484983513e+07
3.727593720315e+07
4.159562163072e+07
4.641588833613e+07
5.179474679231e+07
5.779692884153e+07
6.449466771038e+07
7.196856730011e+07
8.030857221391e+07
8.961505019466e+07
1.000000000000e+08
</indep>
<dep ac.v(vout) frequency>
9.999999999996e-01-j6.283185307177e-07
9.999999999995e-01-j7.011305906238e-07
9.999999999994e-01-j7.823804027345e-07
9.999999999992e-01-j8.730457674631e-07
9.999999999991e-01-j9.742177966385e-07
9.999999999988e-01-j1.087114044485e-06
9.999999999985e-01-j1.213093160271e-06
9.999999999982e-01-j1.353671238966e-06
9.999999999977e-01-j1.510540066680e-06
9.999999999972e-01-j1.685587480449e-06
9.999999999965e-01-j1.880920087403e-06
9.999999999956e-01-j2.098888616717e-06
9.999999999945e-01-j2.342116209449e-06
9.999999999932e-01-j2.613529986713e-06
9.999999999915e-01-j2.916396276108e-06
9.999999999894e-01-j3.254359920311e-06
9.999999999868e-01-j3.631488140924e-06
9.999999999836e-01-j4.052319485426e-06
9.999999999796e-01-j4.521918446296e-06
9.999999999745e-01-j5.045936409622e-06
9.999999999683e-01-j5.630679666674e-06
9.999999999605e-01-j6.283185306932e-06
9.999999999508e-01-j7.011305905897e-06
9.999999999388e-01-j7.823804026871e-06
9.999999999238e-01-j8.730457673972e-06
9.999999999051e-01-j9.742177965470e-06
9.999999998818e-01-j1.087114044358e-05
9.999999998528e-01-j1.213093160094e-05
9.999999998168e-01-j1.353671238721e-05
9.999999997718e-01-j1.510540066339e-05
9.999999997159e-01-j1.685587479974e-05
9.999999996462e-01-j1.880920086744e-05
9.999999995595e-01-j2.098888615802e-05
9.999999994514e-01-j2.342116208177e-05
9.999999993169e-01-j2.613529984946e-05
9.999999991495e-01-j2.916396273652e-05
9.999999989409e-01-j3.254359916899e-05
9.999999986812e-01-j3.631488136183e-05
9.999999983579e-01-j4.052319478838e-05
9.999999979552e-01-j4.521918437142e-05
9.999999974539e-01-j5.045936396903e-05
9.999999968295e-01-j5.630679649001e-05
9.999999960522e-01-j6.283185282375e-05
9.999999950842e-01-j7.011305871775e-05
9.999999938788e-01-j7.823803979459e-05
9.999999923779e-01-j8.730457608093e-05
9.999999905090e-01-j9.742177873931e-05
9.999999881818e-01-j1.087114031638e-04
9.999999852840e-01-j1.213093142421e-04
9.999999816757e-01-j1.353671214164e-04
9.999999771827e-01-j1.510540032217e-04
9.999999715879e-01-j1.685587432562e-04
9.999999646214e-01-j1.880920020865e-04
9.999999559467e-01-j2.098888524263e-04
9.999999451449e-01-j2.342116080985e-04
9.999999316946e-01-j2.613529808213e-04
9.999999149463e-01-j2.916396028082e-04
9.999998940914e-01-j3.254359575681e-04
9.999998681230e-01-j3.631487662062e-04
9.999998357871e-01-j4.052318820049e-04
9.999997955226e-01-j4.521917521758e-04
9.999997453853e-01-j5.045935124981e-04
9.999996829546e-01-j5.630677881671e-04
9.999996052160e-01-j6.283182826678e-04
9.999995084161e-01-j7.011302459597e-04
9.999993878813e-01-j7.823799238253e-04
9.999992377917e-01-j8.730451020210e-04
9.999990509006e-01-j9.742168720099e-04
9.999988181845e-01-j1.087112759718e-03
9.999985284072e-01-j1.213091375093e-03
9.999981675775e-01-j1.353668758471e-03
9.999977182739e-01-j1.510536620045e-03
9.999971588029e-01-j1.685582691367e-03
9.999964621521e-01-j1.880913433000e-03
9.999955946860e-01-j2.098879370463e-03
9.999945145218e-01-j2.342103361834e-03
9.999931695077e-01-j2.613512135035e-03
9.999914947051e-01-j2.916371471322e-03
9.999894092537e-01-j3.254325454245e-03
9.999868124678e-01-j3.631440250605e-03
9.999835789764e-01-j4.052252942259e-03
9.999795526717e-01-j4.521825985237e-03
9.999745391740e-01-j5.045807936042e-03
9.999682964516e-01-j5.630501154327e-03
9.999605231409e-01-j6.282937266758e-03
9.999508440059e-01-j7.010961258530e-03
9.999387918372e-01-j7.823325146679e-03
9.999237849180e-01-j8.729792282090e-03
9.999050989755e-01-j9.741253423725e-03
9.998818322707e-01-j1.086985582688e-02
9.998528621512e-01-j1.212914668354e-02
9.998167909894e-01-j1.353423234200e-02
9.997718789218e-01-j1.510195480655e-02
9.997159601861e-01-j1.685108706499e-02
9.996463390828e-01-j1.880254879486e-02
9.995596606416e-01-j2.097964393460e-02
9.994517499092e-01-j2.340832144037e-02
9.993174123450e-01-j2.611746023426e-02
9.991501860740e-01-j2.913917881963e-02
9.989420346270e-01-j3.250916920239e-02
9.986829662536e-01-j3.626705348541e-02
9.983605628466e-01-j4.045675962371e-02
9.979593979278e-01-j4.512691010236e-02
9.974603189772e-01-j5.033121340808e-02
9.968395646680e-01-j5.612884267890e-02
9.960676824072e-01-j6.258477827057e-02
9.951082062295e-01-j6.977008043687e-02
9.939160500734e-01-j7.776204395412e-02
9.924355676566e-01-j8.664416718231e-02
9.905982290845e-01-j9.650584240936e-02
9.883198683183e-01-j1.074416409294e-01
9.854974683775e-01-j1.195500238355e-01
9.820054780351e-01-j1.329312572126e-01
9.776917024750e-01-j1.476842489452e-01
9.723728912939e-01-j1.639019571897e-01
9.658302734633e-01-j1.816649562385e-01
9.578054752483e-01-j2.010327009037e-01
9.479975171470e-01-j2.220320351439e-01
9.360619252133e-01-j2.446425910982e-01
9.216133961312e-01-j2.687789876511e-01
9.042338703610e-01-j2.942702466322e-01
8.834881757894e-01-j3.208376833068e-01
8.589494004114e-01-j3.480737392339e-01
8.302355416281e-01-j3.754257410535e-01
7.970574281611e-01-j4.021901097420e-01
7.592751908298e-01-j4.275235378551e-01
7.169568003249e-01-j4.504772433684e-01
6.704281686663e-01-j4.700576978681e-01
6.203015666521e-01-j4.853117895344e-01
5.674696076846e-01-j4.954269391534e-01
5.130572255085e-01-j4.998294797849e-01
4.583335930002e-01-j4.982608860103e-01
4.045970289343e-01-j4.908138884667e-01
3.530542589343e-01-j4.779193961147e-01
3.047172089062e-01-j4.602875530607e-01
2.603349625548e-01-j4.388173536067e-01
2.203681729523e-01-j4.144949231317e-01
1.850024635477e-01-j3.882995648066e-01
1.541899181664e-01-j3.611307066732e-01
1.277051300147e-01-j3.337611867527e-01
1.052037206780e-01-j3.068157392207e-01
8.627488643430e-02-j2.807695325441e-01
7.048355750263e-02-j2.559602032043e-01
5.740101999330e-02-j2.326072718060e-01
4.662494509593e-02-j2.108341992911e-01
3.779078937573e-02-j1.906899200642e-01
3.057678190508e-02-j1.721680641507e-01
2.470452303186e-02-j1.552230961346e-01
1.993683591275e-02-j1.397832553868e-01
1.607409270518e-02-j1.257605512428e-01
1.294986349352e-02-j1.130582351225e-01
1.042643802800e-02-j1.015762148244e-01
8.390550273614e-03-j9.121485043413e-02
6.749482750269e-03-j8.187751359728e-02
5.427626922083e-03-j7.347222460275e-02
4.363513309917e-03-j6.591261686135e-02
3.507288833655e-03-j5.911842148343e-02
2.818600210382e-03-j5.301561754083e-02
2.264834619832e-03-j4.753635602333e-02
1.819667878532e-03-j4.261873634148e-02
1.461873108590e-03-j3.820649206096e-02
1.174347473082e-03-j3.424862597382e-02
9.433198271959e-04-j3.069902237693e-02
7.577074311683e-04-j2.751605550614e-02
6.085948239540e-04-j2.466220663879e-02
4.888123934563e-04-j2.210369778793e-02
3.925960429837e-04-j1.981014667615e-02
3.153126528054e-04-j1.775424542853e-02
2.532388129652e-04-j1.591146388830e-02
2.033826169301e-04-j1.425977743309e-02
1.633402173906e-04-j1.277941850649e-02
1.311804157272e-04-j1.145265067247e-02
1.053518402694e-04-j1.026356376992e-02
8.460831394474e-05-j9.197888636962e-03
6.794886097107e-05-j8.242829849230e-03
5.456949022677e-05-j7.386914944515e-03
4.382444938166e-05-j6.619858669133e-03
3.519509330071e-05-j5.932440864106e-03
2.826487280649e-05-j5.316396702980e-03
2.269924212744e-05-j4.764318090960e-03
1.822951873832e-05-j4.269565132770e-03
1.463991877243e-05-j3.826186671506e-03
1.175714363302e-05-j3.428848990928e-03
9.442016044493e-06-j3.072771858246e-03
7.582762371927e-06-j2.753671162946e-03
6.089617288006e-06-j2.467707479538e-03
4.890490561636e-06-j2.211439948255e-03
3.927486926505e-06-j1.981784928127e-03
3.154111113885e-06-j1.775978931595e-03
2.533023174836e-06-j1.591545399487e-03
</dep>
<dep ac.vout_db frequency>
-1.714574235532e-12+j0.000000000000e+00
-2.135021010949e-12+j0.000000000000e+00
-2.659615152754e-12+j0.000000000000e+00
-3.311500520145e-12+j0.000000000000e+00
-4.122499919516e-12+j0.000000000000e+00
-5.132150776998e-12+j0.000000000000e+00
-6.391562448318e-12+j0.000000000000e+00
-7.959558908934e-12+j0.000000000000e+00
-9.910393373774e-12+j0.000000000000e+00
-1.234049858949e-11+j0.000000000000e+00
-1.536559385207e-11+j0.000000000000e+00
-1.913225693644e-11+j0.000000000000e+00
-2.382274573377e-11+j0.000000000000e+00
-2.966464152616e-11+j0.000000000000e+00
-3.693759927894e-11+j0.000000000000e+00
-4.599649149978e-11+j0.000000000000e+00
-5.727430122119e-11+j0.000000000000e+00
-7.131683778924e-11+j0.000000000000e+00
-8.880395206788e-11+j0.000000000000e+00
-1.105775019354e-10+j0.000000000000e+00
-1.376914973129e-10+j0.000000000000e+00
-1.714526019175e-10+j0.000000000000e+00
-2.134914934954e-10+j0.000000000000e+00
-2.658400100187e-10+j0.000000000000e+00
-3.310246894501e-10+j0.000000000000e+00
-4.121882750035e-10+j0.000000000000e+00
-5.132575081234e-10+j0.000000000000e+00
-6.391051354993e-10+j0.000000000000e+00
-7.958112418096e-10+j0.000000000000e+00
-9.909448333416e-10+j0.000000000000e+00
-1.233919674828e-09+j0.000000000000e+00
-1.536473560197e-09+j0.000000000000e+00
-1.913211228940e-09+j0.000000000000e+00
-2.382325683056e-09+j0.000000000000e+00
-2.966466081773e-09+j0.000000000000e+00
-3.693833217559e-09+j0.000000000000e+00
-4.599550789782e-09+j0.000000000000e+00
-5.727348156154e-09+j0.000000000000e+00
-7.131677995858e-09+j0.000000000000e+00
-8.880345066254e-09+j0.000000000000e+00
-1.105777720168e-08+j0.000000000000e+00
-1.376911406198e-08+j0.000000000000e+00
-1.714526020851e-08+j0.000000000000e+00
-2.134922459306e-08+j0.000000000000e+00
-2.658399429185e-08+j0.000000000000e+00
-3.310231278640e-08+j0.000000000000e+00
-4.121890377904e-08+j0.000000000000e+00
-5.132565742270e-08+j0.000000000000e+00
-6.391056103475e-08+j0.000000000000e+00
-7.958124026117e-08+j0.000000000000e+00
-9.909433056571e-08+j0.000000000000e+00
-1.233919712435e-07+j0.000000000000e+00
-1.536473197563e-07+j0.000000000000e+00
-1.913211963403e-07+j0.000000000000e+00
-2.382325937195e-07+j0.000000000000e+00
-2.966465292958e-07+j0.000000000000e+00
-3.693833912486e-07+j0.000000000000e+00
-4.599551161072e-07+j0.000000000000e+00
-5.727347610203e-07+j0.000000000000e+00
-7.131676443843e-07+j0.000000000000e+00
-8.880342526257e-07+j0.000000000000e+00
-1.105777635559e-06+j0.000000000000e+00
-1.376911044615e-06+j0.000000000000e+00
-1.714525553848e-06+j0.000000000000e+00
-2.134922117315e-06+j0.000000000000e+00
-2.658398637129e-06+j0.000000000000e+00
-3.310229984092e-06+j0.000000000000e+00
-4.121888341300e-06+j0.000000000000e+00
-5.132562749776e-06+j0.000000000000e+00
-6.391051246016e-06+j0.000000000000e+00
-7.958116944787e-06+j0.000000000000e+00
-9.909421793358e-06+j0.000000000000e+00
-1.233917967566e-05+j0.000000000000e+00
-1.536470521005e-05+j0.000000000000e+00
-1.913207783495e-05+j0.000000000000e+00
-2.382319467640e-05+j0.000000000000e+00
-2.966455261210e-05+j0.000000000000e+00
-3.693818350144e-05+j0.000000000000e+00
-4.599527044937e-05+j0.000000000000e+00
-5.727310231175e-05+j0.000000000000e+00
-7.131618473007e-05+j0.000000000000e+00
-8.880252654086e-05+j0.000000000000e+00
-1.105763699717e-04+j0.000000000000e+00
-1.376889437377e-04+j0.000000000000e+00
-1.714492049502e-04+j0.000000000000e+00
-2.134870169425e-04+j0.000000000000e+00
-2.658318090910e-04+j0.000000000000e+00
-3.310105097787e-04+j0.000000000000e+00
-4.121694705027e-04+j0.000000000000e+00
-5.132262517680e-04+j0.000000000000e+00
-6.390585742110e-04+j0.000000000000e+00
-7.957395190622e-04+j0.000000000000e+00
-9.908302736357e-04+j0.000000000000e+00
-1.233744462692e-03+j0.000000000000e+00
-1.536201511400e-03+j0.000000000000e+00
-1.912790704493e-03+j0.000000000000e+00
-2.381672827297e-03+j0.000000000000e+00
-2.965452725688e-03+j0.000000000000e+00
-3.692264078043e-03+j0.000000000000e+00
-4.597117459774e-03+j0.000000000000e+00
-5.723574783878e-03+j0.000000000000e+00
-7.125827862443e-03+j0.000000000000e+00
-8.871276651464e-03+j0.000000000000e+00
-1.104372425207e-02+j0.000000000000e+00
-1.374733148779e-02+j0.000000000000e+00
-1.711150434458e-02+j0.000000000000e+00
-2.129692306216e-02+j0.000000000000e+00
-2.650296215948e-02+j0.000000000000e+00
-3.297679546748e-02+j0.000000000000e+00
-4.102452751213e-02+j0.000000000000e+00
-5.102473870875e-02+j0.000000000000e+00
-6.344487032536e-02+j0.000000000000e+00
-7.886089530976e-02+j0.000000000000e+00
-9.798070592633e-02+j0.000000000000e+00
-1.216715732106e-01+j0.000000000000e+00
-1.509918598062e-01+j0.000000000000e+00
-1.872268466306e-01+j0.000000000000e+00
-2.319280009947e-01+j0.000000000000e+00
-2.869541954306e-01+j0.000000000000e+00
-3.545122117828e-01+j0.000000000000e+00
-4.371922940149e-01+j0.000000000000e+00
-5.379925852142e-01+j0.000000000000e+00
-6.603241913658e-01+j0.000000000000e+00
-8.079867880794e-01+j0.000000000000e+00
-9.851038646466e-01+j0.000000000000e+00
-1.196007903785e+00+j0.000000000000e+00
-1.445070116205e+00+j0.000000000000e+00
-1.736477467057e+00+j0.000000000000e+00
-2.073971219666e+00+j0.000000000000e+00
-2.460573932860e+00+j0.000000000000e+00
-2.898341917371e+00+j0.000000000000e+00
-3.388183105057e+00+j0.000000000000e+00
-3.929773106957e+00+j0.000000000000e+00
-4.521585451931e+00+j0.000000000000e+00
-5.161030183012e+00+j0.000000000000e+00
-5.844675029434e+00+j0.000000000000e+00
-6.568511290094e+00+j0.000000000000e+00
-7.328224883643e+00+j0.000000000000e+00
-8.119440220557e+00+j0.000000000000e+00
-8.937916564381e+00+j0.000000000000e+00
-9.779689004735e+00+j0.000000000000e+00
-1.064115603708e+01+j0.000000000000e+00
-1.151912183983e+01+j0.000000000000e+00
-1.241080390293e+01+j0.000000000000e+00
-1.331381666595e+01+j0.000000000000e+00
-1.422614036425e+01+j0.000000000000e+00
-1.514608224431e+01+j0.000000000000e+00
-1.607223526581e+01+j0.000000000000e+00
-1.700343765516e+01+j0.000000000000e+00
-1.793873531266e+01+j0.000000000000e+00
-1.887734809523e+01+j0.000000000000e+00
-1.981864033759e+01+j0.000000000000e+00
-2.076209556101e+01+j0.000000000000e+00
-2.170729508252e+01+j0.000000000000e+00
-2.265390012016e+01+j0.000000000000e+00
-2.360163694978e+01+j0.000000000000e+00
-2.455028467453e+01+j0.000000000000e+00
-2.549966519992e+01+j0.000000000000e+00
-2.644963505049e+01+j0.000000000000e+00
-2.740007871181e+01+j0.000000000000e+00
-2.835090322748e+01+j0.000000000000e+00
-2.930203382378e+01+j0.000000000000e+00
-3.025341037234e+01+j0.000000000000e+00
-3.120498453414e+01+j0.000000000000e+00
-3.215671745599e+01+j0.000000000000e+00
-3.310857791429e+01+j0.000000000000e+00
-3.406054082013e+01+j0.000000000000e+00
-3.501258601617e+01+j0.000000000000e+00
-3.596469730863e+01+j0.000000000000e+00
-3.691686168886e+01+j0.000000000000e+00
-3.786906870742e+01+j0.000000000000e+00
-3.882130997098e+01+j0.000000000000e+00
-3.977357873802e+01+j0.000000000000e+00
-4.072586959385e+01+j0.000000000000e+00
-4.167817818963e+01+j0.000000000000e+00
-4.263050103258e+01+j0.000000000000e+00
-4.358283531755e+01+j0.000000000000e+00
-4.453517879163e+01+j0.000000000000e+00
-4.548752964549e+01+j0.000000000000e+00
-4.643988642603e+01+j0.000000000000e+00
-4.739224796625e+01+j0.000000000000e+00
-4.834461332894e+01+j0.000000000000e+00
-4.929698176142e+01+j0.000000000000e+00
-5.024935265922e+01+j0.000000000000e+00
-5.120172553690e+01+j0.000000000000e+00
-5.215410000459e+01+j0.000000000000e+00
-5.310647574920e+01+j0.000000000000e+00
-5.405885251929e+01+j0.000000000000e+00
-5.501123011293e+01+j0.000000000000e+00
-5.596360836796e+01+j0.000000000000e+00
</dep>
