<Qucs Dataset 0.0.21>
<indep frequency 100>
1.000000000000e+00
1.232846739442e+00
1.519911082953e+00
1.873817422860e+00
2.310129700083e+00
2.848035868436e+00
3.511191734215e+00
4.328761281083e+00
5.336699231206e+00
6.579332246576e+00
8.111308307897e+00
1.000000000000e+01
1.232846739442e+01
1.519911082953e+01
1.873817422860e+01
2.310129700083e+01
2.848035868436e+01
3.511191734215e+01
4.328761281083e+01
5.336699231206e+01
6.579332246576e+01
8.111308307897e+01
1.000000000000e+02
1.232846739442e+02
1.519911082953e+02
1.873817422860e+02
2.310129700083e+02
2.848035868436e+02
3.511191734215e+02
4.328761281083e+02
5.336699231206e+02
6.579332246576e+02
8.111308307897e+02
1.000000000000e+03
1.232846739442e+03
1.519911082953e+03
1.873817422860e+03
2.310129700083e+03
2.848035868436e+03
3.511191734215e+03
4.328761281083e+03
5.336699231206e+03
6.579332246576e+03
8.111308307897e+03
1.000000000000e+04
1.232846739442e+04
1.519911082953e+04
1.873817422860e+04
2.310129700083e+04
2.848035868436e+04
3.511191734215e+04
4.328761281083e+04
5.336699231206e+04
6.579332246576e+04
8.111308307897e+04
1.000000000000e+05
1.232846739442e+05
1.519911082953e+05
1.873817422860e+05
2.310129700083e+05
2.848035868436e+05
3.511191734215e+05
4.328761281083e+05
5.336699231206e+05
6.579332246576e+05
8.111308307897e+05
1.000000000000e+06
1.232846739442e+06
1.519911082953e+06
1.873817422860e+06
2.310129700083e+06
2.848035868436e+06
3.511191734215e+06
4.328761281083e+06
5.336699231206e+06
6.579332246576e+06
8.111308307897e+06
1.000000000000e+07
1.232846739442e+07
1.519911082953e+07
1.873817422860e+07
2.310129700083e+07
2.848035868436e+07
3.511191734215e+07
4.328761281083e+07
5.336699231206e+07
6.579332246576e+07
8.111308307897e+07
1.000000000000e+08
1.232846739442e+08
1.519911082953e+08
1.873817422860e+08
2.310129700083e+08
2.848035868436e+08
3.511191734215e+08
4.328761281083e+08
5.336699231206e+08
6.579332246576e+08
8.111308307897e+08
1.000000000000e+09
</indep>
<dep ac.v(va) frequency>
1.999920967170e+05-j1.257845297343e+03
1.999879879591e+05-j1.550698646273e+03
1.999817433355e+05-j1.911714134489e+03
1.999722528088e+05-j2.356738800335e+03
1.999578297752e+05-j2.905288395767e+03
1.999359120265e+05-j3.581383113508e+03
1.999026081881e+05-j4.414561762605e+03
1.998520105355e+05-j5.441101899427e+03
1.997751555854e+05-j6.705467676208e+03
1.996584559134e+05-j8.261989694199e+03
1.994813433924e+05-j1.017674054216e+04
1.992127484442e+05-j1.252948507721e+04
1.988058889422e+05-j1.541541865516e+04
1.981906681985e+05-j1.894609576497e+04
1.972628377834e+05-j2.324839388436e+04
1.958691202707e+05-j2.845940887687e+04
1.937880698502e+05-j3.471369093776e+04
1.907083128732e+05-j4.211722107621e+04
1.862102104438e+05-j5.070066636824e+04
1.797653769906e+05-j6.034510380836e+04
1.707806038778e+05-j7.068203440114e+04
1.587213946216e+05-j8.099415734716e+04
1.433346381735e+05-j9.018559857835e+04
1.249219686722e+05-j9.692219074985e+04
1.045067770340e+05-j9.999393766054e+04
8.370015729655e+04-j9.878043855397e+04
6.423810226349e+04-j9.353202107049e+04
4.744122371930e+04-j8.525307421444e+04
3.392224238211e+04-j7.527911599507e+04
2.363997902454e+04-j6.484149061278e+04
1.615104123268e+04-j5.482810826222e+04
1.086696288139e+04-j4.575071166483e+04
7.221536798395e+03-j3.782474612750e+04
4.745462913269e+03-j3.107446689318e+04
3.081387178346e+03-j2.541975238364e+04
1.970982570040e+03-j2.073436513331e+04
1.233560300633e+03-j1.688011057791e+04
7.453910580302e+02-j1.372461656711e+04
4.229107248722e+02-j1.114925578374e+04
2.101891098165e+02-j9.051637738858e+03
7.001363398052e+01-j7.345355935924e+03
-2.227626750620e+01-j5.958504977438e+03
-8.297722194666e+01-j4.831772478834e+03
-1.228341395815e+02-j3.916506486090e+03
-1.489138500399e+02-j3.172939414244e+03
-1.658459703875e+02-j2.568635202076e+03
-1.766399316835e+02-j2.077170058091e+03
-1.832187676026e+02-j1.677031921379e+03
-1.867634591549e+02-j1.350714796411e+03
-1.879305210229e+02-j1.083983549192e+03
-1.869861520322e+02-j8.652883189380e+02
-1.838905453932e+02-j6.853125595064e+02
-1.783649859177e+02-j5.366414330977e+02
-1.699802938568e+02-j4.135318619899e+02
-1.583097520449e+02-j3.117437522761e+02
-1.431712610793e+02-j2.283521161407e+02
-1.249136448317e+02-j1.614299713930e+02
-1.045921671246e+02-j1.095421429378e+02
-8.383983012619e+01-j7.116304737952e+01
-6.440771677089e+01-j4.430090623620e+01
-4.762654559419e+01-j2.653797174942e+01
-3.411543071561e+01-j1.539177873594e+01
-2.383695500106e+01-j8.700506009311e+00
-1.634978489426e+01-j4.821612285010e+00
-1.106651204045e+01-j2.631455875901e+00
-7.421446056110e+00-j1.418458126794e+00
-4.945529930334e+00-j7.560820599076e-01
-3.281520673660e+00-j3.982422098394e-01
-2.171140704845e+00-j2.066362200125e-01
-1.433722409032e+00-j1.049125871619e-01
-9.455445990728e-01-j5.143211879356e-02
-6.230448908020e-01-j2.367921248883e-02
-4.102910748011e-01-j9.555079938452e-03
-2.700654793705e-01-j2.591456019813e-03
-1.776989300567e-01+j6.530811507675e-04
-1.168813656551e-01+j1.999571151026e-03
-7.684737434763e-02+j2.404749162938e-03
-5.049908576168e-02+j2.366060875543e-03
-3.316011319421e-02+j2.137999818185e-03
-2.175093430665e-02+j1.847350524851e-03
-1.424426933641e-02+j1.554392685948e-03
-9.305860860769e-03+j1.285280362178e-03
-6.057748825833e-03+j1.049082118270e-03
-3.922360946945e-03+j8.466858673906e-04
-2.519865199385e-03+j6.754131446618e-04
-1.600591234791e-03+j5.313916762678e-04
-1.000510180043e-03+j4.107686937122e-04
-6.118427218981e-04+j3.103124027282e-04
-3.635772140466e-04+j2.276352083275e-04
-2.085239200068e-04+j1.610961717316e-04
-1.148099268046e-04+j1.094122734468e-04
-6.052709294490e-05+j7.113915657391e-05
-3.058527096468e-05+j4.432897228783e-05
-1.487768420751e-05+j2.658828759929e-05
-7.010892300008e-06+j1.544841290436e-05
-3.222742698080e-06+j8.755397251797e-06
-1.454287676558e-06+j4.871130245254e-06
-6.476199191671e-07+j2.674372721665e-06
-2.857425817012e-07+j1.454770524472e-06
-1.252798522991e-07+j7.863494326228e-07
</dep>
<dep ac.v(vab) frequency>
1.999920967170e+04-j1.257845297343e+02
1.999879879591e+04-j1.550698646273e+02
1.999817433355e+04-j1.911714134489e+02
1.999722528088e+04-j2.356738800335e+02
1.999578297752e+04-j2.905288395767e+02
1.999359120265e+04-j3.581383113508e+02
1.999026081881e+04-j4.414561762605e+02
1.998520105355e+04-j5.441101899427e+02
1.997751555854e+04-j6.705467676208e+02
1.996584559134e+04-j8.261989694199e+02
1.994813433924e+04-j1.017674054216e+03
1.992127484442e+04-j1.252948507721e+03
1.988058889422e+04-j1.541541865516e+03
1.981906681985e+04-j1.894609576497e+03
1.972628377834e+04-j2.324839388436e+03
1.958691202707e+04-j2.845940887687e+03
1.937880698502e+04-j3.471369093776e+03
1.907083128732e+04-j4.211722107621e+03
1.862102104438e+04-j5.070066636824e+03
1.797653769906e+04-j6.034510380836e+03
1.707806038778e+04-j7.068203440114e+03
1.587213946216e+04-j8.099415734716e+03
1.433346381735e+04-j9.018559857835e+03
1.249219686722e+04-j9.692219074985e+03
1.045067770340e+04-j9.999393766054e+03
8.370015729655e+03-j9.878043855397e+03
6.423810226349e+03-j9.353202107049e+03
4.744122371930e+03-j8.525307421444e+03
3.392224238211e+03-j7.527911599507e+03
2.363997902454e+03-j6.484149061278e+03
1.615104123268e+03-j5.482810826222e+03
1.086696288139e+03-j4.575071166483e+03
7.221536798395e+02-j3.782474612750e+03
4.745462913269e+02-j3.107446689318e+03
3.081387178346e+02-j2.541975238364e+03
1.970982570040e+02-j2.073436513331e+03
1.233560300633e+02-j1.688011057791e+03
7.453910580302e+01-j1.372461656711e+03
4.229107248722e+01-j1.114925578374e+03
2.101891098165e+01-j9.051637738858e+02
7.001363398052e+00-j7.345355935924e+02
-2.227626750620e+00-j5.958504977438e+02
-8.297722194666e+00-j4.831772478834e+02
-1.228341395815e+01-j3.916506486090e+02
-1.489138500399e+01-j3.172939414244e+02
-1.658459703875e+01-j2.568635202076e+02
-1.766399316835e+01-j2.077170058091e+02
-1.832187676026e+01-j1.677031921379e+02
-1.867634591549e+01-j1.350714796411e+02
-1.879305210229e+01-j1.083983549192e+02
-1.869861520322e+01-j8.652883189380e+01
-1.838905453932e+01-j6.853125595064e+01
-1.783649859177e+01-j5.366414330977e+01
-1.699802938568e+01-j4.135318619899e+01
-1.583097520449e+01-j3.117437522761e+01
-1.431712610793e+01-j2.283521161407e+01
-1.249136448317e+01-j1.614299713930e+01
-1.045921671246e+01-j1.095421429378e+01
-8.383983012619e+00-j7.116304737952e+00
-6.440771677089e+00-j4.430090623620e+00
-4.762654559419e+00-j2.653797174942e+00
-3.411543071561e+00-j1.539177873594e+00
-2.383695500106e+00-j8.700506009311e-01
-1.634978489426e+00-j4.821612285010e-01
-1.106651204045e+00-j2.631455875901e-01
-7.421446056110e-01-j1.418458126794e-01
-4.945529930334e-01-j7.560820599076e-02
-3.281520673660e-01-j3.982422098394e-02
-2.171140704845e-01-j2.066362200125e-02
-1.433722409032e-01-j1.049125871619e-02
-9.455445990728e-02-j5.143211879356e-03
-6.230448908020e-02-j2.367921248883e-03
-4.102910748011e-02-j9.555079938452e-04
-2.700654793705e-02-j2.591456019813e-04
-1.776989300567e-02+j6.530811507675e-05
-1.168813656551e-02+j1.999571151026e-04
-7.684737434763e-03+j2.404749162938e-04
-5.049908576168e-03+j2.366060875543e-04
-3.316011319421e-03+j2.137999818185e-04
-2.175093430665e-03+j1.847350524851e-04
-1.424426933641e-03+j1.554392685948e-04
-9.305860860769e-04+j1.285280362178e-04
-6.057748825833e-04+j1.049082118270e-04
-3.922360946945e-04+j8.466858673906e-05
-2.519865199385e-04+j6.754131446618e-05
-1.600591234791e-04+j5.313916762678e-05
-1.000510180043e-04+j4.107686937122e-05
-6.118427218981e-05+j3.103124027282e-05
-3.635772140466e-05+j2.276352083275e-05
-2.085239200068e-05+j1.610961717316e-05
-1.148099268046e-05+j1.094122734468e-05
-6.052709294490e-06+j7.113915657391e-06
-3.058527096468e-06+j4.432897228783e-06
-1.487768420751e-06+j2.658828759929e-06
-7.010892300008e-07+j1.544841290436e-06
-3.222742698080e-07+j8.755397251797e-07
-1.454287676558e-07+j4.871130245254e-07
-6.476199191671e-08+j2.674372721665e-07
-2.857425817012e-08+j1.454770524472e-07
-1.252798522991e-08+j7.863494326228e-08
</dep>
<dep ac.av0_db frequency>
1.060204284639e+02+j0.000000000000e+00
1.060203393281e+02+j0.000000000000e+00
1.060202038532e+02+j0.000000000000e+00
1.060199979515e+02+j0.000000000000e+00
1.060196850178e+02+j0.000000000000e+00
1.060192094297e+02+j0.000000000000e+00
1.060184866777e+02+j0.000000000000e+00
1.060173883893e+02+j0.000000000000e+00
1.060157196202e+02+j0.000000000000e+00
1.060131844670e+02+j0.000000000000e+00
1.060093340912e+02+j0.000000000000e+00
1.060034883918e+02+j0.000000000000e+00
1.059946184894e+02+j0.000000000000e+00
1.059811716231e+02+j0.000000000000e+00
1.059608129827e+02+j0.000000000000e+00
1.059300512756e+02+j0.000000000000e+00
1.058837095398e+02+j0.000000000000e+00
1.058142077894e+02+j0.000000000000e+00
1.057106564702e+02+j0.000000000000e+00
1.055578492746e+02+j0.000000000000e+00
1.053354283893e+02+j0.000000000000e+00
1.050177839842e+02+j0.000000000000e+00
1.045755280825e+02+j0.000000000000e+00
1.039792974733e+02+j0.000000000000e+00
1.032057110534e+02+j0.000000000000e+00
1.022435929380e+02+j0.000000000000e+00
1.010973957207e+02+j0.000000000000e+00
9.978580211358e+01+j0.000000000000e+00
9.833635583139e+01+j0.000000000000e+00
9.677904972910e+01+j0.000000000000e+00
9.514146155223e+01+j0.000000000000e+00
9.344631659223e+01+j0.000000000000e+00
9.171100739947e+01+j0.000000000000e+00
8.994819319810e+01+j0.000000000000e+00
8.816677866823e+01+j0.000000000000e+00
8.637288215933e+01+j0.000000000000e+00
8.457063690646e+01+j0.000000000000e+00
8.276279563882e+01+j0.000000000000e+00
8.095116179413e+01+j0.000000000000e+00
7.913688446140e+01+j0.000000000000e+00
7.732065145915e+01+j0.000000000000e+00
7.550280682978e+01+j0.000000000000e+00
7.368341015017e+01+j0.000000000000e+00
7.186224683902e+01+j0.000000000000e+00
7.003879108316e+01+j0.000000000000e+00
6.821211558470e+01+j0.000000000000e+00
6.638073444700e+01+j0.000000000000e+00
6.454235686531e+01+j0.000000000000e+00
6.269352050556e+01+j0.000000000000e+00
6.082906746074e+01+j0.000000000000e+00
5.894143028309e+01+j0.000000000000e+00
5.701972766814e+01+j0.000000000000e+00
5.504875873624e+01+j0.000000000000e+00
5.300816924525e+01+j0.000000000000e+00
5.087235171497e+01+j0.000000000000e+00
4.861191971459e+01+j0.000000000000e+00
4.619751105017e+01+j0.000000000000e+00
4.360574528789e+01+j0.000000000000e+00
4.082544698323e+01+j0.000000000000e+00
3.786106901945e+01+j0.000000000000e+00
3.473129429929e+01+j0.000000000000e+00
3.146366666285e+01+j0.000000000000e+00
2.808817904762e+01+j0.000000000000e+00
2.463240925340e+01+j0.000000000000e+00
2.111908260737e+01+j0.000000000000e+00
1.756559168340e+01+j0.000000000000e+00
1.398459572110e+01+j0.000000000000e+00
1.038499941077e+01+j0.000000000000e+00
6.772921108576e+00+j0.000000000000e+00
3.152494054025e+00+j0.000000000000e+00
-4.735290207652e-01+j0.000000000000e+00
-4.103344676110e+00+j0.000000000000e+00
-7.735803821664e+00+j0.000000000000e+00
-1.137021863794e+01+j0.000000000000e+00
-1.500624508182e+01+j0.000000000000e+00
-1.864382357575e+01+j0.000000000000e+00
-2.228316870035e+01+j0.000000000000e+00
-2.592480626796e+01+j0.000000000000e+00
-2.956966357531e+01+j0.000000000000e+00
-3.321922651740e+01+j0.000000000000e+00
-3.687578589651e+01+j0.000000000000e+00
-4.054280404304e+01+j0.000000000000e+00
-4.422543885840e+01+j0.000000000000e+00
-4.793125778188e+01+j0.000000000000e+00
-5.167114210508e+01+j0.000000000000e+00
-5.546029268812e+01+j0.000000000000e+00
-5.931906374340e+01+j0.000000000000e+00
-6.327306270598e+01+j0.000000000000e+00
-6.735167593806e+01+j0.000000000000e+00
-7.158426552925e+01+j0.000000000000e+00
-7.599421175486e+01+j0.000000000000e+00
-8.059268981845e+01+j0.000000000000e+00
-8.537524647054e+01+j0.000000000000e+00
-9.032319825176e+01+j0.000000000000e+00
-9.540900047598e+01+j0.000000000000e+00
-1.006026589199e+02+j0.000000000000e+00
-1.058765938292e+02+j0.000000000000e+00
-1.112080769063e+02+j0.000000000000e+00
-1.165797110627e+02+j0.000000000000e+00
-1.219788301969e+02+j0.000000000000e+00
</dep>
<dep ac.bav0_db frequency>
8.602042846390e+01+j0.000000000000e+00
8.602033932815e+01+j0.000000000000e+00
8.602020385323e+01+j0.000000000000e+00
8.601999795148e+01+j0.000000000000e+00
8.601968501784e+01+j0.000000000000e+00
8.601920942970e+01+j0.000000000000e+00
8.601848667773e+01+j0.000000000000e+00
8.601738838930e+01+j0.000000000000e+00
8.601571962024e+01+j0.000000000000e+00
8.601318446698e+01+j0.000000000000e+00
8.600933409118e+01+j0.000000000000e+00
8.600348839179e+01+j0.000000000000e+00
8.599461848943e+01+j0.000000000000e+00
8.598117162312e+01+j0.000000000000e+00
8.596081298266e+01+j0.000000000000e+00
8.593005127561e+01+j0.000000000000e+00
8.588370953979e+01+j0.000000000000e+00
8.581420778937e+01+j0.000000000000e+00
8.571065647018e+01+j0.000000000000e+00
8.555784927463e+01+j0.000000000000e+00
8.533542838926e+01+j0.000000000000e+00
8.501778398417e+01+j0.000000000000e+00
8.457552808255e+01+j0.000000000000e+00
8.397929747331e+01+j0.000000000000e+00
8.320571105340e+01+j0.000000000000e+00
8.224359293800e+01+j0.000000000000e+00
8.109739572068e+01+j0.000000000000e+00
7.978580211358e+01+j0.000000000000e+00
7.833635583139e+01+j0.000000000000e+00
7.677904972910e+01+j0.000000000000e+00
7.514146155223e+01+j0.000000000000e+00
7.344631659223e+01+j0.000000000000e+00
7.171100739947e+01+j0.000000000000e+00
6.994819319810e+01+j0.000000000000e+00
6.816677866823e+01+j0.000000000000e+00
6.637288215933e+01+j0.000000000000e+00
6.457063690646e+01+j0.000000000000e+00
6.276279563882e+01+j0.000000000000e+00
6.095116179413e+01+j0.000000000000e+00
5.913688446140e+01+j0.000000000000e+00
5.732065145915e+01+j0.000000000000e+00
5.550280682978e+01+j0.000000000000e+00
5.368341015017e+01+j0.000000000000e+00
5.186224683902e+01+j0.000000000000e+00
5.003879108316e+01+j0.000000000000e+00
4.821211558470e+01+j0.000000000000e+00
4.638073444700e+01+j0.000000000000e+00
4.454235686531e+01+j0.000000000000e+00
4.269352050556e+01+j0.000000000000e+00
4.082906746074e+01+j0.000000000000e+00
3.894143028309e+01+j0.000000000000e+00
3.701972766814e+01+j0.000000000000e+00
3.504875873624e+01+j0.000000000000e+00
3.300816924525e+01+j0.000000000000e+00
3.087235171497e+01+j0.000000000000e+00
2.861191971459e+01+j0.000000000000e+00
2.619751105017e+01+j0.000000000000e+00
2.360574528789e+01+j0.000000000000e+00
2.082544698323e+01+j0.000000000000e+00
1.786106901945e+01+j0.000000000000e+00
1.473129429929e+01+j0.000000000000e+00
1.146366666285e+01+j0.000000000000e+00
8.088179047616e+00+j0.000000000000e+00
4.632409253401e+00+j0.000000000000e+00
1.119082607373e+00+j0.000000000000e+00
-2.434408316596e+00+j0.000000000000e+00
-6.015404278901e+00+j0.000000000000e+00
-9.615000589234e+00+j0.000000000000e+00
-1.322707889142e+01+j0.000000000000e+00
-1.684750594598e+01+j0.000000000000e+00
-2.047352902077e+01+j0.000000000000e+00
-2.410334467611e+01+j0.000000000000e+00
-2.773580382166e+01+j0.000000000000e+00
-3.137021863794e+01+j0.000000000000e+00
-3.500624508182e+01+j0.000000000000e+00
-3.864382357575e+01+j0.000000000000e+00
-4.228316870035e+01+j0.000000000000e+00
-4.592480626796e+01+j0.000000000000e+00
-4.956966357531e+01+j0.000000000000e+00
-5.321922651740e+01+j0.000000000000e+00
-5.687578589651e+01+j0.000000000000e+00
-6.054280404304e+01+j0.000000000000e+00
-6.422543885840e+01+j0.000000000000e+00
-6.793125778188e+01+j0.000000000000e+00
-7.167114210508e+01+j0.000000000000e+00
-7.546029268812e+01+j0.000000000000e+00
-7.931906374340e+01+j0.000000000000e+00
-8.327306270598e+01+j0.000000000000e+00
-8.735167593806e+01+j0.000000000000e+00
-9.158426552925e+01+j0.000000000000e+00
-9.599421175486e+01+j0.000000000000e+00
-1.005926898185e+02+j0.000000000000e+00
-1.053752464705e+02+j0.000000000000e+00
-1.103231982518e+02+j0.000000000000e+00
-1.154090004760e+02+j0.000000000000e+00
-1.206026589199e+02+j0.000000000000e+00
-1.258765938292e+02+j0.000000000000e+00
-1.312080769063e+02+j0.000000000000e+00
-1.365797110627e+02+j0.000000000000e+00
-1.419788301969e+02+j0.000000000000e+00
</dep>
<dep ac.b frequency>
1.000000000000e-01+j7.105427076809e-20
1.000000000000e-01+j0.000000000000e+00
1.000000000000e-01+j0.000000000000e+00
1.000000000000e-01+j0.000000000000e+00
1.000000000000e-01+j0.000000000000e+00
1.000000000000e-01+j0.000000000000e+00
1.000000000000e-01-j2.842169558347e-19
1.000000000000e-01+j5.684337676860e-19
1.000000000000e-01+j5.684335488439e-19
1.000000000000e-01+j0.000000000000e+00
1.000000000000e-01+j5.684327106699e-19
1.000000000000e-01+j0.000000000000e+00
1.000000000000e-01+j0.000000000000e+00
1.000000000000e-01+j0.000000000000e+00
1.000000000000e-01+j0.000000000000e+00
1.000000000000e-01-j2.273688802385e-18
1.000000000000e-01-j2.273663871584e-18
1.000000000000e-01+j0.000000000000e+00
1.000000000000e-01-j4.547136771198e-18
1.000000000000e-01+j0.000000000000e+00
1.000000000000e-01+j4.546695601179e-18
1.000000000000e-01+j0.000000000000e+00
1.000000000000e-01+j0.000000000000e+00
1.000000000000e-01+j0.000000000000e+00
1.000000000000e-01+j0.000000000000e+00
1.000000000000e-01+j0.000000000000e+00
1.000000000000e-01+j6.607252747300e-18
1.000000000000e-01-j8.145729997265e-18
1.000000000000e-01+j0.000000000000e+00
1.000000000000e-01+j0.000000000000e+00
1.000000000000e-01+j0.000000000000e+00
1.000000000000e-01+j0.000000000000e+00
1.000000000000e-01+j0.000000000000e+00
1.000000000000e-01+j0.000000000000e+00
1.000000000000e-01+j0.000000000000e+00
1.000000000000e-01+j1.358478349764e-18
1.000000000000e-01+j8.373977623883e-19
1.000000000000e-01+j0.000000000000e+00
1.000000000000e-01+j0.000000000000e+00
1.000000000000e-01+j0.000000000000e+00
1.000000000000e-01+j0.000000000000e+00
1.000000000000e-01+j0.000000000000e+00
1.000000000000e-01+j0.000000000000e+00
1.000000000000e-01+j0.000000000000e+00
1.000000000000e-01+j0.000000000000e+00
1.000000000000e-01-j1.377371459538e-18
1.000000000000e-01+j0.000000000000e+00
1.000000000000e-01+j2.093465705645e-18
1.000000000000e-01+j2.580903787451e-18
1.000000000000e-01-j3.181824000111e-18
1.000000000000e-01+j0.000000000000e+00
1.000000000000e-01+j4.835886868818e-18
1.000000000000e-01+j0.000000000000e+00
1.000000000000e-01+j0.000000000000e+00
