<Qucs Dataset 0.0.21>
<indep frequency 19>
1.000000000000e-01
5.555650000000e+03
1.111120000000e+04
1.666675000000e+04
2.222230000000e+04
2.777785000000e+04
3.333340000000e+04
3.888895000000e+04
4.444450000000e+04
5.000005000000e+04
5.555560000000e+04
6.111115000000e+04
6.666670000000e+04
7.222225000000e+04
7.777780000000e+04
8.333335000000e+04
8.888890000000e+04
9.444445000000e+04
1.000000000000e+05
</indep>
<dep ac.v(vin) frequency>
1.000000000000e+00+j0.000000000000e+00
1.000000000000e+00+j0.000000000000e+00
1.000000000000e+00+j0.000000000000e+00
1.000000000000e+00+j0.000000000000e+00
1.000000000000e+00+j0.000000000000e+00
1.000000000000e+00+j0.000000000000e+00
1.000000000000e+00+j0.000000000000e+00
1.000000000000e+00+j0.000000000000e+00
1.000000000000e+00+j0.000000000000e+00
1.000000000000e+00+j0.000000000000e+00
1.000000000000e+00+j0.000000000000e+00
1.000000000000e+00+j0.000000000000e+00
1.000000000000e+00+j0.000000000000e+00
1.000000000000e+00+j0.000000000000e+00
1.000000000000e+00+j0.000000000000e+00
1.000000000000e+00+j0.000000000000e+00
1.000000000000e+00+j0.000000000000e+00
1.000000000000e+00+j0.000000000000e+00
1.000000000000e+00+j0.000000000000e+00
</dep>
<dep ac.v(vout) frequency>
-9.999899011788e-01+j2.014961155393e-08
-9.999886526820e-01+j1.119440501869e-03
-9.999849073000e-01+j2.238852499880e-03
-9.999786650888e-01+j3.358247789754e-03
-9.999699261415e-01+j4.477618018017e-03
-9.999586905886e-01+j5.596954831821e-03
-9.999449585977e-01+j6.716249879146e-03
-9.999287303738e-01+j7.835494809012e-03
-9.999100061591e-01+j8.954681271684e-03
-9.998887862330e-01+j1.007380091889e-02
-9.998650709120e-01+j1.119284540400e-02
-9.998388605501e-01+j1.231180638227e-02
-9.998101555384e-01+j1.343067551103e-02
-9.997789563050e-01+j1.454944444989e-02
-9.997452633153e-01+j1.566810486096e-02
-9.997090770719e-01+j1.678664840902e-02
-9.996703981146e-01+j1.790506676179e-02
-9.996292270200e-01+j1.902335159009e-02
-9.995855644020e-01+j2.014149456804e-02
</dep>
<indep time 111>
0.000000000000e+00
9.900990000000e-08
1.245096278931e-07
1.755090836792e-07
2.775079952514e-07
4.815058183958e-07
8.721963374589e-07
1.653577375585e-06
3.216339451837e-06
6.341863604342e-06
1.259291190935e-05
2.249390190935e-05
3.239489190935e-05
4.229588190935e-05
5.219687190935e-05
6.209786190935e-05
7.199885190935e-05
8.189984190935e-05
9.180083190935e-05
1.017018219094e-04
1.116028119094e-04
1.215038019094e-04
1.314047919094e-04
1.413057819094e-04
1.512067719094e-04
1.611077619094e-04
1.710087519094e-04
1.809097419094e-04
1.908107319094e-04
2.007117219094e-04
2.106127119094e-04
2.205137019094e-04
2.304146919094e-04
2.403156819094e-04
2.502166719094e-04
2.601176619094e-04
2.700186519094e-04
2.799196419094e-04
2.898206319094e-04
2.997216219094e-04
3.096226119094e-04
3.195236019094e-04
3.294245919094e-04
3.393255819094e-04
3.492265719094e-04
3.591275619094e-04
3.690285519094e-04
3.789295419094e-04
3.888305319094e-04
3.987315219094e-04
4.086325119094e-04
4.185335019094e-04
4.284344919094e-04
4.383354819094e-04
4.482364719094e-04
4.581374619094e-04
4.680384519094e-04
4.779394419094e-04
4.878404319094e-04
4.977414219094e-04
5.076424119094e-04
5.175434019094e-04
5.274443919094e-04
5.373453819094e-04
5.472463719094e-04
5.571473619094e-04
5.670483519094e-04
5.769493419094e-04
5.868503319094e-04
5.967513219094e-04
6.066523119094e-04
6.165533019094e-04
6.264542919094e-04
6.363552819094e-04
6.462562719094e-04
6.561572619094e-04
6.660582519094e-04
6.759592419094e-04
6.858602319094e-04
6.957612219094e-04
7.056622119094e-04
7.155632019094e-04
7.254641919094e-04
7.353651819094e-04
7.452661719094e-04
7.551671619094e-04
7.650681519094e-04
7.749691419094e-04
7.848701319094e-04
7.947711219094e-04
8.046721119094e-04
8.145731019094e-04
8.244740919094e-04
8.343750819094e-04
8.442760719094e-04
8.541770619094e-04
8.640780519094e-04
8.739790419094e-04
8.838800319094e-04
8.937810219094e-04
9.036820119094e-04
9.135830019094e-04
9.234839919094e-04
9.333849819094e-04
9.432859719094e-04
9.531869619094e-04
9.630879519094e-04
9.729889419094e-04
9.828899319094e-04
9.927909219094e-04
1.000000000000e-03
</indep>
<dep tran.v(vin) time>
0.000000000000e+00
3.110482728998e-03
3.911575348039e-03
5.513752541171e-03
8.718060352750e-03
1.512637452068e-02
2.739742739918e-02
5.192530317464e-02
1.008724288859e-01
1.979200325895e-01
3.853785229362e-01
6.493023599918e-01
8.509101932284e-01
9.708529562016e-01
9.976192882017e-01
9.286403230888e-01
7.705362330944e-01
5.384808658477e-01
2.547454528161e-01
-5.343884503205e-02
-3.564944147617e-01
-6.253358668775e-01
-8.341614701843e-01
-9.629294415392e-01
-9.992814315980e-01
-9.397286023542e-01
-7.899864641205e-01
-5.644263363821e-01
-2.846960778991e-01
2.235754019386e-02
3.272654205752e-01
6.007644004888e-01
8.166057481774e-01
9.540743529689e-01
9.999768328136e-01
9.499077530702e-01
8.086724327346e-01
5.898257597969e-01
3.143712773627e-01
8.745394163778e-03
-2.977198175971e-01
-5.756117321800e-01
-7.982600112689e-01
-9.442962572342e-01
-9.997048190912e-01
-9.591679275461e-01
-8.265760614328e-01
-6.146545637413e-01
-3.437423423105e-01
-3.983986790045e-02
2.678861893475e-01
5.499021955821e-01
7.791420078098e-01
9.336046140301e-01
9.984656535871e-01
9.675001671432e-01
8.436800295759e-01
6.388887279029e-01
3.727808580774e-01
7.089579906088e-02
-2.377933979925e-01
-5.236606630608e-01
-7.592702332709e-01
-9.220097668515e-01
-9.962605351162e-01
-9.748964109418e-01
-8.599677901463e-01
-6.625048072461e-01
-4.014587317185e-01
-1.018831429773e-01
2.074705564226e-01
4.969125216551e-01
7.386639123491e-01
9.095229329868e-01
9.930915969927e-01
9.813495035394e-01
8.754235857562e-01
6.854799546938e-01
4.297482191878e-01
1.327719213357e-01
-1.769470000872e-01
-4.696836485158e-01
-7.173429803687e-01
-8.961561926653e-01
-9.889619049655e-01
-9.868532019731e-01
-8.900324638914e-01
-7.077919432301e-01
-4.576219521784e-01
-1.635322511784e-01
1.462522586148e-01
4.420003858719e-01
6.953280639959e-01
8.819224773709e-01
9.838754542530e-01
9.914021817595e-01
9.037802913777e-01
7.294191874040e-01
4.850529646000e-01
1.941343738132e-01
-1.154160272448e-01
-4.138895155457e-01
-6.726404612830e-01
-8.668355573315e-01
-9.778371656776e-01
-9.949920420456e-01
-9.166537680533e-01
-7.503407642116e-01
-5.120147186666e-01
-2.245486836037e-01
-1.224646799147e-15
</dep>
<dep tran.v(vout) time>
0.000000000000e+00
-2.348765148502e-03
-3.040753861538e-03
-4.521574517644e-03
-7.706996602403e-03
-1.412068064500e-02
-2.638867828058e-02
-5.091965262435e-02
-9.986761515515e-02
-1.969300134613e-01
-3.844387211654e-01
-6.485209852785e-01
-8.503688480501e-01
-9.705970692989e-01
-9.976798605139e-01
-9.290051813823e-01
-7.711766388523e-01
-5.393291591127e-01
-2.557263379815e-01
5.242554706592e-02
3.555399916556e-01
6.245378041380e-01
8.335905504883e-01
9.626461941140e-01
9.993073784296e-01
9.400668429482e-01
7.905990182146e-01
5.652598621065e-01
2.856652012344e-01
-2.134052124355e-02
-3.263033535218e-01
-5.999444453989e-01
-8.160117060450e-01
-9.537581949577e-01
-9.999738784560e-01
-9.502133730808e-01
-8.092621454238e-01
-5.906381805873e-01
-3.153331613759e-01
-9.759760147826e-03
2.967457164153e-01
5.747759306745e-01
7.976382360851e-01
9.439526133118e-01
9.996679132399e-01
9.594456196608e-01
8.271374378273e-01
6.154499548557e-01
3.446912575602e-01
4.085533691567e-02
-2.669056729956e-01
-5.490467396474e-01
-7.784976584941e-01
-9.332293177082e-01
-9.983992731891e-01
-9.677452784285e-01
-8.442168546344e-01
-6.396620473027e-01
-3.737201042996e-01
-7.190722504552e-02
2.368033047988e-01
5.227904378427e-01
7.585999276834e-01
9.216071353425e-01
9.961608409660e-01
9.751125576308e-01
8.604757405809e-01
6.632590619508e-01
4.023836932538e-01
1.028932068951e-01
-2.064754567624e-01
-4.960248028503e-01
-7.379718194234e-01
-9.090898805064e-01
-9.929621162720e-01
-9.815330897890e-01
-8.759055134561e-01
-6.862111145876e-01
-4.306612592874e-01
-1.337764297049e-01
1.759446815982e-01
4.687824292753e-01
7.166266755208e-01
8.956961926228e-01
9.887997476544e-01
9.870070267885e-01
8.904849641837e-01
7.085022017142e-01
4.585193239830e-01
1.645330590250e-01
-1.452464815482e-01
-4.410837832873e-01
-6.945909596572e-01
-8.814332902132e-01
-9.836834273728e-01
-9.915234801686e-01
-9.042055091006e-01
-7.301053078658e-01
-4.859363167432e-01
-1.951280284116e-01
1.144053119841e-01
4.129608375601e-01
6.718808804201e-01
8.663200157986e-01
9.776131257809e-01
9.950829960491e-01
9.170490219754e-01
7.510043236215e-01
5.128809845494e-01
2.255364072973e-01
1.007631934600e-03
</dep>
