<Qucs Dataset 0.0.21>
<indep frequency 78>
1.000000000000e+00
1.232846739442e+00
1.519911082953e+00
1.873817422860e+00
2.310129700083e+00
2.848035868436e+00
3.511191734215e+00
4.328761281083e+00
5.336699231206e+00
6.579332246576e+00
8.111308307897e+00
1.000000000000e+01
1.232846739442e+01
1.519911082953e+01
1.873817422860e+01
2.310129700083e+01
2.848035868436e+01
3.511191734215e+01
4.328761281083e+01
5.336699231206e+01
6.579332246576e+01
8.111308307897e+01
1.000000000000e+02
1.232846739442e+02
1.519911082953e+02
1.873817422860e+02
2.310129700083e+02
2.848035868436e+02
3.511191734215e+02
4.328761281083e+02
5.336699231206e+02
6.579332246576e+02
8.111308307897e+02
1.000000000000e+03
1.232846739442e+03
1.519911082953e+03
1.873817422860e+03
2.310129700083e+03
2.848035868436e+03
3.511191734215e+03
4.328761281083e+03
5.336699231206e+03
6.579332246576e+03
8.111308307897e+03
1.000000000000e+04
1.232846739442e+04
1.519911082953e+04
1.873817422860e+04
2.310129700083e+04
2.848035868436e+04
3.511191734215e+04
4.328761281083e+04
5.336699231206e+04
6.579332246576e+04
8.111308307897e+04
1.000000000000e+05
1.232846739442e+05
1.519911082953e+05
1.873817422860e+05
2.310129700083e+05
2.848035868436e+05
3.511191734215e+05
4.328761281083e+05
5.336699231206e+05
6.579332246576e+05
8.111308307897e+05
1.000000000000e+06
1.232846739442e+06
1.519911082953e+06
1.873817422860e+06
2.310129700083e+06
2.848035868436e+06
3.511191734215e+06
4.328761281083e+06
5.336699231206e+06
6.579332246576e+06
8.111308307897e+06
1.000000000000e+07
</indep>
<dep ac.v(s) frequency>
6.423968572004e-03+j1.422868578598e-02
9.083442316141e-03+j1.618991499483e-02
1.248165907764e-02+j1.782575333554e-02
1.655138471981e-02+j1.881501444659e-02
2.105794901367e-02+j1.885452694352e-02
2.562240335394e-02+j1.776503513415e-02
2.982010569335e-02+j1.556035086392e-02
3.330095096672e-02+j1.242866864842e-02
3.585616251090e-02+j8.643175500610e-03
3.740562082852e-02+j4.469256051413e-03
3.793923140217e-02+j1.200734611829e-04
3.746116895227e-02-j4.233558095955e-03
3.596750274353e-02-j8.422103314478e-03
3.346631315560e-02-j1.223539131078e-02
3.003218626741e-02-j1.541029736918e-02
2.586587108470e-02-j1.767194983298e-02
2.131071078085e-02-j1.882481585421e-02
1.679018427684e-02-j1.884417095148e-02
1.268884450245e-02-j1.789980599616e-02
9.250631727347e-03-j1.629083133068e-02
6.551279634512e-03-j1.433993509154e-02
4.538143764837e-03-j1.231180985044e-02
3.093289583730e-03-j1.038218493227e-02
2.084528422655e-03-j8.645284217013e-03
1.393708259318e-03-j7.136828893795e-03
9.268479428044e-04-j5.857064389330e-03
6.141576140827e-04-j4.787871262332e-03
4.059814803100e-04-j3.903582740572e-03
2.679405314352e-04-j3.177068945497e-03
1.766489059288e-04-j2.582786398090e-03
1.163803862342e-04-j2.098066205111e-03
7.663872549132e-05-j1.703458110678e-03
5.045273261306e-05-j1.382610269053e-03
3.320734327445e-05-j1.121949435657e-03
2.185376716334e-05-j9.102996268593e-04
1.438072637721e-05-j7.385065530291e-04
9.462602076557e-06-j5.990972111260e-04
6.226214707392e-06-j4.859845308628e-04
4.096632479047e-06-j3.942174848151e-04
2.695398981442e-06-j3.197728695986e-04
1.773433029230e-06-j2.593834579571e-04
1.166820270401e-06-j2.103970282521e-04
7.677006093182e-07-j1.706611752752e-04
5.051026395665e-07-j1.384294262310e-04
3.323290291690e-07-j1.122848479918e-04
2.186548027106e-07-j9.107795419060e-05
1.438644372720e-07-j7.387627121676e-05
9.465723458100e-08-j5.992339306252e-05
6.228212200032e-08-j4.860574992403e-05
4.098143422534e-08-j3.942564277021e-05
2.696699296746e-08-j3.197936528988e-05
1.774642165013e-08-j2.593945496085e-05
1.167989935719e-08-j2.104029476134e-05
7.688531885209e-09-j1.706643342885e-05
5.062478225145e-09-j1.384311121113e-05
3.334710104312e-09-j1.122857476989e-05
2.197953980327e-09-j9.107843433844e-06
1.450044326517e-09-j7.387652745765e-06
9.579697025946e-10-j5.992352981073e-06
6.342174526014e-10-j4.860582290248e-06
4.212100882177e-10-j3.942568171664e-06
2.810654649866e-10-j3.197938607442e-06
1.888596606269e-10-j2.593946605294e-06
1.281943982251e-10-j2.104030068085e-06
8.828070641861e-11-j1.706643658791e-06
6.202016242156e-11-j1.384311289703e-06
4.474247801149e-11-j1.122857566961e-06
3.337491538569e-11-j9.107843913994e-07
2.589581824764e-11-j7.387653002006e-07
2.097507174872e-11-j5.992353117822e-07
1.773754913637e-11-j4.860582363227e-07
1.560747544387e-11-j3.942568210611e-07
1.420602919049e-11-j3.197938628227e-07
1.328397113778e-11-j2.593946616386e-07
1.267731850981e-11-j2.104030074005e-07
1.227818159004e-11-j1.706643661950e-07
1.201557614933e-11-j1.384311291389e-07
1.184279930491e-11-j1.122857567860e-07
</dep>
<dep ac.i(pr1) frequency>
5.529953877444e-05+j1.463231563538e-04
7.829338389359e-05+j1.689353701393e-04
1.077932049327e-04+j1.901773717183e-04
1.433619107328e-04+j2.076369869438e-04
1.832121952108e-04+j2.191108255451e-04
2.244339701755e-04+j2.235009685824e-04
2.638726381858e-04+j2.213910403204e-04
2.992055080067e-04+j2.148599758501e-04
3.295797869485e-04+j2.066627394542e-04
3.555806775448e-04+j1.993242687734e-04
3.787803614059e-04+j1.945574704060e-04
4.012119195681e-04+j1.930398853500e-04
4.249143622163e-04+j1.943905991002e-04
4.515096868758e-04+j1.972454613848e-04
4.817556475567e-04+j1.994822355797e-04
5.151665853870e-04+j1.987229216859e-04
5.499722389625e-04+j1.931014086224e-04
5.836319232045e-04+j1.819744087034e-04
6.137346946071e-04+j1.661183258288e-04
6.387618426250e-04+j1.472789684253e-04
6.583137206668e-04+j1.274250699141e-04
6.728510191730e-04+j1.081677316306e-04
6.832648141587e-04+j9.053526661033e-05
6.905266810431e-04+j7.501899183831e-05
6.954958908600e-04+j6.172921789043e-05
6.988524212067e-04+j5.055218751015e-05
7.010997967256e-04+j4.126609751187e-05
7.025956847005e-04+j3.361348921206e-05
7.035874641729e-04+j2.734092345848e-05
7.042433045278e-04+j2.221782531650e-05
7.046762482694e-04+j1.804338862068e-05
7.049617243346e-04+j1.464722232914e-05
7.051498211295e-04+j1.188705254883e-05
7.052736944835e-04+j9.645287548879e-06
7.053552461170e-04+j7.825369813508e-06
7.054089238437e-04+j6.348348892579e-06
7.054442498174e-04+j5.149848730196e-06
7.054674961123e-04+j4.177471815303e-06
7.054827924245e-04+j3.388620685166e-06
7.054928571569e-04+j2.748691833470e-06
7.054994794166e-04+j2.229589850214e-06
7.055038365675e-04+j1.808511033986e-06
7.055067033452e-04+j1.466950780591e-06
7.055085895209e-04+j1.189895261747e-06
7.055098305104e-04+j9.651640710759e-07
7.055106470037e-04+j7.828761166820e-07
7.055111842041e-04+j6.350159058597e-07
7.055115376470e-04+j5.150814867687e-07
7.055117701892e-04+j4.177987451166e-07
7.055119231867e-04+j3.388895877631e-07
7.055120238489e-04+j2.748838700016e-07
7.055120900779e-04+j2.229668230089e-07
7.055121336522e-04+j1.808552863536e-07
7.055121623212e-04+j1.466973103963e-07
7.055121811835e-04+j1.189907175129e-07
7.055121935936e-04+j9.651704289142e-08
7.055122017586e-04+j7.828795096777e-08
7.055122071307e-04+j6.350177166024e-08
7.055122106651e-04+j5.150824531088e-08
7.055122129905e-04+j4.177992608236e-08
7.055122145205e-04+j3.388898629805e-08
7.055122155271e-04+j2.748840168769e-08
7.055122161894e-04+j2.229669013918e-08
7.055122166252e-04+j1.808553281842e-08
7.055122169119e-04+j1.466973327201e-08
7.055122171005e-04+j1.189907294264e-08
7.055122172246e-04+j9.651704924931e-09
7.055122173062e-04+j7.828795436078e-09
7.055122173600e-04+j6.350177347099e-09
7.055122173953e-04+j5.150824627722e-09
7.055122174186e-04+j4.177992659807e-09
7.055122174339e-04+j3.388898657327e-09
7.055122174439e-04+j2.748840183457e-09
7.055122174506e-04+j2.229669021757e-09
7.055122174549e-04+j1.808553286025e-09
7.055122174578e-04+j1.466973329433e-09
7.055122174597e-04+j1.189907295455e-09
7.055122174609e-04+j9.651704931289e-10
</dep>
<dep ac.v(vin) frequency>
1.000000000000e-01+j0.000000000000e+00
1.000000000000e-01+j0.000000000000e+00
1.000000000000e-01+j0.000000000000e+00
1.000000000000e-01+j0.000000000000e+00
1.000000000000e-01+j0.000000000000e+00
1.000000000000e-01+j0.000000000000e+00
1.000000000000e-01+j0.000000000000e+00
1.000000000000e-01+j0.000000000000e+00
1.000000000000e-01+j0.000000000000e+00
1.000000000000e-01+j0.000000000000e+00
1.000000000000e-01+j0.000000000000e+00
1.000000000000e-01+j0.000000000000e+00
1.000000000000e-01+j0.000000000000e+00
1.000000000000e-01+j0.000000000000e+00
1.000000000000e-01+j0.000000000000e+00
1.000000000000e-01+j0.000000000000e+00
1.000000000000e-01+j0.000000000000e+00
1.000000000000e-01+j0.000000000000e+00
1.000000000000e-01+j0.000000000000e+00
1.000000000000e-01+j0.000000000000e+00
1.000000000000e-01+j0.000000000000e+00
1.000000000000e-01+j0.000000000000e+00
1.000000000000e-01+j0.000000000000e+00
1.000000000000e-01+j0.000000000000e+00
1.000000000000e-01+j0.000000000000e+00
1.000000000000e-01+j0.000000000000e+00
1.000000000000e-01+j0.000000000000e+00
1.000000000000e-01+j0.000000000000e+00
1.000000000000e-01+j0.000000000000e+00
1.000000000000e-01+j0.000000000000e+00
1.000000000000e-01+j0.000000000000e+00
1.000000000000e-01+j0.000000000000e+00
1.000000000000e-01+j0.000000000000e+00
1.000000000000e-01+j0.000000000000e+00
1.000000000000e-01+j0.000000000000e+00
1.000000000000e-01+j0.000000000000e+00
1.000000000000e-01+j0.000000000000e+00
1.000000000000e-01+j0.000000000000e+00
1.000000000000e-01+j0.000000000000e+00
1.000000000000e-01+j0.000000000000e+00
1.000000000000e-01+j0.000000000000e+00
1.000000000000e-01+j0.000000000000e+00
1.000000000000e-01+j0.000000000000e+00
1.000000000000e-01+j0.000000000000e+00
1.000000000000e-01+j0.000000000000e+00
1.000000000000e-01+j0.000000000000e+00
1.000000000000e-01+j0.000000000000e+00
1.000000000000e-01+j0.000000000000e+00
1.000000000000e-01+j0.000000000000e+00
1.000000000000e-01+j0.000000000000e+00
1.000000000000e-01+j0.000000000000e+00
1.000000000000e-01+j0.000000000000e+00
1.000000000000e-01+j0.000000000000e+00
1.000000000000e-01+j0.000000000000e+00
1.000000000000e-01+j0.000000000000e+00
1.000000000000e-01+j0.000000000000e+00
1.000000000000e-01+j0.000000000000e+00
1.000000000000e-01+j0.000000000000e+00
1.000000000000e-01+j0.000000000000e+00
1.000000000000e-01+j0.000000000000e+00
1.000000000000e-01+j0.000000000000e+00
1.000000000000e-01+j0.000000000000e+00
1.000000000000e-01+j0.000000000000e+00
1.000000000000e-01+j0.000000000000e+00
1.000000000000e-01+j0.000000000000e+00
1.000000000000e-01+j0.000000000000e+00
1.000000000000e-01+j0.000000000000e+00
1.000000000000e-01+j0.000000000000e+00
1.000000000000e-01+j0.000000000000e+00
1.000000000000e-01+j0.000000000000e+00
1.000000000000e-01+j0.000000000000e+00
1.000000000000e-01+j0.000000000000e+00
1.000000000000e-01+j0.000000000000e+00
1.000000000000e-01+j0.000000000000e+00
1.000000000000e-01+j0.000000000000e+00
1.000000000000e-01+j0.000000000000e+00
1.000000000000e-01+j0.000000000000e+00
1.000000000000e-01+j0.000000000000e+00
</dep>
<dep ac.v(vout) frequency>
-5.529953877444e-02-j1.463231563538e-01
-7.829338389359e-02-j1.689353701393e-01
-1.077932049327e-01-j1.901773717183e-01
-1.433619107328e-01-j2.076369869438e-01
-1.832121952108e-01-j2.191108255451e-01
-2.244339701755e-01-j2.235009685824e-01
-2.638726381858e-01-j2.213910403204e-01
-2.992055080067e-01-j2.148599758501e-01
-3.295797869485e-01-j2.066627394542e-01
-3.555806775448e-01-j1.993242687734e-01
-3.787803614059e-01-j1.945574704060e-01
-4.012119195681e-01-j1.930398853500e-01
-4.249143622163e-01-j1.943905991002e-01
-4.515096868758e-01-j1.972454613848e-01
-4.817556475567e-01-j1.994822355797e-01
-5.151665853870e-01-j1.987229216859e-01
-5.499722389625e-01-j1.931014086224e-01
-5.836319232045e-01-j1.819744087034e-01
-6.137346946071e-01-j1.661183258288e-01
-6.387618426250e-01-j1.472789684253e-01
-6.583137206668e-01-j1.274250699141e-01
-6.728510191730e-01-j1.081677316306e-01
-6.832648141587e-01-j9.053526661033e-02
-6.905266810431e-01-j7.501899183831e-02
-6.954958908600e-01-j6.172921789043e-02
-6.988524212067e-01-j5.055218751015e-02
-7.010997967256e-01-j4.126609751187e-02
-7.025956847005e-01-j3.361348921206e-02
-7.035874641729e-01-j2.734092345848e-02
-7.042433045278e-01-j2.221782531650e-02
-7.046762482694e-01-j1.804338862068e-02
-7.049617243346e-01-j1.464722232914e-02
-7.051498211295e-01-j1.188705254883e-02
-7.052736944835e-01-j9.645287548879e-03
-7.053552461170e-01-j7.825369813508e-03
-7.054089238437e-01-j6.348348892579e-03
-7.054442498174e-01-j5.149848730196e-03
-7.054674961123e-01-j4.177471815303e-03
-7.054827924245e-01-j3.388620685166e-03
-7.054928571569e-01-j2.748691833470e-03
-7.054994794166e-01-j2.229589850214e-03
-7.055038365675e-01-j1.808511033986e-03
-7.055067033452e-01-j1.466950780591e-03
-7.055085895209e-01-j1.189895261747e-03
-7.055098305104e-01-j9.651640710759e-04
-7.055106470037e-01-j7.828761166820e-04
-7.055111842041e-01-j6.350159058597e-04
-7.055115376470e-01-j5.150814867687e-04
-7.055117701892e-01-j4.177987451166e-04
-7.055119231867e-01-j3.388895877631e-04
-7.055120238489e-01-j2.748838700016e-04
-7.055120900779e-01-j2.229668230089e-04
-7.055121336522e-01-j1.808552863536e-04
-7.055121623212e-01-j1.466973103963e-04
-7.055121811835e-01-j1.189907175129e-04
-7.055121935936e-01-j9.651704289142e-05
-7.055122017586e-01-j7.828795096777e-05
-7.055122071307e-01-j6.350177166024e-05
-7.055122106651e-01-j5.150824531088e-05
-7.055122129905e-01-j4.177992608236e-05
-7.055122145205e-01-j3.388898629805e-05
-7.055122155271e-01-j2.748840168769e-05
-7.055122161894e-01-j2.229669013918e-05
-7.055122166252e-01-j1.808553281842e-05
-7.055122169119e-01-j1.466973327201e-05
-7.055122171005e-01-j1.189907294264e-05
-7.055122172246e-01-j9.651704924931e-06
-7.055122173062e-01-j7.828795436078e-06
-7.055122173600e-01-j6.350177347099e-06
-7.055122173953e-01-j5.150824627722e-06
-7.055122174186e-01-j4.177992659807e-06
-7.055122174339e-01-j3.388898657327e-06
-7.055122174439e-01-j2.748840183457e-06
-7.055122174506e-01-j2.229669021757e-06
-7.055122174549e-01-j1.808553286025e-06
-7.055122174578e-01-j1.466973329433e-06
-7.055122174597e-01-j1.189907295455e-06
-7.055122174609e-01-j9.651704931289e-07
</dep>
<dep ac.av frequency>
-5.529953877444e-01-j1.463231563538e+00
-7.829338389359e-01-j1.689353701393e+00
-1.077932049327e+00-j1.901773717183e+00
-1.433619107328e+00-j2.076369869438e+00
-1.832121952108e+00-j2.191108255451e+00
-2.244339701755e+00-j2.235009685824e+00
-2.638726381858e+00-j2.213910403204e+00
-2.992055080067e+00-j2.148599758501e+00
-3.295797869485e+00-j2.066627394542e+00
-3.555806775448e+00-j1.993242687734e+00
-3.787803614059e+00-j1.945574704060e+00
-4.012119195681e+00-j1.930398853500e+00
-4.249143622163e+00-j1.943905991002e+00
-4.515096868758e+00-j1.972454613848e+00
-4.817556475567e+00-j1.994822355797e+00
-5.151665853870e+00-j1.987229216859e+00
-5.499722389625e+00-j1.931014086224e+00
-5.836319232045e+00-j1.819744087034e+00
-6.137346946071e+00-j1.661183258288e+00
-6.387618426250e+00-j1.472789684253e+00
-6.583137206668e+00-j1.274250699141e+00
-6.728510191730e+00-j1.081677316306e+00
-6.832648141587e+00-j9.053526661033e-01
-6.905266810431e+00-j7.501899183831e-01
-6.954958908600e+00-j6.172921789043e-01
-6.988524212067e+00-j5.055218751015e-01
-7.010997967256e+00-j4.126609751187e-01
-7.025956847005e+00-j3.361348921206e-01
-7.035874641729e+00-j2.734092345848e-01
-7.042433045278e+00-j2.221782531650e-01
-7.046762482694e+00-j1.804338862068e-01
-7.049617243346e+00-j1.464722232914e-01
-7.051498211295e+00-j1.188705254883e-01
-7.052736944835e+00-j9.645287548879e-02
-7.053552461170e+00-j7.825369813508e-02
-7.054089238437e+00-j6.348348892579e-02
-7.054442498174e+00-j5.149848730196e-02
-7.054674961123e+00-j4.177471815303e-02
-7.054827924245e+00-j3.388620685166e-02
-7.054928571569e+00-j2.748691833470e-02
-7.054994794166e+00-j2.229589850214e-02
-7.055038365675e+00-j1.808511033986e-02
-7.055067033452e+00-j1.466950780591e-02
-7.055085895209e+00-j1.189895261747e-02
-7.055098305104e+00-j9.651640710759e-03
-7.055106470037e+00-j7.828761166820e-03
-7.055111842041e+00-j6.350159058597e-03
-7.055115376470e+00-j5.150814867687e-03
-7.055117701892e+00-j4.177987451166e-03
-7.055119231867e+00-j3.388895877631e-03
-7.055120238489e+00-j2.748838700016e-03
-7.055120900779e+00-j2.229668230089e-03
-7.055121336522e+00-j1.808552863536e-03
-7.055121623212e+00-j1.466973103963e-03
-7.055121811835e+00-j1.189907175129e-03
-7.055121935936e+00-j9.651704289142e-04
-7.055122017586e+00-j7.828795096777e-04
-7.055122071307e+00-j6.350177166024e-04
-7.055122106651e+00-j5.150824531088e-04
-7.055122129905e+00-j4.177992608236e-04
-7.055122145205e+00-j3.388898629805e-04
-7.055122155271e+00-j2.748840168769e-04
-7.055122161894e+00-j2.229669013918e-04
-7.055122166252e+00-j1.808553281842e-04
-7.055122169119e+00-j1.466973327201e-04
-7.055122171005e+00-j1.189907294264e-04
-7.055122172246e+00-j9.651704924931e-05
-7.055122173062e+00-j7.828795436078e-05
-7.055122173600e+00-j6.350177347099e-05
-7.055122173953e+00-j5.150824627722e-05
-7.055122174186e+00-j4.177992659807e-05
-7.055122174339e+00-j3.388898657327e-05
-7.055122174439e+00-j2.748840183457e-05
-7.055122174506e+00-j2.229669021757e-05
-7.055122174549e+00-j1.808553286025e-05
-7.055122174578e+00-j1.466973329433e-05
-7.055122174597e+00-j1.189907295455e-05
-7.055122174609e+00-j9.651704931289e-06
</dep>
<indep time 209>
0.000000000000e+00
9.950250000000e-08
1.990050000000e-07
3.980100000000e-07
7.960200000000e-07
1.592040000000e-06
3.184080000000e-06
6.368160000000e-06
1.273632000000e-05
2.268657000000e-05
3.263682000000e-05
4.258707000000e-05
5.253732000000e-05
6.248757000000e-05
7.243782000000e-05
8.238807000000e-05
9.233832000000e-05
1.022885700000e-04
1.122388200000e-04
1.221890700000e-04
1.321393200000e-04
1.420895700000e-04
1.520398200000e-04
1.619900700000e-04
1.719403200000e-04
1.818905700000e-04
1.918408200000e-04
2.017910700000e-04
2.117413200000e-04
2.216915700000e-04
2.316418200000e-04
2.415920700000e-04
2.515423200000e-04
2.614925700000e-04
2.714428200000e-04
2.813930700000e-04
2.913433200000e-04
3.012935700000e-04
3.112438200000e-04
3.211940700000e-04
3.311443200000e-04
3.410945700000e-04
3.510448200000e-04
3.609950700000e-04
3.709453200000e-04
3.808955700000e-04
3.908458200000e-04
4.007960700000e-04
4.107463200000e-04
4.206965700000e-04
4.306468200000e-04
4.405970700000e-04
4.505473200000e-04
4.604975700000e-04
4.704478200000e-04
4.803980700000e-04
4.903483200000e-04
5.002985700000e-04
5.102488200000e-04
5.201990700000e-04
5.301493200000e-04
5.400995700000e-04
5.500498200000e-04
5.600000700000e-04
5.699503200000e-04
5.799005700000e-04
5.898508200000e-04
5.998010700000e-04
6.097513200000e-04
6.197015700000e-04
6.296518200000e-04
6.396020700000e-04
6.495523200000e-04
6.595025700000e-04
6.694528200000e-04
6.794030700000e-04
6.893533200000e-04
6.993035700000e-04
7.092538200000e-04
7.192040700000e-04
7.291543200000e-04
7.391045700000e-04
7.490548200000e-04
7.590050700000e-04
7.689553200000e-04
7.789055700000e-04
7.888558200000e-04
7.988060700000e-04
8.087563200000e-04
8.187065700000e-04
8.286568200000e-04
8.386070700000e-04
8.485573200000e-04
8.585075700000e-04
8.684578200000e-04
8.784080700000e-04
8.883583200000e-04
8.983085700000e-04
9.082588200000e-04
9.182090700000e-04
9.281593200000e-04
9.381095700000e-04
9.480598200000e-04
9.580100700000e-04
9.679603200000e-04
9.779105700000e-04
9.878608200000e-04
9.978110700000e-04
1.007761320000e-03
1.017711570000e-03
1.027661820000e-03
1.037612070000e-03
1.047562320000e-03
1.057512570000e-03
1.067462820000e-03
1.077413070000e-03
1.087363320000e-03
1.097313570000e-03
1.107263820000e-03
1.117214070000e-03
1.127164320000e-03
1.137114570000e-03
1.147064820000e-03
1.157015070000e-03
1.166965320000e-03
1.176915570000e-03
1.186865820000e-03
1.196816070000e-03
1.206766320000e-03
1.216716570000e-03
1.226666820000e-03
1.236617070000e-03
1.246567320000e-03
1.256517570000e-03
1.266467820000e-03
1.276418070000e-03
1.286368320000e-03
1.296318570000e-03
1.306268820000e-03
1.316219070000e-03
1.326169320000e-03
1.336119570000e-03
1.346069820000e-03
1.356020070000e-03
1.365970320000e-03
1.375920570000e-03
1.385870820000e-03
1.395821070000e-03
1.405771320000e-03
1.415721570000e-03
1.425671820000e-03
1.435622070000e-03
1.445572320000e-03
