<Qucs Dataset 0.0.21>
<indep frequency 190>
1.000000000000e-01
1.115883992508e-01
1.245197084735e-01
1.389495494373e-01
1.550515779833e-01
1.730195738846e-01
1.930697728883e-01
2.154434690032e-01
2.404099183510e-01
2.682695795280e-01
2.993577294720e-01
3.340484983513e-01
3.727593720315e-01
4.159562163072e-01
4.641588833613e-01
5.179474679231e-01
5.779692884153e-01
6.449466771038e-01
7.196856730012e-01
8.030857221392e-01
8.961505019466e-01
1.000000000000e+00
1.115883992508e+00
1.245197084735e+00
1.389495494373e+00
1.550515779833e+00
1.730195738846e+00
1.930697728883e+00
2.154434690032e+00
2.404099183510e+00
2.682695795280e+00
2.993577294720e+00
3.340484983513e+00
3.727593720315e+00
4.159562163072e+00
4.641588833613e+00
5.179474679231e+00
5.779692884153e+00
6.449466771038e+00
7.196856730011e+00
8.030857221391e+00
8.961505019466e+00
1.000000000000e+01
1.115883992508e+01
1.245197084735e+01
1.389495494373e+01
1.550515779833e+01
1.730195738846e+01
1.930697728883e+01
2.154434690032e+01
2.404099183510e+01
2.682695795280e+01
2.993577294720e+01
3.340484983513e+01
3.727593720315e+01
4.159562163072e+01
4.641588833613e+01
5.179474679231e+01
5.779692884153e+01
6.449466771038e+01
7.196856730011e+01
8.030857221391e+01
8.961505019466e+01
1.000000000000e+02
1.115883992508e+02
1.245197084735e+02
1.389495494373e+02
1.550515779833e+02
1.730195738846e+02
1.930697728883e+02
2.154434690032e+02
2.404099183510e+02
2.682695795280e+02
2.993577294720e+02
3.340484983513e+02
3.727593720315e+02
4.159562163072e+02
4.641588833613e+02
5.179474679231e+02
5.779692884153e+02
6.449466771038e+02
7.196856730011e+02
8.030857221391e+02
8.961505019466e+02
1.000000000000e+03
1.115883992508e+03
1.245197084735e+03
1.389495494373e+03
1.550515779833e+03
1.730195738846e+03
1.930697728883e+03
2.154434690032e+03
2.404099183510e+03
2.682695795280e+03
2.993577294720e+03
3.340484983513e+03
3.727593720315e+03
4.159562163072e+03
4.641588833613e+03
5.179474679231e+03
5.779692884153e+03
6.449466771038e+03
7.196856730011e+03
8.030857221391e+03
8.961505019466e+03
1.000000000000e+04
1.115883992508e+04
1.245197084735e+04
1.389495494373e+04
1.550515779833e+04
1.730195738846e+04
1.930697728883e+04
2.154434690032e+04
2.404099183510e+04
2.682695795280e+04
2.993577294720e+04
3.340484983513e+04
3.727593720315e+04
4.159562163072e+04
4.641588833613e+04
5.179474679231e+04
5.779692884153e+04
6.449466771038e+04
7.196856730011e+04
8.030857221391e+04
8.961505019466e+04
1.000000000000e+05
1.115883992508e+05
1.245197084735e+05
1.389495494373e+05
1.550515779833e+05
1.730195738846e+05
1.930697728883e+05
2.154434690032e+05
2.404099183510e+05
2.682695795280e+05
2.993577294720e+05
3.340484983513e+05
3.727593720315e+05
4.159562163072e+05
4.641588833613e+05
5.179474679231e+05
5.779692884153e+05
6.449466771038e+05
7.196856730011e+05
8.030857221391e+05
8.961505019466e+05
1.000000000000e+06
1.115883992508e+06
1.245197084735e+06
1.389495494373e+06
1.550515779833e+06
1.730195738846e+06
1.930697728883e+06
2.154434690032e+06
2.404099183510e+06
2.682695795280e+06
2.993577294720e+06
3.340484983513e+06
3.727593720315e+06
4.159562163072e+06
4.641588833613e+06
5.179474679231e+06
5.779692884153e+06
6.449466771038e+06
7.196856730011e+06
8.030857221391e+06
8.961505019466e+06
1.000000000000e+07
1.115883992508e+07
1.245197084735e+07
1.389495494373e+07
1.550515779833e+07
1.730195738846e+07
1.930697728883e+07
2.154434690032e+07
2.404099183510e+07
2.682695795280e+07
2.993577294720e+07
3.340484983513e+07
3.727593720315e+07
4.159562163072e+07
4.641588833613e+07
5.179474679231e+07
5.779692884153e+07
6.449466771038e+07
7.196856730011e+07
8.030857221391e+07
8.961505019466e+07
1.000000000000e+08
</indep>
<dep ac.v(vout) frequency>
3.947841760434e-13+j6.283185307177e-07
4.915841051087e-13+j7.011305906238e-07
6.121190945834e-13+j7.823804027345e-07
7.622089120858e-13+j8.730457674631e-07
9.491003152881e-13+j9.742177966385e-07
1.181816945718e-12+j1.087114044485e-06
1.471595015498e-12+j1.213093160271e-06
1.832425823208e-12+j1.353671238966e-06
2.281731293050e-12+j1.510540066680e-06
2.841205154253e-12+j1.685587480449e-06
3.537860375208e-12+j1.880920087403e-06
4.405333425404e-12+j2.098888616717e-06
5.485508338593e-12+j2.342116209449e-06
6.830538991497e-12+j2.613529986713e-06
8.505367239367e-12+j2.916396276108e-06
1.059085849104e-11+j3.254359920311e-06
1.318770611785e-11+j3.631488140924e-06
1.642129321223e-11+j4.052319485426e-06
2.044774643537e-11+j4.521918446296e-06
2.546147425060e-11+j5.045936409622e-06
3.170455350970e-11+j5.630679666674e-06
3.947841760280e-11+j6.283185306932e-06
4.915841050848e-11+j7.011305905897e-06
6.121190945463e-11+j7.823804026871e-06
7.622089120283e-11+j8.730457673972e-06
9.491003151989e-11+j9.742177965470e-06
1.181816945579e-10+j1.087114044358e-05
1.471595015283e-10+j1.213093160094e-05
1.832425822875e-10+j1.353671238721e-05
2.281731292535e-10+j1.510540066339e-05
2.841205153454e-10+j1.685587479974e-05
3.537860373969e-10+j1.880920086744e-05
4.405333423483e-10+j2.098888615802e-05
5.485508335614e-10+j2.342116208177e-05
6.830538986878e-10+j2.613529984946e-05
8.505367232205e-10+j2.916396273652e-05
1.059085847993e-09+j3.254359916899e-05
1.318770610063e-09+j3.631488136183e-05
1.642129318554e-09+j4.052319478838e-05
2.044774639398e-09+j4.521918437142e-05
2.546147418642e-09+j5.045936396903e-05
3.170455341019e-09+j5.630679649001e-05
3.947841744850e-09+j6.283185282375e-05
4.915841026924e-09+j7.011305871775e-05
6.121190908369e-09+j7.823803979459e-05
7.622089062767e-09+j8.730457608093e-05
9.491003062811e-09+j9.742177873931e-05
1.181816931752e-08+j1.087114031638e-04
1.471594993844e-08+j1.213093142421e-04
1.832425789633e-08+j1.353671214164e-04
2.281731240992e-08+j1.510540032217e-04
2.841205073537e-08+j1.685587432562e-04
3.537860250056e-08+j1.880920020865e-04
4.405333231354e-08+j2.098888524263e-04
5.485508037716e-08+j2.342116080985e-04
6.830538524981e-08+j2.613529808213e-04
8.505366516027e-08+j2.916396028082e-04
1.059085736949e-07+j3.254359575681e-04
1.318770437887e-07+j3.631487662062e-04
1.642129051592e-07+j4.052318820049e-04
2.044774225469e-07+j4.521917521758e-04
2.546146776838e-07+j5.045935124981e-04
3.170454345892e-07+j5.630677881671e-04
3.947840201891e-07+j6.283182826678e-04
4.915838634542e-07+j7.011302459597e-04
6.121187198942e-07+j7.823799238253e-04
7.622083311244e-07+j8.730451020210e-04
9.490994144985e-07+j9.742168720099e-04
1.181815549029e-06+j1.087112759718e-03
1.471592849911e-06+j1.213091375093e-03
1.832422465433e-06+j1.353668758471e-03
2.281726086770e-06+j1.510536620045e-03
2.841197081837e-06+j1.685582691367e-03
3.537847858808e-06+j1.880913433000e-03
4.405314018547e-06+j2.098879370463e-03
5.485478247987e-06+j2.342103361834e-03
6.830492335599e-06+j2.613512135035e-03
8.505294898783e-06+j2.916371471322e-03
1.059074632605e-05+j3.254325454245e-03
1.318753220472e-05+j3.631440250605e-03
1.642102355806e-05+j4.052252942259e-03
2.044732833400e-05+j4.521825985237e-03
2.546082598108e-05+j5.045807936042e-03
3.170354836386e-05+j5.630501154327e-03
3.947685912043e-05+j6.282937266758e-03
4.915599408036e-05+j7.010961258530e-03
6.120816278986e-05+j7.823325146679e-03
7.621508202716e-05+j8.729792282090e-03
9.490102446968e-05+j9.741253423725e-03
1.181677293094e-04+j1.086985582688e-02
1.471378488175e-04+j1.212914668354e-02
1.832090106289e-04+j1.353423234200e-02
2.281210782053e-04+j1.510195480655e-02
2.840398138878e-04+j1.685108706499e-02
3.536609172275e-04+j1.880254879486e-02
4.403393583730e-04+j2.097964393460e-02
5.482500908179e-04+j2.340832144037e-02
6.825876549951e-04+j2.611746023426e-02
8.498139259913e-04+j2.913917881963e-02
1.057965372960e-03+j3.250916920239e-02
1.317033746403e-03+j3.626705348541e-02
1.639437153430e-03+j4.045675962371e-02
2.040602072204e-03+j4.512691010236e-02
2.539681022828e-03+j5.033121340808e-02
3.160435331961e-03+j5.612884267890e-02
3.932317592827e-03+j6.258477827057e-02
4.891793770459e-03+j6.977008043687e-02
6.083949926632e-03+j7.776204395412e-02
7.564432343394e-03+j8.664416718231e-02
9.401770915488e-03+j9.650584240936e-02
1.168013168169e-02+j1.074416409294e-01
1.450253162252e-02+j1.195500238355e-01
1.799452196486e-02+j1.329312572126e-01
2.230829752498e-02+j1.476842489452e-01
2.762710870608e-02+j1.639019571897e-01
3.416972653674e-02+j1.816649562385e-01
4.219452475165e-02+j2.010327009037e-01
5.200248285304e-02+j2.220320351439e-01
6.393807478669e-02+j2.446425910982e-01
7.838660386882e-02+j2.687789876511e-01
9.576612963899e-02+j2.942702466322e-01
1.165118242106e-01+j3.208376833068e-01
1.410505995886e-01+j3.480737392339e-01
1.697644583719e-01+j3.754257410535e-01
2.029425718389e-01+j4.021901097420e-01
2.407248091702e-01+j4.275235378551e-01
2.830431996751e-01+j4.504772433684e-01
3.295718313337e-01+j4.700576978681e-01
3.796984333479e-01+j4.853117895344e-01
4.325303923154e-01+j4.954269391534e-01
4.869427744915e-01+j4.998294797849e-01
5.416664069998e-01+j4.982608860103e-01
5.954029710657e-01+j4.908138884667e-01
6.469457410657e-01+j4.779193961147e-01
6.952827910938e-01+j4.602875530607e-01
7.396650374452e-01+j4.388173536067e-01
7.796318270477e-01+j4.144949231317e-01
8.149975364523e-01+j3.882995648066e-01
8.458100818336e-01+j3.611307066732e-01
8.722948699853e-01+j3.337611867527e-01
8.947962793220e-01+j3.068157392207e-01
9.137251135657e-01+j2.807695325441e-01
9.295164424974e-01+j2.559602032043e-01
9.425989800067e-01+j2.326072718060e-01
9.533750549041e-01+j2.108341992911e-01
9.622092106243e-01+j1.906899200642e-01
9.694232180949e-01+j1.721680641507e-01
9.752954769681e-01+j1.552230961346e-01
9.800631640873e-01+j1.397832553868e-01
9.839259072948e-01+j1.257605512428e-01
9.870501365065e-01+j1.130582351225e-01
9.895735619720e-01+j1.015762148244e-01
9.916094497264e-01+j9.121485043413e-02
9.932505172497e-01+j8.187751359728e-02
9.945723730779e-01+j7.347222460275e-02
9.956364866901e-01+j6.591261686135e-02
9.964927111663e-01+j5.911842148343e-02
9.971813997896e-01+j5.301561754083e-02
9.977351653802e-01+j4.753635602333e-02
9.981803321215e-01+j4.261873634148e-02
9.985381268914e-01+j3.820649206096e-02
9.988256525269e-01+j3.424862597382e-02
9.990566801728e-01+j3.069902237693e-02
9.992422925688e-01+j2.751605550614e-02
9.993914051760e-01+j2.466220663879e-02
9.995111876065e-01+j2.210369778793e-02
9.996074039570e-01+j1.981014667615e-02
9.996846873472e-01+j1.775424542853e-02
9.997467611870e-01+j1.591146388830e-02
9.997966173831e-01+j1.425977743309e-02
9.998366597826e-01+j1.277941850649e-02
9.998688195843e-01+j1.145265067247e-02
9.998946481597e-01+j1.026356376992e-02
9.999153916861e-01+j9.197888636962e-03
9.999320511390e-01+j8.242829849230e-03
9.999454305098e-01+j7.386914944515e-03
9.999561755506e-01+j6.619858669133e-03
9.999648049067e-01+j5.932440864106e-03
9.999717351272e-01+j5.316396702980e-03
9.999773007579e-01+j4.764318090960e-03
9.999817704813e-01+j4.269565132770e-03
9.999853600812e-01+j3.826186671506e-03
9.999882428564e-01+j3.428848990928e-03
9.999905579840e-01+j3.072771858246e-03
9.999924172376e-01+j2.753671162946e-03
9.999939103827e-01+j2.467707479538e-03
9.999951095094e-01+j2.211439948255e-03
9.999960725131e-01+j1.981784928127e-03
9.999968458889e-01+j1.775978931595e-03
9.999974669768e-01+j1.591545399487e-03
</dep>
<dep ac.vout_db frequency>
-1.240364026328e+02+j0.000000000000e+00
-1.230840216805e+02+j0.000000000000e+00
-1.221316407281e+02+j0.000000000000e+00
-1.211792597757e+02+j0.000000000000e+00
-1.202268788233e+02+j0.000000000000e+00
-1.192744978709e+02+j0.000000000000e+00
-1.183221169186e+02+j0.000000000000e+00
-1.173697359662e+02+j0.000000000000e+00
-1.164173550138e+02+j0.000000000000e+00
-1.154649740614e+02+j0.000000000000e+00
-1.145125931090e+02+j0.000000000000e+00
-1.135602121567e+02+j0.000000000000e+00
-1.126078312043e+02+j0.000000000000e+00
-1.116554502519e+02+j0.000000000000e+00
-1.107030692995e+02+j0.000000000000e+00
-1.097506883472e+02+j0.000000000000e+00
-1.087983073948e+02+j0.000000000000e+00
-1.078459264424e+02+j0.000000000000e+00
-1.068935454901e+02+j0.000000000000e+00
-1.059411645377e+02+j0.000000000000e+00
-1.049887835854e+02+j0.000000000000e+00
-1.040364026330e+02+j0.000000000000e+00
-1.030840216807e+02+j0.000000000000e+00
-1.021316407283e+02+j0.000000000000e+00
-1.011792597760e+02+j0.000000000000e+00
-1.002268788237e+02+j0.000000000000e+00
-9.927449787145e+01+j0.000000000000e+00
-9.832211691919e+01+j0.000000000000e+00
-9.736973596697e+01+j0.000000000000e+00
-9.641735501478e+01+j0.000000000000e+00
-9.546497406264e+01+j0.000000000000e+00
-9.451259311056e+01+j0.000000000000e+00
-9.356021215856e+01+j0.000000000000e+00
-9.260783120665e+01+j0.000000000000e+00
-9.165545025485e+01+j0.000000000000e+00
-9.070306930320e+01+j0.000000000000e+00
-8.975068835172e+01+j0.000000000000e+00
-8.879830740047e+01+j0.000000000000e+00
-8.784592644949e+01+j0.000000000000e+00
-8.689354549886e+01+j0.000000000000e+00
-8.594116454866e+01+j0.000000000000e+00
-8.498878359899e+01+j0.000000000000e+00
-8.403640264998e+01+j0.000000000000e+00
-8.308402170181e+01+j0.000000000000e+00
-8.213164075466e+01+j0.000000000000e+00
-8.117925980880e+01+j0.000000000000e+00
-8.022687886453e+01+j0.000000000000e+00
-7.927449792226e+01+j0.000000000000e+00
-7.832211698246e+01+j0.000000000000e+00
-7.736973604575e+01+j0.000000000000e+00
-7.641735511288e+01+j0.000000000000e+00
-7.546497418480e+01+j0.000000000000e+00
-7.451259326268e+01+j0.000000000000e+00
-7.356021234797e+01+j0.000000000000e+00
-7.260783144250e+01+j0.000000000000e+00
-7.165545054853e+01+j0.000000000000e+00
-7.070306966889e+01+j0.000000000000e+00
-6.975068880708e+01+j0.000000000000e+00
-6.879830796748e+01+j0.000000000000e+00
-6.784592715553e+01+j0.000000000000e+00
-6.689354637801e+01+j0.000000000000e+00
-6.594116564338e+01+j0.000000000000e+00
-6.498878496213e+01+j0.000000000000e+00
-6.403640434736e+01+j0.000000000000e+00
-6.308402381538e+01+j0.000000000000e+00
-6.213164338647e+01+j0.000000000000e+00
-6.117926308592e+01+j0.000000000000e+00
-6.022688294520e+01+j0.000000000000e+00
-5.927450300350e+01+j0.000000000000e+00
-5.832212330960e+01+j0.000000000000e+00
-5.736974392429e+01+j0.000000000000e+00
-5.641736492321e+01+j0.000000000000e+00
-5.546498640059e+01+j0.000000000000e+00
-5.451260847373e+01+j0.000000000000e+00
-5.356023128873e+01+j0.000000000000e+00
-5.260785502746e+01+j0.000000000000e+00
-5.165547991644e+01+j0.000000000000e+00
-5.070310623769e+01+j0.000000000000e+00
-4.975073434239e+01+j0.000000000000e+00
-4.879836466784e+01+j0.000000000000e+00
-4.784599775855e+01+j0.000000000000e+00
-4.689363429251e+01+j0.000000000000e+00
-4.594127511397e+01+j0.000000000000e+00
-4.498892127416e+01+j0.000000000000e+00
-4.403657408204e+01+j0.000000000000e+00
-4.308423516747e+01+j0.000000000000e+00
-4.213190655988e+01+j0.000000000000e+00
-4.117959078620e+01+j0.000000000000e+00
-4.022729099278e+01+j0.000000000000e+00
-3.927501109718e+01+j0.000000000000e+00
-3.832275597713e+01+j0.000000000000e+00
-3.737053170569e+01+j0.000000000000e+00
-3.641834584406e+01+j0.000000000000e+00
-3.546620780587e+01+j0.000000000000e+00
-3.451412931054e+01+j0.000000000000e+00
-3.356212494735e+01+j0.000000000000e+00
-3.261021287709e+01+j0.000000000000e+00
-3.165841570461e+01+j0.000000000000e+00
-3.070676156358e+01+j0.000000000000e+00
-2.975528546458e+01+j0.000000000000e+00
-2.880403096953e+01+j0.000000000000e+00
-2.785305227022e+01+j0.000000000000e+00
-2.690241676663e+01+j0.000000000000e+00
-2.595220826185e+01+j0.000000000000e+00
-2.500253091671e+01+j0.000000000000e+00
-2.405351413718e+01+j0.000000000000e+00
-2.310531860352e+01+j0.000000000000e+00
-2.215814369024e+01+j0.000000000000e+00
-2.121223657116e+01+j0.000000000000e+00
-2.026790335083e+01+j0.000000000000e+00
-1.932552260964e+01+j0.000000000000e+00
-1.838556178888e+01+j0.000000000000e+00
-1.744859686148e+01+j0.000000000000e+00
-1.651533571972e+01+j0.000000000000e+00
-1.558664563462e+01+j0.000000000000e+00
-1.466358496883e+01+j0.000000000000e+00
-1.374743900328e+01+j0.000000000000e+00
-1.283975920526e+01+j0.000000000000e+00
-1.194240444732e+01+j0.000000000000e+00
-1.105758151129e+01+j0.000000000000e+00
-1.018788064114e+01+j0.000000000000e+00
-9.336299979957e+00+j0.000000000000e+00
-8.506250633727e+00+j0.000000000000e+00
-7.701532278060e+00+j0.000000000000e+00
-6.926268402246e+00+j0.000000000000e+00
-6.184791489004e+00+j0.000000000000e+00
-5.481472749043e+00+j0.000000000000e+00
-4.820499147514e+00+j0.000000000000e+00
-4.205611947742e+00+j0.000000000000e+00
-3.639833708555e+00+j0.000000000000e+00
-3.125220740685e+00+j0.000000000000e+00
-2.662680975990e+00+j0.000000000000e+00
-2.251890025509e+00+j0.000000000000e+00
-1.891321418103e+00+j0.000000000000e+00
-1.578385196803e+00+j0.000000000000e+00
-1.309649090843e+00+j0.000000000000e+00
-1.081104399122e+00+j0.000000000000e+00
-8.884370402908e-01+j0.000000000000e+00
-7.272714248234e-01+j0.000000000000e+00
-5.933668162667e-01+j0.000000000000e+00
-4.827583042397e-01+j0.000000000000e+00
-3.918443842070e-01+j0.000000000000e+00
-3.174292345774e-01+j0.000000000000e+00
-2.567303452939e-01+j0.000000000000e+00
-2.073621559257e-01+j0.000000000000e+00
-1.673049018532e-01+j0.000000000000e+00
-1.348658295270e-01+j0.000000000000e+00
-1.086378986432e-01+j0.000000000000e+00
-8.745933562043e-02+j0.000000000000e+00
-7.037604073263e-02+j0.000000000000e+00
-5.660787092169e-02+j0.000000000000e+00
-4.551916090184e-02+j0.000000000000e+00
-3.659343194585e-02+j0.000000000000e+00
-2.941200107339e-02+j0.000000000000e+00
-2.363608633306e-02+j0.000000000000e+00
-1.899196356522e-02+j0.000000000000e+00
-1.525873593511e-02+j0.000000000000e+00
-1.225830894366e-02+j0.000000000000e+00
-9.847207140009e-03+j0.000000000000e+00
-7.909916080131e-03+j0.000000000000e+00
-6.353479365665e-03+j0.000000000000e+00
-5.103123280746e-03+j0.000000000000e+00
-4.098719461960e-03+j0.000000000000e+00
-3.291928879579e-03+j0.000000000000e+00
-2.643898350637e-03+j0.000000000000e+00
-2.123404267091e-03+j0.000000000000e+00
-1.705357731106e-03+j0.000000000000e+00
-1.369601389550e-03+j0.000000000000e+00
-1.099941470561e-03+j0.000000000000e+00
-8.833693165041e-04+j0.000000000000e+00
-7.094354921074e-04+j0.000000000000e+00
-5.697466774618e-04+j0.000000000000e+00
-4.575613317610e-04+j0.000000000000e+00
-3.674647842009e-04+j0.000000000000e+00
-2.951081799606e-04+j0.000000000000e+00
-2.369987513677e-04+j0.000000000000e+00
-1.903313360026e-04+j0.000000000000e+00
-1.528530379589e-04+j0.000000000000e+00
-1.227545177446e-04+j0.000000000000e+00
-9.858267487208e-05+j0.000000000000e+00
-7.917051557920e-05+j0.000000000000e+00
-6.358082479396e-05+j0.000000000000e+00
-5.106092619341e-05+j0.000000000000e+00
-4.100634825429e-05+j0.000000000000e+00
-3.293164341445e-05+j0.000000000000e+00
-2.644695237542e-05+j0.000000000000e+00
-2.123918258307e-05+j0.000000000000e+00
-1.705689249570e-05+j0.000000000000e+00
-1.369815212335e-05+j0.000000000000e+00
-1.100079380693e-05+j0.000000000000e+00
</dep>
