<Qucs Dataset 0.0.21>
<indep frequency 127>
1.000000000000e-01
1.115883992508e-01
1.245197084735e-01
1.389495494373e-01
1.550515779833e-01
1.730195738846e-01
1.930697728883e-01
2.154434690032e-01
2.404099183510e-01
2.682695795280e-01
2.993577294720e-01
3.340484983513e-01
3.727593720315e-01
4.159562163072e-01
4.641588833613e-01
5.179474679231e-01
5.779692884153e-01
6.449466771038e-01
7.196856730012e-01
8.030857221392e-01
8.961505019466e-01
1.000000000000e+00
1.115883992508e+00
1.245197084735e+00
1.389495494373e+00
1.550515779833e+00
1.730195738846e+00
1.930697728883e+00
2.154434690032e+00
2.404099183510e+00
2.682695795280e+00
2.993577294720e+00
3.340484983513e+00
3.727593720315e+00
4.159562163072e+00
4.641588833613e+00
5.179474679231e+00
5.779692884153e+00
6.449466771038e+00
7.196856730011e+00
8.030857221391e+00
8.961505019466e+00
1.000000000000e+01
1.115883992508e+01
1.245197084735e+01
1.389495494373e+01
1.550515779833e+01
1.730195738846e+01
1.930697728883e+01
2.154434690032e+01
2.404099183510e+01
2.682695795280e+01
2.993577294720e+01
3.340484983513e+01
3.727593720315e+01
4.159562163072e+01
4.641588833613e+01
5.179474679231e+01
5.779692884153e+01
6.449466771038e+01
7.196856730011e+01
8.030857221391e+01
8.961505019466e+01
1.000000000000e+02
1.115883992508e+02
1.245197084735e+02
1.389495494373e+02
1.550515779833e+02
1.730195738846e+02
1.930697728883e+02
2.154434690032e+02
2.404099183510e+02
2.682695795280e+02
2.993577294720e+02
3.340484983513e+02
3.727593720315e+02
4.159562163072e+02
4.641588833613e+02
5.179474679231e+02
5.779692884153e+02
6.449466771038e+02
7.196856730011e+02
8.030857221391e+02
8.961505019466e+02
1.000000000000e+03
1.115883992508e+03
1.245197084735e+03
1.389495494373e+03
1.550515779833e+03
1.730195738846e+03
1.930697728883e+03
2.154434690032e+03
2.404099183510e+03
2.682695795280e+03
2.993577294720e+03
3.340484983513e+03
3.727593720315e+03
4.159562163072e+03
4.641588833613e+03
5.179474679231e+03
5.779692884153e+03
6.449466771038e+03
7.196856730011e+03
8.030857221391e+03
8.961505019466e+03
1.000000000000e+04
1.115883992508e+04
1.245197084735e+04
1.389495494373e+04
1.550515779833e+04
1.730195738846e+04
1.930697728883e+04
2.154434690032e+04
2.404099183510e+04
2.682695795280e+04
2.993577294720e+04
3.340484983513e+04
3.727593720315e+04
4.159562163072e+04
4.641588833613e+04
5.179474679231e+04
5.779692884153e+04
6.449466771038e+04
7.196856730011e+04
8.030857221391e+04
8.961505019466e+04
1.000000000000e+05
</indep>
<dep ac.v(vout1) frequency>
-9.999895063839e-01+j6.283289616222e-04
-9.999894095813e-01+j7.011421624313e-04
-9.999892890431e-01+j7.823932212216e-04
-9.999891389493e-01+j8.730599403676e-04
-9.999889520531e-01+j9.742334298763e-04
-9.999887193305e-01+j1.087131236366e-03
-9.999884295451e-01+j1.213111992876e-03
-9.999880687055e-01+j1.353691765506e-03
-9.999876193894e-01+j1.510562293200e-03
-9.999870599028e-01+j1.685611339594e-03
-9.999863632327e-01+j1.880945401047e-03
-9.999854957424e-01+j2.098915043024e-03
-9.999844155482e-01+j2.342143168176e-03
-9.999830704968e-01+j2.613556554159e-03
-9.999813956477e-01+j2.916421037722e-03
-9.999793101383e-01+j3.254380764335e-03
-9.999767132803e-01+j3.631501969885e-03
-9.999734796991e-01+j4.052321813308e-03
-9.999694532825e-01+j4.521902836634e-03
-9.999644396456e-01+j5.045893692307e-03
-9.999581967498e-01+j5.630596847011e-03
-9.999504232231e-01+j6.283044046803e-03
-9.999407438192e-01+j7.011080410047e-03
-9.999286913157e-01+j7.823458102303e-03
-9.999136839796e-01+j8.729940640073e-03
-9.998949975181e-01+j9.741418966982e-03
-9.998717301670e-01+j1.087004054417e-02
-9.998427592429e-01+j1.212935279302e-02
-9.998066870792e-01+j1.353446231738e-02
-9.997617737644e-01+j1.510221140615e-02
-9.997058534758e-01+j1.685137336393e-02
-9.996362304393e-01+j1.880286822062e-02
-9.995495495917e-01+j2.098000030634e-02
-9.994416358637e-01+j2.340871901218e-02
-9.993072945711e-01+j2.611790374255e-02
-9.991400636600e-01+j2.913967353493e-02
-9.989319064391e-01+j3.250972098549e-02
-9.986728308819e-01+j3.626766884789e-02
-9.983504185390e-01+j4.045744579227e-02
-9.979492425077e-01+j4.512767508658e-02
-9.974501497421e-01+j5.033206607003e-02
-9.968293782650e-01+j5.612979280293e-02
-9.960574746800e-01+j6.258583663010e-02
-9.950979720319e-01+j6.977125885386e-02
-9.939057830420e-01+j7.776335534489e-02
-9.924252599367e-01+j8.664562558062e-02
-9.905878710016e-01+j9.650746295446e-02
-9.883094479880e-01+j1.074434398019e-01
-9.854869712500e-01+j1.195520181190e-01
-9.819948863719e-01+j1.329334646503e-01
-9.776809947628e-01+j1.476866875548e-01
-9.723620416126e-01+j1.639046446892e-01
-9.658192508396e-01+j1.816679092285e-01
-9.577942430529e-01+j2.010359337454e-01
-9.479860326258e-01+j2.220355584747e-01
-9.360501392894e-01+j2.446464099403e-01
-9.216012536601e-01+j2.687830991057e-01
-9.042213110778e-01+j2.942746372210e-01
-8.834751362120e-01+j3.208423261284e-01
-8.589358169578e-01+j3.480785912606e-01
-8.302213551082e-01+j3.754307410723e-01
-7.970425895954e-01+j4.021951776173e-01
-7.592596682018e-01+j4.275285758733e-01
-7.169405854280e-01+j4.504821403191e-01
-6.704112827786e-01+j4.700623361322e-01
-6.202840635452e-01+j4.853160547717e-01
-5.674515726693e-01+j4.954307313480e-01
-5.130387699290e-01+j4.998327237091e-01
-4.583148446916e-01+j4.982635389504e-01
-4.045781202760e-01+j4.908159435350e-01
-3.530353148071e-01+j4.779208805471e-01
-3.046983367989e-01+j4.602885221721e-01
-2.603162463129e-01+j4.388178820445e-01
-2.203496705840e-01+j4.144950954146e-01
-1.849842085288e-01+j3.882994668549e-01
-1.541719231183e-01+j3.611304193811e-01
-1.276873915146e-01+j3.337607819374e-01
-1.051862241764e-01+j3.068152777403e-01
-8.625761060899e-02+j2.807690640849e-01
-7.046647773047e-02+j2.559597671648e-01
-5.738411087929e-02+j2.326068987748e-01
-4.660818215687e-02+j2.108339127434e-01
-3.777415004446e-02+j1.906897380326e-01
-3.056024603294e-02+j1.721680007376e-01
-2.468807304688e-02+j1.552231628087e-01
-1.992045675933e-02+j1.397834620584e-01
-1.605777165788e-02+j1.257609071357e-01
-1.293358990907e-02+j1.130587494760e-01
-1.041020307730e-02+j1.015768974591e-01
-8.374346679205e-03+j9.121571221551e-02
-6.733304543290e-03+j8.187856682585e-02
-5.411469225378e-03+j7.347348335494e-02
-4.347372149321e-03+j6.591409730162e-02
-3.491160976664e-03+j5.912014216370e-02
-2.802483030000e-03+j5.301759970052e-02
-2.248725980688e-03+j4.753862390097e-02
-1.803566042191e-03+j4.262131750722e-02
-1.445776655074e-03+j3.820941777795e-02
-1.158255235842e-03+j3.425193159583e-02
-9.272308390774e-04+j3.070274778943e-02
-7.416208791930e-04+j2.752024561745e-02
-5.925100110236e-04+j2.466691192864e-02
-4.727287053123e-04+j2.210897492082e-02
-3.765129189487e-04+j1.981605918744e-02
-2.992295589700e-04+j1.776086449209e-02
-2.371552165755e-04+j1.591886917522e-02
-1.872979607727e-04+j1.426805807196e-02
-1.472538929580e-04+j1.278867415712e-02
-1.150917338825e-04+j1.146299272594e-02
-8.925999800252e-05+j1.027511668952e-02
-6.851235561982e-05+j9.210791456309e-03
-5.184763219923e-05+j8.257237845425e-03
-3.846158213866e-05+j7.403001506653e-03
-2.770813061133e-05+j6.637817384524e-03
-1.906822639832e-05+j5.952487847310e-03
-1.212481104577e-05+j5.338773195602e-03
-6.542701726967e-06+j4.789293363369e-03
-2.052420329927e-06+j4.297439722520e-03
1.562809534178e-06+j3.857295997175e-03
4.477523826488e-06+j3.463567384565e-03
6.832441749342e-06+j3.111517064481e-03
8.741257839195e-06+j2.796909358300e-03
1.029612998996e-05+j2.515958871429e-03
1.157212809706e-05+j2.265285019892e-03
1.263085792030e-05+j2.041871402729e-03
1.352343499443e-05+j1.843029537395e-03
1.429295206148e-05+j1.666366525699e-03
</dep>
<dep ac.v(vout2) frequency>
-3.947903504310e-07-j6.283151100123e-04
-4.915917458533e-07-j7.011267056438e-04
-6.121285350351e-07-j7.823759732431e-04
-7.622205529098e-07-j8.730406936288e-04
-9.491146330311e-07-j9.742119527548e-04
-1.181834499103e-06-j1.087107270398e-03
-1.471616446491e-06-j1.213085249648e-03
-1.832451847829e-06-j1.353661923182e-03
-2.281762673649e-06-j1.510528992652e-03
-2.841242639723e-06-j1.685574180077e-03
-3.537904587370e-06-j1.880903935381e-03
-4.405384656808e-06-j2.098868772212e-03
-5.485566206579e-06-j2.342091535403e-03
-6.830601861437e-06-j2.613498938092e-03
-8.505431280121e-06-j2.916356745040e-03
-1.059091614783e-05-j3.254309021389e-03
-1.318774366651e-05-j3.631421913396e-03
-1.642128686997e-05-j4.052232479995e-03
-2.044765620972e-05-j4.521803151632e-03
-2.546123425172e-05-j5.045782456259e-03
-3.170405674244e-05-j5.630472721669e-03
-3.947749215378e-05-j6.282905538963e-03
-4.915678233447e-05-j7.010925853648e-03
-6.120914432595e-05-j7.823285638462e-03
-7.621630423983e-05-j8.729748194841e-03
-9.490254637585e-05-j9.741204226549e-03
-1.181696243988e-04-j1.086980092726e-02
-1.471402086026e-04-j1.212908542016e-02
-1.832119490656e-04-j1.353416397670e-02
-2.281247371989e-04-j1.510187851537e-02
-2.840443701501e-04-j1.685100192812e-02
-3.536665908179e-04-j1.880245378536e-02
-4.403464233372e-04-j2.097953790580e-02
-5.482588884408e-04-j2.340820311171e-02
-6.825986103118e-04-j2.611732817538e-02
-8.498275683592e-04-j2.913903143245e-02
-1.057982361696e-03-j3.250900470090e-02
-1.317054902737e-03-j3.626686987283e-02
-1.639463500345e-03-j4.045655466654e-02
-2.040634884108e-03-j4.512668130088e-02
-2.539721887530e-03-j5.033095796246e-02
-3.160486228005e-03-j5.612855745034e-02
-3.932380986047e-03-j6.258445973611e-02
-4.891872734595e-03-j6.976972463661e-02
-6.084048294100e-03-j7.776164642881e-02
-7.564554893878e-03-j8.664372289871e-02
-9.401923612006e-03-j9.650534566979e-02
-1.168032196631e-02-j1.074410852601e-01
-1.450276878702e-02-j1.195494018471e-01
-1.799481761555e-02-j1.329305604212e-01
-2.230866616546e-02-j1.476834675393e-01
-2.762756846737e-02-j1.639010797204e-01
-3.417030008986e-02-j1.816639691993e-01
-4.219524044366e-02-j2.010315881509e-01
-5.200337611078e-02-j2.220307770865e-01
-6.393918983121e-02-j2.446411635533e-01
-7.838799577086e-02-j2.687773602210e-01
-9.576786671434e-02-j2.942683804058e-01
-1.165139906916e-01-j3.208355276324e-01
-1.410532984005e-01-j3.480712272636e-01
-1.697678136811e-01-j3.754227837483e-01
-2.029467308282e-01-j4.021865880959e-01
-2.407299422685e-01-j4.275192932966e-01
-2.830494983056e-01-j4.504720666698e-01
-3.295795022740e-01-j4.700513174285e-01
-3.797076891545e-01-j4.853038604910e-01
-4.325414380183e-01-j4.954170351949e-01
-4.869557918184e-01-j4.998170895065e-01
-5.416815384090e-01-j4.982454149635e-01
-5.954203064233e-01-j4.907946667781e-01
-6.469653095421e-01-j4.778956900586e-01
-6.953045597670e-01-j4.602585778299e-01
-7.396889165701e-01-j4.387822841748e-01
-7.796576805378e-01-j4.144529006324e-01
-8.150251952960e-01-j3.882496969670e-01
-8.458393580731e-01-j3.610720620704e-01
-8.723255693675e-01-j3.336927836097e-01
-8.948282114771e-01-j3.067365299438e-01
-9.137580993035e-01-j2.806783852595e-01
-9.295503183528e-01-j2.558558813163e-01
-9.426336004832e-01-j2.324884122485e-01
-9.534102929770e-01-j2.106992897850e-01
-9.622449570501e-01-j1.905372754003e-01
-9.694593799858e-01-j1.719958013066e-01
-9.753319759810e-01-j1.550291078937e-01
-9.800999344725e-01-j1.395651820449e-01
-9.839628939615e-01-j1.255157499401e-01
-9.870872931939e-01-j1.127837463063e-01
-9.896108495688e-01-j1.012687253274e-01
-9.916468347486e-01-j9.087065262792e-02
-9.932879704647e-01-j8.149246005069e-02
-9.946098682507e-01-j7.304167763776e-02
-9.956739994200e-01-j6.543139235115e-02
-9.965302177762e-01-j5.858072617964e-02
-9.972188762259e-01-j5.241497914801e-02
-9.977725860806e-01-j4.686554515881e-02
-9.982176687987e-01-j4.186967942614e-02
-9.985753471795e-01-j3.737017408166e-02
-9.988627184263e-01-j3.331498193929e-02
-9.990935462204e-01-j2.965681615549e-02
-9.992789036464e-01-j2.635274458314e-02
-9.994276938510e-01-j2.336379116417e-02
-9.995470708775e-01-j2.065455209617e-02
-9.996427792470e-01-j1.819283125111e-02
-9.997194275521e-01-j1.594929705174e-02
-9.997807085387e-01-j1.389716144774e-02
-9.998295758327e-01-j1.201188057836e-02
-9.998683855355e-01-j1.027087601158e-02
-9.998990093296e-01-j8.653275005409e-03
-9.999229244268e-01-j7.139667965819e-03
-9.999412846210e-01-j5.711881122375e-03
-9.999549758217e-01-j4.352762366789e-03
-9.999646587161e-01-j3.045978172384e-03
-9.999708005987e-01-j1.775819513890e-03
-9.999736978898e-01-j5.270147227921e-04
-9.999734904223e-01+j7.154527662246e-04
-9.999701681828e-01+j1.966523803850e-03
-9.999635708287e-01+j3.241242063708e-03
-9.999533799586e-01+j4.554933739186e-03
-9.999391037664e-01+j5.923390415249e-03
-9.999200533415e-01+j7.363057144670e-03
-9.998953094817e-01+j8.891227777581e-03
-9.998636784294e-01+j1.052624961409e-02
-9.998236344188e-01+j1.228773946489e-02
-9.997732462944e-01+j1.419681320420e-02
-9.997100847153e-01+j1.627633086787e-02
-9.996311055503e-01+j1.855115926627e-02
</dep>
<dep ac.vout1_db frequency>
-8.943225144220e-05+j0.000000000000e+00
-8.985265707290e-05+j0.000000000000e+00
-9.037614488324e-05+j0.000000000000e+00
-9.102799028951e-05+j0.000000000000e+00
-9.183966615138e-05+j0.000000000000e+00
-9.285036235986e-05+j0.000000000000e+00
-9.410887800067e-05+j0.000000000000e+00
-9.567597750041e-05+j0.000000000000e+00
-9.762732443450e-05+j0.000000000000e+00
-1.000571347271e-04+j0.000000000000e+00
-1.030827255169e-04+j0.000000000000e+00
-1.068501794014e-04+j0.000000000000e+00
-1.115413974275e-04+j0.000000000000e+00
-1.173828813525e-04+j0.000000000000e+00
-1.246566691263e-04+j0.000000000000e+00
-1.337139514248e-04+j0.000000000000e+00
-1.449920265357e-04+j0.000000000000e+00
-1.590354118420e-04+j0.000000000000e+00
-1.765221308132e-04+j0.000000000000e+00
-1.982964438752e-04+j0.000000000000e+00
-2.254096024162e-04+j0.000000000000e+00
-2.591705917761e-04+j0.000000000000e+00
-3.012093104427e-04+j0.000000000000e+00
-3.535552315562e-04+j0.000000000000e+00
-4.187353379900e-04+j0.000000000000e+00
-4.998960490814e-04+j0.000000000000e+00
-6.009550098060e-04+j0.000000000000e+00
-7.267900459634e-04+j0.000000000000e+00
-8.834743697022e-04+j0.000000000000e+00
-1.078569331314e-03+j0.000000000000e+00
-1.321488758425e-03+j0.000000000000e+00
-1.623952328717e-03+j0.000000000000e+00
-2.000549641180e-03+j0.000000000000e+00
-2.469441872216e-03+j0.000000000000e+00
-3.053234354259e-03+j0.000000000000e+00
-3.780061370967e-03+j0.000000000000e+00
-4.684934250490e-03+j0.000000000000e+00
-5.811415841710e-03+j0.000000000000e+00
-7.213699119834e-03+j0.000000000000e+00
-8.959185485709e-03+j0.000000000000e+00
-1.113167983424e-02+j0.000000000000e+00
-1.383534521430e-02+j0.000000000000e+00
-1.719959037005e-02+j0.000000000000e+00
-2.138509895596e-02+j0.000000000000e+00
-2.659124971265e-02+j0.000000000000e+00
-3.306522168097e-02+j0.000000000000e+00
-4.111312580221e-02+j0.000000000000e+00
-5.111355036951e-02+j0.000000000000e+00
-6.353394629113e-02+j0.000000000000e+00
-7.895029826074e-02+j0.000000000000e+00
-9.807051277649e-02+j0.000000000000e+00
-1.217618780046e-01+j0.000000000000e+00
-1.510827770285e-01+j0.000000000000e+00
-1.873185148874e-01+j0.000000000000e+00
-2.320205869638e-01+j0.000000000000e+00
-2.870478978742e-01+j0.000000000000e+00
-3.546072652820e-01+j0.000000000000e+00
-4.372889719069e-01+j0.000000000000e+00
-5.380912010074e-01+j0.000000000000e+00
-6.604250977021e-01+j0.000000000000e+00
-8.080903721617e-01+j0.000000000000e+00
-9.852105390508e-01+j0.000000000000e+00
-1.196118091826e+00+j0.000000000000e+00
-1.445184231637e+00+j0.000000000000e+00
-1.736595888878e+00+j0.000000000000e+00
-2.074094264047e+00+j0.000000000000e+00
-2.460701825406e+00+j0.000000000000e+00
-2.898474769638e+00+j0.000000000000e+00
-3.388320899058e+00+j0.000000000000e+00
-3.929915690103e+00+j0.000000000000e+00
-4.521732542861e+00+j0.000000000000e+00
-5.161181386483e+00+j0.000000000000e+00
-5.844829856791e+00+j0.000000000000e+00
-6.568669181082e+00+j0.000000000000e+00
-7.328385225589e+00+j0.000000000000e+00
-8.119602361949e+00+j0.000000000000e+00
-8.938079821042e+00+j0.000000000000e+00
-9.779852657843e+00+j0.000000000000e+00
-1.064131932297e+01+j0.000000000000e+00
-1.151928393176e+01+j0.000000000000e+00
-1.241096388489e+01+j0.000000000000e+00
-1.331397349833e+01+j0.000000000000e+00
-1.422629284066e+01+j0.000000000000e+00
-1.514622893809e+01+j0.000000000000e+00
-1.607237446448e+01+j0.000000000000e+00
-1.700356727999e+01+j0.000000000000e+00
-1.793885281975e+01+j0.000000000000e+00
-1.887745035374e+01+j0.000000000000e+00
-1.981872347920e+01+j0.000000000000e+00
-2.076215479361e+01+j0.000000000000e+00
-2.170732445910e+01+j0.000000000000e+00
-2.265389225192e+01+j0.000000000000e+00
-2.360158264951e+01+j0.000000000000e+00
-2.455017251319e+01+j0.000000000000e+00
-2.549948095494e+01+j0.000000000000e+00
-2.644936101925e+01+j0.000000000000e+00
-2.739969285712e+01+j0.000000000000e+00
-2.835037811397e+01+j0.000000000000e+00
-2.930133529375e+01+j0.000000000000e+00
-3.025249589739e+01+j0.000000000000e+00
-3.120380116307e+01+j0.000000000000e+00
-3.215519926015e+01+j0.000000000000e+00
-3.310664280746e+01+j0.000000000000e+00
-3.405808659997e+01+j0.000000000000e+00
-3.500948543704e+01+j0.000000000000e+00
-3.596079194934e+01+j0.000000000000e+00
-3.691195432150e+01+j0.000000000000e+00
-3.786291380236e+01+j0.000000000000e+00
-3.881360188491e+01+j0.000000000000e+00
-3.976393702311e+01+j0.000000000000e+00
-4.071382073175e+01+j0.000000000000e+00
-4.166313288821e+01+j0.000000000000e+00
-4.261172602047e+01+j0.000000000000e+00
-4.355941832242e+01+j0.000000000000e+00
-4.450598508548e+01+j0.000000000000e+00
-4.545114817314e+01+j0.000000000000e+00
-4.639456309234e+01+j0.000000000000e+00
-4.733580313287e+01+j0.000000000000e+00
-4.827433995542e+01+j0.000000000000e+00
-4.920951991483e+01+j0.000000000000e+00
-5.014053531679e+01+j0.000000000000e+00
-5.106638973839e+01+j0.000000000000e+00
-5.198585652093e+01+j0.000000000000e+00
-5.289742960521e+01+j0.000000000000e+00
-5.379926608362e+01+j0.000000000000e+00
-5.468912026949e+01+j0.000000000000e+00
-5.556426984312e+01+j0.000000000000e+00
</dep>
<dep ac.vout2_db frequency>
-6.403644820628e+01+j0.000000000000e+00
-6.308406767429e+01+j0.000000000000e+00
-6.213168724537e+01+j0.000000000000e+00
-6.117930694481e+01+j0.000000000000e+00
-6.022692680407e+01+j0.000000000000e+00
-5.927454686234e+01+j0.000000000000e+00
-5.832216716842e+01+j0.000000000000e+00
-5.736978778307e+01+j0.000000000000e+00
-5.641740878195e+01+j0.000000000000e+00
-5.546503025927e+01+j0.000000000000e+00
-5.451265233235e+01+j0.000000000000e+00
-5.356027514726e+01+j0.000000000000e+00
-5.260789888589e+01+j0.000000000000e+00
-5.165552377474e+01+j0.000000000000e+00
-5.070315009583e+01+j0.000000000000e+00
-4.975077820034e+01+j0.000000000000e+00
-4.879840852554e+01+j0.000000000000e+00
-4.784604161593e+01+j0.000000000000e+00
-4.689367814951e+01+j0.000000000000e+00
-4.594131897050e+01+j0.000000000000e+00
-4.498896513009e+01+j0.000000000000e+00
-4.403661793723e+01+j0.000000000000e+00
-4.308427902174e+01+j0.000000000000e+00
-4.213195041300e+01+j0.000000000000e+00
-4.117963463789e+01+j0.000000000000e+00
-4.022733484268e+01+j0.000000000000e+00
-3.927505494486e+01+j0.000000000000e+00
-3.832279982204e+01+j0.000000000000e+00
-3.737057554716e+01+j0.000000000000e+00
-3.641838968125e+01+j0.000000000000e+00
-3.546625163773e+01+j0.000000000000e+00
-3.451417313575e+01+j0.000000000000e+00
-3.356216876429e+01+j0.000000000000e+00
-3.261025668374e+01+j0.000000000000e+00
-3.165845949844e+01+j0.000000000000e+00
-3.070680534145e+01+j0.000000000000e+00
-2.975532922259e+01+j0.000000000000e+00
-2.880407470282e+01+j0.000000000000e+00
-2.785309597275e+01+j0.000000000000e+00
-2.690246043088e+01+j0.000000000000e+00
-2.595225187848e+01+j0.000000000000e+00
-2.500257447411e+01+j0.000000000000e+00
-2.405355762093e+01+j0.000000000000e+00
-2.310536199572e+01+j0.000000000000e+00
-2.215818696869e+01+j0.000000000000e+00
-2.121227970835e+01+j0.000000000000e+00
-2.026794631271e+01+j0.000000000000e+00
-1.932556535413e+01+j0.000000000000e+00
-1.838560426406e+01+j0.000000000000e+00
-1.744863900348e+01+j0.000000000000e+00
-1.651537745011e+01+j0.000000000000e+00
-1.558668685752e+01+j0.000000000000e+00
-1.466362556747e+01+j0.000000000000e+00
-1.374747883622e+01+j0.000000000000e+00
