<Qucs Dataset 0.0.21>
<indep time 113>
0.000000000000e+00
9.900990000000e-08
1.104605819192e-07
1.333619457575e-07
1.791646734342e-07
2.707701287876e-07
4.539810394943e-07
7.620680523097e-07
1.268026729492e-06
2.243183144528e-06
4.193495974599e-06
8.094121634741e-06
1.589537295503e-05
2.579636295503e-05
3.569735295503e-05
4.559834295503e-05
5.549933295503e-05
6.540032295503e-05
7.530131295503e-05
8.520230295503e-05
9.510329295503e-05
1.050042829550e-04
1.149052729550e-04
1.248062629550e-04
1.347072529550e-04
1.446082429550e-04
1.545092329550e-04
1.644102229550e-04
1.743112129550e-04
1.842122029550e-04
1.941131929550e-04
2.040141829550e-04
2.139151729550e-04
2.238161629550e-04
2.337171529550e-04
2.436181429550e-04
2.535191329550e-04
2.634201229550e-04
2.733211129550e-04
2.832221029550e-04
2.931230929550e-04
3.030240829550e-04
3.129250729550e-04
3.228260629550e-04
3.327270529550e-04
3.426280429550e-04
3.525290329550e-04
3.624300229550e-04
3.723310129550e-04
3.822320029550e-04
3.921329929550e-04
4.020339829550e-04
4.119349729550e-04
4.218359629550e-04
4.317369529550e-04
4.416379429550e-04
4.515389329550e-04
4.614399229550e-04
4.713409129550e-04
4.812419029550e-04
4.911428929550e-04
5.010438829550e-04
5.109448729550e-04
5.208458629550e-04
5.307468529550e-04
5.406478429550e-04
5.505488329550e-04
5.604498229550e-04
5.703508129550e-04
5.802518029550e-04
5.901527929550e-04
6.000537829550e-04
6.099547729550e-04
6.198557629550e-04
6.297567529550e-04
6.396577429550e-04
6.495587329550e-04
6.594597229550e-04
6.693607129550e-04
6.792617029550e-04
6.891626929550e-04
6.990636829550e-04
7.089646729550e-04
7.188656629550e-04
7.287666529550e-04
7.386676429550e-04
7.485686329550e-04
7.584696229550e-04
7.683706129550e-04
7.782716029550e-04
7.881725929550e-04
7.980735829550e-04
8.079745729550e-04
8.178755629550e-04
8.277765529550e-04
8.376775429550e-04
8.475785329550e-04
8.574795229550e-04
8.673805129550e-04
8.772815029550e-04
8.871824929550e-04
8.970834829550e-04
9.069844729550e-04
9.168854629550e-04
9.267864529550e-04
9.366874429550e-04
9.465884329550e-04
9.564894229550e-04
9.663904129550e-04
9.762914029550e-04
9.861923929550e-04
9.960933829550e-04
1.000000000000e-03
</indep>
<dep tran.v(vout) time>
0.000000000000e+00
-1.122995940019e-02
-1.266974016107e-02
-1.581402649566e-02
-2.350730190030e-02
-4.305682049050e-02
-9.165965950579e-02
-1.846113150507e-01
-3.431841437506e-01
-6.491932151933e-01
-1.258908413117e+00
-2.461959189685e+00
-4.739576366919e+00
-7.206895033547e+00
-8.982495113798e+00
-9.896053645666e+00
-9.859810887620e+00
-8.877321657432e+00
-7.042807926701e+00
-4.532401285486e+00
-1.586973125263e+00
1.510735066348e+00
4.463478182415e+00
6.987820297181e+00
8.841537329215e+00
9.846677645296e+00
9.906814557443e+00
9.016138831664e+00
7.260167079154e+00
4.807393858262e+00
1.893251552806e+00
-1.202606952776e+00
-4.183033968746e+00
-6.762011269472e+00
-8.692001700486e+00
-9.787798156989e+00
-9.944212990818e+00
-9.146253034055e+00
-7.470484235388e+00
-5.077752571338e+00
-2.197682546923e+00
8.933006432840e-01
3.898556672655e+00
6.529647617860e+00
8.534069031252e+00
9.719438475802e+00
9.972001372977e+00
9.267509165378e+00
7.673583151183e+00
5.343190506042e+00
2.499995219552e+00
-5.831373870050e-01
-3.610300998240e+00
-6.290973247554e+00
-8.367874309645e+00
-9.641681320447e+00
-9.990137369050e+00
-9.379804313111e+00
-7.869253929844e+00
-5.603463362312e+00
-2.799885461663e+00
2.724064026716e-01
3.318555918307e+00
6.046209648168e+00
8.193587088125e+00
9.554593746052e+00
9.998611045190e+00
9.483022747424e+00
8.057313878740e+00
5.858313187461e+00
3.097068882519e+00
3.858635463381e-02
-3.023598700790e+00
-5.795598250095e+00
-8.011371658668e+00
-9.458264029091e+00
-9.997410454049e+00
-9.577068104246e+00
-8.237577807137e+00
-6.107496462307e+00
-3.391255150974e+00
-3.495426506188e-01
2.725717150147e+00
5.539379219925e+00
7.821406431387e+00
9.352783379894e+00
9.986538604237e+00
9.661847679729e+00
8.409872924207e+00
6.350770624001e+00
3.682161051789e+00
6.601603581206e-01
-2.425198240304e+00
-5.277801558772e+00
-7.623874137400e+00
-9.238254821062e+00
-9.966005103669e+00
-9.737280302668e+00
-8.574031755440e+00
-6.587901055825e+00
-3.969504466233e+00
-9.701396126091e-01
2.122333299469e+00
5.011117772316e+00
7.418966393255e+00
9.114788670670e+00
9.935830265461e+00
9.803292579125e+00
8.729895876510e+00
6.818657986479e+00
4.253007745241e+00
1.279180213970e+00
5.478907151248e-02
</dep>
<indep frequency 127>
1.000000000000e-01
1.115883992508e-01
1.245197084735e-01
1.389495494373e-01
1.550515779833e-01
1.730195738846e-01
1.930697728883e-01
2.154434690032e-01
2.404099183510e-01
2.682695795280e-01
2.993577294720e-01
3.340484983513e-01
3.727593720315e-01
4.159562163072e-01
4.641588833613e-01
5.179474679231e-01
5.779692884153e-01
6.449466771038e-01
7.196856730012e-01
8.030857221392e-01
8.961505019466e-01
1.000000000000e+00
1.115883992508e+00
1.245197084735e+00
1.389495494373e+00
1.550515779833e+00
1.730195738846e+00
1.930697728883e+00
2.154434690032e+00
2.404099183510e+00
2.682695795280e+00
2.993577294720e+00
3.340484983513e+00
3.727593720315e+00
4.159562163072e+00
4.641588833613e+00
5.179474679231e+00
5.779692884153e+00
6.449466771038e+00
7.196856730011e+00
8.030857221391e+00
8.961505019466e+00
1.000000000000e+01
1.115883992508e+01
1.245197084735e+01
1.389495494373e+01
1.550515779833e+01
1.730195738846e+01
1.930697728883e+01
2.154434690032e+01
2.404099183510e+01
2.682695795280e+01
2.993577294720e+01
3.340484983513e+01
3.727593720315e+01
4.159562163072e+01
4.641588833613e+01
5.179474679231e+01
5.779692884153e+01
6.449466771038e+01
7.196856730011e+01
8.030857221391e+01
8.961505019466e+01
1.000000000000e+02
1.115883992508e+02
1.245197084735e+02
1.389495494373e+02
1.550515779833e+02
1.730195738846e+02
1.930697728883e+02
2.154434690032e+02
2.404099183510e+02
2.682695795280e+02
2.993577294720e+02
3.340484983513e+02
3.727593720315e+02
4.159562163072e+02
4.641588833613e+02
5.179474679231e+02
5.779692884153e+02
6.449466771038e+02
7.196856730011e+02
8.030857221391e+02
8.961505019466e+02
1.000000000000e+03
1.115883992508e+03
1.245197084735e+03
1.389495494373e+03
1.550515779833e+03
1.730195738846e+03
1.930697728883e+03
2.154434690032e+03
2.404099183510e+03
2.682695795280e+03
2.993577294720e+03
3.340484983513e+03
3.727593720315e+03
4.159562163072e+03
4.641588833613e+03
5.179474679231e+03
5.779692884153e+03
6.449466771038e+03
7.196856730011e+03
8.030857221391e+03
8.961505019466e+03
1.000000000000e+04
1.115883992508e+04
1.245197084735e+04
1.389495494373e+04
1.550515779833e+04
1.730195738846e+04
1.930697728883e+04
2.154434690032e+04
2.404099183510e+04
2.682695795280e+04
2.993577294720e+04
3.340484983513e+04
3.727593720315e+04
4.159562163072e+04
4.641588833613e+04
5.179474679231e+04
5.779692884153e+04
6.449466771038e+04
7.196856730011e+04
8.030857221391e+04
8.961505019466e+04
1.000000000000e+05
</indep>
<dep ac.v(vout) frequency>
-9.999448310999e+00+j1.100704478741e-06
-9.999448310999e+00+j1.228258508310e-06
-9.999448310999e+00+j1.370594008082e-06
-9.999448310999e+00+j1.529423913849e-06
-9.999448310999e+00+j1.706659663225e-06
-9.999448310999e+00+j1.904434198840e-06
-9.999448310999e+00+j2.125127637269e-06
-9.999448310999e+00+j2.371395912468e-06
-9.999448310999e+00+j2.646202738637e-06
-9.999448310998e+00+j2.952855276962e-06
-9.999448310998e+00+j3.295043935745e-06
-9.999448310998e+00+j3.676886782542e-06
-9.999448310998e+00+j4.102979102889e-06
-9.999448310997e+00+j4.578448702525e-06
-9.999448310997e+00+j5.109017617632e-06
-9.999448310996e+00+j5.701070976953e-06
-9.999448310995e+00+j6.361733843337e-06
-9.999448310994e+00+j7.098956960346e-06
-9.999448310993e+00+j7.921612435587e-06
-9.999448310991e+00+j8.839600511693e-06
-9.999448310989e+00+j9.863968711172e-06
-9.999448310987e+00+j1.100704478739e-05
-9.999448310984e+00+j1.228258508313e-05
-9.999448310980e+00+j1.370594008074e-05
-9.999448310976e+00+j1.529423913848e-05
-9.999448310970e+00+j1.706659663216e-05
-9.999448310963e+00+j1.904434198831e-05
-9.999448310954e+00+j2.125127637258e-05
-9.999448310943e+00+j2.371395912459e-05
-9.999448310929e+00+j2.646202738607e-05
-9.999448310912e+00+j2.952855276923e-05
-9.999448310891e+00+j3.295043935718e-05
-9.999448310864e+00+j3.676886782464e-05
-9.999448310831e+00+j4.102979102811e-05
-9.999448310790e+00+j4.578448702403e-05
-9.999448310738e+00+j5.109017617507e-05
-9.999448310674e+00+j5.701070976745e-05
-9.999448310595e+00+j6.361733843112e-05
-9.999448310495e+00+j7.098956960008e-05
-9.999448310372e+00+j7.921612435093e-05
-9.999448310218e+00+j8.839600511043e-05
-9.999448310026e+00+j9.863968710234e-05
-9.999448309788e+00+j1.100704478608e-04
-9.999448309491e+00+j1.228258508123e-04
-9.999448309121e+00+j1.370594007825e-04
-9.999448308660e+00+j1.529423913482e-04
-9.999448308087e+00+j1.706659662729e-04
-9.999448307372e+00+j1.904434198160e-04
-9.999448306483e+00+j2.125127636310e-04
-9.999448305376e+00+j2.371395911135e-04
-9.999448303997e+00+j2.646202736771e-04
-9.999448302280e+00+j2.952855274384e-04
-9.999448300142e+00+j3.295043932171e-04
-9.999448297480e+00+j3.676886777561e-04
-9.999448294165e+00+j4.102979095965e-04
-9.999448290037e+00+j4.578448692903e-04
-9.999448284898e+00+j5.109017604292e-04
-9.999448278497e+00+j5.701070958438e-04
-9.999448270528e+00+j6.361733817607e-04
-9.999448260605e+00+j7.098956924616e-04
-9.999448248248e+00+j7.921612385880e-04
-9.999448232862e+00+j8.839600442667e-04
-9.999448213703e+00+j9.863968615223e-04
-9.999448189846e+00+j1.100704465407e-03
-9.999448160139e+00+j1.228258489780e-03
-9.999448123149e+00+j1.370593982338e-03
-9.999448077089e+00+j1.529423878073e-03
-9.999448019734e+00+j1.706659613513e-03
-9.999447948317e+00+j1.904434129778e-03
-9.999447859388e+00+j2.125127541307e-03
-9.999447748655e+00+j2.371395779123e-03
-9.999447610769e+00+j2.646202553336e-03
-9.999447439075e+00+j2.952855019503e-03
-9.999447225282e+00+j3.295043578015e-03
-9.999446959067e+00+j3.676886285439e-03
-9.999446627578e+00+j4.102978412185e-03
-9.999446214808e+00+j4.578447742780e-03
-9.999445700828e+00+j5.109016284112e-03
-9.999445060821e+00+j5.701069124034e-03
-9.999444263888e+00+j6.361731268708e-03
-9.999443271548e+00+j7.098953382939e-03
-9.999442035890e+00+j7.921607464753e-03
-9.999440497253e+00+j8.839593604771e-03
-9.999438581347e+00+j9.863959114019e-03
-9.999436195668e+00+j1.100703145219e-02
-9.999433225028e+00+j1.228256655386e-02
-9.999429525999e+00+j1.370591433457e-02
-9.999424919982e+00+j1.529420336416e-02
-9.999419184590e+00+j1.706654692399e-02
-9.999412042905e+00+j1.904427291917e-02
-9.999403150114e+00+j2.125118040138e-02
-9.999392076859e+00+j2.371382577307e-02
-9.999378288508e+00+j2.646184209498e-02
-9.999361119347e+00+j2.952829530867e-02
-9.999339740440e+00+j3.295008161746e-02
-9.999313119616e+00+j3.676837074826e-02
-9.999279971641e+00+j4.102910034489e-02
-9.999238696186e+00+j4.578352732675e-02
-9.999187300586e+00+j5.108884268685e-02
-9.999123303674e+00+j5.700885690379e-02
-9.999043616050e+00+j6.361476390523e-02
-9.998944391029e+00+j7.098599234398e-02
-9.998820839074e+00+j7.921115383091e-02
-9.998666996808e+00+j8.838909870144e-02
-9.998475439484e+00+j9.863009086217e-02
-9.998236923121e+00+j1.100571142464e-01
-9.997939939147e+00+j1.228073243656e-01
-9.997570160228e+00+j1.370336593203e-01
-9.997109750828e+00+j1.529066253501e-01
-9.996536509655e+00+j1.706162724275e-01
-9.995822803299e+00+j1.903743753715e-01
-9.994934240659e+00+j2.124168352153e-01
-9.993828025838e+00+j2.370063137630e-01
-9.992450912584e+00+j2.644351109153e-01
-9.990736665566e+00+j2.950282887502e-01
-9.988602912125e+00+j3.291470375516e-01
-9.985947242177e+00+j3.671922656740e-01
-9.982642382862e+00+j4.096083755093e-01
-9.978530238010e+00+j4.568871594266e-01
-9.973414540174e+00+j5.095717090716e-01
-9.967051815189e+00+j5.682601744238e-01
-9.959140307215e+00+j6.336091296650e-01
-9.949306458776e+00+j7.063361936835e-01
-9.937088490923e+00+j7.872214043489e-01
-9.921916592754e+00+j8.771066458738e-01
-9.903089223029e+00+j9.768921640740e-01
-9.879745074352e+00+j1.087528860713e+00
</dep>
<dep ac.vout_db frequency>
1.999952079580e+01+j0.000000000000e+00
1.999952079580e+01+j0.000000000000e+00
1.999952079580e+01+j0.000000000000e+00
1.999952079580e+01+j0.000000000000e+00
1.999952079580e+01+j0.000000000000e+00
1.999952079580e+01+j0.000000000000e+00
1.999952079580e+01+j0.000000000000e+00
1.999952079580e+01+j0.000000000000e+00
1.999952079580e+01+j0.000000000000e+00
1.999952079580e+01+j0.000000000000e+00
1.999952079580e+01+j0.000000000000e+00
1.999952079580e+01+j0.000000000000e+00
1.999952079580e+01+j0.000000000000e+00
1.999952079580e+01+j0.000000000000e+00
1.999952079580e+01+j0.000000000000e+00
1.999952079580e+01+j0.000000000000e+00
1.999952079580e+01+j0.000000000000e+00
1.999952079580e+01+j0.000000000000e+00
1.999952079580e+01+j0.000000000000e+00
1.999952079580e+01+j0.000000000000e+00
1.999952079580e+01+j0.000000000000e+00
1.999952079580e+01+j0.000000000000e+00
1.999952079580e+01+j0.000000000000e+00
1.999952079580e+01+j0.000000000000e+00
1.999952079579e+01+j0.000000000000e+00
1.999952079579e+01+j0.000000000000e+00
1.999952079579e+01+j0.000000000000e+00
1.999952079578e+01+j0.000000000000e+00
1.999952079578e+01+j0.000000000000e+00
1.999952079577e+01+j0.000000000000e+00
1.999952079577e+01+j0.000000000000e+00
1.999952079576e+01+j0.000000000000e+00
1.999952079575e+01+j0.000000000000e+00
1.999952079573e+01+j0.000000000000e+00
1.999952079571e+01+j0.000000000000e+00
1.999952079569e+01+j0.000000000000e+00
1.999952079566e+01+j0.000000000000e+00
1.999952079563e+01+j0.000000000000e+00
1.999952079558e+01+j0.000000000000e+00
1.999952079553e+01+j0.000000000000e+00
1.999952079546e+01+j0.000000000000e+00
1.999952079538e+01+j0.000000000000e+00
1.999952079528e+01+j0.000000000000e+00
1.999952079515e+01+j0.000000000000e+00
1.999952079499e+01+j0.000000000000e+00
1.999952079479e+01+j0.000000000000e+00
1.999952079454e+01+j0.000000000000e+00
1.999952079423e+01+j0.000000000000e+00
1.999952079384e+01+j0.000000000000e+00
1.999952079336e+01+j0.000000000000e+00
1.999952079276e+01+j0.000000000000e+00
1.999952079202e+01+j0.000000000000e+00
1.999952079109e+01+j0.000000000000e+00
1.999952078993e+01+j0.000000000000e+00
1.999952078849e+01+j0.000000000000e+00
1.999952078670e+01+j0.000000000000e+00
1.999952078447e+01+j0.000000000000e+00
1.999952078169e+01+j0.000000000000e+00
1.999952077823e+01+j0.000000000000e+00
1.999952077392e+01+j0.000000000000e+00
1.999952076855e+01+j0.000000000000e+00
1.999952076187e+01+j0.000000000000e+00
1.999952075355e+01+j0.000000000000e+00
1.999952074319e+01+j0.000000000000e+00
1.999952073029e+01+j0.000000000000e+00
1.999952071422e+01+j0.000000000000e+00
1.999952069422e+01+j0.000000000000e+00
1.999952066931e+01+j0.000000000000e+00
1.999952063829e+01+j0.000000000000e+00
1.999952059967e+01+j0.000000000000e+00
1.999952055158e+01+j0.000000000000e+00
1.999952049170e+01+j0.000000000000e+00
1.999952041714e+01+j0.000000000000e+00
1.999952032429e+01+j0.000000000000e+00
1.999952020867e+01+j0.000000000000e+00
1.999952006471e+01+j0.000000000000e+00
1.999951988545e+01+j0.000000000000e+00
1.999951966224e+01+j0.000000000000e+00
1.999951938429e+01+j0.000000000000e+00
1.999951903819e+01+j0.000000000000e+00
1.999951860723e+01+j0.000000000000e+00
1.999951807059e+01+j0.000000000000e+00
1.999951740238e+01+j0.000000000000e+00
1.999951657032e+01+j0.000000000000e+00
1.999951553425e+01+j0.000000000000e+00
1.999951424413e+01+j0.000000000000e+00
1.999951263768e+01+j0.000000000000e+00
1.999951063733e+01+j0.000000000000e+00
1.999950814651e+01+j0.000000000000e+00
1.999950504495e+01+j0.000000000000e+00
1.999950118289e+01+j0.000000000000e+00
1.999949637388e+01+j0.000000000000e+00
1.999949038571e+01+j0.000000000000e+00
1.999948292928e+01+j0.000000000000e+00
1.999947364456e+01+j0.000000000000e+00
1.999946208330e+01+j0.000000000000e+00
1.999944768728e+01+j0.000000000000e+00
1.999942976147e+01+j0.000000000000e+00
1.999940744041e+01+j0.000000000000e+00
1.999937964645e+01+j0.000000000000e+00
1.999934503774e+01+j0.000000000000e+00
1.999930194347e+01+j0.000000000000e+00
1.999924828319e+01+j0.000000000000e+00
1.999918146651e+01+j0.000000000000e+00
1.999909826800e+01+j0.000000000000e+00
1.999899467169e+01+j0.000000000000e+00
1.999886567732e+01+j0.000000000000e+00
1.999870505926e+01+j0.000000000000e+00
1.999850506643e+01+j0.000000000000e+00
1.999825604881e+01+j0.000000000000e+00
1.999794599275e+01+j0.000000000000e+00
1.999755994279e+01+j0.000000000000e+00
1.999707928248e+01+j0.000000000000e+00
1.999648084000e+01+j0.000000000000e+00
1.999573577643e+01+j0.000000000000e+00
1.999480820409e+01+j0.000000000000e+00
1.999365347057e+01+j0.000000000000e+00
1.999221602881e+01+j0.000000000000e+00
1.999042679532e+01+j0.000000000000e+00
1.998819987692e+01+j0.000000000000e+00
1.998542851987e+01+j0.000000000000e+00
1.998198010440e+01+j0.000000000000e+00
1.997768997149e+01+j0.000000000000e+00
1.997235382776e+01+j0.000000000000e+00
1.996571842909e+01+j0.000000000000e+00
1.995747019625e+01+j0.000000000000e+00
1.994722137027e+01+j0.000000000000e+00
</dep>
