<Qucs Dataset 0.0.21>
<indep frequency 100>
1.000000000000e+00
1.232846739442e+00
1.519911082953e+00
1.873817422860e+00
2.310129700083e+00
2.848035868436e+00
3.511191734215e+00
4.328761281083e+00
5.336699231206e+00
6.579332246576e+00
8.111308307897e+00
1.000000000000e+01
1.232846739442e+01
1.519911082953e+01
1.873817422860e+01
2.310129700083e+01
2.848035868436e+01
3.511191734215e+01
4.328761281083e+01
5.336699231206e+01
6.579332246576e+01
8.111308307897e+01
1.000000000000e+02
1.232846739442e+02
1.519911082953e+02
1.873817422860e+02
2.310129700083e+02
2.848035868436e+02
3.511191734215e+02
4.328761281083e+02
5.336699231206e+02
6.579332246576e+02
8.111308307897e+02
1.000000000000e+03
1.232846739442e+03
1.519911082953e+03
1.873817422860e+03
2.310129700083e+03
2.848035868436e+03
3.511191734215e+03
4.328761281083e+03
5.336699231206e+03
6.579332246576e+03
8.111308307897e+03
1.000000000000e+04
1.232846739442e+04
1.519911082953e+04
1.873817422860e+04
2.310129700083e+04
2.848035868436e+04
3.511191734215e+04
4.328761281083e+04
5.336699231206e+04
6.579332246576e+04
8.111308307897e+04
1.000000000000e+05
1.232846739442e+05
1.519911082953e+05
1.873817422860e+05
2.310129700083e+05
2.848035868436e+05
3.511191734215e+05
4.328761281083e+05
5.336699231206e+05
6.579332246576e+05
8.111308307897e+05
1.000000000000e+06
1.232846739442e+06
1.519911082953e+06
1.873817422860e+06
2.310129700083e+06
2.848035868436e+06
3.511191734215e+06
4.328761281083e+06
5.336699231206e+06
6.579332246576e+06
8.111308307897e+06
1.000000000000e+07
1.232846739442e+07
1.519911082953e+07
1.873817422860e+07
2.310129700083e+07
2.848035868436e+07
3.511191734215e+07
4.328761281083e+07
5.336699231206e+07
6.579332246576e+07
8.111308307897e+07
1.000000000000e+08
1.232846739442e+08
1.519911082953e+08
1.873817422860e+08
2.310129700083e+08
2.848035868436e+08
3.511191734215e+08
4.328761281083e+08
5.336699231206e+08
6.579332246576e+08
8.111308307897e+08
1.000000000000e+09
</indep>
<dep ac.v(b) frequency>
2.073048171355e-02+j9.967689542030e-02
3.084362304021e-02+j1.202932904884e-01
4.542277009993e-02+j1.436946315542e-01
6.592483470723e-02+j1.691635870957e-01
9.377181632043e-02+j1.951736002910e-01
1.298624478449e-01+j2.192417395188e-01
1.738973363871e-01+j2.381351440016e-01
2.238342468391e-01+j2.486268383129e-01
2.759754440209e-01+j2.486467702329e-01
3.259280323953e-01+j2.381908123392e-01
3.699894786902e-01+j2.193226951702e-01
4.061107783376e-01+j1.952673466095e-01
4.339869055487e-01+j1.692593403482e-01
4.545134814467e-01+j1.437850380090e-01
4.691116342576e-01+j1.203743735601e-01
4.792387287352e-01+j9.974718604847e-02
4.861435913344e-01+j8.207373909000e-02
4.907960877136e-01+j6.720965338025e-02
4.939059961009e-01+j5.486125915433e-02
4.959736934151e-01+j4.468595292090e-02
4.973435685712e-01+j3.634626568923e-02
4.982489896320e-01+j2.953524831555e-02
4.988464964023e-01+j2.398567999536e-02
4.992403981820e-01+j1.947088711482e-02
4.994998987062e-01+j1.580164612361e-02
4.996707799080e-01+j1.282158717181e-02
4.997832721104e-01+j1.040232603088e-02
4.998573120974e-01+j8.438897344188e-03
4.999060374307e-01+j6.845717059062e-03
4.999381006276e-01+j5.553128311948e-03
4.999591983135e-01+j4.504503666235e-03
4.999730801532e-01+j3.653843251133e-03
4.999822138972e-01+j2.963799055511e-03
4.999882234729e-01+j2.404057686288e-03
4.999921774512e-01+j1.950020730108e-03
4.999947789390e-01+j1.581730165698e-03
4.999964905590e-01+j1.282994496698e-03
4.999976166971e-01+j1.040678737492e-03
4.999983576235e-01+j8.441278617511e-04
4.999988451048e-01+j6.846988037525e-04
4.999991658355e-01+j5.553806687436e-04
4.999993768551e-01+j4.504865770142e-04
4.999995156920e-01+j3.654036574341e-04
4.999996070374e-01+j2.963902319212e-04
4.999996671366e-01+j2.404112907897e-04
4.999997066779e-01+j1.950050338792e-04
4.999997326934e-01+j1.581746137593e-04
4.999997498099e-01+j1.283003230707e-04
4.999997610714e-01+j1.040683657799e-04
4.999997684808e-01+j8.441308071521e-05
4.999997733556e-01+j6.847007696156e-05
4.999997765629e-01+j5.553822035952e-05
4.999997786731e-01+j4.504879949479e-05
4.999997800615e-01+j3.654051524077e-05
4.999997809750e-01+j2.963919399108e-05
4.999997815761e-01+j2.404133243886e-05
4.999997819716e-01+j1.950075025217e-05
4.999997822319e-01+j1.581776366836e-05
4.999997824033e-01+j1.283040389120e-05
4.999997825163e-01+j1.040729409878e-05
4.999997825909e-01+j8.441871811076e-06
4.999997826404e-01+j6.847702531465e-06
4.999997826737e-01+j5.554678567601e-06
4.999997826966e-01+j4.505935865081e-06
4.999997827133e-01+j3.655353263596e-06
4.999997827266e-01+j2.965524198552e-06
4.999997827391e-01+j2.406111647788e-06
4.999997827528e-01+j1.952513976529e-06
4.999997827702e-01+j1.584783005038e-06
4.999997827944e-01+j1.286746713234e-06
4.999997828298e-01+j1.045297991637e-06
4.999997828825e-01+j8.498181422819e-07
4.999997829620e-01+j6.917097440813e-07
4.999997830822e-01+j5.640182788089e-07
4.999997832644e-01+j4.611257655794e-07
4.999997835406e-01+j3.785027235812e-07
4.999997839588e-01+j3.125071756659e-07
4.999997845912e-01+j2.602211668821e-07
4.999997855450e-01+j2.193163890435e-07
4.999997869779e-01+j1.879409006210e-07
4.999997891183e-01+j1.646185152054e-07
4.999997922872e-01+j1.481512557354e-07
4.999997969188e-01+j1.375140309744e-07
4.999998035617e-01+j1.317317851340e-07
4.999998128365e-01+j1.297383660646e-07
4.999998253116e-01+j1.302415749704e-07
4.999998412770e-01+j1.316624353888e-07
4.999998604616e-01+j1.322511670425e-07
4.999998818544e-01+j1.304361655450e-07
4.999999038294e-01+j1.252885117799e-07
4.999999246123e-01+j1.168076565062e-07
4.999999428328e-01+j1.058023811733e-07
4.999999578252e-01+j9.345598614284e-08
4.999999695716e-01+j8.088149772248e-08
4.999999784476e-01+j6.888487466610e-08
4.999999849732e-01+j5.793936253081e-08
4.999999896646e-01+j4.826200965610e-08
4.999999929722e-01+j3.990137438879e-08
4.999999952651e-01+j3.280344873545e-08
4.999999968324e-01+j2.685668406765e-08
</dep>
<dep ac.v(uin) frequency>
5.000000000000e-01+j0.000000000000e+00
5.000000000000e-01+j0.000000000000e+00
5.000000000000e-01+j0.000000000000e+00
5.000000000000e-01+j0.000000000000e+00
5.000000000000e-01+j0.000000000000e+00
5.000000000000e-01+j0.000000000000e+00
5.000000000000e-01+j0.000000000000e+00
5.000000000000e-01+j0.000000000000e+00
5.000000000000e-01+j0.000000000000e+00
5.000000000000e-01+j0.000000000000e+00
5.000000000000e-01+j0.000000000000e+00
5.000000000000e-01+j0.000000000000e+00
5.000000000000e-01+j0.000000000000e+00
5.000000000000e-01+j0.000000000000e+00
5.000000000000e-01+j0.000000000000e+00
5.000000000000e-01+j0.000000000000e+00
5.000000000000e-01+j0.000000000000e+00
5.000000000000e-01+j0.000000000000e+00
5.000000000000e-01+j0.000000000000e+00
5.000000000000e-01+j0.000000000000e+00
5.000000000000e-01+j0.000000000000e+00
5.000000000000e-01+j0.000000000000e+00
5.000000000000e-01+j0.000000000000e+00
5.000000000000e-01+j0.000000000000e+00
5.000000000000e-01+j0.000000000000e+00
5.000000000000e-01+j0.000000000000e+00
5.000000000000e-01+j0.000000000000e+00
5.000000000000e-01+j0.000000000000e+00
5.000000000000e-01+j0.000000000000e+00
5.000000000000e-01+j0.000000000000e+00
5.000000000000e-01+j0.000000000000e+00
5.000000000000e-01+j0.000000000000e+00
5.000000000000e-01+j0.000000000000e+00
5.000000000000e-01+j0.000000000000e+00
5.000000000000e-01+j0.000000000000e+00
5.000000000000e-01+j0.000000000000e+00
5.000000000000e-01+j0.000000000000e+00
5.000000000000e-01+j0.000000000000e+00
5.000000000000e-01+j0.000000000000e+00
5.000000000000e-01+j0.000000000000e+00
5.000000000000e-01+j0.000000000000e+00
5.000000000000e-01+j0.000000000000e+00
5.000000000000e-01+j0.000000000000e+00
5.000000000000e-01+j0.000000000000e+00
5.000000000000e-01+j0.000000000000e+00
5.000000000000e-01+j0.000000000000e+00
5.000000000000e-01+j0.000000000000e+00
5.000000000000e-01+j0.000000000000e+00
5.000000000000e-01+j0.000000000000e+00
5.000000000000e-01+j0.000000000000e+00
5.000000000000e-01+j0.000000000000e+00
5.000000000000e-01+j0.000000000000e+00
5.000000000000e-01+j0.000000000000e+00
5.000000000000e-01+j0.000000000000e+00
5.000000000000e-01+j0.000000000000e+00
5.000000000000e-01+j0.000000000000e+00
5.000000000000e-01+j0.000000000000e+00
5.000000000000e-01+j0.000000000000e+00
5.000000000000e-01+j0.000000000000e+00
5.000000000000e-01+j0.000000000000e+00
5.000000000000e-01+j0.000000000000e+00
5.000000000000e-01+j0.000000000000e+00
5.000000000000e-01+j0.000000000000e+00
5.000000000000e-01+j0.000000000000e+00
5.000000000000e-01+j0.000000000000e+00
5.000000000000e-01+j0.000000000000e+00
5.000000000000e-01+j0.000000000000e+00
5.000000000000e-01+j0.000000000000e+00
5.000000000000e-01+j0.000000000000e+00
5.000000000000e-01+j0.000000000000e+00
5.000000000000e-01+j0.000000000000e+00
5.000000000000e-01+j0.000000000000e+00
5.000000000000e-01+j0.000000000000e+00
5.000000000000e-01+j0.000000000000e+00
5.000000000000e-01+j0.000000000000e+00
5.000000000000e-01+j0.000000000000e+00
5.000000000000e-01+j0.000000000000e+00
5.000000000000e-01+j0.000000000000e+00
5.000000000000e-01+j0.000000000000e+00
5.000000000000e-01+j0.000000000000e+00
5.000000000000e-01+j0.000000000000e+00
5.000000000000e-01+j0.000000000000e+00
5.000000000000e-01+j0.000000000000e+00
5.000000000000e-01+j0.000000000000e+00
5.000000000000e-01+j0.000000000000e+00
5.000000000000e-01+j0.000000000000e+00
5.000000000000e-01+j0.000000000000e+00
5.000000000000e-01+j0.000000000000e+00
5.000000000000e-01+j0.000000000000e+00
5.000000000000e-01+j0.000000000000e+00
5.000000000000e-01+j0.000000000000e+00
5.000000000000e-01+j0.000000000000e+00
5.000000000000e-01+j0.000000000000e+00
5.000000000000e-01+j0.000000000000e+00
5.000000000000e-01+j0.000000000000e+00
5.000000000000e-01+j0.000000000000e+00
5.000000000000e-01+j0.000000000000e+00
5.000000000000e-01+j0.000000000000e+00
5.000000000000e-01+j0.000000000000e+00
5.000000000000e-01+j0.000000000000e+00
</dep>
<dep ac.i(pr2) frequency>
4.373953363436e-08+j2.103233286753e-07
6.507739212306e-08+j2.538253279731e-07
9.583813864072e-08+j3.032040639703e-07
1.390957318244e-07+j3.569462011842e-07
1.978504682417e-07+j4.118310484710e-07
2.739985970342e-07+j4.626200955782e-07
3.669084249434e-07+j5.024926072194e-07
4.722710115201e-07+j5.246403408862e-07
5.822844535331e-07+j5.246961552459e-07
6.876801191785e-07+j5.026519469115e-07
7.806459816643e-07+j4.628627558616e-07
8.568588175629e-07+j4.121338223197e-07
9.156750486916e-07+j3.572909524904e-07
9.589843586004e-07+j3.035815534791e-07
9.897852056337e-07+j2.542353777881e-07
1.011152504094e-06+j2.107733485913e-07
1.025721170408e-06+j1.735573268924e-07
1.035537537715e-06+j1.422859141142e-07
1.042099177047e-06+j1.163434735878e-07
1.046461840685e-06+j9.501204971835e-08
1.049352159643e-06+j7.758566314812e-08
1.051262520500e-06+j6.342413777314e-08
1.052523208830e-06+j5.197285794895e-08
1.053354308363e-06+j4.276490067353e-08
1.053901833145e-06+j3.541499956533e-08
1.054262379294e-06+j2.961046169908e-08
1.054499730459e-06+j2.510165428861e-08
1.054655951949e-06+j2.169330362186e-08
1.054758763507e-06+j1.923712809774e-08
1.054826422144e-06+j1.762597052509e-08
1.054870948680e-06+j1.678943496381e-08
1.054900256762e-06+j1.669097755911e-08
1.054919556438e-06+j1.732639913878e-08
1.054932279080e-06+j1.872371378292e-08
1.054940686921e-06+j2.094440923862e-08
1.054946275067e-06+j2.408616617299e-08
1.054950037260e-06+j2.828716202980e-08
1.054952642549e-06+j3.373215205953e-08
1.054954554257e-06+j4.066059671248e-08
1.054956112363e-06+j4.937719375787e-08
1.054957593965e-06+j6.026527880624e-08
1.054959262557e-06+j7.380368382553e-08
1.054961414887e-06+j9.058779518804e-08
1.054964433734e-06+j1.113557374039e-07
1.054968855984e-06+j1.370208340735e-07
1.054975468108e-06+j1.687117736257e-07
1.054985446034e-06+j2.078222462258e-07
1.055000564281e-06+j2.560722347383e-07
1.055023511542e-06+j3.155836551127e-07
1.055058368854e-06+j3.889736725577e-07
1.055111335390e-06+j4.794697971052e-07
1.055191830944e-06+j5.910518197793e-07
1.055314171175e-06+j7.286268306112e-07
1.055500113573e-06+j8.982450139311e-07
1.055782726864e-06+j1.107365708399e-06
1.056212272059e-06+j1.365185427405e-06
1.056865140970e-06+j1.683042255929e-06
1.057857441791e-06+j2.074914390545e-06
1.059365647667e-06+j2.558034713972e-06
1.061657980026e-06+j3.153648369496e-06
1.065142106958e-06+j3.887946535049e-06
1.070437637104e-06+j4.793217243808e-06
1.078486296076e-06+j5.909263452600e-06
1.090719366653e-06+j7.285149955074e-06
1.109312141125e-06+j8.981354528960e-06
1.137570569426e-06+j1.107241523010e-05
1.180518706426e-06+j1.365018521676e-05
1.245791063335e-06+j1.682782880787e-05
1.344987710392e-06+j2.074471684521e-05
1.495731160135e-06+j2.557240357997e-05
1.724786294319e-06+j3.152188608392e-05
2.072787719106e-06+j3.885234985826e-05
2.601391134435e-06+j4.788156957156e-05
3.404064957476e-06+j5.899802072076e-05
4.622313682851e-06+j7.267448951349e-05
6.469925458389e-06+j8.948240319693e-05
9.268888074289e-06+j1.101049893610e-04
1.350184585972e-05+j1.353452780517e-04
1.988702473227e-05+j1.661211896223e-04
2.948142480223e-05+j2.034335147575e-04
4.381436517983e-05+j2.482824490534e-04
6.504120984601e-05+j3.014945079913e-04
9.607780442375e-05+j3.634084254671e-04
1.406197193141e-04+j4.333716506790e-04
2.028677740980e-04+j5.090548984863e-04
2.867192013770e-04+j5.857557559795e-04
3.942815446207e-04+j6.561475921529e-04
5.240161730108e-04+j7.111551419289e-04
6.695546343210e-04+j7.423307157039e-04
8.205104650127e-04+j7.449569904608e-04
9.654994739589e-04+j7.199432381497e-04
1.095668806137e-03+j6.730598848975e-04
1.206511127199e-03+j6.121663101420e-04
1.297353148977e-03+j5.445074647894e-04
1.369701486302e-03+j4.754778865145e-04
1.425858500020e-03+j4.087048570240e-04
1.468296141597e-03+j3.465620515081e-04
1.499489449931e-03+j2.905227728129e-04
1.521822950092e-03+j2.413123927603e-04
1.537455228284e-03+j1.990276752860e-04
</dep>
<dep ac.i(pr3) frequency>
-4.146096342711e-06-j1.993537908406e-05
-6.168724608042e-06-j2.405865809768e-05
-9.084554019986e-06-j2.873892631084e-05
-1.318496694145e-05-j3.383271741913e-05
-1.875436326409e-05-j3.903472005820e-05
-2.597248956898e-05-j4.384834790375e-05
-3.477946727741e-05-j4.762702880032e-05
-4.476684936782e-05-j4.972536766258e-05
-5.519508880418e-05-j4.972935404658e-05
-6.518560647907e-05-j4.763816246784e-05
-7.399789573804e-05-j4.386453903405e-05
-8.122215566752e-05-j3.905346932189e-05
-8.679738110974e-05-j3.385186806963e-05
-9.090269628935e-05-j2.875700760180e-05
-9.382232685151e-05-j2.407487471202e-05
-9.584774574703e-05-j1.994943720969e-05
-9.722871826687e-05-j1.641474781800e-05
-9.815921754272e-05-j1.344193067605e-05
-9.878119922018e-05-j1.097225183087e-05
-9.919473868303e-05-j8.937190584181e-06
-9.946871371425e-05-j7.269253137845e-06
-9.964979792640e-05-j5.907049663109e-06
-9.976929928047e-05-j4.797135999071e-06
-9.984807963641e-05-j3.894177422965e-06
-9.989997974123e-05-j3.160329224722e-06
-9.993415598160e-05-j2.564317434362e-06
-9.995665442208e-05-j2.080465206177e-06
-9.997146241949e-05-j1.687779468838e-06
-9.998120748614e-05-j1.369143411812e-06
-9.998762012552e-05-j1.110625662390e-06
-9.999183966270e-05-j9.009007332470e-07
-9.999461603064e-05-j7.307686502266e-07
-9.999644277945e-05-j5.927598111022e-07
-9.999764469458e-05-j4.808115372576e-07
-9.999843549024e-05-j3.900041460217e-07
-9.999895578780e-05-j3.163460331397e-07
-9.999929811180e-05-j2.565988993396e-07
-9.999952333942e-05-j2.081357474983e-07
-9.999967152470e-05-j1.688255723502e-07
-9.999976902096e-05-j1.369397607505e-07
-9.999983316710e-05-j1.110761337487e-07
-9.999987537101e-05-j9.009731540283e-08
-9.999990313839e-05-j7.308073148682e-08
-9.999992140748e-05-j5.927804638424e-08
-9.999993342733e-05-j4.808225815793e-08
-9.999994133558e-05-j3.900100677584e-08
-9.999994653869e-05-j3.163492275187e-08
-9.999994996199e-05-j2.566006461415e-08
-9.999995221429e-05-j2.081367315598e-08
-9.999995369615e-05-j1.688261614304e-08
-9.999995467112e-05-j1.369401539231e-08
-9.999995531259e-05-j1.110764407190e-08
-9.999995573463e-05-j9.009759898959e-09
-9.999995601231e-05-j7.308103048153e-09
-9.999995619501e-05-j5.927838798217e-09
-9.999995631522e-05-j4.808266487773e-09
-9.999995639432e-05-j3.900150050434e-09
-9.999995644638e-05-j3.163552733672e-09
-9.999995648066e-05-j2.566080778241e-09
-9.999995650325e-05-j2.081458819756e-09
-9.999995651818e-05-j1.688374362215e-09
-9.999995652808e-05-j1.369540506293e-09
-9.999995653474e-05-j1.110935713520e-09
-9.999995653932e-05-j9.011871730161e-10
-9.999995654266e-05-j7.310706527191e-10
-9.999995654533e-05-j5.931048397104e-10
-9.999995654781e-05-j4.812223295576e-10
-9.999995655055e-05-j3.905027953057e-10
-9.999995655404e-05-j3.169566010077e-10
-9.999995655889e-05-j2.573493426467e-10
-9.999995656595e-05-j2.090595983275e-10
-9.999995657650e-05-j1.699636284564e-10
-9.999995659239e-05-j1.383419488163e-10
-9.999995661644e-05-j1.128036557618e-10
-9.999995665288e-05-j9.222515311588e-11
-9.999995670811e-05-j7.570054471624e-11
-9.999995679176e-05-j6.250143513319e-11
-9.999995691824e-05-j5.204423337642e-11
-9.999995710899e-05-j4.386327780869e-11
-9.999995739559e-05-j3.758818012419e-11
-9.999995782365e-05-j3.292370304108e-11
-9.999995845744e-05-j2.963025114708e-11
-9.999995938376e-05-j2.750280619488e-11
-9.999996071234e-05-j2.634635702679e-11
-9.999996256730e-05-j2.594767321291e-11
-9.999996506233e-05-j2.604831499407e-11
-9.999996825540e-05-j2.633248707776e-11
-9.999997209233e-05-j2.645023340850e-11
-9.999997637088e-05-j2.608723310900e-11
-9.999998076588e-05-j2.505770235598e-11
-9.999998492247e-05-j2.336153130123e-11
-9.999998856657e-05-j2.116047623466e-11
-9.999999156504e-05-j1.869119722857e-11
-9.999999391433e-05-j1.617629954450e-11
-9.999999568952e-05-j1.377697493322e-11
-9.999999699464e-05-j1.158787250616e-11
-9.999999793291e-05-j9.652401931219e-12
-9.999999859444e-05-j7.980274877758e-12
-9.999999905302e-05-j6.560689747091e-12
-9.999999936648e-05-j5.371336813529e-12
</dep>
<dep ac.i(pr4) frequency>
2.052491819884e-05+j9.868848161182e-05
3.053777758778e-05+j1.191004403891e-04
4.497235778444e-05+j1.422697286866e-04
6.527112386169e-05+j1.674861278235e-04
9.284197472724e-05+j1.932382180483e-04
1.285747314485e-04+j2.170676881620e-04
1.721729699125e-04+j2.357737340314e-04
2.216147058207e-04+j2.461613784187e-04
2.732388707453e-04+j2.461810951209e-04
3.226961291135e-04+j2.358287968704e-04
3.663206619835e-04+j2.171477492950e-04
4.020837827225e-04+j1.933309007097e-04
4.296834901781e-04+j1.675807493159e-04
4.500065244921e-04+j1.423590001821e-04
4.644599219787e-04+j1.191804142459e-04
4.744865961591e-04+j9.875768991500e-05
4.813229901214e-04+j8.125939912533e-05
4.859293523334e-04+j6.654259011383e-05
4.890084228603e-04+j5.431650006126e-05
4.910556168821e-04+j4.424191646497e-05
4.924119083520e-04+j3.598470894958e-05
4.933083512547e-04+j2.924096255236e-05
4.938999331457e-04+j2.374609448506e-05
4.942899289934e-04+j1.927566434897e-05
4.945468563083e-04+j1.564230708216e-05
4.947160430497e-04+j1.269118138869e-05
4.948274197762e-04+j1.029514896360e-05
4.949007255781e-04+j8.350251833963e-06
4.949489677441e-04+j6.771713356338e-06
4.949807129920e-04+j5.490516539156e-06
4.950016014575e-04+j4.450532778716e-06
4.950153456211e-04+j3.606141058185e-06
4.950243887588e-04+j2.920268433923e-06
4.950303386886e-04+j2.362784640459e-06
4.950342533759e-04+j1.909190372098e-06
4.950368289407e-04+j1.539546982483e-06
4.950385233957e-04+j1.237603431435e-06
4.950396380743e-04+j9.900836318732e-07
4.950403712088e-04+j7.861036822239e-07
4.950408531800e-04+j6.166937965713e-07
4.950411697026e-04+j4.744041435808e-07
4.950413770676e-04+j3.529773855616e-07
4.950415121536e-04+j2.470735837777e-07
4.950415989846e-04+j1.520354077954e-07
4.950416530031e-04+j6.368334244571e-08
4.950416838159e-04-j2.186810369570e-08
4.950416969029e-04-j1.083812655536e-07
4.950416945915e-04-j1.996607759052e-07
4.950416764707e-04-j2.997208814927e-07
4.950416393178e-04-j4.129619780734e-07
4.950415765254e-04-j5.443641272750e-07
4.950414769261e-04-j6.997060648948e-07
4.950413228068e-04-j8.858193309945e-07
4.950410867584e-04-j1.110888695912e-06
4.950407268011e-04-j1.384812090727e-06
4.950401789187e-04-j1.719635864584e-06
