<Qucs Dataset 0.0.21>
<indep v-sweep 102>
0.000000000000e+00
9.900990000000e-03
1.980198000000e-02
2.970297000000e-02
3.960396000000e-02
4.950495000000e-02
5.940594000000e-02
6.930693000000e-02
7.920792000000e-02
8.910891000000e-02
9.900990000000e-02
1.089108900000e-01
1.188118800000e-01
1.287128700000e-01
1.386138600000e-01
1.485148500000e-01
1.584158400000e-01
1.683168300000e-01
1.782178200000e-01
1.881188100000e-01
1.980198000000e-01
2.079207900000e-01
2.178217800000e-01
2.277227700000e-01
2.376237600000e-01
2.475247500000e-01
2.574257400000e-01
2.673267300000e-01
2.772277200000e-01
2.871287100000e-01
2.970297000000e-01
3.069306900000e-01
3.168316800000e-01
3.267326700000e-01
3.366336600000e-01
3.465346500000e-01
3.564356400000e-01
3.663366300000e-01
3.762376200000e-01
3.861386100000e-01
3.960396000000e-01
4.059405900000e-01
4.158415800000e-01
4.257425700000e-01
4.356435600000e-01
4.455445500000e-01
4.554455400000e-01
4.653465300000e-01
4.752475200000e-01
4.851485100000e-01
4.950495000000e-01
5.049504900000e-01
5.148514800000e-01
5.247524700000e-01
5.346534600000e-01
5.445544500000e-01
5.544554400000e-01
5.643564300000e-01
5.742574200000e-01
5.841584100000e-01
5.940594000000e-01
6.039603900000e-01
6.138613800000e-01
6.237623700000e-01
6.336633600000e-01
6.435643500000e-01
6.534653400000e-01
6.633663300000e-01
6.732673200000e-01
6.831683100000e-01
6.930693000000e-01
7.029702900000e-01
7.128712800000e-01
7.227722700000e-01
7.326732600000e-01
7.425742500000e-01
7.524752400000e-01
7.623762300000e-01
7.722772200000e-01
7.821782100000e-01
7.920792000000e-01
8.019801900000e-01
8.118811800000e-01
8.217821700000e-01
8.316831600000e-01
8.415841500000e-01
8.514851400000e-01
8.613861300000e-01
8.712871200000e-01
8.811881100000e-01
8.910891000000e-01
9.009900900000e-01
9.108910800000e-01
9.207920700000e-01
9.306930600000e-01
9.405940500000e-01
9.504950400000e-01
9.603960300000e-01
9.702970200000e-01
9.801980100000e-01
9.900990000000e-01
9.999999900000e-01
</indep>
<dep i(pr1) v-sweep>
-1.648676870686e-36
5.801031877084e-11
1.311739050713e-10
2.234499807408e-10
3.398318293435e-10
4.866171909867e-10
6.717495448783e-10
9.052476546145e-10
1.199747856617e-09
1.571187402405e-09
2.039667545972e-09
2.630541562354e-09
3.375787205329e-09
4.315734658533e-09
5.501253230733e-09
6.996502044387e-09
8.882400592825e-09
1.126101301097e-08
1.426106610580e-08
1.804491889246e-08
2.281735111964e-08
2.883664063091e-08
3.642854462527e-08
4.600393088694e-08
5.808100800309e-08
7.331337714689e-08
9.252539712179e-08
1.167568042248e-07
1.473189774615e-07
1.858659111065e-07
2.344837266577e-07
2.958035656420e-07
3.731439957022e-07
4.706905931684e-07
5.937224658581e-07
7.488979525405e-07
9.446149471515e-07
1.191465386796e-06
1.502808445686e-06
1.895493498161e-06
2.390771942196e-06
3.015447220811e-06
3.803325283158e-06
4.797043935412e-06
6.050380032541e-06
7.631159351540e-06
9.624926453178e-06
1.213957302149e-05
1.531117484976e-05
1.931135294875e-05
2.435655643751e-05
3.071976849967e-05
3.874526712266e-05
4.886723669628e-05
6.163323315267e-05
7.773376551956e-05
9.803958344179e-05
1.236486706269e-04
1.559454588822e-04
1.966754218330e-04
2.480390130088e-04
3.128099173644e-04
3.944838336594e-04
4.974655504277e-04
6.273039812665e-04
7.909871524792e-04
9.973119568674e-04
1.257346865128e-03
1.585009764550e-03
1.997787672941e-03
2.517630169109e-03
3.172053756835e-03
3.995499560528e-03
5.030990874721e-03
6.332138712906e-03
7.965540343713e-03
1.001360445585e-02
1.257781225379e-02
1.578238016952e-02
1.977821960880e-02
2.474698513035e-02
3.090486083238e-02
3.850556011900e-02
4.784182699827e-02
5.924457205306e-02
7.307872516979e-02
8.973503065662e-02
1.096174281535e-01
1.331263721644e-01
1.606393451440e-01
1.924906805803e-01
2.289533243258e-01
2.702250738722e-01
3.164210980818e-01
3.675733622710e-01
4.236363426441e-01
4.844974771666e-01
5.499903689306e-01
6.199088232861e-01
6.940202024994e-01
7.720771189771e-01
8.538269974888e-01
</dep>
<dep v(vd) v-sweep>
0.000000000000e+00
9.900990000000e-03
1.980198000000e-02
2.970297000000e-02
3.960396000000e-02
4.950495000000e-02
5.940594000000e-02
6.930693000000e-02
7.920792000000e-02
8.910891000000e-02
9.900990000000e-02
1.089108900000e-01
1.188118800000e-01
1.287128700000e-01
1.386138600000e-01
1.485148500000e-01
1.584158400000e-01
1.683168300000e-01
1.782178200000e-01
1.881188100000e-01
1.980198000000e-01
2.079207900000e-01
2.178217800000e-01
2.277227700000e-01
2.376237600000e-01
2.475247500000e-01
2.574257400000e-01
2.673267300000e-01
2.772277200000e-01
2.871287100000e-01
2.970297000000e-01
3.069306900000e-01
3.168316800000e-01
3.267326700000e-01
3.366336600000e-01
3.465346500000e-01
3.564356400000e-01
3.663366300000e-01
3.762376200000e-01
3.861386100000e-01
3.960396000000e-01
4.059405900000e-01
4.158415800000e-01
4.257425700000e-01
4.356435600000e-01
4.455445500000e-01
4.554455400000e-01
4.653465300000e-01
4.752475200000e-01
4.851485100000e-01
4.950495000000e-01
5.049504900000e-01
5.148514800000e-01
5.247524700000e-01
5.346534600000e-01
5.445544500000e-01
5.544554400000e-01
5.643564300000e-01
5.742574200000e-01
5.841584100000e-01
5.940594000000e-01
6.039603900000e-01
6.138613800000e-01
6.237623700000e-01
6.336633600000e-01
6.435643500000e-01
6.534653400000e-01
6.633663300000e-01
6.732673200000e-01
6.831683100000e-01
6.930693000000e-01
7.029702900000e-01
7.128712800000e-01
7.227722700000e-01
7.326732600000e-01
7.425742500000e-01
7.524752400000e-01
7.623762300000e-01
7.722772200000e-01
7.821782100000e-01
7.920792000000e-01
8.019801900000e-01
8.118811800000e-01
8.217821700000e-01
8.316831600000e-01
8.415841500000e-01
8.514851400000e-01
8.613861300000e-01
8.712871200000e-01
8.811881100000e-01
8.910891000000e-01
9.009900900000e-01
9.108910800000e-01
9.207920700000e-01
9.306930600000e-01
9.405940500000e-01
9.504950400000e-01
9.603960300000e-01
9.702970200000e-01
9.801980100000e-01
9.900990000000e-01
9.999999900000e-01
</dep>
<dep i(g) v-sweep>
5.093802236545e-09
6.624282272345e-09
8.354703013028e-09
1.053722528112e-08
1.328994425032e-08
1.676184480212e-08
2.114083862461e-08
2.666391500946e-08
3.362995759971e-08
4.241594473658e-08
5.349738561240e-08
6.747404347224e-08
8.510225220807e-08
1.073360353563e-07
1.353787543394e-07
1.707479434931e-07
2.153578059658e-07
2.716226111216e-07
3.425872504412e-07
4.320923975198e-07
5.449819532419e-07
6.873652789077e-07
8.669481665988e-07
1.093449411514e-06
1.379127049919e-06
1.739441667889e-06
2.193893089376e-06
2.767075834824e-06
3.490009932422e-06
4.401819878428e-06
5.551851609561e-06
7.002343656772e-06
8.831794978403e-06
1.113921285426e-05
1.404947178879e-05
1.772007048252e-05
2.234965565341e-05
2.818877195787e-05
3.555341997945e-05
4.484215702216e-05
5.655766355942e-05
7.133394443195e-05
8.997063498704e-05
1.134762659786e-04
1.431228299457e-04
1.805145960473e-04
2.276748926090e-04
2.871555468991e-04
3.621748899485e-04
4.567917747491e-04
5.761249910826e-04
7.266298968666e-04
9.164471530936e-04
1.155842296074e-03
1.457759720153e-03
1.838520707986e-03
2.318702731106e-03
2.924246738983e-03
3.687850972788e-03
4.650724529903e-03
5.864792082983e-03
7.395463516806e-03
9.325109562951e-03
1.175741757174e-02
1.482284105183e-02
1.868540295470e-02
2.355116572426e-02
2.967873958478e-02
3.739226116852e-02
4.709733090118e-02
5.930043782962e-02
7.463240501297e-02
9.387632539200e-02
1.180002783751e-01
1.481947496661e-01
1.859140218777e-01
2.329197337879e-01
2.913231764537e-01
3.636205750645e-01
4.527125550492e-01
5.618953874096e-01
6.948080438749e-01
8.553167999306e-01
1.047320113143e+00
1.274463370406e+00
1.539768174878e+00
1.845204519128e+00
2.191262768056e+00
2.576606833790e+00
2.997897604980e+00
3.449855983179e+00
3.925586900498e+00
4.417122618850e+00
4.916088613302e+00
5.414369904540e+00
5.904667861271e+00
6.380878391277e+00
6.838273047418e+00
7.273506667957e+00
7.684499009244e+00
8.070243227669e+00
8.443232396826e+00
</dep>
<dep r v-sweep>
1.963170051687e+08
1.509597506397e+08
1.196930637080e+08
9.490164377449e+07
7.524486041209e+07
5.965930431913e+07
4.730181322305e+07
3.750386991727e+07
2.973539282751e+07
2.357603977019e+07
1.869250223264e+07
1.482051391231e+07
1.175057033220e+07
9.316535650685e+06
7.386683419267e+06
5.856585909864e+06
4.643435121915e+06
3.681578628048e+06
2.918964435227e+06
2.314319820807e+06
1.834923145714e+06
1.454830540159e+06
1.153471497521e+06
9.145370507951e+05
7.250963571913e+05
5.748971169661e+05
4.558107251637e+05
3.613923360592e+05
2.865321358286e+05
2.271787641518e+05
1.801200879141e+05
1.428093291355e+05
1.132272660819e+05
8.977295012521e+04
7.117705313292e+04
5.643318411101e+04
4.474341866863e+04
3.547511759272e+04
2.812668937554e+04
2.230044374328e+04
1.768106985094e+04
1.401857149444e+04
1.111473760460e+04
8.812415454248e+03
6.987005499957e+03
5.539718238285e+03
4.392227832154e+03
3.482433164877e+03
2.761096994168e+03
2.189181275318e+03
1.735734459498e+03
1.376216426426e+03
1.091170392776e+03
8.651699313972e+02
6.859841071030e+02
5.439155488738e+02
4.312756381337e+02
3.419684073402e+02
2.711606318636e+02
2.150202605143e+02
1.705090284277e+02
1.352180289616e+02
1.072373459260e+02
8.505269068642e+01
6.746345025921e+01
5.351771125432e+01
4.246074320517e+01
3.369415325551e+01
2.674350169660e+01
2.123262573198e+01
1.686328190144e+01
1.339900542969e+01
1.065231298545e+01
8.474556278765e+00
6.747877386029e+00
5.378830439470e+00
4.293324501696e+00
3.432613951877e+00
2.750119406259e+00
2.208907150568e+00
1.779690708283e+00
1.439246434775e+00
1.169157439771e+00
9.548179085371e-01
7.846439711180e-01
6.494484145832e-01
5.419453451549e-01
4.563578656918e-01
3.881073304961e-01
3.335670966009e-01
2.898671726808e-01
2.547389792526e-01
2.263917229131e-01
2.034137458984e-01
1.846936979983e-01
1.693575360198e-01
1.567182351206e-01
1.462357517850e-01
1.374852661379e-01
1.301321008431e-01
1.239120026236e-01
1.184380522767e-01
</dep>
