<Qucs Dataset 0.0.21>
<indep frequency 78>
1.000000000000e+00
1.232846739442e+00
1.519911082953e+00
1.873817422860e+00
2.310129700083e+00
2.848035868436e+00
3.511191734215e+00
4.328761281083e+00
5.336699231206e+00
6.579332246576e+00
8.111308307897e+00
1.000000000000e+01
1.232846739442e+01
1.519911082953e+01
1.873817422860e+01
2.310129700083e+01
2.848035868436e+01
3.511191734215e+01
4.328761281083e+01
5.336699231206e+01
6.579332246576e+01
8.111308307897e+01
1.000000000000e+02
1.232846739442e+02
1.519911082953e+02
1.873817422860e+02
2.310129700083e+02
2.848035868436e+02
3.511191734215e+02
4.328761281083e+02
5.336699231206e+02
6.579332246576e+02
8.111308307897e+02
1.000000000000e+03
1.232846739442e+03
1.519911082953e+03
1.873817422860e+03
2.310129700083e+03
2.848035868436e+03
3.511191734215e+03
4.328761281083e+03
5.336699231206e+03
6.579332246576e+03
8.111308307897e+03
1.000000000000e+04
1.232846739442e+04
1.519911082953e+04
1.873817422860e+04
2.310129700083e+04
2.848035868436e+04
3.511191734215e+04
4.328761281083e+04
5.336699231206e+04
6.579332246576e+04
8.111308307897e+04
1.000000000000e+05
1.232846739442e+05
1.519911082953e+05
1.873817422860e+05
2.310129700083e+05
2.848035868436e+05
3.511191734215e+05
4.328761281083e+05
5.336699231206e+05
6.579332246576e+05
8.111308307897e+05
1.000000000000e+06
1.232846739442e+06
1.519911082953e+06
1.873817422860e+06
2.310129700083e+06
2.848035868436e+06
3.511191734215e+06
4.328761281083e+06
5.336699231206e+06
6.579332246576e+06
8.111308307897e+06
1.000000000000e+07
</indep>
<dep ac.v(s) frequency>
-5.899777255658e-03-j1.446534773714e-02
-8.348118397804e-03-j1.660247258980e-02
-1.148351988713e-02-j1.852465412521e-02
-1.525254110920e-02-j1.995759450367e-02
-1.945331114312e-02-j2.064668977789e-02
-2.375844348046e-02-j2.045341325051e-02
-2.780731338328e-02-j1.941769829261e-02
-3.131890701926e-02-j1.773928961175e-02
-3.415685846086e-02-j1.569272830989e-02
-3.632233742653e-02-j1.353584066290e-02
-3.790335053046e-02-j1.145723855549e-02
-3.902083118944e-02-j9.567308524116e-03
-3.979270751600e-02-j7.913847223653e-03
-4.031742533618e-02-j6.503810393776e-03
-4.067026806901e-02-j5.321609778706e-03
-4.090580289263e-02-j4.341520152122e-03
-4.106226269833e-02-j3.535010323022e-03
-4.116585723371e-02-j2.874589814178e-03
-4.123430108292e-02-j2.335545144422e-03
-4.127945683235e-02-j1.896507274139e-03
-4.130922027975e-02-j1.539424687688e-03
-4.132882606070e-02-j1.249267466674e-03
-4.134173550865e-02-j1.013635886464e-03
-4.135023346283e-02-j8.223603338037e-04
-4.135582645491e-02-j6.671320571134e-04
-4.135950709549e-02-j5.411795559937e-04
-4.136192906856e-02-j4.389931480163e-04
-4.136352271982e-02-j3.560946206730e-04
-4.136457130292e-02-j2.888466775686e-04
-4.136526122957e-02-j2.342963901652e-04
-4.136571516779e-02-j1.900471565284e-04
-4.136601383427e-02-j1.541542769284e-04
-4.136621033921e-02-j1.250399496869e-04
-4.136633962736e-02-j1.014241603162e-04
-4.136642469078e-02-j8.226853744449e-05
-4.136648065701e-02-j6.673076667570e-05
-4.136651747914e-02-j5.412758976203e-05
-4.136654170568e-02-j4.390477904166e-05
-4.136655764514e-02-j3.561277584738e-05
-4.136656813224e-02-j2.888692640989e-05
-4.136657503206e-02-j2.343144868723e-05
-4.136657957168e-02-j1.900642641238e-05
-4.136658255845e-02-j1.541725913171e-05
-4.136658452354e-02-j1.250610466906e-05
-4.136658581645e-02-j1.014493788752e-05
-4.136658666709e-02-j8.229920602780e-06
-4.136658722675e-02-j6.676835111070e-06
-4.136658759498e-02-j5.417380541259e-06
-4.136658783724e-02-j4.396169170987e-06
-4.136658799664e-02-j3.568290621204e-06
-4.136658810151e-02-j2.897336813229e-06
-4.136658817051e-02-j2.353800833323e-06
-4.136658821591e-02-j1.913779292142e-06
-4.136658824578e-02-j1.557921112732e-06
-4.136658826543e-02-j1.270576517695e-06
-4.136658827836e-02-j1.039108790284e-06
-4.136658828687e-02-j8.533385424541e-07
-4.136658829248e-02-j7.050960501884e-07
-4.136658829617e-02-j5.878619689269e-07
-4.136658829862e-02-j4.964806286568e-07
-4.136658830024e-02-j4.269333000841e-07
-4.136658830133e-02-j3.761614606905e-07
-4.136658830209e-02-j3.419322883477e-07
-4.136658830265e-02-j3.227404672274e-07
-4.136658830310e-02-j3.177419876695e-07
-4.136658830353e-02-j3.267170286887e-07
-4.136658830402e-02-j3.500602907816e-07
-4.136658830466e-02-j3.887983538959e-07
-4.136658830555e-02-j4.446348239215e-07
-4.136658830685e-02-j5.200252531378e-07
-4.136658830880e-02-j6.182851294355e-07
-4.136658831174e-02-j7.437356834162e-07
-4.136658831620e-02-j9.018939256106e-07
-4.136658832296e-02-j1.099715271190e-06
-4.136658833324e-02-j1.345899422211e-06
-4.136658834885e-02-j1.651272959350e-06
-4.136658837258e-02-j2.029265468568e-06
-4.136658840865e-02-j2.496500141581e-06
</dep>
<dep ac.i(pr1) frequency>
-5.899777255807e-05-j1.446534773708e-04
-8.348118398014e-05-j1.660247258969e-04
-1.148351988742e-04-j1.852465412503e-04
-1.525254110959e-04-j1.995759450338e-04
-1.945331114361e-04-j2.064668977743e-04
-2.375844348105e-04-j2.045341324982e-04
-2.780731338398e-04-j1.941769829161e-04
-3.131890702005e-04-j1.773928961036e-04
-3.415685846172e-04-j1.569272830802e-04
-3.632233742745e-04-j1.353584066045e-04
-3.790335053141e-04-j1.145723855234e-04
-3.902083119042e-04-j9.567308520116e-05
-3.979270751700e-04-j7.913847218624e-05
-4.031742533719e-04-j6.503810387494e-05
-4.067026807003e-04-j5.321609770894e-05
-4.090580289366e-04-j4.341520142435e-05
-4.106226269936e-04-j3.535010311033e-05
-4.116585723475e-04-j2.874589799361e-05
-4.123430108395e-04-j2.335545126125e-05
-4.127945683339e-04-j1.896507251556e-05
-4.130922028078e-04-j1.539424659827e-05
-4.132882606173e-04-j1.249267432309e-05
-4.134173550968e-04-j1.013635844084e-05
-4.135023346387e-04-j8.223602815454e-06
-4.135582645594e-04-j6.671319926782e-06
-4.135950709653e-04-j5.411794765479e-06
-4.136192906960e-04-j4.389930500660e-06
-4.136352272086e-04-j3.560944999106e-06
-4.136457130396e-04-j2.888465286833e-06
-4.136526123061e-04-j2.342962066094e-06
-4.136571516883e-04-j1.900469302298e-06
-4.136601383531e-04-j1.541539979348e-06
-4.136621034025e-04-j1.250396057290e-06
-4.136633962840e-04-j1.014237362674e-06
-4.136642469182e-04-j8.226801465625e-07
-4.136648065805e-04-j6.673012215704e-07
-4.136651748018e-04-j5.412679516859e-07
-4.136654170672e-04-j4.390379942917e-07
-4.136655764618e-04-j3.561156813484e-07
-4.136656813328e-04-j2.888543748504e-07
-4.136657503310e-04-j2.342961307078e-07
-4.136657957272e-04-j1.900416337839e-07
-4.136658255949e-04-j1.541446915742e-07
-4.136658452458e-04-j1.250266505820e-07
-4.136658581749e-04-j1.014069737435e-07
-4.136658666813e-04-j8.224692699838e-08
-4.136658722779e-04-j6.670389907886e-08
-4.136658759602e-04-j5.409434593459e-08
-4.136658783828e-04-j4.386373035092e-08
-4.136658799768e-04-j3.556213486961e-08
-4.136658810255e-04-j2.882447557617e-08
-4.136658817155e-04-j2.335444663058e-08
-4.136658821694e-04-j1.891148947458e-08
-4.136658824681e-04-j1.530021366056e-08
-4.136658826646e-04-j1.236180405957e-08
-4.136658827938e-04-j9.967036560652e-09
-4.136658828789e-04-j8.010595109864e-09
-4.136658829348e-04-j6.406440166936e-09
-4.136658829715e-04-j5.084024895754e-09
-4.136658829956e-04-j3.985192686148e-09
-4.136658830113e-04-j3.061619567604e-09
-4.136658830215e-04-j2.272689038522e-09
-4.136658830279e-04-j1.583705851196e-09
-4.136658830317e-04-j9.643701991407e-10
-4.136658830336e-04-j3.874452052348e-10
-4.136658830339e-04+j1.724408899515e-10
-4.136658830327e-04+j7.399105164845e-10
-4.136658830296e-04+j1.339919609712e-09
-4.136658830243e-04+j1.998855111661e-09
-4.136658830158e-04+j2.745695404625e-09
-4.136658830024e-04+j3.613284710007e-09
-4.136658829819e-04+j4.639777497349e-09
-4.136658829507e-04+j5.870316425176e-09
-4.136658829031e-04+j7.359017605377e-09
-4.136658828306e-04+j9.171350498226e-09
-4.136658827205e-04+j1.138701709999e-08
-4.136658825531e-04+j1.410345704273e-08
-4.136658822987e-04+j1.744013275196e-08
</dep>
<dep ac.v(vin) frequency>
-1.000000000000e-01+j0.000000000000e+00
-1.000000000000e-01+j0.000000000000e+00
-1.000000000000e-01+j0.000000000000e+00
-1.000000000000e-01+j0.000000000000e+00
-1.000000000000e-01+j0.000000000000e+00
-1.000000000000e-01+j0.000000000000e+00
-1.000000000000e-01+j0.000000000000e+00
-1.000000000000e-01+j0.000000000000e+00
-1.000000000000e-01+j0.000000000000e+00
-1.000000000000e-01+j0.000000000000e+00
-1.000000000000e-01+j0.000000000000e+00
-1.000000000000e-01+j0.000000000000e+00
-1.000000000000e-01+j0.000000000000e+00
-1.000000000000e-01+j0.000000000000e+00
-1.000000000000e-01+j0.000000000000e+00
-1.000000000000e-01+j0.000000000000e+00
-1.000000000000e-01+j0.000000000000e+00
-1.000000000000e-01+j0.000000000000e+00
-1.000000000000e-01+j0.000000000000e+00
-1.000000000000e-01+j0.000000000000e+00
-1.000000000000e-01+j0.000000000000e+00
-1.000000000000e-01+j0.000000000000e+00
-1.000000000000e-01+j0.000000000000e+00
-1.000000000000e-01+j0.000000000000e+00
-1.000000000000e-01+j0.000000000000e+00
-1.000000000000e-01+j0.000000000000e+00
-1.000000000000e-01+j0.000000000000e+00
-1.000000000000e-01+j0.000000000000e+00
-1.000000000000e-01+j0.000000000000e+00
-1.000000000000e-01+j0.000000000000e+00
-1.000000000000e-01+j0.000000000000e+00
-1.000000000000e-01+j0.000000000000e+00
-1.000000000000e-01+j0.000000000000e+00
-1.000000000000e-01+j0.000000000000e+00
-1.000000000000e-01+j0.000000000000e+00
-1.000000000000e-01+j0.000000000000e+00
-1.000000000000e-01+j0.000000000000e+00
-1.000000000000e-01+j0.000000000000e+00
-1.000000000000e-01+j0.000000000000e+00
-1.000000000000e-01+j0.000000000000e+00
-1.000000000000e-01+j0.000000000000e+00
-1.000000000000e-01+j0.000000000000e+00
-1.000000000000e-01+j0.000000000000e+00
-1.000000000000e-01+j0.000000000000e+00
-1.000000000000e-01+j0.000000000000e+00
-1.000000000000e-01+j0.000000000000e+00
-1.000000000000e-01+j0.000000000000e+00
-1.000000000000e-01+j0.000000000000e+00
-1.000000000000e-01+j0.000000000000e+00
-1.000000000000e-01+j0.000000000000e+00
-1.000000000000e-01+j0.000000000000e+00
-1.000000000000e-01+j0.000000000000e+00
-1.000000000000e-01+j0.000000000000e+00
-1.000000000000e-01+j0.000000000000e+00
-1.000000000000e-01+j0.000000000000e+00
-1.000000000000e-01+j0.000000000000e+00
-1.000000000000e-01+j0.000000000000e+00
-1.000000000000e-01+j0.000000000000e+00
-1.000000000000e-01+j0.000000000000e+00
-1.000000000000e-01+j0.000000000000e+00
-1.000000000000e-01+j0.000000000000e+00
-1.000000000000e-01+j0.000000000000e+00
-1.000000000000e-01+j0.000000000000e+00
-1.000000000000e-01+j0.000000000000e+00
-1.000000000000e-01+j0.000000000000e+00
-1.000000000000e-01+j0.000000000000e+00
-1.000000000000e-01+j0.000000000000e+00
-1.000000000000e-01+j0.000000000000e+00
-1.000000000000e-01+j0.000000000000e+00
-1.000000000000e-01+j0.000000000000e+00
-1.000000000000e-01+j0.000000000000e+00
-1.000000000000e-01+j0.000000000000e+00
-1.000000000000e-01+j0.000000000000e+00
-1.000000000000e-01+j0.000000000000e+00
-1.000000000000e-01+j0.000000000000e+00
-1.000000000000e-01+j0.000000000000e+00
-1.000000000000e-01+j0.000000000000e+00
-1.000000000000e-01+j0.000000000000e+00
</dep>
<dep ac.v(vout) frequency>
5.899777255807e-02+j1.446534773708e-01
8.348118398014e-02+j1.660247258969e-01
1.148351988742e-01+j1.852465412503e-01
1.525254110959e-01+j1.995759450338e-01
1.945331114361e-01+j2.064668977743e-01
2.375844348105e-01+j2.045341324982e-01
2.780731338398e-01+j1.941769829161e-01
3.131890702005e-01+j1.773928961036e-01
3.415685846172e-01+j1.569272830802e-01
3.632233742745e-01+j1.353584066045e-01
3.790335053141e-01+j1.145723855234e-01
3.902083119042e-01+j9.567308520116e-02
3.979270751700e-01+j7.913847218624e-02
4.031742533719e-01+j6.503810387494e-02
4.067026807003e-01+j5.321609770894e-02
4.090580289366e-01+j4.341520142435e-02
4.106226269936e-01+j3.535010311033e-02
4.116585723475e-01+j2.874589799361e-02
4.123430108395e-01+j2.335545126125e-02
4.127945683339e-01+j1.896507251556e-02
4.130922028078e-01+j1.539424659827e-02
4.132882606173e-01+j1.249267432309e-02
4.134173550968e-01+j1.013635844084e-02
4.135023346387e-01+j8.223602815454e-03
4.135582645594e-01+j6.671319926782e-03
4.135950709653e-01+j5.411794765479e-03
4.136192906960e-01+j4.389930500660e-03
4.136352272086e-01+j3.560944999106e-03
4.136457130396e-01+j2.888465286833e-03
4.136526123061e-01+j2.342962066094e-03
4.136571516883e-01+j1.900469302298e-03
4.136601383531e-01+j1.541539979348e-03
4.136621034025e-01+j1.250396057290e-03
4.136633962840e-01+j1.014237362674e-03
4.136642469182e-01+j8.226801465625e-04
4.136648065805e-01+j6.673012215704e-04
4.136651748018e-01+j5.412679516859e-04
4.136654170672e-01+j4.390379942917e-04
4.136655764618e-01+j3.561156813484e-04
4.136656813328e-01+j2.888543748504e-04
4.136657503310e-01+j2.342961307078e-04
4.136657957272e-01+j1.900416337839e-04
4.136658255949e-01+j1.541446915742e-04
4.136658452458e-01+j1.250266505820e-04
4.136658581749e-01+j1.014069737435e-04
4.136658666813e-01+j8.224692699838e-05
4.136658722779e-01+j6.670389907886e-05
4.136658759602e-01+j5.409434593459e-05
4.136658783828e-01+j4.386373035092e-05
4.136658799768e-01+j3.556213486961e-05
4.136658810255e-01+j2.882447557617e-05
4.136658817155e-01+j2.335444663058e-05
4.136658821694e-01+j1.891148947458e-05
4.136658824681e-01+j1.530021366056e-05
4.136658826646e-01+j1.236180405957e-05
4.136658827938e-01+j9.967036560652e-06
4.136658828789e-01+j8.010595109864e-06
4.136658829348e-01+j6.406440166936e-06
4.136658829715e-01+j5.084024895754e-06
4.136658829956e-01+j3.985192686148e-06
4.136658830113e-01+j3.061619567604e-06
4.136658830215e-01+j2.272689038522e-06
4.136658830279e-01+j1.583705851196e-06
4.136658830317e-01+j9.643701991407e-07
4.136658830336e-01+j3.874452052348e-07
4.136658830339e-01-j1.724408899515e-07
4.136658830327e-01-j7.399105164845e-07
4.136658830296e-01-j1.339919609712e-06
4.136658830243e-01-j1.998855111661e-06
4.136658830158e-01-j2.745695404625e-06
4.136658830024e-01-j3.613284710007e-06
4.136658829819e-01-j4.639777497349e-06
4.136658829507e-01-j5.870316425176e-06
4.136658829031e-01-j7.359017605377e-06
4.136658828306e-01-j9.171350498226e-06
4.136658827205e-01-j1.138701709999e-05
4.136658825531e-01-j1.410345704273e-05
4.136658822987e-01-j1.744013275196e-05
</dep>
<dep ac.av frequency>
-5.899777255807e-01-j1.446534773708e+00
-8.348118398014e-01-j1.660247258969e+00
-1.148351988742e+00-j1.852465412503e+00
-1.525254110959e+00-j1.995759450338e+00
-1.945331114361e+00-j2.064668977743e+00
-2.375844348105e+00-j2.045341324982e+00
-2.780731338398e+00-j1.941769829161e+00
-3.131890702005e+00-j1.773928961036e+00
-3.415685846172e+00-j1.569272830802e+00
-3.632233742745e+00-j1.353584066045e+00
-3.790335053141e+00-j1.145723855234e+00
-3.902083119042e+00-j9.567308520116e-01
-3.979270751700e+00-j7.913847218624e-01
-4.031742533719e+00-j6.503810387494e-01
-4.067026807003e+00-j5.321609770894e-01
-4.090580289366e+00-j4.341520142435e-01
-4.106226269936e+00-j3.535010311033e-01
-4.116585723475e+00-j2.874589799361e-01
-4.123430108395e+00-j2.335545126125e-01
-4.127945683339e+00-j1.896507251556e-01
-4.130922028078e+00-j1.539424659827e-01
-4.132882606173e+00-j1.249267432309e-01
-4.134173550968e+00-j1.013635844084e-01
-4.135023346387e+00-j8.223602815454e-02
-4.135582645594e+00-j6.671319926782e-02
-4.135950709653e+00-j5.411794765479e-02
-4.136192906960e+00-j4.389930500660e-02
-4.136352272086e+00-j3.560944999106e-02
-4.136457130396e+00-j2.888465286833e-02
-4.136526123061e+00-j2.342962066094e-02
-4.136571516883e+00-j1.900469302298e-02
-4.136601383531e+00-j1.541539979348e-02
-4.136621034025e+00-j1.250396057290e-02
-4.136633962840e+00-j1.014237362674e-02
-4.136642469182e+00-j8.226801465625e-03
-4.136648065805e+00-j6.673012215704e-03
-4.136651748018e+00-j5.412679516859e-03
-4.136654170672e+00-j4.390379942917e-03
-4.136655764618e+00-j3.561156813484e-03
-4.136656813328e+00-j2.888543748504e-03
-4.136657503310e+00-j2.342961307078e-03
-4.136657957272e+00-j1.900416337839e-03
-4.136658255949e+00-j1.541446915742e-03
-4.136658452458e+00-j1.250266505820e-03
-4.136658581749e+00-j1.014069737435e-03
-4.136658666813e+00-j8.224692699838e-04
-4.136658722779e+00-j6.670389907886e-04
-4.136658759602e+00-j5.409434593459e-04
-4.136658783828e+00-j4.386373035092e-04
-4.136658799768e+00-j3.556213486961e-04
-4.136658810255e+00-j2.882447557617e-04
-4.136658817155e+00-j2.335444663058e-04
-4.136658821694e+00-j1.891148947458e-04
-4.136658824681e+00-j1.530021366056e-04
-4.136658826646e+00-j1.236180405957e-04
-4.136658827938e+00-j9.967036560652e-05
-4.136658828789e+00-j8.010595109864e-05
-4.136658829348e+00-j6.406440166936e-05
-4.136658829715e+00-j5.084024895754e-05
-4.136658829956e+00-j3.985192686148e-05
-4.136658830113e+00-j3.061619567604e-05
-4.136658830215e+00-j2.272689038522e-05
-4.136658830279e+00-j1.583705851196e-05
-4.136658830317e+00-j9.643701991407e-06
-4.136658830336e+00-j3.874452052348e-06
-4.136658830339e+00+j1.724408899515e-06
-4.136658830327e+00+j7.399105164845e-06
-4.136658830296e+00+j1.339919609712e-05
-4.136658830243e+00+j1.998855111661e-05
-4.136658830158e+00+j2.745695404625e-05
-4.136658830024e+00+j3.613284710007e-05
-4.136658829819e+00+j4.639777497349e-05
-4.136658829507e+00+j5.870316425176e-05
-4.136658829031e+00+j7.359017605377e-05
-4.136658828306e+00+j9.171350498226e-05
-4.136658827205e+00+j1.138701709999e-04
-4.136658825531e+00+j1.410345704273e-04
-4.136658822987e+00+j1.744013275196e-04
</dep>
<indep time 209>
0.000000000000e+00
9.950250000000e-08
1.990050000000e-07
3.980100000000e-07
7.960200000000e-07
1.592040000000e-06
3.184080000000e-06
6.368160000000e-06
1.273632000000e-05
2.268657000000e-05
3.263682000000e-05
4.258707000000e-05
5.253732000000e-05
6.248757000000e-05
7.243782000000e-05
8.238807000000e-05
9.233832000000e-05
1.022885700000e-04
1.122388200000e-04
1.221890700000e-04
1.321393200000e-04
1.420895700000e-04
1.520398200000e-04
1.619900700000e-04
1.719403200000e-04
1.818905700000e-04
1.918408200000e-04
2.017910700000e-04
2.117413200000e-04
2.216915700000e-04
2.316418200000e-04
2.415920700000e-04
2.515423200000e-04
2.614925700000e-04
2.714428200000e-04
2.813930700000e-04
2.913433200000e-04
3.012935700000e-04
3.112438200000e-04
3.211940700000e-04
3.311443200000e-04
3.410945700000e-04
3.510448200000e-04
3.609950700000e-04
3.709453200000e-04
3.808955700000e-04
3.908458200000e-04
4.007960700000e-04
4.107463200000e-04
4.206965700000e-04
4.306468200000e-04
4.405970700000e-04
4.505473200000e-04
4.604975700000e-04
4.704478200000e-04
4.803980700000e-04
4.903483200000e-04
5.002985700000e-04
5.102488200000e-04
5.201990700000e-04
5.301493200000e-04
5.400995700000e-04
5.500498200000e-04
5.600000700000e-04
5.699503200000e-04
5.799005700000e-04
5.898508200000e-04
5.998010700000e-04
6.097513200000e-04
6.197015700000e-04
6.296518200000e-04
6.396020700000e-04
6.495523200000e-04
6.595025700000e-04
6.694528200000e-04
6.794030700000e-04
6.893533200000e-04
6.993035700000e-04
7.092538200000e-04
7.192040700000e-04
7.291543200000e-04
7.391045700000e-04
7.490548200000e-04
7.590050700000e-04
7.689553200000e-04
7.789055700000e-04
7.888558200000e-04
7.988060700000e-04
8.087563200000e-04
8.187065700000e-04
8.286568200000e-04
8.386070700000e-04
8.485573200000e-04
8.585075700000e-04
8.684578200000e-04
8.784080700000e-04
8.883583200000e-04
8.983085700000e-04
9.082588200000e-04
9.182090700000e-04
9.281593200000e-04
9.381095700000e-04
9.480598200000e-04
9.580100700000e-04
9.679603200000e-04
9.779105700000e-04
9.878608200000e-04
9.978110700000e-04
1.007761320000e-03
1.017711570000e-03
1.027661820000e-03
1.037612070000e-03
1.047562320000e-03
1.057512570000e-03
1.067462820000e-03
1.077413070000e-03
1.087363320000e-03
1.097313570000e-03
1.107263820000e-03
1.117214070000e-03
1.127164320000e-03
1.137114570000e-03
1.147064820000e-03
1.157015070000e-03
1.166965320000e-03
1.176915570000e-03
1.186865820000e-03
1.196816070000e-03
1.206766320000e-03
1.216716570000e-03
1.226666820000e-03
1.236617070000e-03
1.246567320000e-03
1.256517570000e-03
1.266467820000e-03
1.276418070000e-03
1.286368320000e-03
1.296318570000e-03
1.306268820000e-03
1.316219070000e-03
1.326169320000e-03
1.336119570000e-03
1.346069820000e-03
1.356020070000e-03
1.365970320000e-03
