<Qucs Dataset 0.0.22>
<indep time 209>
0.000000000000e+00
9.950250000000e-08
1.990050000000e-07
3.980100000000e-07
7.960200000000e-07
1.592040000000e-06
3.184080000000e-06
6.368160000000e-06
1.273632000000e-05
2.268657000000e-05
3.263682000000e-05
4.258707000000e-05
5.253732000000e-05
6.248757000000e-05
7.243782000000e-05
8.238807000000e-05
9.233832000000e-05
1.022885700000e-04
1.122388200000e-04
1.221890700000e-04
1.321393200000e-04
1.420895700000e-04
1.520398200000e-04
1.619900700000e-04
1.719403200000e-04
1.818905700000e-04
1.918408200000e-04
2.017910700000e-04
2.117413200000e-04
2.216915700000e-04
2.316418200000e-04
2.415920700000e-04
2.515423200000e-04
2.614925700000e-04
2.714428200000e-04
2.813930700000e-04
2.913433200000e-04
3.012935700000e-04
3.112438200000e-04
3.211940700000e-04
3.311443200000e-04
3.410945700000e-04
3.510448200000e-04
3.609950700000e-04
3.709453200000e-04
3.808955700000e-04
3.908458200000e-04
4.007960700000e-04
4.107463200000e-04
4.206965700000e-04
4.306468200000e-04
4.405970700000e-04
4.505473200000e-04
4.604975700000e-04
4.704478200000e-04
4.803980700000e-04
4.903483200000e-04
5.002985700000e-04
5.102488200000e-04
5.201990700000e-04
5.301493200000e-04
5.400995700000e-04
5.500498200000e-04
5.600000700000e-04
5.699503200000e-04
5.799005700000e-04
5.898508200000e-04
5.998010700000e-04
6.097513200000e-04
6.197015700000e-04
6.296518200000e-04
6.396020700000e-04
6.495523200000e-04
6.595025700000e-04
6.694528200000e-04
6.794030700000e-04
6.893533200000e-04
6.993035700000e-04
7.092538200000e-04
7.192040700000e-04
7.291543200000e-04
7.391045700000e-04
7.490548200000e-04
7.590050700000e-04
7.689553200000e-04
7.789055700000e-04
7.888558200000e-04
7.988060700000e-04
8.087563200000e-04
8.187065700000e-04
8.286568200000e-04
8.386070700000e-04
8.485573200000e-04
8.585075700000e-04
8.684578200000e-04
8.784080700000e-04
8.883583200000e-04
8.983085700000e-04
9.082588200000e-04
9.182090700000e-04
9.281593200000e-04
9.381095700000e-04
9.480598200000e-04
9.580100700000e-04
9.679603200000e-04
9.779105700000e-04
9.878608200000e-04
9.978110700000e-04
1.007761320000e-03
1.017711570000e-03
1.027661820000e-03
1.037612070000e-03
1.047562320000e-03
1.057512570000e-03
1.067462820000e-03
1.077413070000e-03
1.087363320000e-03
1.097313570000e-03
1.107263820000e-03
1.117214070000e-03
1.127164320000e-03
1.137114570000e-03
1.147064820000e-03
1.157015070000e-03
1.166965320000e-03
1.176915570000e-03
1.186865820000e-03
1.196816070000e-03
1.206766320000e-03
1.216716570000e-03
1.226666820000e-03
1.236617070000e-03
1.246567320000e-03
1.256517570000e-03
1.266467820000e-03
1.276418070000e-03
1.286368320000e-03
1.296318570000e-03
1.306268820000e-03
1.316219070000e-03
1.326169320000e-03
1.336119570000e-03
1.346069820000e-03
1.356020070000e-03
1.365970320000e-03
1.375920570000e-03
1.385870820000e-03
1.395821070000e-03
1.405771320000e-03
1.415721570000e-03
1.425671820000e-03
1.435622070000e-03
1.445572320000e-03
1.455522570000e-03
1.465472820000e-03
1.475423070000e-03
1.485373320000e-03
1.495323570000e-03
1.505273820000e-03
1.515224070000e-03
1.525174320000e-03
1.535124570000e-03
1.545074820000e-03
1.555025070000e-03
1.564975320000e-03
1.574925570000e-03
1.584875820000e-03
1.594826070000e-03
1.604776320000e-03
1.614726570000e-03
1.624676820000e-03
1.634627070000e-03
1.644577320000e-03
1.654527570000e-03
1.664477820000e-03
1.674428070000e-03
1.684378320000e-03
1.694328570000e-03
1.704278820000e-03
1.714229070000e-03
1.724179320000e-03
1.734129570000e-03
1.744079820000e-03
1.754030070000e-03
1.763980320000e-03
1.773930570000e-03
1.783880820000e-03
1.793831070000e-03
1.803781320000e-03
1.813731570000e-03
1.823681820000e-03
1.833632070000e-03
1.843582320000e-03
1.853532570000e-03
1.863482820000e-03
1.873433070000e-03
1.883383320000e-03
1.893333570000e-03
1.903283820000e-03
1.913234070000e-03
1.923184320000e-03
1.933134570000e-03
1.943084820000e-03
1.953035070000e-03
1.962985320000e-03
1.972935570000e-03
1.982885820000e-03
1.992836070000e-03
2.000000000000e-03
</indep>
<dep tran.v(s) time>
2.488737458502e-01
2.488996078957e-01
2.489254717157e-01
2.489772002839e-01
2.490806658298e-01
2.492876282816e-01
2.497016603814e-01
2.505300071799e-01
2.521866582415e-01
2.547695598226e-01
2.573365398639e-01
2.598772714559e-01
2.623814516083e-01
2.648388482192e-01
2.672393474827e-01
2.695730017336e-01
2.718300773498e-01
2.740011023855e-01
2.760769135986e-01
2.780487025435e-01
2.799080603990e-01
2.816470212139e-01
2.832581032588e-01
2.847343481880e-01
2.860693577304e-01
2.872573276462e-01
2.882930787034e-01
2.891720844556e-01
2.898904956171e-01
2.904451608654e-01
2.908336439181e-01
2.910542367651e-01
2.911059689597e-01
2.909886129033e-01
2.907026850847e-01
2.902494432676e-01
2.896308796427e-01
2.888497099978e-01
2.879093589781e-01
2.868139415472e-01
2.855682407777e-01
2.841776821322e-01
2.826483044182e-01
2.809867276268e-01
2.792001178833e-01
2.772961497650e-01
2.752829662537e-01
2.731691366132e-01
2.709636124907e-01
2.686756825606e-01
2.663149260278e-01
2.638911653272e-01
2.614144183451e-01
2.588948505011e-01
2.563427270154e-01
2.537683656868e-01
2.511820904906e-01
2.485941862969e-01
2.460148549861e-01
2.434541732239e-01
2.409220521273e-01
2.384281990309e-01
2.359820815293e-01
2.335928939401e-01
2.312695262977e-01
2.290205359511e-01
2.268541218033e-01
2.247781011941e-01
2.227998893872e-01
2.209264815968e-01
2.191644374452e-01
2.175198677233e-01
2.159984232934e-01
2.146052859555e-01
2.133451610795e-01
2.122222717973e-01
2.112403545398e-01
2.104026557095e-01
2.097119292787e-01
2.091704351265e-01
2.087799379345e-01
2.085417064954e-01
2.084565133078e-01
2.085246343696e-01
2.087458491097e-01
2.091194404428e-01
2.096441949569e-01
2.103184032929e-01
2.111398607980e-01
2.121058685768e-01
2.132132350836e-01
2.144582784323e-01
2.158368296097e-01
2.173442368025e-01
2.189753710434e-01
2.207246333951e-01
2.225859638761e-01
2.245528523306e-01
2.266183514200e-01
2.287750919014e-01
2.310153003248e-01
2.333308192579e-01
2.357131301106e-01
2.381533786009e-01
2.406424028622e-01
2.431707641637e-01
2.457287801686e-01
2.483065606295e-01
2.508940453754e-01
2.534810444219e-01
2.560572799960e-01
2.586124302484e-01
2.611361743928e-01
2.636182389974e-01
2.660484451308e-01
2.684167560538e-01
2.707133251329e-01
2.729285436509e-01
2.750530881779e-01
2.770779671733e-01
2.789945664863e-01
2.807946934323e-01
2.824706191292e-01
2.840151187910e-01
2.854215096875e-01
2.866836865005e-01
2.877961538190e-01
2.887540555433e-01
2.895532009841e-01
2.901900874721e-01
2.906619193140e-01
2.909666229615e-01
2.911028582819e-01
2.910700258530e-01
2.908682702281e-01
2.904984791484e-01
2.899622787082e-01
2.892620245089e-01
2.884007888615e-01
2.873823441335e-01
2.862111423555e-01
2.848922912362e-01
2.834315267549e-01
2.818351825319e-01
2.801101561914e-01
2.782638729646e-01
2.763042467886e-01
2.742396391853e-01
2.720788162115e-01
2.698309037926e-01
2.675053417539e-01
2.651118368821e-01
2.626603153424e-01
2.601608747903e-01
2.576237365040e-01
2.550591978683e-01
2.524775855236e-01
2.498892094885e-01
2.473043185424e-01
2.447330571400e-01
2.421854241037e-01
2.396712333167e-01
2.372000766057e-01
2.347812889790e-01
2.324239163423e-01
2.301366857884e-01
2.279279785124e-01
2.258058053758e-01
2.237777850973e-01
2.218511250213e-01
2.200326043735e-01
2.183285598895e-01
2.167448736665e-01
2.152869630719e-01
2.139597725178e-01
2.127677668995e-01
2.117149264865e-01
2.108047430539e-01
2.100402170419e-01
2.094238555474e-01
2.089576709600e-01
2.086431800819e-01
2.084814035918e-01
2.084728657500e-01
2.086175942643e-01
2.089151202842e-01
2.093644785175e-01
2.099642075054e-01
2.107123501255e-01
2.116064544281e-01
2.126435749369e-01
2.138202745785e-01
2.151326274181e-01
2.165762224049e-01
2.181461683307e-01
2.198371002197e-01
2.216431873573e-01
2.235581431648e-01
2.255752371080e-01
2.276873088145e-01
2.298867845456e-01
2.321656961473e-01
2.345157025667e-01
2.369281139955e-01
2.393939186583e-01
2.419038122330e-01
2.444482298512e-01
2.470173805907e-01
2.488768223054e-01
</dep>
<dep tran.i(pr1) time>
2.488737458502e-03
2.488996078957e-03
2.489254712917e-03
2.489771998599e-03
2.490806654058e-03
2.492876278577e-03
2.497016599578e-03
2.505300067568e-03
2.521866578199e-03
2.547695594048e-03
2.573365394517e-03
2.598772710507e-03
2.623814512118e-03
2.648388478327e-03
2.672393471078e-03
2.695730013715e-03
2.718300770021e-03
2.740011020533e-03
2.760769132833e-03
2.780487022460e-03
2.799080601206e-03
2.816470209555e-03
2.832581030213e-03
2.847343479723e-03
2.860693575373e-03
2.872573274763e-03
2.882930785574e-03
2.891720843339e-03
2.898904955203e-03
2.904451607937e-03
2.908336438719e-03
2.910542367444e-03
2.911059689647e-03
2.909886129338e-03
2.907026851409e-03
2.902494433490e-03
2.896308797493e-03
2.888497101289e-03
2.879093591334e-03
2.868139417261e-03
2.855682409797e-03
2.841776823564e-03
2.826483046640e-03
2.809867278931e-03
2.792001181693e-03
2.772961500695e-03
2.752829665758e-03
2.731691369514e-03
2.709636128442e-03
2.686756829277e-03
2.663149264074e-03
2.638911657177e-03
2.614144187452e-03
2.588948509091e-03
2.563427274300e-03
2.537683661061e-03
2.511820909133e-03
2.485941867211e-03
2.460148554104e-03
2.434541736464e-03
2.409220525465e-03
2.384281994451e-03
2.359820819368e-03
2.335928943393e-03
2.312695266870e-03
2.290205363287e-03
2.268541221680e-03
2.247781015441e-03
2.227998897213e-03
2.209264819134e-03
2.191644377431e-03
2.175198680012e-03
2.159984235502e-03
2.146052861900e-03
2.133451612907e-03
2.122222719842e-03
2.112403547019e-03
2.104026558458e-03
2.097119293889e-03
2.091704352098e-03
2.087799379908e-03
2.085417065244e-03
2.084565133094e-03
2.085246343436e-03
2.087458490565e-03
2.091194403624e-03
2.096441948498e-03
2.103184031594e-03
2.111398606388e-03
2.121058683925e-03
2.132132348751e-03
2.144582782003e-03
2.158368293554e-03
2.173442365268e-03
2.189753707477e-03
2.207246330804e-03
2.225859635440e-03
2.245528519822e-03
2.266183510569e-03
2.287750915251e-03
2.310152999368e-03
2.333308188597e-03
2.357131297040e-03
2.381533781873e-03
2.406424024435e-03
2.431707637413e-03
2.457287797445e-03
2.483065602051e-03
2.508940449525e-03
2.534810440020e-03
2.560572795809e-03
2.586124298395e-03
2.611361739918e-03
2.636182386056e-03
2.660484447500e-03
2.684167556851e-03
2.707133247779e-03
2.729285433107e-03
2.750530878540e-03
2.770779668667e-03
2.789945661982e-03
2.807946931637e-03
2.824706188812e-03
2.840151185643e-03
2.854215094830e-03
2.866836863189e-03
2.877961536611e-03
2.887540554094e-03
2.895532008748e-03
2.901900873877e-03
2.906619192551e-03
2.909666229280e-03
2.911028582741e-03
2.910700258708e-03
2.908682702715e-03
2.904984792171e-03
2.899622788023e-03
2.892620246277e-03
2.884007890048e-03
2.873823443007e-03
2.862111425461e-03
2.848922914493e-03
2.834315269901e-03
2.818351827880e-03
2.801101564677e-03
2.782638732599e-03
2.763042471021e-03
2.742396395156e-03
2.720788165576e-03
2.698309041530e-03
2.675053421275e-03
2.651118372672e-03
2.626603157379e-03
2.601608751945e-03
2.576237369155e-03
2.550591982854e-03
2.524775859448e-03
2.498892099122e-03
2.473043189669e-03
2.447330575635e-03
2.421854245249e-03
2.396712337335e-03
2.372000770167e-03
2.347812893825e-03
2.324239167368e-03
2.301366861720e-03
2.279279788839e-03
2.258058057333e-03
2.237777854396e-03
2.218511253468e-03
2.200326046810e-03
2.183285601775e-03
2.167448739340e-03
2.152869633176e-03
2.139597727408e-03
2.127677670987e-03
2.117149266612e-03
2.108047432032e-03
2.100402171652e-03
2.094238556442e-03
2.089576710300e-03
2.086431801245e-03
2.084814036072e-03
2.084728657378e-03
2.086175942247e-03
2.089151202173e-03
2.093644784237e-03
2.099642073849e-03
2.107123499791e-03
2.116064542562e-03
2.126435747404e-03
2.138202743581e-03
2.151326271749e-03
2.165762221398e-03
2.181461680449e-03
2.198370999143e-03
2.216431870338e-03
2.235581428243e-03
2.255752367521e-03
2.276873084445e-03
2.298867841633e-03
2.321656957540e-03
2.345157021641e-03
2.369281135852e-03
2.393939182420e-03
2.419038118123e-03
2.444482294278e-03
2.470173801662e-03
2.488768218814e-03
</dep>
<dep tran.v(vin) time>
0.000000000000e+00
6.251926052999e-05
1.250384966233e-04
2.500767977536e-04
5.001520315643e-04
1.000291551645e-03
2.000483013294e-03
4.000165366720e-03
7.993927377067e-03
1.420616939368e-02
2.036290243031e-02
2.644006975768e-02
3.241392554045e-02
3.826112762127e-02
4.395882872765e-02
4.948476574502e-02
5.481734670734e-02
5.993573516518e-02
6.481993160182e-02
6.945085157902e-02
7.381040030733e-02
7.788154334934e-02
8.164837317986e-02
8.509617134270e-02
8.821146596140e-02
9.098208437900e-02
9.339720072133e-02
9.544737819787e-02
9.712460597491e-02
9.842233047700e-02
9.933548099427e-02
9.986048949563e-02
9.999530457051e-02
9.973939944443e-02
9.909377403737e-02
9.806095105667e-02
9.664496613983e-02
9.485135208577e-02
9.268711723600e-02
9.016071809033e-02
8.728202626410e-02
8.406228991594e-02
8.051408979691e-02
7.665129009263e-02
7.248898425056e-02
6.804343600411e-02
6.333201582394e-02
5.837313304484e-02
5.318616393337e-02
4.779137597731e-02
4.220984869277e-02
3.646339125843e-02
3.057445729859e-02
2.456605714831e-02
1.846166794307e-02
1.228514188462e-02
6.060613041159e-03
-1.875969536821e-04
-6.435073934911e-03
-1.265740660170e-02
-1.883028190173e-02
-2.492958003172e-02
-3.093146868272e-02
-3.681249616217e-02
-4.254968302870e-02
-4.812061188167e-02
-5.350351495458e-02
-5.867735917012e-02
-6.362192832455e-02
-6.831790208016e-02
-7.274693145729e-02
-7.689171053086e-02
-8.073604405132e-02
-8.426491072569e-02
-8.746452191158e-02
-9.032237549471e-02
-9.282730473948e-02
-9.496952192174e-02
-9.674065657318e-02
-9.813378818798e-02
-9.914347326391e-02
-9.976576657216e-02
-9.999823657290e-02
-9.983997491621e-02
-9.929159999141e-02
-9.835525451070e-02
-9.703459713682e-02
-9.533478818721e-02
-9.326246947069e-02
-9.082573833530e-02
-8.803411602891e-02
-8.489851049596e-02
-8.143117375600e-02
-7.764565403023e-02
-7.355674280347e-02
-6.918041702806e-02
-6.453377669579e-02
-5.963497802161e-02
-5.450316250033e-02
-4.915838211338e-02
-4.362152097803e-02
-3.791421374508e-02
-3.205876106393e-02
-2.607804244535e-02
-1.999542686243e-02
-1.383468143895e-02
-7.619878582126e-03
-1.375301922385e-03
4.874648572116e-03
1.110555193558e-02
1.729306162668e-02
2.341300065990e-02
2.944145607435e-02
3.535487237089e-02
4.113014355254e-02
4.674470340856e-02
5.217661368930e-02
5.740464982742e-02
6.240838387043e-02
6.716826430059e-02
7.166569243023e-02
7.588309507400e-02
7.980399321404e-02
8.341306638990e-02
8.669621256146e-02
8.964060321106e-02
9.223473346942e-02
9.446846706965e-02
9.633307595351e-02
9.782127437533e-02
9.892724737021e-02
9.964667347532e-02
9.997674161556e-02
9.991616208746e-02
9.946517159860e-02
9.862553234265e-02
9.740052511386e-02
9.579493648768e-02
9.381504011779e-02
9.146857222252e-02
8.876470135644e-02
8.571399258532e-02
8.232836620429e-02
7.862105116073e-02
7.460653336359e-02
7.030049908141e-02
6.571977365002e-02
6.088225572945e-02
5.580684736696e-02
5.051338013950e-02
4.502253766402e-02
3.935577477869e-02
3.353523371052e-02
2.758365755714e-02
2.152430142078e-02
1.538084154163e-02
9.177282785598e-03
2.937864848081e-03
-3.313032459880e-03
-9.550984472919e-03
-1.575161710793e-02
-2.189070210299e-02
-2.794425168655e-02
-3.388861230688e-02
-3.970055705560e-02
-4.535737642421e-02
-5.083696703886e-02
-5.611791802675e-02
-6.117959467668e-02
-6.600221906682e-02
-7.056694734465e-02
-7.485594335720e-02
-7.885244834372e-02
-8.254084641867e-02
-8.590672558897e-02
-8.893693406724e-02
-9.161963166087e-02
-9.394433603623e-02
-9.590196367722e-02
-9.748486537802e-02
-9.868685613150e-02
-9.950323929646e-02
-9.993082494916e-02
-9.996794234765e-02
-9.961444645993e-02
-9.887171853070e-02
-9.774266068430e-02
-9.623168458494e-02
-9.434469419871e-02
-9.208906272443e-02
-8.947360378376e-02
-8.650853698300e-02
-8.320544798110e-02
-7.957724322006e-02
-7.563809949448e-02
-7.140340855734e-02
-6.688971697852e-02
-6.211466149094e-02
-5.709690007707e-02
-5.185603906500e-02
-4.641255651894e-02
-4.078772222353e-02
-3.500351457462e-02
-2.908253470118e-02
-2.304791815398e-02
-1.692324450609e-02
-1.073244521837e-02
-4.499710130058e-03
-4.898587196589e-17
</dep>
<dep tran.v(vout) time>
2.511262541498e+00
2.511003921043e+00
2.510745287083e+00
2.510228001401e+00
2.509193345942e+00
2.507123721423e+00
2.502983400422e+00
2.494699932432e+00
2.478133421801e+00
2.452304405952e+00
2.426634605483e+00
2.401227289493e+00
2.376185487882e+00
2.351611521673e+00
2.327606528922e+00
2.304269986285e+00
2.281699229979e+00
2.259988979467e+00
2.239230867167e+00
2.219512977540e+00
2.200919398794e+00
2.183529790445e+00
2.167418969787e+00
2.152656520277e+00
2.139306424627e+00
2.127426725237e+00
2.117069214426e+00
2.108279156661e+00
2.101095044797e+00
2.095548392063e+00
2.091663561281e+00
2.089457632556e+00
2.088940310353e+00
2.090113870662e+00
2.092973148591e+00
2.097505566510e+00
2.103691202507e+00
2.111502898711e+00
2.120906408666e+00
2.131860582739e+00
2.144317590203e+00
2.158223176436e+00
2.173516953360e+00
2.190132721069e+00
2.207998818307e+00
2.227038499305e+00
2.247170334242e+00
2.268308630486e+00
2.290363871558e+00
2.313243170723e+00
2.336850735926e+00
2.361088342823e+00
2.385855812548e+00
2.411051490909e+00
2.436572725700e+00
2.462316338939e+00
2.488179090867e+00
2.514058132789e+00
2.539851445896e+00
2.565458263536e+00
2.590779474535e+00
2.615718005549e+00
2.640179180632e+00
2.664071056607e+00
2.687304733130e+00
2.709794636713e+00
2.731458778320e+00
2.752218984559e+00
2.772001102787e+00
2.790735180866e+00
2.808355622569e+00
2.824801319988e+00
2.840015764498e+00
2.853947138100e+00
2.866548387093e+00
2.877777280158e+00
2.887596452981e+00
2.895973441542e+00
2.902880706111e+00
2.908295647902e+00
2.912200620092e+00
2.914582934756e+00
2.915434866906e+00
2.914753656564e+00
2.912541509435e+00
2.908805596376e+00
2.903558051502e+00
2.896815968406e+00
2.888601393612e+00
2.878941316075e+00
2.867867651249e+00
2.855417217997e+00
2.841631706446e+00
2.826557634732e+00
2.810246292523e+00
2.792753669196e+00
2.774140364560e+00
2.754471480178e+00
2.733816489431e+00
2.712249084749e+00
2.689847000632e+00
2.666691811403e+00
2.642868702960e+00
2.618466218127e+00
2.593575975565e+00
2.568292362587e+00
2.542712202555e+00
2.516934397949e+00
2.491059550475e+00
2.465189559980e+00
2.439427204191e+00
2.413875701605e+00
2.388638260082e+00
2.363817613944e+00
2.339515552500e+00
2.315832443149e+00
2.292866752221e+00
2.270714566893e+00
2.249469121460e+00
2.229220331333e+00
2.210054338018e+00
2.192053068363e+00
2.175293811188e+00
2.159848814357e+00
2.145784905170e+00
2.133163136811e+00
2.122038463389e+00
2.112459445906e+00
2.104467991252e+00
2.098099126123e+00
2.093380807449e+00
2.090333770720e+00
2.088971417259e+00
2.089299741292e+00
2.091317297285e+00
2.095015207829e+00
2.100377211977e+00
2.107379753723e+00
2.115992109952e+00
2.126176556993e+00
2.137888574539e+00
2.151077085507e+00
2.165684730099e+00
2.181648172120e+00
2.198898435323e+00
2.217361267401e+00
2.236957528979e+00
2.257603604844e+00
2.279211834424e+00
2.301690958470e+00
2.324946578725e+00
2.348881627328e+00
2.373396842621e+00
2.398391248055e+00
2.423762630845e+00
2.449408017146e+00
2.475224140552e+00
2.501107900878e+00
2.526956810331e+00
2.552669424365e+00
2.578145754751e+00
2.603287662665e+00
2.627999229833e+00
2.652187106175e+00
2.675760832632e+00
2.698633138280e+00
2.720720211161e+00
2.741941942667e+00
2.762222145604e+00
2.781488746532e+00
2.799673953190e+00
2.816714398225e+00
2.832551260660e+00
2.847130366824e+00
2.860402272592e+00
2.872322329013e+00
2.882850733388e+00
2.891952567968e+00
2.899597828348e+00
2.905761443558e+00
2.910423289700e+00
2.913568198755e+00
2.915185963928e+00
2.915271342622e+00
2.913824057753e+00
2.910848797827e+00
2.906355215763e+00
2.900357926151e+00
2.892876500209e+00
2.883935457438e+00
2.873564252596e+00
2.861797256419e+00
2.848673728251e+00
2.834237778602e+00
2.818538319551e+00
2.801629000857e+00
2.783568129662e+00
2.764418571757e+00
2.744247632479e+00
2.723126915555e+00
2.701132158367e+00
2.678343042460e+00
