<Qucs Dataset 0.0.21>
<indep frequency 78>
1.000000000000e+00
1.232846739442e+00
1.519911082953e+00
1.873817422860e+00
2.310129700083e+00
2.848035868436e+00
3.511191734215e+00
4.328761281083e+00
5.336699231206e+00
6.579332246576e+00
8.111308307897e+00
1.000000000000e+01
1.232846739442e+01
1.519911082953e+01
1.873817422860e+01
2.310129700083e+01
2.848035868436e+01
3.511191734215e+01
4.328761281083e+01
5.336699231206e+01
6.579332246576e+01
8.111308307897e+01
1.000000000000e+02
1.232846739442e+02
1.519911082953e+02
1.873817422860e+02
2.310129700083e+02
2.848035868436e+02
3.511191734215e+02
4.328761281083e+02
5.336699231206e+02
6.579332246576e+02
8.111308307897e+02
1.000000000000e+03
1.232846739442e+03
1.519911082953e+03
1.873817422860e+03
2.310129700083e+03
2.848035868436e+03
3.511191734215e+03
4.328761281083e+03
5.336699231206e+03
6.579332246576e+03
8.111308307897e+03
1.000000000000e+04
1.232846739442e+04
1.519911082953e+04
1.873817422860e+04
2.310129700083e+04
2.848035868436e+04
3.511191734215e+04
4.328761281083e+04
5.336699231206e+04
6.579332246576e+04
8.111308307897e+04
1.000000000000e+05
1.232846739442e+05
1.519911082953e+05
1.873817422860e+05
2.310129700083e+05
2.848035868436e+05
3.511191734215e+05
4.328761281083e+05
5.336699231206e+05
6.579332246576e+05
8.111308307897e+05
1.000000000000e+06
1.232846739442e+06
1.519911082953e+06
1.873817422860e+06
2.310129700083e+06
2.848035868436e+06
3.511191734215e+06
4.328761281083e+06
5.336699231206e+06
6.579332246576e+06
8.111308307897e+06
1.000000000000e+07
</indep>
<dep ac.i(pr2) frequency>
0.000000000000e+00+j0.000000000000e+00
0.000000000000e+00+j0.000000000000e+00
0.000000000000e+00+j0.000000000000e+00
0.000000000000e+00+j0.000000000000e+00
0.000000000000e+00+j0.000000000000e+00
0.000000000000e+00+j0.000000000000e+00
0.000000000000e+00+j0.000000000000e+00
0.000000000000e+00+j0.000000000000e+00
0.000000000000e+00+j0.000000000000e+00
0.000000000000e+00+j0.000000000000e+00
0.000000000000e+00+j0.000000000000e+00
0.000000000000e+00+j0.000000000000e+00
0.000000000000e+00+j0.000000000000e+00
0.000000000000e+00+j0.000000000000e+00
0.000000000000e+00+j0.000000000000e+00
0.000000000000e+00+j0.000000000000e+00
0.000000000000e+00+j0.000000000000e+00
0.000000000000e+00+j0.000000000000e+00
0.000000000000e+00+j0.000000000000e+00
0.000000000000e+00+j0.000000000000e+00
0.000000000000e+00+j0.000000000000e+00
0.000000000000e+00+j0.000000000000e+00
0.000000000000e+00+j0.000000000000e+00
0.000000000000e+00+j0.000000000000e+00
0.000000000000e+00+j0.000000000000e+00
0.000000000000e+00+j0.000000000000e+00
0.000000000000e+00+j0.000000000000e+00
0.000000000000e+00+j0.000000000000e+00
0.000000000000e+00+j0.000000000000e+00
0.000000000000e+00+j0.000000000000e+00
0.000000000000e+00+j0.000000000000e+00
0.000000000000e+00+j0.000000000000e+00
0.000000000000e+00+j0.000000000000e+00
0.000000000000e+00+j0.000000000000e+00
0.000000000000e+00+j0.000000000000e+00
0.000000000000e+00+j0.000000000000e+00
0.000000000000e+00+j0.000000000000e+00
0.000000000000e+00+j0.000000000000e+00
0.000000000000e+00+j0.000000000000e+00
0.000000000000e+00+j0.000000000000e+00
0.000000000000e+00+j0.000000000000e+00
0.000000000000e+00+j0.000000000000e+00
0.000000000000e+00+j0.000000000000e+00
0.000000000000e+00+j0.000000000000e+00
0.000000000000e+00+j0.000000000000e+00
0.000000000000e+00+j0.000000000000e+00
0.000000000000e+00+j0.000000000000e+00
0.000000000000e+00+j0.000000000000e+00
0.000000000000e+00+j0.000000000000e+00
0.000000000000e+00+j0.000000000000e+00
0.000000000000e+00+j0.000000000000e+00
0.000000000000e+00+j0.000000000000e+00
0.000000000000e+00+j0.000000000000e+00
0.000000000000e+00+j0.000000000000e+00
0.000000000000e+00+j0.000000000000e+00
0.000000000000e+00+j0.000000000000e+00
0.000000000000e+00+j0.000000000000e+00
0.000000000000e+00+j0.000000000000e+00
0.000000000000e+00+j0.000000000000e+00
0.000000000000e+00+j0.000000000000e+00
0.000000000000e+00+j0.000000000000e+00
0.000000000000e+00+j0.000000000000e+00
0.000000000000e+00+j0.000000000000e+00
0.000000000000e+00+j0.000000000000e+00
0.000000000000e+00+j0.000000000000e+00
0.000000000000e+00+j0.000000000000e+00
0.000000000000e+00+j0.000000000000e+00
0.000000000000e+00+j0.000000000000e+00
0.000000000000e+00+j0.000000000000e+00
0.000000000000e+00+j0.000000000000e+00
0.000000000000e+00+j0.000000000000e+00
0.000000000000e+00+j0.000000000000e+00
0.000000000000e+00+j0.000000000000e+00
0.000000000000e+00+j0.000000000000e+00
0.000000000000e+00+j0.000000000000e+00
0.000000000000e+00+j0.000000000000e+00
0.000000000000e+00+j0.000000000000e+00
0.000000000000e+00+j0.000000000000e+00
</dep>
<dep ac.i(pr3) frequency>
0.000000000000e+00+j0.000000000000e+00
0.000000000000e+00+j0.000000000000e+00
0.000000000000e+00+j0.000000000000e+00
0.000000000000e+00+j0.000000000000e+00
0.000000000000e+00+j0.000000000000e+00
0.000000000000e+00+j0.000000000000e+00
0.000000000000e+00+j0.000000000000e+00
0.000000000000e+00+j0.000000000000e+00
0.000000000000e+00+j0.000000000000e+00
0.000000000000e+00+j0.000000000000e+00
0.000000000000e+00+j0.000000000000e+00
0.000000000000e+00+j0.000000000000e+00
0.000000000000e+00+j0.000000000000e+00
0.000000000000e+00+j0.000000000000e+00
0.000000000000e+00+j0.000000000000e+00
0.000000000000e+00+j0.000000000000e+00
0.000000000000e+00+j0.000000000000e+00
0.000000000000e+00+j0.000000000000e+00
0.000000000000e+00+j0.000000000000e+00
0.000000000000e+00+j0.000000000000e+00
0.000000000000e+00+j0.000000000000e+00
0.000000000000e+00+j0.000000000000e+00
0.000000000000e+00+j0.000000000000e+00
0.000000000000e+00+j0.000000000000e+00
0.000000000000e+00+j0.000000000000e+00
0.000000000000e+00+j0.000000000000e+00
0.000000000000e+00+j0.000000000000e+00
0.000000000000e+00+j0.000000000000e+00
0.000000000000e+00+j0.000000000000e+00
0.000000000000e+00+j0.000000000000e+00
0.000000000000e+00+j0.000000000000e+00
0.000000000000e+00+j0.000000000000e+00
0.000000000000e+00+j0.000000000000e+00
0.000000000000e+00+j0.000000000000e+00
0.000000000000e+00+j0.000000000000e+00
0.000000000000e+00+j0.000000000000e+00
0.000000000000e+00+j0.000000000000e+00
0.000000000000e+00+j0.000000000000e+00
0.000000000000e+00+j0.000000000000e+00
0.000000000000e+00+j0.000000000000e+00
0.000000000000e+00+j0.000000000000e+00
0.000000000000e+00+j0.000000000000e+00
0.000000000000e+00+j0.000000000000e+00
0.000000000000e+00+j0.000000000000e+00
0.000000000000e+00+j0.000000000000e+00
0.000000000000e+00+j0.000000000000e+00
0.000000000000e+00+j0.000000000000e+00
0.000000000000e+00+j0.000000000000e+00
0.000000000000e+00+j0.000000000000e+00
0.000000000000e+00+j0.000000000000e+00
0.000000000000e+00+j0.000000000000e+00
0.000000000000e+00+j0.000000000000e+00
0.000000000000e+00+j0.000000000000e+00
0.000000000000e+00+j0.000000000000e+00
0.000000000000e+00+j0.000000000000e+00
0.000000000000e+00+j0.000000000000e+00
0.000000000000e+00+j0.000000000000e+00
0.000000000000e+00+j0.000000000000e+00
0.000000000000e+00+j0.000000000000e+00
0.000000000000e+00+j0.000000000000e+00
0.000000000000e+00+j0.000000000000e+00
0.000000000000e+00+j0.000000000000e+00
0.000000000000e+00+j0.000000000000e+00
0.000000000000e+00+j0.000000000000e+00
0.000000000000e+00+j0.000000000000e+00
0.000000000000e+00+j0.000000000000e+00
0.000000000000e+00+j0.000000000000e+00
0.000000000000e+00+j0.000000000000e+00
0.000000000000e+00+j0.000000000000e+00
0.000000000000e+00+j0.000000000000e+00
0.000000000000e+00+j0.000000000000e+00
0.000000000000e+00+j0.000000000000e+00
0.000000000000e+00+j0.000000000000e+00
0.000000000000e+00+j0.000000000000e+00
0.000000000000e+00+j0.000000000000e+00
0.000000000000e+00+j0.000000000000e+00
0.000000000000e+00+j0.000000000000e+00
0.000000000000e+00+j0.000000000000e+00
</dep>
<dep ac.v(voutn) frequency>
-3.537667911524e+00+j0.000000000000e+00
-3.537667911524e+00+j0.000000000000e+00
-3.537667911524e+00+j0.000000000000e+00
-3.537667911524e+00+j0.000000000000e+00
-3.537667911524e+00+j0.000000000000e+00
-3.537667911524e+00+j0.000000000000e+00
-3.537667911524e+00+j0.000000000000e+00
-3.537667911524e+00+j0.000000000000e+00
-3.537667911524e+00+j0.000000000000e+00
-3.537667911524e+00+j0.000000000000e+00
-3.537667911524e+00+j0.000000000000e+00
-3.537667911524e+00+j0.000000000000e+00
-3.537667911524e+00+j0.000000000000e+00
-3.537667911524e+00+j0.000000000000e+00
-3.537667911524e+00+j0.000000000000e+00
-3.537667911524e+00+j0.000000000000e+00
-3.537667911524e+00+j0.000000000000e+00
-3.537667911524e+00+j0.000000000000e+00
-3.537667911524e+00+j0.000000000000e+00
-3.537667911524e+00+j0.000000000000e+00
-3.537667911524e+00+j0.000000000000e+00
-3.537667911524e+00+j0.000000000000e+00
-3.537667911524e+00+j0.000000000000e+00
-3.537667911524e+00+j0.000000000000e+00
-3.537667911524e+00+j0.000000000000e+00
-3.537667911524e+00+j0.000000000000e+00
-3.537667911524e+00+j0.000000000000e+00
-3.537667911524e+00+j0.000000000000e+00
-3.537667911524e+00+j0.000000000000e+00
-3.537667911524e+00+j0.000000000000e+00
-3.537667911524e+00+j0.000000000000e+00
-3.537667911524e+00+j0.000000000000e+00
-3.537667911524e+00+j0.000000000000e+00
-3.537667911524e+00+j0.000000000000e+00
-3.537667911524e+00+j0.000000000000e+00
-3.537667911524e+00+j0.000000000000e+00
-3.537667911524e+00+j0.000000000000e+00
-3.537667911524e+00+j0.000000000000e+00
-3.537667911524e+00+j0.000000000000e+00
-3.537667911524e+00+j0.000000000000e+00
-3.537667911524e+00+j0.000000000000e+00
-3.537667911524e+00+j0.000000000000e+00
-3.537667911524e+00+j0.000000000000e+00
-3.537667911524e+00+j0.000000000000e+00
-3.537667911524e+00+j0.000000000000e+00
-3.537667911524e+00+j0.000000000000e+00
-3.537667911524e+00+j0.000000000000e+00
-3.537667911524e+00+j0.000000000000e+00
-3.537667911524e+00+j0.000000000000e+00
-3.537667911524e+00+j0.000000000000e+00
-3.537667911524e+00+j0.000000000000e+00
-3.537667911524e+00+j0.000000000000e+00
-3.537667911524e+00+j0.000000000000e+00
-3.537667911524e+00+j0.000000000000e+00
-3.537667911524e+00+j0.000000000000e+00
-3.537667911524e+00+j0.000000000000e+00
-3.537667911524e+00+j0.000000000000e+00
-3.537667911524e+00+j0.000000000000e+00
-3.537667911524e+00+j0.000000000000e+00
-3.537667911524e+00+j0.000000000000e+00
-3.537667911524e+00+j0.000000000000e+00
-3.537667911524e+00+j0.000000000000e+00
-3.537667911524e+00+j0.000000000000e+00
-3.537667911524e+00+j0.000000000000e+00
-3.537667911524e+00+j0.000000000000e+00
-3.537667911524e+00+j0.000000000000e+00
-3.537667911524e+00+j0.000000000000e+00
-3.537667911524e+00+j0.000000000000e+00
-3.537667911524e+00+j0.000000000000e+00
-3.537667911524e+00+j0.000000000000e+00
-3.537667911524e+00+j0.000000000000e+00
-3.537667911524e+00+j0.000000000000e+00
-3.537667911524e+00+j0.000000000000e+00
-3.537667911524e+00+j0.000000000000e+00
-3.537667911524e+00+j0.000000000000e+00
-3.537667911524e+00+j0.000000000000e+00
-3.537667911524e+00+j0.000000000000e+00
-3.537667911524e+00+j0.000000000000e+00
</dep>
<dep ac.v(voutp) frequency>
3.537667911524e+00+j0.000000000000e+00
3.537667911524e+00+j0.000000000000e+00
3.537667911524e+00+j0.000000000000e+00
3.537667911524e+00+j0.000000000000e+00
3.537667911524e+00+j0.000000000000e+00
3.537667911524e+00+j0.000000000000e+00
3.537667911524e+00+j0.000000000000e+00
3.537667911524e+00+j0.000000000000e+00
3.537667911524e+00+j0.000000000000e+00
3.537667911524e+00+j0.000000000000e+00
3.537667911524e+00+j0.000000000000e+00
3.537667911524e+00+j0.000000000000e+00
3.537667911524e+00+j0.000000000000e+00
3.537667911524e+00+j0.000000000000e+00
3.537667911524e+00+j0.000000000000e+00
3.537667911524e+00+j0.000000000000e+00
3.537667911524e+00+j0.000000000000e+00
3.537667911524e+00+j0.000000000000e+00
3.537667911524e+00+j0.000000000000e+00
3.537667911524e+00+j0.000000000000e+00
3.537667911524e+00+j0.000000000000e+00
3.537667911524e+00+j0.000000000000e+00
3.537667911524e+00+j0.000000000000e+00
3.537667911524e+00+j0.000000000000e+00
3.537667911524e+00+j0.000000000000e+00
3.537667911524e+00+j0.000000000000e+00
3.537667911524e+00+j0.000000000000e+00
3.537667911524e+00+j0.000000000000e+00
3.537667911524e+00+j0.000000000000e+00
3.537667911524e+00+j0.000000000000e+00
3.537667911524e+00+j0.000000000000e+00
3.537667911524e+00+j0.000000000000e+00
3.537667911524e+00+j0.000000000000e+00
3.537667911524e+00+j0.000000000000e+00
3.537667911524e+00+j0.000000000000e+00
3.537667911524e+00+j0.000000000000e+00
3.537667911524e+00+j0.000000000000e+00
3.537667911524e+00+j0.000000000000e+00
3.537667911524e+00+j0.000000000000e+00
3.537667911524e+00+j0.000000000000e+00
3.537667911524e+00+j0.000000000000e+00
3.537667911524e+00+j0.000000000000e+00
3.537667911524e+00+j0.000000000000e+00
3.537667911524e+00+j0.000000000000e+00
3.537667911524e+00+j0.000000000000e+00
3.537667911524e+00+j0.000000000000e+00
3.537667911524e+00+j0.000000000000e+00
3.537667911524e+00+j0.000000000000e+00
3.537667911524e+00+j0.000000000000e+00
3.537667911524e+00+j0.000000000000e+00
3.537667911524e+00+j0.000000000000e+00
3.537667911524e+00+j0.000000000000e+00
3.537667911524e+00+j0.000000000000e+00
3.537667911524e+00+j0.000000000000e+00
3.537667911524e+00+j0.000000000000e+00
3.537667911524e+00+j0.000000000000e+00
3.537667911524e+00+j0.000000000000e+00
3.537667911524e+00+j0.000000000000e+00
3.537667911524e+00+j0.000000000000e+00
3.537667911524e+00+j0.000000000000e+00
3.537667911524e+00+j0.000000000000e+00
3.537667911524e+00+j0.000000000000e+00
3.537667911524e+00+j0.000000000000e+00
3.537667911524e+00+j0.000000000000e+00
3.537667911524e+00+j0.000000000000e+00
3.537667911524e+00+j0.000000000000e+00
3.537667911524e+00+j0.000000000000e+00
3.537667911524e+00+j0.000000000000e+00
3.537667911524e+00+j0.000000000000e+00
3.537667911524e+00+j0.000000000000e+00
3.537667911524e+00+j0.000000000000e+00
3.537667911524e+00+j0.000000000000e+00
3.537667911524e+00+j0.000000000000e+00
3.537667911524e+00+j0.000000000000e+00
3.537667911524e+00+j0.000000000000e+00
3.537667911524e+00+j0.000000000000e+00
3.537667911524e+00+j0.000000000000e+00
3.537667911524e+00+j0.000000000000e+00
</dep>
<dep ac.av_diff frequency>
7.075335823048e+00+j0.000000000000e+00
7.075335823048e+00+j0.000000000000e+00
7.075335823048e+00+j0.000000000000e+00
7.075335823048e+00+j0.000000000000e+00
7.075335823048e+00+j0.000000000000e+00
7.075335823048e+00+j0.000000000000e+00
7.075335823048e+00+j0.000000000000e+00
7.075335823048e+00+j0.000000000000e+00
7.075335823048e+00+j0.000000000000e+00
7.075335823048e+00+j0.000000000000e+00
7.075335823048e+00+j0.000000000000e+00
7.075335823048e+00+j0.000000000000e+00
7.075335823048e+00+j0.000000000000e+00
7.075335823048e+00+j0.000000000000e+00
7.075335823048e+00+j0.000000000000e+00
7.075335823048e+00+j0.000000000000e+00
7.075335823048e+00+j0.000000000000e+00
7.075335823048e+00+j0.000000000000e+00
7.075335823048e+00+j0.000000000000e+00
7.075335823048e+00+j0.000000000000e+00
7.075335823048e+00+j0.000000000000e+00
7.075335823048e+00+j0.000000000000e+00
7.075335823048e+00+j0.000000000000e+00
7.075335823048e+00+j0.000000000000e+00
7.075335823048e+00+j0.000000000000e+00
7.075335823048e+00+j0.000000000000e+00
7.075335823048e+00+j0.000000000000e+00
7.075335823048e+00+j0.000000000000e+00
7.075335823048e+00+j0.000000000000e+00
7.075335823048e+00+j0.000000000000e+00
7.075335823048e+00+j0.000000000000e+00
7.075335823048e+00+j0.000000000000e+00
7.075335823048e+00+j0.000000000000e+00
7.075335823048e+00+j0.000000000000e+00
7.075335823048e+00+j0.000000000000e+00
7.075335823048e+00+j0.000000000000e+00
7.075335823048e+00+j0.000000000000e+00
7.075335823048e+00+j0.000000000000e+00
7.075335823048e+00+j0.000000000000e+00
7.075335823048e+00+j0.000000000000e+00
7.075335823048e+00+j0.000000000000e+00
7.075335823048e+00+j0.000000000000e+00
7.075335823048e+00+j0.000000000000e+00
7.075335823048e+00+j0.000000000000e+00
7.075335823048e+00+j0.000000000000e+00
7.075335823048e+00+j0.000000000000e+00
7.075335823048e+00+j0.000000000000e+00
7.075335823048e+00+j0.000000000000e+00
7.075335823048e+00+j0.000000000000e+00
7.075335823048e+00+j0.000000000000e+00
7.075335823048e+00+j0.000000000000e+00
7.075335823048e+00+j0.000000000000e+00
7.075335823048e+00+j0.000000000000e+00
7.075335823048e+00+j0.000000000000e+00
7.075335823048e+00+j0.000000000000e+00
7.075335823048e+00+j0.000000000000e+00
7.075335823048e+00+j0.000000000000e+00
7.075335823048e+00+j0.000000000000e+00
7.075335823048e+00+j0.000000000000e+00
7.075335823048e+00+j0.000000000000e+00
7.075335823048e+00+j0.000000000000e+00
7.075335823048e+00+j0.000000000000e+00
7.075335823048e+00+j0.000000000000e+00
7.075335823048e+00+j0.000000000000e+00
7.075335823048e+00+j0.000000000000e+00
7.075335823048e+00+j0.000000000000e+00
7.075335823048e+00+j0.000000000000e+00
7.075335823048e+00+j0.000000000000e+00
7.075335823048e+00+j0.000000000000e+00
7.075335823048e+00+j0.000000000000e+00
7.075335823048e+00+j0.000000000000e+00
7.075335823048e+00+j0.000000000000e+00
7.075335823048e+00+j0.000000000000e+00
7.075335823048e+00+j0.000000000000e+00
7.075335823048e+00+j0.000000000000e+00
7.075335823048e+00+j0.000000000000e+00
7.075335823048e+00+j0.000000000000e+00
7.075335823048e+00+j0.000000000000e+00
</dep>
<dep ac.av frequency>
7.075335823048e+00+j0.000000000000e+00
7.075335823048e+00+j0.000000000000e+00
7.075335823048e+00+j0.000000000000e+00
7.075335823048e+00+j0.000000000000e+00
7.075335823048e+00+j0.000000000000e+00
7.075335823048e+00+j0.000000000000e+00
7.075335823048e+00+j0.000000000000e+00
7.075335823048e+00+j0.000000000000e+00
7.075335823048e+00+j0.000000000000e+00
7.075335823048e+00+j0.000000000000e+00
7.075335823048e+00+j0.000000000000e+00
7.075335823048e+00+j0.000000000000e+00
7.075335823048e+00+j0.000000000000e+00
7.075335823048e+00+j0.000000000000e+00
7.075335823048e+00+j0.000000000000e+00
7.075335823048e+00+j0.000000000000e+00
7.075335823048e+00+j0.000000000000e+00
7.075335823048e+00+j0.000000000000e+00
7.075335823048e+00+j0.000000000000e+00
7.075335823048e+00+j0.000000000000e+00
7.075335823048e+00+j0.000000000000e+00
7.075335823048e+00+j0.000000000000e+00
7.075335823048e+00+j0.000000000000e+00
7.075335823048e+00+j0.000000000000e+00
7.075335823048e+00+j0.000000000000e+00
7.075335823048e+00+j0.000000000000e+00
7.075335823048e+00+j0.000000000000e+00
7.075335823048e+00+j0.000000000000e+00
7.075335823048e+00+j0.000000000000e+00
7.075335823048e+00+j0.000000000000e+00
7.075335823048e+00+j0.000000000000e+00
7.075335823048e+00+j0.000000000000e+00
7.075335823048e+00+j0.000000000000e+00
7.075335823048e+00+j0.000000000000e+00
7.075335823048e+00+j0.000000000000e+00
7.075335823048e+00+j0.000000000000e+00
7.075335823048e+00+j0.000000000000e+00
7.075335823048e+00+j0.000000000000e+00
7.075335823048e+00+j0.000000000000e+00
7.075335823048e+00+j0.000000000000e+00
7.075335823048e+00+j0.000000000000e+00
7.075335823048e+00+j0.000000000000e+00
7.075335823048e+00+j0.000000000000e+00
7.075335823048e+00+j0.000000000000e+00
7.075335823048e+00+j0.000000000000e+00
7.075335823048e+00+j0.000000000000e+00
7.075335823048e+00+j0.000000000000e+00
7.075335823048e+00+j0.000000000000e+00
7.075335823048e+00+j0.000000000000e+00
7.075335823048e+00+j0.000000000000e+00
7.075335823048e+00+j0.000000000000e+00
7.075335823048e+00+j0.000000000000e+00
7.075335823048e+00+j0.000000000000e+00
7.075335823048e+00+j0.000000000000e+00
7.075335823048e+00+j0.000000000000e+00
7.075335823048e+00+j0.000000000000e+00
7.075335823048e+00+j0.000000000000e+00
7.075335823048e+00+j0.000000000000e+00
7.075335823048e+00+j0.000000000000e+00
7.075335823048e+00+j0.000000000000e+00
7.075335823048e+00+j0.000000000000e+00
7.075335823048e+00+j0.000000000000e+00
7.075335823048e+00+j0.000000000000e+00
7.075335823048e+00+j0.000000000000e+00
7.075335823048e+00+j0.000000000000e+00
7.075335823048e+00+j0.000000000000e+00
7.075335823048e+00+j0.000000000000e+00
7.075335823048e+00+j0.000000000000e+00
7.075335823048e+00+j0.000000000000e+00
7.075335823048e+00+j0.000000000000e+00
7.075335823048e+00+j0.000000000000e+00
7.075335823048e+00+j0.000000000000e+00
7.075335823048e+00+j0.000000000000e+00
7.075335823048e+00+j0.000000000000e+00
7.075335823048e+00+j0.000000000000e+00
7.075335823048e+00+j0.000000000000e+00
