<Qucs Dataset 0.0.24>
<indep time 209>
0.000000000000e+00
9.950250000000e-08
1.990050000000e-07
3.980100000000e-07
7.960200000000e-07
1.592040000000e-06
3.184080000000e-06
6.368160000000e-06
1.273632000000e-05
2.268657000000e-05
3.263682000000e-05
4.258707000000e-05
5.253732000000e-05
6.248757000000e-05
7.243782000000e-05
8.238807000000e-05
9.233832000000e-05
1.022885700000e-04
1.122388200000e-04
1.221890700000e-04
1.321393200000e-04
1.420895700000e-04
1.520398200000e-04
1.619900700000e-04
1.719403200000e-04
1.818905700000e-04
1.918408200000e-04
2.017910700000e-04
2.117413200000e-04
2.216915700000e-04
2.316418200000e-04
2.415920700000e-04
2.515423200000e-04
2.614925700000e-04
2.714428200000e-04
2.813930700000e-04
2.913433200000e-04
3.012935700000e-04
3.112438200000e-04
3.211940700000e-04
3.311443200000e-04
3.410945700000e-04
3.510448200000e-04
3.609950700000e-04
3.709453200000e-04
3.808955700000e-04
3.908458200000e-04
4.007960700000e-04
4.107463200000e-04
4.206965700000e-04
4.306468200000e-04
4.405970700000e-04
4.505473200000e-04
4.604975700000e-04
4.704478200000e-04
4.803980700000e-04
4.903483200000e-04
5.002985700000e-04
5.102488200000e-04
5.201990700000e-04
5.301493200000e-04
5.400995700000e-04
5.500498200000e-04
5.600000700000e-04
5.699503200000e-04
5.799005700000e-04
5.898508200000e-04
5.998010700000e-04
6.097513200000e-04
6.197015700000e-04
6.296518200000e-04
6.396020700000e-04
6.495523200000e-04
6.595025700000e-04
6.694528200000e-04
6.794030700000e-04
6.893533200000e-04
6.993035700000e-04
7.092538200000e-04
7.192040700000e-04
7.291543200000e-04
7.391045700000e-04
7.490548200000e-04
7.590050700000e-04
7.689553200000e-04
7.789055700000e-04
7.888558200000e-04
7.988060700000e-04
8.087563200000e-04
8.187065700000e-04
8.286568200000e-04
8.386070700000e-04
8.485573200000e-04
8.585075700000e-04
8.684578200000e-04
8.784080700000e-04
8.883583200000e-04
8.983085700000e-04
9.082588200000e-04
9.182090700000e-04
9.281593200000e-04
9.381095700000e-04
9.480598200000e-04
9.580100700000e-04
9.679603200000e-04
9.779105700000e-04
9.878608200000e-04
9.978110700000e-04
1.007761320000e-03
1.017711570000e-03
1.027661820000e-03
1.037612070000e-03
1.047562320000e-03
1.057512570000e-03
1.067462820000e-03
1.077413070000e-03
1.087363320000e-03
1.097313570000e-03
1.107263820000e-03
1.117214070000e-03
1.127164320000e-03
1.137114570000e-03
1.147064820000e-03
1.157015070000e-03
1.166965320000e-03
1.176915570000e-03
1.186865820000e-03
1.196816070000e-03
1.206766320000e-03
1.216716570000e-03
1.226666820000e-03
1.236617070000e-03
1.246567320000e-03
1.256517570000e-03
1.266467820000e-03
1.276418070000e-03
1.286368320000e-03
1.296318570000e-03
1.306268820000e-03
1.316219070000e-03
1.326169320000e-03
1.336119570000e-03
1.346069820000e-03
1.356020070000e-03
1.365970320000e-03
1.375920570000e-03
1.385870820000e-03
1.395821070000e-03
1.405771320000e-03
1.415721570000e-03
1.425671820000e-03
1.435622070000e-03
1.445572320000e-03
1.455522570000e-03
1.465472820000e-03
1.475423070000e-03
1.485373320000e-03
1.495323570000e-03
1.505273820000e-03
1.515224070000e-03
1.525174320000e-03
1.535124570000e-03
1.545074820000e-03
1.555025070000e-03
1.564975320000e-03
1.574925570000e-03
1.584875820000e-03
1.594826070000e-03
1.604776320000e-03
1.614726570000e-03
1.624676820000e-03
1.634627070000e-03
1.644577320000e-03
1.654527570000e-03
1.664477820000e-03
1.674428070000e-03
1.684378320000e-03
1.694328570000e-03
1.704278820000e-03
1.714229070000e-03
1.724179320000e-03
1.734129570000e-03
1.744079820000e-03
1.754030070000e-03
1.763980320000e-03
1.773930570000e-03
1.783880820000e-03
1.793831070000e-03
1.803781320000e-03
1.813731570000e-03
1.823681820000e-03
1.833632070000e-03
1.843582320000e-03
1.853532570000e-03
1.863482820000e-03
1.873433070000e-03
1.883383320000e-03
1.893333570000e-03
1.903283820000e-03
1.913234070000e-03
1.923184320000e-03
1.933134570000e-03
1.943084820000e-03
1.953035070000e-03
1.962985320000e-03
1.972935570000e-03
1.982885820000e-03
1.992836070000e-03
2.000000000000e-03
</indep>
<dep tran.i(pr1) time>
3.919998625957e-04
3.920060363807e-04
3.920120724821e-04
3.920241451556e-04
3.920482903891e-04
3.920965798758e-04
3.921931507011e-04
3.923862259388e-04
3.927718403566e-04
3.933716712516e-04
3.939661579409e-04
3.945529769943e-04
3.951298347746e-04
3.956944764104e-04
3.962446946212e-04
3.967783383580e-04
3.972933212262e-04
3.977876296572e-04
3.982593307975e-04
3.987065800817e-04
3.991276284634e-04
3.995208292711e-04
3.998846446654e-04
4.002176516694e-04
4.005185477513e-04
4.007861559327e-04
4.010194294083e-04
4.012174556517e-04
4.013794599984e-04
4.015048086847e-04
4.015930113365e-04
4.016437228931e-04
4.016567449629e-04
4.016320266008e-04
4.015696645097e-04
4.014699026597e-04
4.013331313312e-04
4.011598855821e-04
4.009508431483e-04
4.007068217828e-04
4.004287760472e-04
4.001177935646e-04
3.997750907530e-04
3.994020080516e-04
3.990000046641e-04
3.985706528333e-04
3.981156316777e-04
3.976367206062e-04
3.971357923439e-04
3.966148055917e-04
3.960757973524e-04
3.955208749498e-04
3.949522077771e-04
3.943720188012e-04
3.937825758629e-04
3.931861828009e-04
3.925851704404e-04
3.919818874762e-04
3.913786912911e-04
3.907779387409e-04
3.901819769471e-04
3.895931341271e-04
3.890137105051e-04
3.884459693315e-04
3.878921280525e-04
3.873543496591e-04
3.868347342528e-04
3.863353108574e-04
3.858580295125e-04
3.854047536748e-04
3.849772529610e-04
3.845771962563e-04
3.842061452183e-04
3.838655481989e-04
3.835567346094e-04
3.832809097482e-04
3.830391501141e-04
3.828323992195e-04
3.826614639228e-04
3.825270112912e-04
3.824295660088e-04
3.823695083365e-04
3.823470726351e-04
3.823623464538e-04
3.824152701908e-04
3.825056373240e-04
3.826330952147e-04
3.827971464765e-04
3.829971509099e-04
3.832323279893e-04
3.835017598981e-04
3.838043950957e-04
3.841390524080e-04
3.845044256192e-04
3.848990885546e-04
3.853215006278e-04
3.857700128378e-04
3.862428741863e-04
3.867382384971e-04
3.872541716049e-04
3.877886588922e-04
3.883396131390e-04
3.889048826605e-04
3.894822596963e-04
3.900694890236e-04
3.906642767556e-04
3.912642992964e-04
3.918672124126e-04
3.924706603899e-04
3.930722852361e-04
3.936697358980e-04
3.942606774515e-04
3.948428002339e-04
3.954138288777e-04
3.959715312155e-04
3.965137270159e-04
3.970382965200e-04
3.975431887426e-04
3.980264295065e-04
3.984861291774e-04
3.989204900697e-04
3.993278134929e-04
3.997065064119e-04
4.000550876936e-04
4.003721939167e-04
4.006565847188e-04
4.009071476644e-04
4.011229026080e-04
4.013030055421e-04
4.014467519084e-04
4.015535793639e-04
4.016230699878e-04
4.016549519225e-04
4.016491004401e-04
4.016055384329e-04
4.015244363225e-04
4.014061113921e-04
4.012510265395e-04
4.010597884614e-04
4.008331452710e-04
4.005719835625e-04
4.002773249309e-04
3.999503219640e-04
3.995922537193e-04
3.992045207067e-04
3.987886393942e-04
3.983462362617e-04
3.978790414216e-04
3.973888818379e-04
3.968776741634e-04
3.963474172305e-04
3.958001842183e-04
3.952381145339e-04
3.946634054331e-04
3.940783034201e-04
3.934850954534e-04
3.928860999996e-04
3.922836579630e-04
3.916801235335e-04
3.910778549824e-04
3.904792054479e-04
3.898865137408e-04
3.893020952122e-04
3.887282327125e-04
3.881671676832e-04
3.876210914106e-04
3.870921364799e-04
3.865823684594e-04
3.860937778498e-04
3.856282723270e-04
3.851876693118e-04
3.847736888909e-04
3.843879471211e-04
3.840319497380e-04
3.837070862980e-04
3.834146247707e-04
3.831557066083e-04
3.829313423058e-04
3.827424074726e-04
3.825896394280e-04
3.824736343358e-04
3.823948448862e-04
3.823535785381e-04
3.823499963225e-04
3.823841122183e-04
3.824557930969e-04
3.825647592402e-04
3.827105854271e-04
3.828927025867e-04
3.831104000088e-04
3.833628281079e-04
3.836490017247e-04
3.839678039574e-04
3.843179905041e-04
3.846981945034e-04
3.851069318511e-04
3.855426069760e-04
3.860035190488e-04
3.864878686053e-04
3.869937645523e-04
3.875192315354e-04
3.880622176347e-04
3.886206023635e-04
3.891922049349e-04
3.897747927678e-04
3.903660901964e-04
3.909637873518e-04
3.915655491787e-04
3.919999997968e-04
</dep>
<dep tran.v(vin) time>
5.000000000000e+00
5.000062519261e+00
5.000125038497e+00
5.000250076798e+00
5.000500152032e+00
5.001000291552e+00
5.002000483013e+00
5.004000165367e+00
5.007993927377e+00
5.014206169394e+00
5.020362902430e+00
5.026440069758e+00
5.032413925540e+00
5.038261127621e+00
5.043958828728e+00
5.049484765745e+00
5.054817346707e+00
5.059935735165e+00
5.064819931602e+00
5.069450851579e+00
5.073810400307e+00
5.077881543349e+00
5.081648373180e+00
5.085096171343e+00
5.088211465961e+00
5.090982084379e+00
5.093397200721e+00
5.095447378198e+00
5.097124605975e+00
5.098422330477e+00
5.099335480994e+00
5.099860489496e+00
5.099995304571e+00
5.099739399444e+00
5.099093774037e+00
5.098060951057e+00
5.096644966140e+00
5.094851352086e+00
5.092687117236e+00
5.090160718090e+00
5.087282026264e+00
5.084062289916e+00
5.080514089797e+00
5.076651290093e+00
5.072488984251e+00
5.068043436004e+00
5.063332015824e+00
5.058373133045e+00
5.053186163933e+00
5.047791375977e+00
5.042209848693e+00
5.036463391258e+00
5.030574457299e+00
5.024566057148e+00
5.018461667943e+00
5.012285141885e+00
5.006060613041e+00
4.999812403046e+00
4.993564926065e+00
4.987342593398e+00
4.981169718098e+00
4.975070419968e+00
4.969068531317e+00
4.963187503838e+00
4.957450316971e+00
4.951879388118e+00
4.946496485045e+00
4.941322640830e+00
4.936378071675e+00
4.931682097920e+00
4.927253068543e+00
4.923108289469e+00
4.919263955949e+00
4.915735089274e+00
4.912535478088e+00
4.909677624505e+00
4.907172695261e+00
4.905030478078e+00
4.903259343427e+00
4.901866211812e+00
4.900856526736e+00
4.900234233428e+00
4.900001763427e+00
4.900160025084e+00
4.900708400009e+00
4.901644745489e+00
4.902965402863e+00
4.904665211813e+00
4.906737530529e+00
4.909174261665e+00
4.911965883971e+00
4.915101489504e+00
4.918568826244e+00
4.922354345970e+00
4.926443257197e+00
4.930819582972e+00
4.935466223304e+00
4.940365021978e+00
4.945496837500e+00
4.950841617887e+00
4.956378479022e+00
4.962085786255e+00
4.967941238936e+00
4.973921957555e+00
4.980004573138e+00
4.986165318561e+00
4.992380121418e+00
4.998624698078e+00
5.004874648572e+00
5.011105551936e+00
5.017293061627e+00
5.023413000660e+00
5.029441456074e+00
5.035354872371e+00
5.041130143553e+00
5.046744703409e+00
5.052176613689e+00
5.057404649827e+00
5.062408383870e+00
5.067168264301e+00
5.071665692430e+00
5.075883095074e+00
5.079803993214e+00
5.083413066390e+00
5.086696212561e+00
5.089640603211e+00
5.092234733469e+00
5.094468467070e+00
5.096333075954e+00
5.097821274375e+00
5.098927247370e+00
5.099646673475e+00
5.099976741616e+00
5.099916162087e+00
5.099465171599e+00
5.098625532343e+00
5.097400525114e+00
5.095794936488e+00
5.093815040118e+00
5.091468572223e+00
5.088764701356e+00
5.085713992585e+00
5.082328366204e+00
5.078621051161e+00
5.074606533364e+00
5.070300499081e+00
5.065719773650e+00
5.060882255729e+00
5.055806847367e+00
5.050513380139e+00
5.045022537664e+00
5.039355774779e+00
5.033535233711e+00
5.027583657557e+00
5.021524301421e+00
5.015380841542e+00
5.009177282786e+00
5.002937864848e+00
4.996686967540e+00
4.990449015527e+00
4.984248382892e+00
4.978109297897e+00
4.972055748313e+00
4.966111387693e+00
4.960299442944e+00
4.954642623576e+00
4.949163032961e+00
4.943882081973e+00
4.938820405323e+00
4.933997780933e+00
4.929433052655e+00
4.925144056643e+00
4.921147551656e+00
4.917459153581e+00
4.914093274411e+00
4.911063065933e+00
4.908380368339e+00
4.906055663964e+00
4.904098036323e+00
4.902515134622e+00
4.901313143868e+00
4.900496760704e+00
4.900069175051e+00
4.900032057652e+00
4.900385553540e+00
4.901128281469e+00
4.902257339316e+00
4.903768315415e+00
4.905655305801e+00
4.907910937276e+00
4.910526396216e+00
4.913491463017e+00
4.916794552019e+00
4.920422756780e+00
4.924361900506e+00
4.928596591443e+00
4.933110283021e+00
4.937885338509e+00
4.942903099923e+00
4.948143960935e+00
4.953587443481e+00
4.959212277776e+00
4.964996485425e+00
4.970917465299e+00
4.976952081846e+00
4.983076755494e+00
4.989267554782e+00
4.995500289870e+00
5.000000000000e+00
</dep>
<dep tran.v(vout) time>
3.919998625957e+00
3.920060363807e+00
3.920120727315e+00
3.920241454050e+00
3.920482906384e+00
3.920965801252e+00
3.921931509504e+00
3.923862261879e+00
3.927718406050e+00
3.933716714982e+00
3.939661581845e+00
3.945529772342e+00
3.951298350097e+00
3.956944766398e+00
3.962446948441e+00
3.967783385735e+00
3.972933214335e+00
3.977876298556e+00
3.982593309860e+00
3.987065802597e+00
3.991276286302e+00
3.995208294262e+00
3.998846448080e+00
4.002176517992e+00
4.005185478676e+00
4.007861560352e+00
4.010194294964e+00
4.012174557253e+00
4.013794600570e+00
4.015048087283e+00
4.015930113648e+00
4.016437229062e+00
4.016567449604e+00
4.016320265830e+00
4.015696644766e+00
4.014699026114e+00
4.013331312678e+00
4.011598855040e+00
4.009508430556e+00
4.007068216761e+00
4.004287759267e+00
4.001177934308e+00
3.997750906064e+00
3.994020078929e+00
3.990000044936e+00
3.985706526520e+00
3.981156314861e+00
3.976367204051e+00
3.971357921339e+00
3.966148053738e+00
3.960757971273e+00
3.955208747186e+00
3.949522075404e+00
3.943720185601e+00
3.937825756182e+00
3.931861825537e+00
3.925851701915e+00
3.919818872267e+00
3.913786910419e+00
3.907779384932e+00
3.901819767015e+00
3.895931338849e+00
3.890137102670e+00
3.884459690985e+00
3.878921278256e+00
3.873543494392e+00
3.868347340407e+00
3.863353106540e+00
3.858580293186e+00
3.854047534912e+00
3.849772527883e+00
3.845771960953e+00
3.842061450697e+00
3.838655480633e+00
3.835567344872e+00
3.832809096400e+00
3.830391500203e+00
3.828323991405e+00
3.826614638589e+00
3.825270112427e+00
3.824295659758e+00
3.823695083193e+00
3.823470726336e+00
3.823623464681e+00
3.824152702207e+00
3.825056373696e+00
3.826330952756e+00
3.827971465527e+00
3.829971510009e+00
3.832323280949e+00
3.835017600176e+00
3.838043952289e+00
3.841390525541e+00
3.845044257779e+00
3.848990887250e+00
3.853215008095e+00
3.857700130298e+00
3.862428743881e+00
3.867382387076e+00
3.872541718234e+00
3.877886591178e+00
3.883396133710e+00
3.889048828977e+00
3.894822599379e+00
3.900694892686e+00
3.906642770031e+00
3.912642995454e+00
3.918672126621e+00
3.924706606389e+00
3.930722854837e+00
3.936697361432e+00
3.942606776934e+00
3.948428004714e+00
3.954138291101e+00
3.959715314418e+00
3.965137272352e+00
3.970382967315e+00
3.975431889455e+00
3.980264297000e+00
3.984861293608e+00
3.989204902422e+00
3.993278136539e+00
3.997065065608e+00
4.000550878299e+00
4.003721940397e+00
4.006565848283e+00
4.009071477597e+00
4.011229026890e+00
4.013030056083e+00
4.014467519596e+00
4.015535793999e+00
4.016230700086e+00
4.016549519278e+00
4.016491004300e+00
4.016055384074e+00
4.015244362818e+00
4.014061113362e+00
4.012510264687e+00
4.010597883760e+00
4.008331451713e+00
4.005719834487e+00
4.002773248037e+00
3.999503218238e+00
3.995922535666e+00
3.992045205420e+00
3.987886392183e+00
3.983462360750e+00
3.978790412251e+00
3.973888816322e+00
3.968776739495e+00
3.963474170089e+00
3.958001839901e+00
3.952381142998e+00
3.946634051942e+00
3.940783031770e+00
3.934850952074e+00
3.928860997514e+00
3.922836577138e+00
3.916801232840e+00
3.910778547339e+00
3.904792052010e+00
3.898865134968e+00
3.893020949719e+00
3.887282324769e+00
3.881671674532e+00
3.876210911871e+00
3.870921362638e+00
3.865823682516e+00
3.860937776510e+00
3.856282721381e+00
3.851876691335e+00
3.847736887240e+00
3.843879469661e+00
3.840319495958e+00
3.837070861690e+00
3.834146246554e+00
3.831557065072e+00
3.829313422193e+00
3.827424074011e+00
3.825896393718e+00
3.824736342950e+00
3.823948448611e+00
3.823535785287e+00
3.823499963289e+00
3.823841122404e+00
3.824557931347e+00
3.825647592935e+00
3.827105854958e+00
3.828927026703e+00
3.831104001071e+00
3.833628282205e+00
3.836490018512e+00
3.839678040971e+00
3.843179906566e+00
3.846981946681e+00
3.851069320273e+00
3.855426071629e+00
3.860035192458e+00
3.864878688114e+00
3.869937647670e+00
3.875192317576e+00
3.880622178636e+00
3.886206025981e+00
3.891922051744e+00
3.897747930112e+00
3.903660904428e+00
3.909637876001e+00
3.915655494280e+00
3.920000000462e+00
</dep>
<indep frequency 78>
1.000000000000e+00
1.232846739442e+00
1.519911082953e+00
1.873817422860e+00
2.310129700083e+00
2.848035868436e+00
3.511191734215e+00
4.328761281083e+00
5.336699231206e+00
6.579332246576e+00
8.111308307897e+00
1.000000000000e+01
1.232846739442e+01
1.519911082953e+01
1.873817422860e+01
2.310129700083e+01
2.848035868436e+01
3.511191734215e+01
4.328761281083e+01
5.336699231206e+01
6.579332246576e+01
8.111308307897e+01
1.000000000000e+02
1.232846739442e+02
1.519911082953e+02
1.873817422860e+02
2.310129700083e+02
2.848035868436e+02
3.511191734215e+02
4.328761281083e+02
5.336699231206e+02
6.579332246576e+02
8.111308307897e+02
1.000000000000e+03
1.232846739442e+03
1.519911082953e+03
1.873817422860e+03
2.310129700083e+03
2.848035868436e+03
3.511191734215e+03
4.328761281083e+03
5.336699231206e+03
6.579332246576e+03
8.111308307897e+03
1.000000000000e+04
1.232846739442e+04
1.519911082953e+04
1.873817422860e+04
2.310129700083e+04
2.848035868436e+04
3.511191734215e+04
4.328761281083e+04
5.336699231206e+04
6.579332246576e+04
8.111308307897e+04
1.000000000000e+05
1.232846739442e+05
1.519911082953e+05
1.873817422860e+05
2.310129700083e+05
2.848035868436e+05
3.511191734215e+05
4.328761281083e+05
5.336699231206e+05
6.579332246576e+05
8.111308307897e+05
1.000000000000e+06
1.232846739442e+06
1.519911082953e+06
1.873817422860e+06
2.310129700083e+06
2.848035868436e+06
3.511191734215e+06
4.328761281083e+06
5.336699231206e+06
6.579332246576e+06
8.111308307897e+06
1.000000000000e+07
</indep>
<dep ac.i(pr1) frequency>
9.655174044276e-06-j2.407871649084e-16
9.655174044276e-06-j2.968536711569e-16
9.655174044276e-06-j3.659750805771e-16
9.655174044276e-06-j4.511911848066e-16
9.655174044276e-06-j5.562495810538e-16
9.655174044276e-06-j6.857704823182e-16
9.655174044276e-06-j8.454499031316e-16
9.655174044276e-06-j1.042310156437e-15
9.655174044276e-06-j1.285008677851e-15
9.655174044276e-06-j1.584218758644e-15
9.655174044276e-06-j1.953098931157e-15
9.655174044276e-06-j2.407871649084e-15
9.655174044276e-06-j2.968536711569e-15
9.655174044276e-06-j3.659750805771e-15
9.655174044276e-06-j4.511911848066e-15
9.655174044276e-06-j5.562495810538e-15
9.655174044276e-06-j6.857704823182e-15
9.655174044276e-06-j8.454499031316e-15
9.655174044276e-06-j1.042310156437e-14
9.655174044276e-06-j1.285008677851e-14
9.655174044276e-06-j1.584218758644e-14
9.655174044276e-06-j1.953098931157e-14
9.655174044276e-06-j2.407871649084e-14
9.655174044276e-06-j2.968536711568e-14
9.655174044276e-06-j3.659750805771e-14
9.655174044276e-06-j4.511911848066e-14
9.655174044276e-06-j5.562495810538e-14
9.655174044276e-06-j6.857704823182e-14
9.655174044276e-06-j8.454499031316e-14
9.655174044276e-06-j1.042310156437e-13
9.655174044276e-06-j1.285008677851e-13
9.655174044276e-06-j1.584218758644e-13
9.655174044276e-06-j1.953098931157e-13
9.655174044276e-06-j2.407871649084e-13
9.655174044276e-06-j2.968536711569e-13
9.655174044276e-06-j3.659750805771e-13
9.655174044276e-06-j4.511911848066e-13
9.655174044276e-06-j5.562495810538e-13
9.655174044276e-06-j6.857704823182e-13
9.655174044276e-06-j8.454499031316e-13
9.655174044276e-06-j1.042310156437e-12
9.655174044276e-06-j1.285008677851e-12
9.655174044276e-06-j1.584218758643e-12
9.655174044276e-06-j1.953098931157e-12
9.655174044276e-06-j2.407871649084e-12
9.655174044276e-06-j2.968536711568e-12
9.655174044275e-06-j3.659750805771e-12
9.655174044274e-06-j4.511911848065e-12
9.655174044273e-06-j5.562495810536e-12
9.655174044272e-06-j6.857704823178e-12
9.655174044269e-06-j8.454499031309e-12
9.655174044265e-06-j1.042310156436e-11
9.655174044259e-06-j1.285008677849e-11
9.655174044250e-06-j1.584218758639e-11
9.655174044237e-06-j1.953098931149e-11
9.655174044216e-06-j2.407871649069e-11
9.655174044185e-06-j2.968536711540e-11
9.655174044138e-06-j3.659750805719e-11
9.655174044066e-06-j4.511911847967e-11
9.655174043956e-06-j5.562495810353e-11
9.655174043789e-06-j6.857704822836e-11
9.655174043536e-06-j8.454499030667e-11
