<Qucs Dataset 0.0.24>
<indep time 209>
0.000000000000e+00
9.950250000000e-08
1.990050000000e-07
3.980100000000e-07
7.960200000000e-07
1.592040000000e-06
3.184080000000e-06
6.368160000000e-06
1.273632000000e-05
2.268657000000e-05
3.263682000000e-05
4.258707000000e-05
5.253732000000e-05
6.248757000000e-05
7.243782000000e-05
8.238807000000e-05
9.233832000000e-05
1.022885700000e-04
1.122388200000e-04
1.221890700000e-04
1.321393200000e-04
1.420895700000e-04
1.520398200000e-04
1.619900700000e-04
1.719403200000e-04
1.818905700000e-04
1.918408200000e-04
2.017910700000e-04
2.117413200000e-04
2.216915700000e-04
2.316418200000e-04
2.415920700000e-04
2.515423200000e-04
2.614925700000e-04
2.714428200000e-04
2.813930700000e-04
2.913433200000e-04
3.012935700000e-04
3.112438200000e-04
3.211940700000e-04
3.311443200000e-04
3.410945700000e-04
3.510448200000e-04
3.609950700000e-04
3.709453200000e-04
3.808955700000e-04
3.908458200000e-04
4.007960700000e-04
4.107463200000e-04
4.206965700000e-04
4.306468200000e-04
4.405970700000e-04
4.505473200000e-04
4.604975700000e-04
4.704478200000e-04
4.803980700000e-04
4.903483200000e-04
5.002985700000e-04
5.102488200000e-04
5.201990700000e-04
5.301493200000e-04
5.400995700000e-04
5.500498200000e-04
5.600000700000e-04
5.699503200000e-04
5.799005700000e-04
5.898508200000e-04
5.998010700000e-04
6.097513200000e-04
6.197015700000e-04
6.296518200000e-04
6.396020700000e-04
6.495523200000e-04
6.595025700000e-04
6.694528200000e-04
6.794030700000e-04
6.893533200000e-04
6.993035700000e-04
7.092538200000e-04
7.192040700000e-04
7.291543200000e-04
7.391045700000e-04
7.490548200000e-04
7.590050700000e-04
7.689553200000e-04
7.789055700000e-04
7.888558200000e-04
7.988060700000e-04
8.087563200000e-04
8.187065700000e-04
8.286568200000e-04
8.386070700000e-04
8.485573200000e-04
8.585075700000e-04
8.684578200000e-04
8.784080700000e-04
8.883583200000e-04
8.983085700000e-04
9.082588200000e-04
9.182090700000e-04
9.281593200000e-04
9.381095700000e-04
9.480598200000e-04
9.580100700000e-04
9.679603200000e-04
9.779105700000e-04
9.878608200000e-04
9.978110700000e-04
1.007761320000e-03
1.017711570000e-03
1.027661820000e-03
1.037612070000e-03
1.047562320000e-03
1.057512570000e-03
1.067462820000e-03
1.077413070000e-03
1.087363320000e-03
1.097313570000e-03
1.107263820000e-03
1.117214070000e-03
1.127164320000e-03
1.137114570000e-03
1.147064820000e-03
1.157015070000e-03
1.166965320000e-03
1.176915570000e-03
1.186865820000e-03
1.196816070000e-03
1.206766320000e-03
1.216716570000e-03
1.226666820000e-03
1.236617070000e-03
1.246567320000e-03
1.256517570000e-03
1.266467820000e-03
1.276418070000e-03
1.286368320000e-03
1.296318570000e-03
1.306268820000e-03
1.316219070000e-03
1.326169320000e-03
1.336119570000e-03
1.346069820000e-03
1.356020070000e-03
1.365970320000e-03
1.375920570000e-03
1.385870820000e-03
1.395821070000e-03
1.405771320000e-03
1.415721570000e-03
1.425671820000e-03
1.435622070000e-03
1.445572320000e-03
1.455522570000e-03
1.465472820000e-03
1.475423070000e-03
1.485373320000e-03
1.495323570000e-03
1.505273820000e-03
1.515224070000e-03
1.525174320000e-03
1.535124570000e-03
1.545074820000e-03
1.555025070000e-03
1.564975320000e-03
1.574925570000e-03
1.584875820000e-03
1.594826070000e-03
1.604776320000e-03
1.614726570000e-03
1.624676820000e-03
1.634627070000e-03
1.644577320000e-03
1.654527570000e-03
1.664477820000e-03
1.674428070000e-03
1.684378320000e-03
1.694328570000e-03
1.704278820000e-03
1.714229070000e-03
1.724179320000e-03
1.734129570000e-03
1.744079820000e-03
1.754030070000e-03
1.763980320000e-03
1.773930570000e-03
1.783880820000e-03
1.793831070000e-03
1.803781320000e-03
1.813731570000e-03
1.823681820000e-03
1.833632070000e-03
1.843582320000e-03
1.853532570000e-03
1.863482820000e-03
1.873433070000e-03
1.883383320000e-03
1.893333570000e-03
1.903283820000e-03
1.913234070000e-03
1.923184320000e-03
1.933134570000e-03
1.943084820000e-03
1.953035070000e-03
1.962985320000e-03
1.972935570000e-03
1.982885820000e-03
1.992836070000e-03
2.000000000000e-03
</indep>
<dep tran.i(pr1) time>
2.500000001986e-03
2.500000001986e-03
2.500000001986e-03
2.500000001986e-03
2.500000001986e-03
2.500000001987e-03
2.500000001988e-03
2.500000001990e-03
2.500000001994e-03
2.500000002000e-03
2.500000002006e-03
2.500000002012e-03
2.500000002018e-03
2.500000002024e-03
2.500000002030e-03
2.500000002035e-03
2.500000002041e-03
2.500000002046e-03
2.500000002051e-03
2.500000002055e-03
2.500000002060e-03
2.500000002064e-03
2.500000002067e-03
2.500000002071e-03
2.500000002074e-03
2.500000002077e-03
2.500000002079e-03
2.500000002081e-03
2.500000002083e-03
2.500000002084e-03
2.500000002085e-03
2.500000002086e-03
2.500000002086e-03
2.500000002086e-03
2.500000002085e-03
2.500000002084e-03
2.500000002082e-03
2.500000002081e-03
2.500000002078e-03
2.500000002076e-03
2.500000002073e-03
2.500000002070e-03
2.500000002066e-03
2.500000002062e-03
2.500000002058e-03
2.500000002054e-03
2.500000002049e-03
2.500000002044e-03
2.500000002039e-03
2.500000002034e-03
2.500000002028e-03
2.500000002022e-03
2.500000002016e-03
2.500000002010e-03
2.500000002004e-03
2.500000001998e-03
2.500000001992e-03
2.500000001986e-03
2.500000001979e-03
2.500000001973e-03
2.500000001967e-03
2.500000001961e-03
2.500000001955e-03
2.500000001949e-03
2.500000001943e-03
2.500000001938e-03
2.500000001932e-03
2.500000001927e-03
2.500000001922e-03
2.500000001917e-03
2.500000001913e-03
2.500000001909e-03
2.500000001905e-03
2.500000001902e-03
2.500000001898e-03
2.500000001895e-03
2.500000001893e-03
2.500000001891e-03
2.500000001889e-03
2.500000001888e-03
2.500000001887e-03
2.500000001886e-03
2.500000001886e-03
2.500000001886e-03
2.500000001887e-03
2.500000001887e-03
2.500000001889e-03
2.500000001890e-03
2.500000001893e-03
2.500000001895e-03
2.500000001898e-03
2.500000001901e-03
2.500000001904e-03
2.500000001908e-03
2.500000001912e-03
2.500000001917e-03
2.500000001921e-03
2.500000001926e-03
2.500000001931e-03
2.500000001937e-03
2.500000001942e-03
2.500000001948e-03
2.500000001954e-03
2.500000001960e-03
2.500000001966e-03
2.500000001972e-03
2.500000001978e-03
2.500000001984e-03
2.500000001991e-03
2.500000001997e-03
2.500000002003e-03
2.500000002009e-03
2.500000002015e-03
2.500000002021e-03
2.500000002027e-03
2.500000002033e-03
2.500000002038e-03
2.500000002043e-03
2.500000002048e-03
2.500000002053e-03
2.500000002057e-03
2.500000002062e-03
2.500000002066e-03
2.500000002069e-03
2.500000002072e-03
2.500000002075e-03
2.500000002078e-03
2.500000002080e-03
2.500000002082e-03
2.500000002084e-03
2.500000002085e-03
2.500000002085e-03
2.500000002086e-03
2.500000002086e-03
2.500000002085e-03
2.500000002084e-03
2.500000002083e-03
2.500000002082e-03
2.500000002080e-03
2.500000002077e-03
2.500000002075e-03
2.500000002072e-03
2.500000002068e-03
2.500000002064e-03
2.500000002060e-03
2.500000002056e-03
2.500000002052e-03
2.500000002047e-03
2.500000002042e-03
2.500000002036e-03
2.500000002031e-03
2.500000002025e-03
2.500000002019e-03
2.500000002013e-03
2.500000002007e-03
2.500000002001e-03
2.500000001995e-03
2.500000001989e-03
2.500000001982e-03
2.500000001976e-03
2.500000001970e-03
2.500000001964e-03
2.500000001958e-03
2.500000001952e-03
2.500000001946e-03
2.500000001940e-03
2.500000001935e-03
2.500000001930e-03
2.500000001925e-03
2.500000001920e-03
2.500000001915e-03
2.500000001911e-03
2.500000001907e-03
2.500000001903e-03
2.500000001900e-03
2.500000001897e-03
2.500000001894e-03
2.500000001892e-03
2.500000001890e-03
2.500000001888e-03
2.500000001887e-03
2.500000001886e-03
2.500000001886e-03
2.500000001886e-03
2.500000001886e-03
2.500000001887e-03
2.500000001888e-03
2.500000001890e-03
2.500000001891e-03
2.500000001894e-03
2.500000001896e-03
2.500000001899e-03
2.500000001903e-03
2.500000001906e-03
2.500000001910e-03
2.500000001914e-03
2.500000001919e-03
2.500000001924e-03
2.500000001929e-03
2.500000001934e-03
2.500000001939e-03
2.500000001945e-03
2.500000001951e-03
2.500000001957e-03
2.500000001963e-03
2.500000001969e-03
2.500000001975e-03
2.500000001981e-03
2.500000001986e-03
</dep>
<dep tran.i(pr2) time>
2.500000000000e-03
2.500000000000e-03
2.500000000000e-03
2.500000000000e-03
2.500000000000e-03
2.500000000000e-03
2.500000000000e-03
2.500000000000e-03
2.500000000000e-03
2.500000000000e-03
2.500000000000e-03
2.500000000000e-03
2.500000000000e-03
2.500000000000e-03
2.500000000000e-03
2.500000000000e-03
2.500000000000e-03
2.500000000000e-03
2.500000000000e-03
2.500000000000e-03
2.500000000000e-03
2.500000000000e-03
2.500000000000e-03
2.500000000000e-03
2.500000000000e-03
2.500000000000e-03
2.500000000000e-03
2.500000000000e-03
2.500000000000e-03
2.500000000000e-03
2.500000000000e-03
2.500000000000e-03
2.500000000000e-03
2.500000000000e-03
2.500000000000e-03
2.500000000000e-03
2.500000000000e-03
2.500000000000e-03
2.500000000000e-03
2.500000000000e-03
2.500000000000e-03
2.500000000000e-03
2.500000000000e-03
2.500000000000e-03
2.500000000000e-03
2.500000000000e-03
2.500000000000e-03
2.500000000000e-03
2.500000000000e-03
2.500000000000e-03
2.500000000000e-03
2.500000000000e-03
2.500000000000e-03
2.500000000000e-03
2.500000000000e-03
2.500000000000e-03
2.500000000000e-03
2.500000000000e-03
2.500000000000e-03
2.500000000000e-03
2.500000000000e-03
2.500000000000e-03
2.500000000000e-03
2.500000000000e-03
2.500000000000e-03
2.500000000000e-03
2.500000000000e-03
2.500000000000e-03
2.500000000000e-03
2.500000000000e-03
2.500000000000e-03
2.500000000000e-03
2.500000000000e-03
2.500000000000e-03
2.500000000000e-03
2.500000000000e-03
2.500000000000e-03
2.500000000000e-03
2.500000000000e-03
2.500000000000e-03
2.500000000000e-03
2.500000000000e-03
2.500000000000e-03
2.500000000000e-03
2.500000000000e-03
2.500000000000e-03
2.500000000000e-03
2.500000000000e-03
2.500000000000e-03
2.500000000000e-03
2.500000000000e-03
2.500000000000e-03
2.500000000000e-03
2.500000000000e-03
2.500000000000e-03
2.500000000000e-03
2.500000000000e-03
2.500000000000e-03
2.500000000000e-03
2.500000000000e-03
2.500000000000e-03
2.500000000000e-03
2.500000000000e-03
2.500000000000e-03
2.500000000000e-03
2.500000000000e-03
2.500000000000e-03
2.500000000000e-03
2.500000000000e-03
2.500000000000e-03
2.500000000000e-03
2.500000000000e-03
2.500000000000e-03
2.500000000000e-03
2.500000000000e-03
2.500000000000e-03
2.500000000000e-03
2.500000000000e-03
2.500000000000e-03
2.500000000000e-03
2.500000000000e-03
2.500000000000e-03
2.500000000000e-03
2.500000000000e-03
2.500000000000e-03
2.500000000000e-03
2.500000000000e-03
2.500000000000e-03
2.500000000000e-03
2.500000000000e-03
2.500000000000e-03
2.500000000000e-03
2.500000000000e-03
2.500000000000e-03
2.500000000000e-03
2.500000000000e-03
2.500000000000e-03
2.500000000000e-03
2.500000000000e-03
2.500000000000e-03
2.500000000000e-03
2.500000000000e-03
2.500000000000e-03
2.500000000000e-03
2.500000000000e-03
2.500000000000e-03
2.500000000000e-03
2.500000000000e-03
2.500000000000e-03
2.500000000000e-03
2.500000000000e-03
2.500000000000e-03
2.500000000000e-03
2.500000000000e-03
2.500000000000e-03
2.500000000000e-03
2.500000000000e-03
2.500000000000e-03
2.500000000000e-03
2.500000000000e-03
2.500000000000e-03
2.500000000000e-03
2.500000000000e-03
2.500000000000e-03
2.500000000000e-03
2.500000000000e-03
2.500000000000e-03
2.500000000000e-03
2.500000000000e-03
2.500000000000e-03
2.500000000000e-03
2.500000000000e-03
2.500000000000e-03
2.500000000000e-03
2.500000000000e-03
2.500000000000e-03
2.500000000000e-03
2.500000000000e-03
2.500000000000e-03
2.500000000000e-03
2.500000000000e-03
2.500000000000e-03
2.500000000000e-03
2.500000000000e-03
2.500000000000e-03
2.500000000000e-03
2.500000000000e-03
2.500000000000e-03
2.500000000000e-03
2.500000000000e-03
2.500000000000e-03
2.500000000000e-03
2.500000000000e-03
2.500000000000e-03
2.500000000000e-03
2.500000000000e-03
2.500000000000e-03
2.500000000000e-03
2.500000000000e-03
2.500000000000e-03
2.500000000000e-03
2.500000000000e-03
2.500000000000e-03
2.500000000000e-03
2.500000000000e-03
2.500000000000e-03
2.500000000000e-03
2.500000000000e-03
2.500000000000e-03
</dep>
<dep tran.v(vin) time>
5.000000000000e+00
5.000062519261e+00
5.000125038497e+00
5.000250076798e+00
5.000500152032e+00
5.001000291552e+00
5.002000483013e+00
5.004000165367e+00
5.007993927377e+00
5.014206169394e+00
5.020362902430e+00
5.026440069758e+00
5.032413925540e+00
5.038261127621e+00
5.043958828728e+00
5.049484765745e+00
5.054817346707e+00
5.059935735165e+00
5.064819931602e+00
5.069450851579e+00
5.073810400307e+00
5.077881543349e+00
5.081648373180e+00
5.085096171343e+00
5.088211465961e+00
5.090982084379e+00
5.093397200721e+00
5.095447378198e+00
5.097124605975e+00
5.098422330477e+00
5.099335480994e+00
5.099860489496e+00
5.099995304571e+00
5.099739399444e+00
5.099093774037e+00
5.098060951057e+00
5.096644966140e+00
5.094851352086e+00
5.092687117236e+00
5.090160718090e+00
5.087282026264e+00
5.084062289916e+00
5.080514089797e+00
5.076651290093e+00
5.072488984251e+00
5.068043436004e+00
5.063332015824e+00
5.058373133045e+00
5.053186163933e+00
5.047791375977e+00
5.042209848693e+00
5.036463391258e+00
5.030574457299e+00
5.024566057148e+00
5.018461667943e+00
5.012285141885e+00
5.006060613041e+00
4.999812403046e+00
4.993564926065e+00
4.987342593398e+00
4.981169718098e+00
4.975070419968e+00
4.969068531317e+00
4.963187503838e+00
4.957450316971e+00
4.951879388118e+00
4.946496485045e+00
4.941322640830e+00
4.936378071675e+00
4.931682097920e+00
4.927253068543e+00
4.923108289469e+00
4.919263955949e+00
4.915735089274e+00
4.912535478088e+00
4.909677624505e+00
4.907172695261e+00
4.905030478078e+00
4.903259343427e+00
4.901866211812e+00
4.900856526736e+00
4.900234233428e+00
4.900001763427e+00
4.900160025084e+00
4.900708400009e+00
4.901644745489e+00
4.902965402863e+00
4.904665211813e+00
4.906737530529e+00
4.909174261665e+00
4.911965883971e+00
4.915101489504e+00
4.918568826244e+00
4.922354345970e+00
4.926443257197e+00
4.930819582972e+00
4.935466223304e+00
4.940365021978e+00
4.945496837500e+00
4.950841617887e+00
4.956378479022e+00
4.962085786255e+00
4.967941238936e+00
4.973921957555e+00
4.980004573138e+00
4.986165318561e+00
4.992380121418e+00
4.998624698078e+00
5.004874648572e+00
5.011105551936e+00
5.017293061627e+00
5.023413000660e+00
5.029441456074e+00
5.035354872371e+00
5.041130143553e+00
5.046744703409e+00
5.052176613689e+00
5.057404649827e+00
5.062408383870e+00
5.067168264301e+00
5.071665692430e+00
5.075883095074e+00
5.079803993214e+00
5.083413066390e+00
5.086696212561e+00
5.089640603211e+00
5.092234733469e+00
5.094468467070e+00
5.096333075954e+00
5.097821274375e+00
5.098927247370e+00
5.099646673475e+00
5.099976741616e+00
5.099916162087e+00
5.099465171599e+00
5.098625532343e+00
5.097400525114e+00
5.095794936488e+00
5.093815040118e+00
5.091468572223e+00
5.088764701356e+00
5.085713992585e+00
5.082328366204e+00
5.078621051161e+00
5.074606533364e+00
5.070300499081e+00
5.065719773650e+00
5.060882255729e+00
5.055806847367e+00
5.050513380139e+00
5.045022537664e+00
5.039355774779e+00
5.033535233711e+00
5.027583657557e+00
5.021524301421e+00
5.015380841542e+00
5.009177282786e+00
5.002937864848e+00
4.996686967540e+00
4.990449015527e+00
4.984248382892e+00
4.978109297897e+00
4.972055748313e+00
4.966111387693e+00
4.960299442944e+00
4.954642623576e+00
4.949163032961e+00
4.943882081973e+00
4.938820405323e+00
4.933997780933e+00
4.929433052655e+00
4.925144056643e+00
4.921147551656e+00
4.917459153581e+00
4.914093274411e+00
4.911063065933e+00
4.908380368339e+00
4.906055663964e+00
4.904098036323e+00
4.902515134622e+00
4.901313143868e+00
4.900496760704e+00
4.900069175051e+00
4.900032057652e+00
4.900385553540e+00
4.901128281469e+00
4.902257339316e+00
4.903768315415e+00
4.905655305801e+00
4.907910937276e+00
4.910526396216e+00
4.913491463017e+00
4.916794552019e+00
4.920422756780e+00
4.924361900506e+00
4.928596591443e+00
4.933110283021e+00
4.937885338509e+00
4.942903099923e+00
4.948143960935e+00
4.953587443481e+00
4.959212277776e+00
4.964996485425e+00
4.970917465299e+00
4.976952081846e+00
4.983076755494e+00
4.989267554782e+00
4.995500289870e+00
5.000000000000e+00
</dep>
<dep tran.v(vout) time>
3.492893215765e+00
3.492955738008e+00
3.493018257244e+00
3.493143295545e+00
3.493393370779e+00
3.493893510299e+00
3.494893701760e+00
3.496893384113e+00
3.500887146122e+00
3.507099388137e+00
3.513256121172e+00
3.519333288497e+00
3.525307144278e+00
3.531154346358e+00
3.536852047462e+00
3.542377984478e+00
3.547710565439e+00
3.552828953895e+00
3.557713150331e+00
3.562344070307e+00
3.566703619034e+00
3.570774762074e+00
3.574541591904e+00
3.577989390066e+00
3.581104684684e+00
3.583875303100e+00
3.586290419442e+00
3.588340596918e+00
3.590017824695e+00
3.591315549196e+00
3.592228699713e+00
3.592753708215e+00
3.592888523289e+00
3.592632618163e+00
3.591986992757e+00
3.590954169776e+00
3.589538184860e+00
3.587744570806e+00
3.585580335957e+00
3.583053936812e+00
3.580175244987e+00
3.576955508639e+00
3.573407308521e+00
3.569544508818e+00
3.565382202977e+00
3.560936654732e+00
3.556225234553e+00
3.551266351776e+00
3.546079382665e+00
3.540684594711e+00
3.535103067428e+00
3.529356609995e+00
3.523467676037e+00
3.517459275889e+00
3.511354886685e+00
3.505178360628e+00
3.498953831787e+00
3.492705621794e+00
3.486458144814e+00
3.480235812149e+00
3.474062936851e+00
3.467963638722e+00
3.461961750073e+00
3.456080722595e+00
3.450343535731e+00
3.444772606879e+00
3.439389703808e+00
3.434215859594e+00
3.429271290441e+00
3.424575316686e+00
3.420146287310e+00
3.416001508238e+00
3.412157174719e+00
3.408628308045e+00
3.405428696860e+00
3.402570843278e+00
3.400065914034e+00
3.397923696852e+00
3.396152562201e+00
3.394759430587e+00
3.393749745511e+00
3.393127452203e+00
3.392894982203e+00
3.393053243859e+00
3.393601618784e+00
3.394537964264e+00
3.395858621638e+00
3.397558430587e+00
3.399630749303e+00
3.402067480438e+00
3.404859102743e+00
3.407994708275e+00
3.411462045014e+00
3.415247564739e+00
3.419336475965e+00
3.423712801739e+00
3.428359442070e+00
3.433258240742e+00
3.438390056262e+00
3.443734836648e+00
3.449271697781e+00
3.454979005013e+00
3.460834457692e+00
3.466815176309e+00
3.472897791890e+00
3.479058537312e+00
3.485273340167e+00
3.491517916825e+00
3.497767867318e+00
3.503998770680e+00
3.510186280369e+00
3.516306219400e+00
3.522334674813e+00
3.528248091108e+00
3.534023362288e+00
3.539637922143e+00
3.545069832422e+00
3.550297868558e+00
3.555301602600e+00
3.560061483029e+00
3.564558911157e+00
3.568776313800e+00
3.572697211939e+00
3.576306285113e+00
3.579589431284e+00
3.582533821933e+00
3.585127952191e+00
3.587361685790e+00
3.589226294673e+00
3.590714493095e+00
3.591820466089e+00
3.592539892194e+00
3.592869960334e+00
3.592809380806e+00
3.592358390318e+00
3.591518751062e+00
3.590293743833e+00
3.588688155208e+00
3.586708258838e+00
3.584361790944e+00
3.581657920079e+00
3.578607211308e+00
3.575221584928e+00
3.571514269886e+00
3.567499752090e+00
3.563193717809e+00
3.558612992379e+00
3.553775474459e+00
3.548700066098e+00
3.543406598872e+00
3.537915756398e+00
3.532248993515e+00
3.526428452448e+00
3.520476876297e+00
3.514417520162e+00
3.508274060284e+00
3.502070501530e+00
3.495831083594e+00
3.489580186288e+00
3.483342234277e+00
3.477141601644e+00
3.471002516650e+00
3.464948967069e+00
3.459004606450e+00
3.453192661703e+00
3.447535842336e+00
3.442056251723e+00
3.436775300736e+00
3.431713624088e+00
3.426890999699e+00
3.422326271422e+00
3.418037275411e+00
3.414040770426e+00
3.410352372352e+00
3.406986493182e+00
3.403956284705e+00
3.401273587112e+00
3.398948882738e+00
3.396991255097e+00
3.395408353397e+00
3.394206362644e+00
3.393389979479e+00
3.392962393826e+00
3.392925276428e+00
3.393278772315e+00
3.394021500244e+00
3.395150558091e+00
3.396661534189e+00
3.398548524575e+00
3.400804156049e+00
3.403419614989e+00
3.406384681789e+00
3.409687770790e+00
3.413315975550e+00
3.417255119274e+00
3.421489810210e+00
3.426003501788e+00
3.430778557274e+00
3.435796318686e+00
3.441037179697e+00
3.446480662241e+00
3.452105496535e+00
3.457889704182e+00
3.463810684054e+00
3.469845300600e+00
3.475969974246e+00
3.482160773532e+00
3.488393508618e+00
