<Qucs Dataset 0.0.19>
<indep acfrequency 71>
  +1.00000000000000000000e+00
  +1.25892541179416728170e+00
  +1.58489319246111359796e+00
  +1.99526231496887973549e+00
  +2.51188643150958013095e+00
  +3.16227766016837952279e+00
  +3.98107170553497269339e+00
  +5.01187233627272377134e+00
  +6.30957344480193338399e+00
  +7.94328234724281756485e+00
  +1.00000000000000017764e+01
  +1.25892541179416745933e+01
  +1.58489319246111364237e+01
  +1.99526231496887973549e+01
  +2.51188643150958093031e+01
  +3.16227766016838032215e+01
  +3.98107170553497340393e+01
  +5.01187233627272377134e+01
  +6.30957344480193640379e+01
  +7.94328234724281969648e+01
  +1.00000000000000042633e+02
  +1.25892541179416767250e+02
  +1.58489319246111392658e+02
  +1.99526231496888016181e+02
  +2.51188643150958057504e+02
  +3.16227766016837961160e+02
  +3.98107170553497269339e+02
  +5.01187233627272689773e+02
  +6.30957344480193796699e+02
  +7.94328234724282083334e+02
  +1.00000000000000068212e+03
  +1.25892541179416798514e+03
  +1.58489319246111426764e+03
  +1.99526231496888044603e+03
  +2.51188643150958114347e+03
  +3.16227766016838040741e+03
  +3.98107170553497689980e+03
  +5.01187233627272416925e+03
  +6.30957344480193842173e+03
  +7.94328234724281537638e+03
  +1.00000000000000090949e+04
  +1.25892541179416712112e+04
  +1.58489319246111463144e+04
  +1.99526231496888285619e+04
  +2.51188643150958159822e+04
  +3.16227766016838395444e+04
  +3.98107170553497417131e+04
  +5.01187233627272944432e+04
  +6.30957344480193423806e+04
  +7.94328234724282374373e+04
  +1.00000000000000014552e+05
  +1.25892541179416846717e+05
  +1.58489319246111350367e+05
  +1.99526231496888125548e+05
  +2.51188643150958436308e+05
  +3.16227766016838198993e+05
  +3.98107170553497853689e+05
  +5.01187233627272595186e+05
  +6.30957344480194151402e+05
  +7.94328234724281937815e+05
  +1.00000000000000128057e+06
  +1.25892541179416771047e+06
  +1.58489319246111530811e+06
  +1.99526231496888003312e+06
  +2.51188643150958279148e+06
  +3.16227766016838513315e+06
  +3.98107170553497597575e+06
  +5.01187233627273142338e+06
  +6.30957344480193778872e+06
  +7.94328234724282752723e+06
  +1.00000000000000055879e+07
</indep>
<indep time 201>
  +0.00000000000000000000e+00
  +1.00000000000000008180e-05
  +2.00000000000000016361e-05
  +3.00000000000000041482e-05
  +4.00000000000000032721e-05
  +5.00000000000000023961e-05
  +6.00000000000000082963e-05
  +7.00000000000000074203e-05
  +8.00000000000000065442e-05
  +9.00000000000000056682e-05
  +1.00000000000000004792e-04
  +1.10000000000000003916e-04
  +1.20000000000000016593e-04
  +1.30000000000000015717e-04
  +1.40000000000000014841e-04
  +1.50000000000000013965e-04
  +1.60000000000000013088e-04
  +1.70000000000000012212e-04
  +1.80000000000000011336e-04
  +1.90000000000000010460e-04
  +2.00000000000000009584e-04
  +2.10000000000000008708e-04
  +2.20000000000000007832e-04
  +2.30000000000000006956e-04
  +2.40000000000000033185e-04
  +2.50000000000000005204e-04
  +2.60000000000000031433e-04
  +2.70000000000000003452e-04
  +2.80000000000000029681e-04
  +2.90000000000000001700e-04
  +3.00000000000000027929e-04
  +3.09999999999999999948e-04
  +3.20000000000000026177e-04
  +3.30000000000000052406e-04
  +3.40000000000000024425e-04
  +3.50000000000000050654e-04
  +3.60000000000000022673e-04
  +3.70000000000000048902e-04
  +3.80000000000000020921e-04
  +3.90000000000000047150e-04
  +4.00000000000000019169e-04
  +4.10000000000000045398e-04
  +4.20000000000000017417e-04
  +4.30000000000000043646e-04
  +4.40000000000000015665e-04
  +4.50000000000000041894e-04
  +4.60000000000000013912e-04
  +4.70000000000000040142e-04
  +4.80000000000000066371e-04
  +4.90000000000000092600e-04
  +5.00000000000000010408e-04
  +5.10000000000000036637e-04
  +5.20000000000000062866e-04
  +5.30000000000000089095e-04
  +5.40000000000000006904e-04
  +5.50000000000000033133e-04
  +5.60000000000000059362e-04
  +5.70000000000000085591e-04
  +5.80000000000000003400e-04
  +5.90000000000000029629e-04
  +6.00000000000000055858e-04
  +6.10000000000000082087e-04
  +6.19999999999999999896e-04
  +6.30000000000000026125e-04
  +6.40000000000000052354e-04
  +6.50000000000000078583e-04
  +6.60000000000000104812e-04
  +6.70000000000000022621e-04
  +6.80000000000000048850e-04
  +6.90000000000000075079e-04
  +7.00000000000000101308e-04
  +7.10000000000000019117e-04
  +7.20000000000000045346e-04
  +7.30000000000000071575e-04
  +7.40000000000000097804e-04
  +7.50000000000000015613e-04
  +7.60000000000000041842e-04
  +7.70000000000000068071e-04
  +7.80000000000000094300e-04
  +7.90000000000000012108e-04
  +8.00000000000000038337e-04
  +8.10000000000000064566e-04
  +8.20000000000000090795e-04
  +8.30000000000000117024e-04
  +8.40000000000000034833e-04
  +8.50000000000000061062e-04
  +8.60000000000000087291e-04
  +8.70000000000000113520e-04
  +8.80000000000000031329e-04
  +8.90000000000000057558e-04
  +9.00000000000000083787e-04
  +9.10000000000000110016e-04
  +9.20000000000000027825e-04
  +9.30000000000000054054e-04
  +9.40000000000000080283e-04
  +9.50000000000000106512e-04
  +9.60000000000000132741e-04
  +9.70000000000000050550e-04
  +9.80000000000000185199e-04
  +9.89999999999999994588e-04
  +1.00000000000000002082e-03
  +1.01000000000000004705e-03
  +1.02000000000000007327e-03
  +1.03000000000000009950e-03
  +1.04000000000000012573e-03
  +1.05000000000000015196e-03
  +1.06000000000000017819e-03
  +1.06999999999999998758e-03
  +1.08000000000000001381e-03
  +1.09000000000000004004e-03
  +1.10000000000000006627e-03
  +1.11000000000000009250e-03
  +1.12000000000000011872e-03
  +1.13000000000000014495e-03
  +1.14000000000000017118e-03
  +1.15000000000000019741e-03
  +1.16000000000000000680e-03
  +1.17000000000000003303e-03
  +1.18000000000000005926e-03
  +1.19000000000000008549e-03
  +1.20000000000000011172e-03
  +1.21000000000000013795e-03
  +1.22000000000000016417e-03
  +1.23000000000000019040e-03
  +1.23999999999999999979e-03
  +1.25000000000000002602e-03
  +1.26000000000000005225e-03
  +1.27000000000000007848e-03
  +1.28000000000000010471e-03
  +1.29000000000000013094e-03
  +1.30000000000000015717e-03
  +1.31000000000000018339e-03
  +1.32000000000000020962e-03
  +1.33000000000000001901e-03
  +1.34000000000000004524e-03
  +1.35000000000000007147e-03
  +1.36000000000000009770e-03
  +1.37000000000000012393e-03
  +1.38000000000000015016e-03
  +1.39000000000000017639e-03
  +1.40000000000000020262e-03
  +1.41000000000000001200e-03
  +1.42000000000000003823e-03
  +1.43000000000000006446e-03
  +1.44000000000000009069e-03
  +1.45000000000000011692e-03
  +1.46000000000000014315e-03
  +1.47000000000000016938e-03
  +1.48000000000000019561e-03
  +1.49000000000000022184e-03
  +1.50000000000000003123e-03
  +1.51000000000000005745e-03
  +1.52000000000000008368e-03
  +1.53000000000000010991e-03
  +1.54000000000000013614e-03
  +1.55000000000000016237e-03
  +1.56000000000000018860e-03
  +1.57000000000000021483e-03
  +1.58000000000000002422e-03
  +1.59000000000000005045e-03
  +1.60000000000000007667e-03
  +1.61000000000000010290e-03
  +1.62000000000000012913e-03
  +1.63000000000000015536e-03
  +1.64000000000000018159e-03
  +1.65000000000000020782e-03
  +1.66000000000000023405e-03
  +1.67000000000000004344e-03
  +1.68000000000000006967e-03
  +1.69000000000000009590e-03
  +1.70000000000000012212e-03
  +1.71000000000000014835e-03
  +1.72000000000000017458e-03
  +1.73000000000000020081e-03
  +1.74000000000000022704e-03
  +1.75000000000000003643e-03
  +1.76000000000000006266e-03
  +1.77000000000000008889e-03
  +1.78000000000000011512e-03
  +1.79000000000000014135e-03
  +1.80000000000000016757e-03
  +1.81000000000000019380e-03
  +1.82000000000000022003e-03
  +1.83000000000000024626e-03
  +1.84000000000000005565e-03
  +1.85000000000000008188e-03
  +1.86000000000000010811e-03
  +1.87000000000000013434e-03
  +1.88000000000000016057e-03
  +1.89000000000000018680e-03
  +1.90000000000000021302e-03
  +1.91000000000000023925e-03
  +1.92000000000000026548e-03
  +1.93000000000000007487e-03
  +1.94000000000000010110e-03
  +1.95000000000000012733e-03
  +1.96000000000000037040e-03
  +1.96999999999999996295e-03
  +1.97999999999999998918e-03
  +1.99000000000000001540e-03
  +2.00000000000000004163e-03
</indep>
<dep Av acfrequency>
  +9.65517241219383204331e-01+j8.59955458053217491077e-13
  +9.65517241219383204331e-01+j1.08261977915428193838e-12
  +9.65517241219383204331e-01+j1.36293755128831910811e-12
  +9.65517241219383204331e-01+j1.71583671800538478725e-12
  +9.65517241219383204331e-01+j2.16011044678647807019e-12
  +9.65517241219383204331e-01+j2.71941793374154712392e-12
  +9.65517241219383204331e-01+j3.42354434207602721745e-12
  +9.65517241219383204331e-01+j4.30998697064364822076e-12
  +9.65517241219383204331e-01+j5.42595212184506077833e-12
  +9.65517241219383204331e-01+j6.83086900936924516447e-12
  +9.65517241219383204331e-01+j8.59955458053211473015e-12
  +9.65517241219383204331e-01+j1.08261977915428638124e-11
  +9.65517241219383204331e-01+j1.36293755128831478642e-11
  +9.65517241219383204331e-01+j1.71583671800538381789e-11
  +9.65517241219383204331e-01+j2.16011044678648243228e-11
  +9.65517241219383204331e-01+j2.71941793374154510443e-11
  +9.65517241219383204331e-01+j3.42354434207600774962e-11
  +9.65517241219383204331e-01+j4.30998697064363093397e-11
  +9.65517241219383204331e-01+j5.42595212184504349154e-11
  +9.65517241219383204331e-01+j6.83086900936919314257e-11
  +9.65517241219383204331e-01+j8.59955458053214154890e-11
  +9.65517241219383204331e-01+j1.08261977915428020970e-10
  +9.65517241219383204331e-01+j1.36293755128831834071e-10
  +9.65517241219383204331e-01+j1.71583671800538181457e-10
  +9.65517241219383204331e-01+j2.16011044678647558219e-10
  +9.65517241219383204331e-01+j2.71941793374155699516e-10
  +9.65517241219383315354e-01+j3.42354434207602093281e-10
  +9.65517241219383315354e-01+j4.30998697064365122575e-10
  +9.65517241219383204331e-01+j5.42595212184506998717e-10
  +9.65517241219383204331e-01+j6.83086900936923191666e-10
  +9.65517241219383204331e-01+j8.59955458053215059619e-10
  +9.65517241219383204331e-01+j1.08261977915428411296e-09
  +9.65517241219383315354e-01+j1.36293755128832190793e-09
  +9.65517241219383204331e-01+j1.71583671800537886773e-09
  +9.65517241219383537398e-01+j2.16011044678646581111e-09
  +9.65517241219383315354e-01+j2.71941793374153207634e-09
  +9.65517241219383648421e-01+j3.42354434207599901252e-09
  +9.65517241219383870465e-01+j4.30998697064357615911e-09
  +9.65517241219383870465e-01+j5.42595212184491985389e-09
  +9.65517241219384758644e-01+j6.83086900936893930152e-09
  +9.65517241219385424777e-01+j8.59955458053167021105e-09
  +9.65517241219386646023e-01+j1.08261977915418059131e-08
  +9.65517241219388644424e-01+j1.36293755128811093551e-08
  +9.65517241219391864071e-01+j1.71583671800496163783e-08
  +9.65517241219396860075e-01+j2.16011044678563780332e-08
  +9.65517241219404742658e-01+j2.71941793373985968258e-08
  +9.65517241219417399201e-01+j3.42354434207265132987e-08
  +9.65517241219437050148e-01+j4.30998697063693257530e-08
  +9.65517241219468580482e-01+j5.42595212183161117958e-08
  +9.65517241219518651540e-01+j6.83086900934241410081e-08
  +9.65517241219597810442e-01+j8.59955458047866778612e-08
  +9.65517241219723043599e-01+j1.08261977914361574126e-07
  +9.65517241219921995565e-01+j1.36293755126703238827e-07
  +9.65517241220236965837e-01+j1.71583671796289751845e-07
  +9.65517241220736566198e-01+j2.16011044670171715380e-07
  +9.65517241221528044193e-01+j2.71941793357243058419e-07
  +9.65517241222782263144e-01+j3.42354434173856882998e-07
  +9.65517241224770117469e-01+j4.30998696997032492500e-07
  +9.65517241227921263480e-01+j5.42595212050161288364e-07
  +9.65517241232914935622e-01+j6.83086900668864849506e-07
  +9.65517241240829382498e-01+j8.59955457518378780577e-07
  +9.65517241253373126320e-01+j1.08261977808714272755e-06
  +9.65517241273253778999e-01+j1.36293754915908872568e-06
  +9.65517241304762130483e-01+j1.71583671375699930576e-06
  +9.65517241354699518041e-01+j2.16011043830983854935e-06
  +9.65517241433845097021e-01+j2.71941791682841721995e-06
  +9.65517241559282313190e-01+j3.42354430832990591228e-06
  +9.65517241758087063630e-01+j4.30998690331128191301e-06
  +9.65517242073170911532e-01+j5.42595198749931641251e-06
  +9.65517242572545564272e-01+j6.83086874131427390004e-06
  +9.65517243364000909978e-01+j8.59955404569222397429e-06
</dep>
<dep V1.i acfrequency>
  -9.65517241219385766518e-06+j2.40787528087882581033e-16
  -9.65517241219385766518e-06+j3.03133537952935346743e-16
  -9.65517241219385766518e-06+j3.81622514096023154574e-16
  -9.65517241219385766518e-06+j4.80434280708262313492e-16
  -9.65517241219385766518e-06+j6.04830924680682752845e-16
  -9.65517241219385766518e-06+j7.61437020919474920328e-16
  -9.65517241219385766518e-06+j9.58592415116375740144e-16
  -9.65517241219385766518e-06+j1.20679635094314698474e-15
  -9.65517241219385766518e-06+j1.51926659306280271137e-15
  -9.65517241219385766518e-06+j1.91264332129671500925e-15
  -9.65517241219385766518e-06+j2.40787528087880884983e-15
  -9.65517241219385766518e-06+j3.03133537952936569477e-15
  -9.65517241219385766518e-06+j3.81622514096021902258e-15
  -9.65517241219385766518e-06+j4.80434280708262096555e-15
  -9.65517241219385766518e-06+j6.04830924680684015022e-15
  -9.65517241219385766518e-06+j7.61437020919474249796e-15
  -9.65517241219385766518e-06+j9.58592415116370257560e-15
  -9.65517241219385766518e-06+j1.20679635094314221213e-14
  -9.65517241219385766518e-06+j1.51926659306279782043e-14
  -9.65517241219385766518e-06+j1.91264332129670033644e-14
  -9.65517241219385766518e-06+j2.40787528087881634400e-14
  -9.65517241219385766518e-06+j3.03133537952934865537e-14
  -9.65517241219385766518e-06+j3.81622514096022959331e-14
  -9.65517241219385766518e-06+j4.80434280708261512798e-14
  -9.65517241219385766518e-06+j6.04830924680682042870e-14
  -9.65517241219385766518e-06+j7.61437020919477657675e-14
  -9.65517241219380345507e-06+j9.58592415116373980984e-14
  -9.65517241219380345507e-06+j1.20679635094314789193e-13
  -9.65517241219385766518e-06+j1.51926659306280501485e-13
  -9.65517241219385766518e-06+j1.91264332129671100184e-13
  -9.65517241219385766518e-06+j2.40787528087881899458e-13
  -9.65517241219385766518e-06+j3.03133537952935925766e-13
  -9.65517241219380345507e-06+j3.81622514096023918586e-13
  -9.65517241219385766518e-06+j4.80434280708260667139e-13
  -9.65517241219374924496e-06+j6.04830924680679291323e-13
  -9.65517241219380345507e-06+j7.61437020919470614725e-13
  -9.65517241219369503485e-06+j9.58592415116367872045e-13
  -9.65517241219364082475e-06+j1.20679635094312683881e-12
  -9.65517241219364082475e-06+j1.51926659306276306007e-12
  -9.65517241219342398431e-06+j1.91264332129662931371e-12
  -9.65517241219320714388e-06+j2.40787528087868429500e-12
  -9.65517241219288188323e-06+j3.03133537952906956270e-12
  -9.65517241219233978214e-06+j3.81622514095964838584e-12
  -9.65517241219141821029e-06+j4.80434280708143920774e-12
  -9.65517241219000874747e-06+j6.04830924680447454569e-12
  -9.65517241218778613301e-06+j7.61437020919002437768e-12
  -9.65517241218426247595e-06+j9.58592415115430508390e-12
  -9.65517241217873304487e-06+j1.20679635094126665179e-11
  -9.65517241216995100728e-06+j1.51926659305903658717e-11
  -9.65517241215591058914e-06+j1.91264332128920221732e-11
  -9.65517241213373865472e-06+j2.40787528086384343081e-11
  -9.65517241209866471444e-06+j3.03133537949948791994e-11
  -9.65517241204299093288e-06+j3.81622514090062856446e-11
  -9.65517241195479108615e-06+j4.80434280696365918983e-11
  -9.65517241181487479579e-06+j6.04830924656949773683e-11
  -9.65517241159326387173e-06+j7.61437020872122235046e-11
  -9.65517241124209078806e-06+j9.58592415021887302479e-11
  -9.65517241068551560282e-06+j1.20679635075461638387e-10
  -9.65517240980319187485e-06+j1.51926659268663716122e-10
  -9.65517240840495054310e-06+j1.91264332054614794101e-10
  -9.65517240618889551265e-06+j2.40787527938127740842e-10
  -9.65517240267667678499e-06+j3.03133537654136325817e-10
  -9.65517239711011178091e-06+j3.81622513499838638138e-10
  -9.65517238828774186296e-06+j4.80434279518714373887e-10
  -9.65517237430527433539e-06+j6.04830922307223690278e-10
  -9.65517235214450719044e-06+j7.61437016183798490908e-10
  -9.65517231702210307343e-06+j9.58592405667461711168e-10
  -9.65517226135677829324e-06+j1.20679633209008460789e-09
  -9.65517217313324174408e-06+j1.51926655544599420195e-09
  -9.65517203330840383807e-06+j1.91264324624132306670e-09
  -9.65517181170089501888e-06+j2.40787513112363943595e-09
</dep>
<dep Pr1.i acfrequency>
  +9.65517241219385766518e-06-j2.40787528087882581033e-16
  +9.65517241219385766518e-06-j3.03133537952935346743e-16
  +9.65517241219385766518e-06-j3.81622514096023154574e-16
  +9.65517241219385766518e-06-j4.80434280708262313492e-16
  +9.65517241219385766518e-06-j6.04830924680682752845e-16
  +9.65517241219385766518e-06-j7.61437020919474920328e-16
  +9.65517241219385766518e-06-j9.58592415116375740144e-16
  +9.65517241219385766518e-06-j1.20679635094314698474e-15
  +9.65517241219385766518e-06-j1.51926659306280271137e-15
  +9.65517241219385766518e-06-j1.91264332129671500925e-15
  +9.65517241219385766518e-06-j2.40787528087880884983e-15
  +9.65517241219385766518e-06-j3.03133537952936569477e-15
  +9.65517241219385766518e-06-j3.81622514096021902258e-15
  +9.65517241219385766518e-06-j4.80434280708262096555e-15
  +9.65517241219385766518e-06-j6.04830924680684015022e-15
  +9.65517241219385766518e-06-j7.61437020919474249796e-15
  +9.65517241219385766518e-06-j9.58592415116370257560e-15
  +9.65517241219385766518e-06-j1.20679635094314221213e-14
  +9.65517241219385766518e-06-j1.51926659306279782043e-14
  +9.65517241219385766518e-06-j1.91264332129670033644e-14
  +9.65517241219385766518e-06-j2.40787528087881634400e-14
  +9.65517241219385766518e-06-j3.03133537952934865537e-14
  +9.65517241219385766518e-06-j3.81622514096022959331e-14
  +9.65517241219385766518e-06-j4.80434280708261512798e-14
  +9.65517241219385766518e-06-j6.04830924680682042870e-14
  +9.65517241219385766518e-06-j7.61437020919477657675e-14
  +9.65517241219380345507e-06-j9.58592415116373980984e-14
  +9.65517241219380345507e-06-j1.20679635094314789193e-13
  +9.65517241219385766518e-06-j1.51926659306280501485e-13
  +9.65517241219385766518e-06-j1.91264332129671100184e-13
  +9.65517241219385766518e-06-j2.40787528087881899458e-13
  +9.65517241219385766518e-06-j3.03133537952935925766e-13
  +9.65517241219380345507e-06-j3.81622514096023918586e-13
  +9.65517241219385766518e-06-j4.80434280708260667139e-13
  +9.65517241219374924496e-06-j6.04830924680679291323e-13
  +9.65517241219380345507e-06-j7.61437020919470614725e-13
  +9.65517241219369503485e-06-j9.58592415116367872045e-13
  +9.65517241219364082475e-06-j1.20679635094312683881e-12
  +9.65517241219364082475e-06-j1.51926659306276306007e-12
  +9.65517241219342398431e-06-j1.91264332129662931371e-12
  +9.65517241219320714388e-06-j2.40787528087868429500e-12
  +9.65517241219288188323e-06-j3.03133537952906956270e-12
  +9.65517241219233978214e-06-j3.81622514095964838584e-12
  +9.65517241219141821029e-06-j4.80434280708143920774e-12
  +9.65517241219000874747e-06-j6.04830924680447454569e-12
  +9.65517241218778613301e-06-j7.61437020919002437768e-12
  +9.65517241218426247595e-06-j9.58592415115430508390e-12
  +9.65517241217873304487e-06-j1.20679635094126665179e-11
  +9.65517241216995100728e-06-j1.51926659305903658717e-11
  +9.65517241215591058914e-06-j1.91264332128920221732e-11
  +9.65517241213373865472e-06-j2.40787528086384343081e-11
  +9.65517241209866471444e-06-j3.03133537949948791994e-11
  +9.65517241204299093288e-06-j3.81622514090062856446e-11
  +9.65517241195479108615e-06-j4.80434280696365918983e-11
  +9.65517241181487479579e-06-j6.04830924656949773683e-11
  +9.65517241159326387173e-06-j7.61437020872122235046e-11
  +9.65517241124209078806e-06-j9.58592415021887302479e-11
  +9.65517241068551560282e-06-j1.20679635075461638387e-10
  +9.65517240980319187485e-06-j1.51926659268663716122e-10
