<Qucs Dataset 0.0.19>
<indep time 201>
  +0.00000000000000000000e+00
  +1.00000000000000008180e-05
  +2.00000000000000016361e-05
  +3.00000000000000041482e-05
  +4.00000000000000032721e-05
  +5.00000000000000023961e-05
  +6.00000000000000082963e-05
  +7.00000000000000074203e-05
  +8.00000000000000065442e-05
  +9.00000000000000056682e-05
  +1.00000000000000004792e-04
  +1.10000000000000003916e-04
  +1.20000000000000016593e-04
  +1.30000000000000015717e-04
  +1.40000000000000014841e-04
  +1.50000000000000013965e-04
  +1.60000000000000013088e-04
  +1.70000000000000012212e-04
  +1.80000000000000011336e-04
  +1.90000000000000010460e-04
  +2.00000000000000009584e-04
  +2.10000000000000008708e-04
  +2.20000000000000007832e-04
  +2.30000000000000006956e-04
  +2.40000000000000033185e-04
  +2.50000000000000005204e-04
  +2.60000000000000031433e-04
  +2.70000000000000003452e-04
  +2.80000000000000029681e-04
  +2.90000000000000001700e-04
  +3.00000000000000027929e-04
  +3.09999999999999999948e-04
  +3.20000000000000026177e-04
  +3.30000000000000052406e-04
  +3.40000000000000024425e-04
  +3.50000000000000050654e-04
  +3.60000000000000022673e-04
  +3.70000000000000048902e-04
  +3.80000000000000020921e-04
  +3.90000000000000047150e-04
  +4.00000000000000019169e-04
  +4.10000000000000045398e-04
  +4.20000000000000017417e-04
  +4.30000000000000043646e-04
  +4.40000000000000015665e-04
  +4.50000000000000041894e-04
  +4.60000000000000013912e-04
  +4.70000000000000040142e-04
  +4.80000000000000066371e-04
  +4.90000000000000092600e-04
  +5.00000000000000010408e-04
  +5.10000000000000036637e-04
  +5.20000000000000062866e-04
  +5.30000000000000089095e-04
  +5.40000000000000006904e-04
  +5.50000000000000033133e-04
  +5.60000000000000059362e-04
  +5.70000000000000085591e-04
  +5.80000000000000003400e-04
  +5.90000000000000029629e-04
  +6.00000000000000055858e-04
  +6.10000000000000082087e-04
  +6.19999999999999999896e-04
  +6.30000000000000026125e-04
  +6.40000000000000052354e-04
  +6.50000000000000078583e-04
  +6.60000000000000104812e-04
  +6.70000000000000022621e-04
  +6.80000000000000048850e-04
  +6.90000000000000075079e-04
  +7.00000000000000101308e-04
  +7.10000000000000019117e-04
  +7.20000000000000045346e-04
  +7.30000000000000071575e-04
  +7.40000000000000097804e-04
  +7.50000000000000015613e-04
  +7.60000000000000041842e-04
  +7.70000000000000068071e-04
  +7.80000000000000094300e-04
  +7.90000000000000012108e-04
  +8.00000000000000038337e-04
  +8.10000000000000064566e-04
  +8.20000000000000090795e-04
  +8.30000000000000117024e-04
  +8.40000000000000034833e-04
  +8.50000000000000061062e-04
  +8.60000000000000087291e-04
  +8.70000000000000113520e-04
  +8.80000000000000031329e-04
  +8.90000000000000057558e-04
  +9.00000000000000083787e-04
  +9.10000000000000110016e-04
  +9.20000000000000027825e-04
  +9.30000000000000054054e-04
  +9.40000000000000080283e-04
  +9.50000000000000106512e-04
  +9.60000000000000132741e-04
  +9.70000000000000050550e-04
  +9.80000000000000185199e-04
  +9.89999999999999994588e-04
  +1.00000000000000002082e-03
  +1.01000000000000004705e-03
  +1.02000000000000007327e-03
  +1.03000000000000009950e-03
  +1.04000000000000012573e-03
  +1.05000000000000015196e-03
  +1.06000000000000017819e-03
  +1.06999999999999998758e-03
  +1.08000000000000001381e-03
  +1.09000000000000004004e-03
  +1.10000000000000006627e-03
  +1.11000000000000009250e-03
  +1.12000000000000011872e-03
  +1.13000000000000014495e-03
  +1.14000000000000017118e-03
  +1.15000000000000019741e-03
  +1.16000000000000000680e-03
  +1.17000000000000003303e-03
  +1.18000000000000005926e-03
  +1.19000000000000008549e-03
  +1.20000000000000011172e-03
  +1.21000000000000013795e-03
  +1.22000000000000016417e-03
  +1.23000000000000019040e-03
  +1.23999999999999999979e-03
  +1.25000000000000002602e-03
  +1.26000000000000005225e-03
  +1.27000000000000007848e-03
  +1.28000000000000010471e-03
  +1.29000000000000013094e-03
  +1.30000000000000015717e-03
  +1.31000000000000018339e-03
  +1.32000000000000020962e-03
  +1.33000000000000001901e-03
  +1.34000000000000004524e-03
  +1.35000000000000007147e-03
  +1.36000000000000009770e-03
  +1.37000000000000012393e-03
  +1.38000000000000015016e-03
  +1.39000000000000017639e-03
  +1.40000000000000020262e-03
  +1.41000000000000001200e-03
  +1.42000000000000003823e-03
  +1.43000000000000006446e-03
  +1.44000000000000009069e-03
  +1.45000000000000011692e-03
  +1.46000000000000014315e-03
  +1.47000000000000016938e-03
  +1.48000000000000019561e-03
  +1.49000000000000022184e-03
  +1.50000000000000003123e-03
  +1.51000000000000005745e-03
  +1.52000000000000008368e-03
  +1.53000000000000010991e-03
  +1.54000000000000013614e-03
  +1.55000000000000016237e-03
  +1.56000000000000018860e-03
  +1.57000000000000021483e-03
  +1.58000000000000002422e-03
  +1.59000000000000005045e-03
  +1.60000000000000007667e-03
  +1.61000000000000010290e-03
  +1.62000000000000012913e-03
  +1.63000000000000015536e-03
  +1.64000000000000018159e-03
  +1.65000000000000020782e-03
  +1.66000000000000023405e-03
  +1.67000000000000004344e-03
  +1.68000000000000006967e-03
  +1.69000000000000009590e-03
  +1.70000000000000012212e-03
  +1.71000000000000014835e-03
  +1.72000000000000017458e-03
  +1.73000000000000020081e-03
  +1.74000000000000022704e-03
  +1.75000000000000003643e-03
  +1.76000000000000006266e-03
  +1.77000000000000008889e-03
  +1.78000000000000011512e-03
  +1.79000000000000014135e-03
  +1.80000000000000016757e-03
  +1.81000000000000019380e-03
  +1.82000000000000022003e-03
  +1.83000000000000024626e-03
  +1.84000000000000005565e-03
  +1.85000000000000008188e-03
  +1.86000000000000010811e-03
  +1.87000000000000013434e-03
  +1.88000000000000016057e-03
  +1.89000000000000018680e-03
  +1.90000000000000021302e-03
  +1.91000000000000023925e-03
  +1.92000000000000026548e-03
  +1.93000000000000007487e-03
  +1.94000000000000010110e-03
  +1.95000000000000012733e-03
  +1.96000000000000037040e-03
  +1.96999999999999996295e-03
  +1.97999999999999998918e-03
  +1.99000000000000001540e-03
  +2.00000000000000004163e-03
</indep>
<indep acfrequency 71>
  +1.00000000000000000000e+00
  +1.25892541179416728170e+00
  +1.58489319246111359796e+00
  +1.99526231496887973549e+00
  +2.51188643150958013095e+00
  +3.16227766016837952279e+00
  +3.98107170553497269339e+00
  +5.01187233627272377134e+00
  +6.30957344480193338399e+00
  +7.94328234724281756485e+00
  +1.00000000000000017764e+01
  +1.25892541179416745933e+01
  +1.58489319246111364237e+01
  +1.99526231496887973549e+01
  +2.51188643150958093031e+01
  +3.16227766016838032215e+01
  +3.98107170553497340393e+01
  +5.01187233627272377134e+01
  +6.30957344480193640379e+01
  +7.94328234724281969648e+01
  +1.00000000000000042633e+02
  +1.25892541179416767250e+02
  +1.58489319246111392658e+02
  +1.99526231496888016181e+02
  +2.51188643150958057504e+02
  +3.16227766016837961160e+02
  +3.98107170553497269339e+02
  +5.01187233627272689773e+02
  +6.30957344480193796699e+02
  +7.94328234724282083334e+02
  +1.00000000000000068212e+03
  +1.25892541179416798514e+03
  +1.58489319246111426764e+03
  +1.99526231496888044603e+03
  +2.51188643150958114347e+03
  +3.16227766016838040741e+03
  +3.98107170553497689980e+03
  +5.01187233627272416925e+03
  +6.30957344480193842173e+03
  +7.94328234724281537638e+03
  +1.00000000000000090949e+04
  +1.25892541179416712112e+04
  +1.58489319246111463144e+04
  +1.99526231496888285619e+04
  +2.51188643150958159822e+04
  +3.16227766016838395444e+04
  +3.98107170553497417131e+04
  +5.01187233627272944432e+04
  +6.30957344480193423806e+04
  +7.94328234724282374373e+04
  +1.00000000000000014552e+05
  +1.25892541179416846717e+05
  +1.58489319246111350367e+05
  +1.99526231496888125548e+05
  +2.51188643150958436308e+05
  +3.16227766016838198993e+05
  +3.98107170553497853689e+05
  +5.01187233627272595186e+05
  +6.30957344480194151402e+05
  +7.94328234724281937815e+05
  +1.00000000000000128057e+06
  +1.25892541179416771047e+06
  +1.58489319246111530811e+06
  +1.99526231496888003312e+06
  +2.51188643150958279148e+06
  +3.16227766016838513315e+06
  +3.98107170553497597575e+06
  +5.01187233627273142338e+06
  +6.30957344480193778872e+06
  +7.94328234724282752723e+06
  +1.00000000000000055879e+07
</indep>
<dep Av acfrequency>
  -5.89977726327106655191e-01-j1.44653477553791565136e+00
  -8.63056764594805070345e-01-j1.68086418605126586279e+00
  -1.21908765714101763322e+00-j1.88594141278500404546e+00
  -1.64804938189141214622e+00-j2.02517931845799825652e+00
  -2.11835804018492623868e+00-j2.06772428467219970827e+00
  -2.58354663535212392134e+00-j2.00313199744960535043e+00
  -2.99909315458983050107e+00-j1.84706942120068728919e+00
  -3.33783444323704214796e+00-j1.63289423136918343538e+00
  -3.59395904972603652539e+00-j1.39658182955067822206e+00
  -3.77681638376469486218e+00-j1.16578680193498906981e+00
  -3.90208312397941670113e+00-j9.56730853222052091134e-01
  -3.98548799398903019764e+00-j7.76202018920584269068e-01
  -4.03997253615961149364e+00-j6.24987995288940334504e-01
  -4.07512311936639193277e+00-j5.00765034504840111929e-01
  -4.09761809886436889627e+00-j3.99967535348326852507e-01
  -4.11193970100503047860e+00-j3.18815919939482272927e-01
  -4.12102764523529074836e+00-j2.53804191281338631381e-01
  -4.12678244862408849514e+00-j2.01885364300954744943e-01
  -4.13042176123935611542e+00-j1.60504665217227393548e-01
  -4.13272131680632437423e+00-j1.27564367065061357032e-01
  -4.13417355619899407060e+00-j1.01363584536697942662e-01
  -4.13509038257564753849e+00-j8.05338121985322008545e-02
  -4.13566907017288354353e+00-j6.39792322112099770548e-02
  -4.13603428070843115449e+00-j5.08249971213848850127e-02
  -4.13626474616814387986e+00-j4.03739781851252116374e-02
  -4.13641017325815329997e+00-j3.20713163306523482698e-02
  -4.13650193681048605754e+00-j2.54757146587120189563e-02
  -4.13655983779269487144e+00-j2.02363594647765598911e-02
  -4.13659637167670979352e+00-j1.60744495739166617931e-02
  -4.13661942333119636572e+00-j1.27684551654317617747e-02
  -4.13663396807408911826e+00-j1.01423736396262110376e-02
  -4.13664314523906639920e+00-j8.05638347252415204514e-03
  -4.13664893565966362843e+00-j6.39941155992737424618e-03
  -4.13665258917640787928e+00-j5.08322486078079983918e-03
  -4.13665489439295086527e+00-j4.03773501963167972401e-03
  -4.13665634888758138032e+00-j3.20726758695508889010e-03
  -4.13665726661217636462e+00-j2.54759799412003279037e-03
  -4.13665784565745919821e+00-j2.02359685605800910385e-03
  -4.13665821101041597530e+00-j1.60735941501730377097e-03
  -4.13665844153257911131e+00-j1.27671961651364867033e-03
  -4.13665858698224386814e+00-j1.01406973925405536133e-03
  -4.13665867875478010518e+00-j8.05422746411278895652e-04
  -4.13665873665933503389e+00-j6.39667438260483906670e-04
  -4.13665877319463159978e+00-j5.07976746968434632670e-04
  -4.13665879624683618943e+00-j4.03337666397106094172e-04
  -4.13665881079177655266e+00-j3.20177785634660836810e-04
  -4.13665881996898843198e+00-j2.54068538636938417823e-04
  -4.13665882575937526866e+00-j2.01489367358968204718e-04
  -4.13665882941279772211e+00-j1.59640239412911814302e-04
  -4.13665883171784631855e+00-j1.26292536239092209518e-04
  -4.13665883317206883873e+00-j9.96703710941510402730e-05
  -4.13665883408935908250e+00-j7.83560166327978475541e-05
  -4.13665883466771511223e+00-j6.12144057702584720769e-05
  -4.13665883503197573390e+00-j4.73326852276579877776e-05
  -4.13665883526076516574e+00-j3.59716027695394395319e-05
  -4.13665883540347056879e+00-j2.65261393283092927677e-05
  -4.13665883549089219429e+00-j1.84932895335178586573e-05
  -4.13665883554190205729e+00-j1.14452748420883170910e-05
  -4.13665883556750824113e+00-j5.00676277120873667930e-06
  -4.13665883557323965647e+00+j1.16512092492356847205e-06
  -4.13665883556033442403e+00+j7.39905155892691901117e-06
  -4.13665883552600455175e+00+j1.40270086691083030282e-05
  -4.13665883546283996708e+00+j2.14019551404002642903e-05
  -4.13665883535720979580e+00+j2.99166337649929929001e-05
  -4.13665883518630828064e+00+j4.00244822280215677254e-05
  -4.13665883491325203636e+00+j5.22637803174912229519e-05
  -4.13665883447909710213e+00+j6.72863152852863963651e-05
  -4.13665883379013532561e+00+j8.58920918939930764548e-05
  -4.13665883269765100039e+00+j1.09071935585553324972e-04
  -4.13665883096583186784e+00+j1.38060257544754582185e-04
  -4.13665882822086228288e+00+j1.74400791587425637317e-04
</dep>
<dep Pr1.It time>
  +2.48873745769669085792e-03
  +2.51474939567686338673e-03
  +2.54073313643037425671e-03
  +2.56658421021579768659e-03
  +2.59219780445828044957e-03
  +2.61746922737895581362e-03
  +2.64229438502914821402e-03
  +2.66657026630434538031e-03
  +2.69019543276934752773e-03
  +2.71307050994549743897e-03
  +2.73509867664351860247e-03
  +2.75618614889492795014e-03
  +2.77624265503918950249e-03
  +2.79518189856230387172e-03
  +2.81292200535320511059e-03
  +2.82938595214491783042e-03
  +2.84450197303676632563e-03
  +2.85820394114912404437e-03
  +2.87043172264121347267e-03
  +2.88113150052368965220e-03
  +2.89025606591784400140e-03
  +2.89776507465131947724e-03
  +2.90362526733287931377e-03
  +2.90781065131497616638e-03
  +2.91030264322932096313e-03
  +2.91109017106682766221e-03
  +2.91016973506528359161e-03
  +2.90754542696592581733e-03
  +2.90322890750004418067e-03
  +2.89723934226785275262e-03
  +2.88960329647205797776e-03
  +2.88035458926554684828e-03
  +2.86953410876453034184e-03
  +2.85718958906385411475e-03
  +2.84337535086688630859e-03
  +2.82815200760764846183e-03
  +2.81158613919454611341e-03
  +2.79374993574150716838e-03
  +2.77472081387143947734e-03
  +2.75458100837608138231e-03
  +2.73341714219389264953e-03
  +2.71131977782069783639e-03
  +2.68838295339497409045e-03
  +2.66470370679812093573e-03
  +2.64038159117820471836e-03
  +2.61551818534141826411e-03
  +2.59021660245736806694e-03
  +2.56458100049065723311e-03
  +2.53871609770099085010e-03
  +2.51272669644685489598e-03
  +2.48671721838289103146e-03
  +2.46079125395915138466e-03
  +2.43505112891247285298e-03
  +2.40959749018743087795e-03
  +2.38452891343967580268e-03
  +2.35994153396062479600e-03
  +2.33592870252387124416e-03
  +2.31258066729493096114e-03
  +2.28998428257256442242e-03
  +2.26822274474895377305e-03
  +2.24737535549342616961e-03
  +2.22751731178911583156e-03
  +2.20871952209089356806e-03
  +2.19104844753451868597e-03
  +2.17456596681981674524e-03
  +2.15932926312177369751e-03
  +2.14539073116040224579e-03
  +2.13279790238951865583e-03
  +2.12159338615081159013e-03
  +2.11181482458705537322e-03
  +2.10349485911897780485e-03
  +2.09666110636460515521e-03
  +2.09133614151622588412e-03
  +2.08753748738517473996e-03
  +2.08527760757321522708e-03
  +2.08456390252414851261e-03
  +2.08539870754156963020e-03
  +2.08777929221936903864e-03
  +2.09169786110846665089e-03
  +2.09714155582603001618e-03
  +2.10409245918962654193e-03
  +2.11252760231735430690e-03
  +2.12241897596481465457e-03
  +2.13373354766147743655e-03
  +2.14643328645332037360e-03
  +2.16047519724949649289e-03
  +2.17581136690226046096e-03
  +2.19238902421879395394e-03
  +2.21015061610922627228e-03
  +2.22903390201773269827e-03
  +2.24897206866529145858e-03
  +2.26989386695764308599e-03
  +2.29172377268500957609e-03
  +2.31438217236832211726e-03
  +2.33778557529633682077e-03
  +2.36184685245798475436e-03
  +2.38647550271170417677e-03
  +2.41157794615724568529e-03
  +2.43705784429285119558e-03
  +2.46281644616003604978e-03
  +2.48875295930578747591e-03
  +2.51476494403451338380e-03
  +2.54074872908535611543e-03
  +2.56659984655880886797e-03
  +2.59221348363415432167e-03
  +2.61748494836922711640e-03
  +2.64231014665890565074e-03
  +2.66658606724931275880e-03
  +2.69021127156325806987e-03
  +2.71308638498760123017e-03
  +2.73511458620631165220e-03
  +2.75620209113193459505e-03
  +2.77625862799284368887e-03
  +2.79519790017188855119e-03
  +2.81293803346277949268e-03
  +2.82940200451129017165e-03
  +2.84451804733740817172e-03
  +2.85822003499007579880e-03
  +2.87044783356494312768e-03
  +2.88114762601690554966e-03
  +2.89027220341926726135e-03
  +2.89778122155938747118e-03
  +2.90364142101344696947e-03
  +2.90782680910891535783e-03
  +2.91031880246015806427e-03
  +2.91110632904828395620e-03
  +2.91018588910884863988e-03
  +2.90756157438840524138e-03
  +2.90324504563109226513e-03
  +2.89725546845752109440e-03
  +2.88961940809837882979e-03
  +2.88037068374209477908e-03
  +2.86955018354807193243e-03
  +2.85720564166198637973e-03
  +2.84339137884572629167e-03
  +2.82816800859955882683e-03
  +2.81160211090587417934e-03
  +2.79376587596040677763e-03
  +2.77473672047561913806e-03
  +2.75459687934066256576e-03
  +2.73343297559915619777e-03
  +2.71133557185986029392e-03
  +2.68839870638188727439e-03
  +2.66471941717489084131e-03
  +2.64039725752265299827e-03
  +2.61553380637440189421e-03
  +2.59023217704988650834e-03
  +2.56459652767068333953e-03
  +2.53873157665999386184e-03
  +2.51274212654598472910e-03
  +2.48673259915862003219e-03
  +2.46080658512852880684e-03
  +2.43506641037771840580e-03
  +2.40961272203992458996e-03
  +2.38454409596321713349e-03
  +2.35995666763387642803e-03
  +2.33594378802198451850e-03
  +2.31259570549019466412e-03
  +2.28999927453408863229e-03
  +2.26823769174126776971e-03
  +2.24739025897399604531e-03
  +2.22753217340470981156e-03
  +2.20873434367274603524e-03
  +2.19106323109230028204e-03
  +2.17458071453439016549e-03
  +2.15934397733673301076e-03
  +2.14540541437244344433e-03
  +2.13281255723763232823e-03
  +2.12160801540438532023e-03
  +2.11182943113293270301e-03
  +2.10350944594757307410e-03
  +2.09667567655516052030e-03
  +2.09135069822128771139e-03
  +2.08755203381448539712e-03
  +2.08529214697711394802e-03
  +2.08457843817656937255e-03
  +2.08541324272288643160e-03
  +2.08779383019913914940e-03
  +2.09171240512831362046e-03
  +2.09715610908274043001e-03
  +2.10410702481865323488e-03
  +2.11254218337682741699e-03
  +2.12243357542022401466e-03
  +2.13374816837114946941e-03
  +2.14644793115475107301e-03
  +2.16048986854670312108e-03
  +2.17582606725414242146e-03
  +2.19240375592864595450e-03
  +2.21016538131543760493e-03
  +2.22904870268562536537e-03
  +2.24898690658025023417e-03
  +2.26990874371940697454e-03
  +2.29173868970321357313e-03
  +2.31439713085917347923e-03
  +2.33780057628047441623e-03
  +2.36186189675942782157e-03
  +2.38649059095786056361e-03
  +2.41159307877985250312e-03
  +2.43707302152989906119e-03
  +2.46283166805853857145e-03
  +2.48876822572526371080e-03
</dep>
<dep V1.It time>
  -2.66417605418791877958e-03
  -2.68984861010455964664e-03
  -2.71549436046888796603e-03
  -2.74101016942849499275e-03
  -2.76629254753657819951e-03
  -2.79123811016498231050e-03
  -2.81574404937868279925e-03
  -2.83970861387444848539e-03
  -2.86303159383413316497e-03
  -2.88561480736311158288e-03
  -2.90736258511653739359e-03
  -2.92818224968494902546e-03
  -2.94798458631434197666e-03
  -2.96668430157363003166e-03
  -2.98420046665233374902e-03
  -3.00045694207106642543e-03
  -3.01538278071583707579e-03
  -3.02891260626142596810e-03
  -3.04098696422708562534e-03
  -3.05155264310800165839e-03
  -3.06056296324492670829e-03
  -3.06797803133130849232e-03
  -3.07376495870869499358e-03
  -3.07789804186619228923e-03
  -3.08035890383494314129e-03
  -3.08113659545350762614e-03
  -3.08022765577070818666e-03
  -3.07763613114903945844e-03
  -3.07337355293035808732e-03
  -3.06745887382539519223e-03
  -3.05991836348750486513e-03
  -3.05078546402674658303e-03
  -3.04010060651104755541e-03
  -3.02791098978527281615e-03
  -3.01427032321350011831e-03
  -2.99923853521382854231e-03
  -2.98288144970555290508e-03
  -2.96527043282384696055e-03
  -2.94648201247508763692e-03
  -2.92659747350406404878e-03
  -2.90570243142087561092e-03
  -2.88388638778743411004e-03
  -2.86124227048977289312e-03
  -2.83786596221997748646e-03
  -2.81385582055893165507e-03
  -2.78931219308613731131e-03
  -2.76433693094408879445e-03
  -2.73903290425050191872e-03
  -2.71350352268096180197e-03
  -2.68785226443698545273e-03
  -2.66218221666923932425e-03
