<Qucs Dataset 0.0.21>
<indep time 209>
0.000000000000e+00
9.950250000000e-08
1.990050000000e-07
3.980100000000e-07
7.960200000000e-07
1.592040000000e-06
3.184080000000e-06
6.368160000000e-06
1.273632000000e-05
2.268657000000e-05
3.263682000000e-05
4.258707000000e-05
5.253732000000e-05
6.248757000000e-05
7.243782000000e-05
8.238807000000e-05
9.233832000000e-05
1.022885700000e-04
1.122388200000e-04
1.221890700000e-04
1.321393200000e-04
1.420895700000e-04
1.520398200000e-04
1.619900700000e-04
1.719403200000e-04
1.818905700000e-04
1.918408200000e-04
2.017910700000e-04
2.117413200000e-04
2.216915700000e-04
2.316418200000e-04
2.415920700000e-04
2.515423200000e-04
2.614925700000e-04
2.714428200000e-04
2.813930700000e-04
2.913433200000e-04
3.012935700000e-04
3.112438200000e-04
3.211940700000e-04
3.311443200000e-04
3.410945700000e-04
3.510448200000e-04
3.609950700000e-04
3.709453200000e-04
3.808955700000e-04
3.908458200000e-04
4.007960700000e-04
4.107463200000e-04
4.206965700000e-04
4.306468200000e-04
4.405970700000e-04
4.505473200000e-04
4.604975700000e-04
4.704478200000e-04
4.803980700000e-04
4.903483200000e-04
5.002985700000e-04
5.102488200000e-04
5.201990700000e-04
5.301493200000e-04
5.400995700000e-04
5.500498200000e-04
5.600000700000e-04
5.699503200000e-04
5.799005700000e-04
5.898508200000e-04
5.998010700000e-04
6.097513200000e-04
6.197015700000e-04
6.296518200000e-04
6.396020700000e-04
6.495523200000e-04
6.595025700000e-04
6.694528200000e-04
6.794030700000e-04
6.893533200000e-04
6.993035700000e-04
7.092538200000e-04
7.192040700000e-04
7.291543200000e-04
7.391045700000e-04
7.490548200000e-04
7.590050700000e-04
7.689553200000e-04
7.789055700000e-04
7.888558200000e-04
7.988060700000e-04
8.087563200000e-04
8.187065700000e-04
8.286568200000e-04
8.386070700000e-04
8.485573200000e-04
8.585075700000e-04
8.684578200000e-04
8.784080700000e-04
8.883583200000e-04
8.983085700000e-04
9.082588200000e-04
9.182090700000e-04
9.281593200000e-04
9.381095700000e-04
9.480598200000e-04
9.580100700000e-04
9.679603200000e-04
9.779105700000e-04
9.878608200000e-04
9.978110700000e-04
1.007761320000e-03
1.017711570000e-03
1.027661820000e-03
1.037612070000e-03
1.047562320000e-03
1.057512570000e-03
1.067462820000e-03
1.077413070000e-03
1.087363320000e-03
1.097313570000e-03
1.107263820000e-03
1.117214070000e-03
1.127164320000e-03
1.137114570000e-03
1.147064820000e-03
1.157015070000e-03
1.166965320000e-03
1.176915570000e-03
1.186865820000e-03
1.196816070000e-03
1.206766320000e-03
1.216716570000e-03
1.226666820000e-03
1.236617070000e-03
1.246567320000e-03
1.256517570000e-03
1.266467820000e-03
1.276418070000e-03
1.286368320000e-03
1.296318570000e-03
1.306268820000e-03
1.316219070000e-03
1.326169320000e-03
1.336119570000e-03
1.346069820000e-03
1.356020070000e-03
1.365970320000e-03
1.375920570000e-03
1.385870820000e-03
1.395821070000e-03
1.405771320000e-03
1.415721570000e-03
1.425671820000e-03
1.435622070000e-03
1.445572320000e-03
1.455522570000e-03
1.465472820000e-03
1.475423070000e-03
1.485373320000e-03
1.495323570000e-03
1.505273820000e-03
1.515224070000e-03
1.525174320000e-03
1.535124570000e-03
1.545074820000e-03
1.555025070000e-03
1.564975320000e-03
1.574925570000e-03
1.584875820000e-03
1.594826070000e-03
1.604776320000e-03
1.614726570000e-03
1.624676820000e-03
1.634627070000e-03
1.644577320000e-03
1.654527570000e-03
1.664477820000e-03
1.674428070000e-03
1.684378320000e-03
1.694328570000e-03
1.704278820000e-03
1.714229070000e-03
1.724179320000e-03
1.734129570000e-03
1.744079820000e-03
1.754030070000e-03
1.763980320000e-03
1.773930570000e-03
1.783880820000e-03
1.793831070000e-03
1.803781320000e-03
1.813731570000e-03
1.823681820000e-03
1.833632070000e-03
1.843582320000e-03
1.853532570000e-03
1.863482820000e-03
1.873433070000e-03
1.883383320000e-03
1.893333570000e-03
1.903283820000e-03
1.913234070000e-03
1.923184320000e-03
1.933134570000e-03
1.943084820000e-03
1.953035070000e-03
1.962985320000e-03
1.972935570000e-03
1.982885820000e-03
1.992836070000e-03
2.000000000000e-03
</indep>
<dep tran.i(pr1) time>
6.177022060672e-03
6.177130560915e-03
6.177236530523e-03
6.177448471634e-03
6.177872353197e-03
6.178720104418e-03
6.180415485012e-03
6.183805164982e-03
6.190575451499e-03
6.201107660138e-03
6.211547102775e-03
6.221852941732e-03
6.231984846825e-03
6.241903153969e-03
6.251569021361e-03
6.260944582634e-03
6.269993096361e-03
6.278679091302e-03
6.286968506798e-03
6.294828827731e-03
6.302229213500e-03
6.309140620484e-03
6.315535917470e-03
6.321389993580e-03
6.326679858239e-03
6.331384732774e-03
6.335486133248e-03
6.338967944194e-03
6.341816482936e-03
6.344020554218e-03
6.345571494922e-03
6.346463208686e-03
6.346692190260e-03
6.346257539520e-03
6.345160965068e-03
6.343406777398e-03
6.341001871670e-03
6.337955700157e-03
6.334280234481e-03
6.329989917799e-03
6.325101607143e-03
6.319634506149e-03
6.313610088472e-03
6.307052012186e-03
6.299986025559e-03
6.292439864565e-03
6.284443142583e-03
6.276027232735e-03
6.267225143352e-03
6.258071387081e-03
6.248601844180e-03
6.238853620558e-03
6.228864901147e-03
6.218674799195e-03
6.208323202110e-03
6.197850614455e-03
6.187297998760e-03
6.176706614744e-03
6.166117857639e-03
6.155573096208e-03
6.145113511142e-03
6.134779934422e-03
6.124612690317e-03
6.114651438594e-03
6.104935020570e-03
6.095501308576e-03
6.086387059417e-03
6.077627772357e-03
6.069257552195e-03
6.061308977898e-03
6.053812977304e-03
6.046798708345e-03
6.040293447212e-03
6.034322483875e-03
6.028909025331e-03
6.024074106913e-03
6.019836511991e-03
6.016212700330e-03
6.013216745369e-03
6.010860280627e-03
6.009152455431e-03
6.008099900114e-03
6.007706700810e-03
6.007974383913e-03
6.008901910285e-03
6.010485679197e-03
6.012719542021e-03
6.015594825605e-03
6.019100365263e-03
6.023222547255e-03
6.027945360622e-03
6.033250458193e-03
6.039117226548e-03
6.045522864694e-03
6.052442471184e-03
6.059849139364e-03
6.067714060412e-03
6.076006633804e-03
6.084694584809e-03
6.093744088581e-03
6.103119900401e-03
6.112785491595e-03
6.122703190618e-03
6.132834328771e-03
6.143139390027e-03
6.153578164375e-03
6.164109904113e-03
6.174693482480e-03
6.185287554028e-03
6.195850716092e-03
6.206341670749e-03
6.216719386601e-03
6.226943259774e-03
6.236973273455e-03
6.246770155363e-03
6.256295532491e-03
6.265512082524e-03
6.274383681276e-03
6.282875545594e-03
6.290954371098e-03
6.298588464225e-03
6.305747868004e-03
6.312404481074e-03
6.318532169409e-03
6.324106870328e-03
6.329106688325e-03
6.333511982329e-03
6.337305444033e-03
6.340472166957e-03
6.342999705950e-03
6.344878126896e-03
6.346100046398e-03
6.346660661282e-03
6.346557767793e-03
6.345791770405e-03
6.344365680202e-03
6.342285102847e-03
6.339558216171e-03
6.336195737510e-03
6.332210880878e-03
6.327619304217e-03
6.322439046887e-03
6.316690457707e-03
6.310396113816e-03
6.303580730717e-03
6.296271063865e-03
6.288495802219e-03
6.280285454200e-03
6.271672226533e-03
6.262689896462e-03
6.253373677889e-03
6.243760081961e-03
6.233886772711e-03
6.223792418309e-03
6.213516538554e-03
6.203099349218e-03
6.192581603865e-03
6.182004433792e-03
6.171409186720e-03
6.160837264884e-03
6.150329963165e-03
6.139928307886e-03
6.129672896917e-03
6.119603741702e-03
6.109760111818e-03
6.100180382656e-03
6.090901886818e-03
6.081960769767e-03
6.073391850300e-03
6.065228486330e-03
6.057502446506e-03
6.050243788113e-03
6.043480741717e-03
6.037239602960e-03
6.031544631897e-03
6.026417960234e-03
6.021879506797e-03
6.017946901528e-03
6.014635418274e-03
6.011957916602e-03
6.009924792850e-03
6.008543940570e-03
6.007820720511e-03
6.007757940239e-03
6.008355843466e-03
6.009612109122e-03
6.011521860181e-03
6.014077682194e-03
6.017269651492e-03
6.021085372931e-03
6.025510027076e-03
6.030526426641e-03
6.036115082007e-03
6.042254275569e-03
6.048920144677e-03
6.056086772853e-03
6.063726288982e-03
6.071808974111e-03
6.080303375485e-03
6.089176427385e-03
6.098393578366e-03
6.107918924392e-03
6.117715347400e-03
6.127744658770e-03
6.137967747169e-03
6.148344730201e-03
6.158835109308e-03
6.169397927299e-03
6.177024589636e-03
</dep>
<dep tran.v(vin) time>
5.000000000000e+00
5.000062519261e+00
5.000125038497e+00
5.000250076798e+00
5.000500152032e+00
5.001000291552e+00
5.002000483013e+00
5.004000165367e+00
5.007993927377e+00
5.014206169394e+00
5.020362902430e+00
5.026440069758e+00
5.032413925540e+00
5.038261127621e+00
5.043958828728e+00
5.049484765745e+00
5.054817346707e+00
5.059935735165e+00
5.064819931602e+00
5.069450851579e+00
5.073810400307e+00
5.077881543349e+00
5.081648373180e+00
5.085096171343e+00
5.088211465961e+00
5.090982084379e+00
5.093397200721e+00
5.095447378198e+00
5.097124605975e+00
5.098422330477e+00
5.099335480994e+00
5.099860489496e+00
5.099995304571e+00
5.099739399444e+00
5.099093774037e+00
5.098060951057e+00
5.096644966140e+00
5.094851352086e+00
5.092687117236e+00
5.090160718090e+00
5.087282026264e+00
5.084062289916e+00
5.080514089797e+00
5.076651290093e+00
5.072488984251e+00
5.068043436004e+00
5.063332015824e+00
5.058373133045e+00
5.053186163933e+00
5.047791375977e+00
5.042209848693e+00
5.036463391258e+00
5.030574457299e+00
5.024566057148e+00
5.018461667943e+00
5.012285141885e+00
5.006060613041e+00
4.999812403046e+00
4.993564926065e+00
4.987342593398e+00
4.981169718098e+00
4.975070419968e+00
4.969068531317e+00
4.963187503838e+00
4.957450316971e+00
4.951879388118e+00
4.946496485045e+00
4.941322640830e+00
4.936378071675e+00
4.931682097920e+00
4.927253068543e+00
4.923108289469e+00
4.919263955949e+00
4.915735089274e+00
4.912535478088e+00
4.909677624505e+00
4.907172695261e+00
4.905030478078e+00
4.903259343427e+00
4.901866211812e+00
4.900856526736e+00
4.900234233428e+00
4.900001763427e+00
4.900160025084e+00
4.900708400009e+00
4.901644745489e+00
4.902965402863e+00
4.904665211813e+00
4.906737530529e+00
4.909174261665e+00
4.911965883971e+00
4.915101489504e+00
4.918568826244e+00
4.922354345970e+00
4.926443257197e+00
4.930819582972e+00
4.935466223304e+00
4.940365021978e+00
4.945496837500e+00
4.950841617887e+00
4.956378479022e+00
4.962085786255e+00
4.967941238936e+00
4.973921957555e+00
4.980004573138e+00
4.986165318561e+00
4.992380121418e+00
4.998624698078e+00
5.004874648572e+00
5.011105551936e+00
5.017293061627e+00
5.023413000660e+00
5.029441456074e+00
5.035354872371e+00
5.041130143553e+00
5.046744703409e+00
5.052176613689e+00
5.057404649827e+00
5.062408383870e+00
5.067168264301e+00
5.071665692430e+00
5.075883095074e+00
5.079803993214e+00
5.083413066390e+00
5.086696212561e+00
5.089640603211e+00
5.092234733469e+00
5.094468467070e+00
5.096333075954e+00
5.097821274375e+00
5.098927247370e+00
5.099646673475e+00
5.099976741616e+00
5.099916162087e+00
5.099465171599e+00
5.098625532343e+00
5.097400525114e+00
5.095794936488e+00
5.093815040118e+00
5.091468572223e+00
5.088764701356e+00
5.085713992585e+00
5.082328366204e+00
5.078621051161e+00
5.074606533364e+00
5.070300499081e+00
5.065719773650e+00
5.060882255729e+00
5.055806847367e+00
5.050513380139e+00
5.045022537664e+00
5.039355774779e+00
5.033535233711e+00
5.027583657557e+00
5.021524301421e+00
5.015380841542e+00
5.009177282786e+00
5.002937864848e+00
4.996686967540e+00
4.990449015527e+00
4.984248382892e+00
4.978109297897e+00
4.972055748313e+00
4.966111387693e+00
4.960299442944e+00
4.954642623576e+00
4.949163032961e+00
4.943882081973e+00
4.938820405323e+00
4.933997780933e+00
4.929433052655e+00
4.925144056643e+00
4.921147551656e+00
4.917459153581e+00
4.914093274411e+00
4.911063065933e+00
4.908380368339e+00
4.906055663964e+00
4.904098036323e+00
4.902515134622e+00
4.901313143868e+00
4.900496760704e+00
4.900069175051e+00
4.900032057652e+00
4.900385553540e+00
4.901128281469e+00
4.902257339316e+00
4.903768315415e+00
4.905655305801e+00
4.907910937276e+00
4.910526396216e+00
4.913491463017e+00
4.916794552019e+00
4.920422756780e+00
4.924361900506e+00
4.928596591443e+00
4.933110283021e+00
4.937885338509e+00
4.942903099923e+00
4.948143960935e+00
4.953587443481e+00
4.959212277776e+00
4.964996485425e+00
4.970917465299e+00
4.976952081846e+00
4.983076755494e+00
4.989267554782e+00
4.995500289870e+00
5.000000000000e+00
</dep>
<dep tran.v(vout) time>
3.088511030336e+00
3.088565280457e+00
3.088618265813e+00
3.088724236368e+00
3.088936177150e+00
3.089360052761e+00
3.090207743057e+00
3.091902583042e+00
3.095287726299e+00
3.100553830614e+00
3.105773551926e+00
3.110926471396e+00
3.115992423932e+00
3.120951577492e+00
3.125784511174e+00
3.130472291794e+00
3.134996548639e+00
3.139339546090e+00
3.143484253816e+00
3.147414414259e+00
3.151114607119e+00
3.154570310585e+00
3.157767959051e+00
3.160694997077e+00
3.163339929377e+00
3.165692366613e+00
3.167743066819e+00
3.169483972260e+00
3.170908241598e+00
3.172010277205e+00
3.172785747524e+00
3.173231604372e+00
3.173346095125e+00
3.173128769721e+00
3.172580482461e+00
3.171703388592e+00
3.170500935695e+00
3.168977849906e+00
3.167140117035e+00
3.164994958663e+00
3.162550803305e+00
3.159817252779e+00
3.156805043912e+00
3.153526005742e+00
3.149993012403e+00
3.146219931881e+00
3.142221570867e+00
3.138013615923e+00
3.133612571212e+00
3.129035693059e+00
3.124300921592e+00
3.119426809768e+00
3.114432450050e+00
3.109337399064e+00
3.104161600514e+00
3.098925306681e+00
3.093648998830e+00
3.088353306821e+00
3.083058928268e+00
3.077786547556e+00
3.072556755028e+00
3.067389966675e+00
3.062306344632e+00
3.057325718782e+00
3.052467509783e+00
3.047750653802e+00
3.043193529239e+00
3.038813885729e+00
3.034628775669e+00
3.030654488543e+00
3.026906488270e+00
3.023399353817e+00
3.020146723277e+00
3.017161241638e+00
3.014454512395e+00
3.012037053217e+00
3.009918255788e+00
3.008106349990e+00
3.006608372543e+00
3.005430140206e+00
3.004576227642e+00
3.004049950019e+00
3.003853350402e+00
3.003987191988e+00
3.004450955209e+00
3.005242839699e+00
3.006359771145e+00
3.007797412971e+00
3.009550182833e+00
3.011611273861e+00
3.013972680575e+00
3.016625229391e+00
3.019558613597e+00
3.022761432698e+00
3.026221235969e+00
3.029924570084e+00
3.033857030630e+00
3.038003317348e+00
3.042347292870e+00
3.046872044773e+00
3.051559950699e+00
3.056392746311e+00
3.061351595833e+00
3.066417164920e+00
3.071569695555e+00
3.076789082735e+00
3.082054952607e+00
3.087346741792e+00
3.092643777565e+00
3.097925358594e+00
3.103170835916e+00
3.108359693836e+00
3.113471630413e+00
3.118486637242e+00
3.123385078182e+00
3.128147766731e+00
3.132756041730e+00
3.137191841087e+00
3.141437773225e+00
3.145477185955e+00
3.149294232494e+00
3.152873934358e+00
3.156202240866e+00
3.159266085006e+00
3.162053435436e+00
3.164553344404e+00
3.166755991375e+00
3.168652722196e+00
3.170236083625e+00
3.171499853088e+00
3.172439063528e+00
3.173050023245e+00
3.173330330653e+00
3.173278883874e+00
3.172895885146e+00
3.172182840011e+00
3.171142551300e+00
3.169779107929e+00
3.168097868566e+00
3.166105440218e+00
3.163809651857e+00
3.161219523162e+00
3.158345228543e+00
3.155198056570e+00
3.151790364994e+00
3.148135531543e+00
3.144247900697e+00
3.140142726665e+00
3.135836112812e+00
3.131344947758e+00
3.126686838454e+00
3.121880040476e+00
3.116943385838e+00
3.111896208626e+00
3.106758268740e+00
3.101549674065e+00
3.096290801384e+00
3.091002216345e+00
3.085704592808e+00
3.080418631892e+00
3.075164981037e+00
3.069964153403e+00
3.064836447927e+00
3.059801870330e+00
3.054880055400e+00
3.050090190834e+00
3.045450942931e+00
3.040980384424e+00
3.036695924711e+00
3.032614242748e+00
3.028751222859e+00
3.025121893687e+00
3.021740370516e+00
3.018619801166e+00
3.015772315663e+00
3.013208979862e+00
3.010939753175e+00
3.008973450573e+00
3.007317708979e+00
3.005978958177e+00
3.004962396335e+00
3.004271970230e+00
3.003910360235e+00
3.003878970134e+00
3.004177921782e+00
3.004806054645e+00
3.005760930208e+00
3.007038841249e+00
3.008634825931e+00
3.010542686683e+00
3.012755013787e+00
3.015263213600e+00
3.018057541312e+00
3.021127138122e+00
3.024460072703e+00
3.028043386816e+00
3.031863144904e+00
3.035904487491e+00
3.040151688198e+00
3.044588214167e+00
3.049196789674e+00
3.053959462702e+00
3.058857674219e+00
3.063872329915e+00
3.068983874123e+00
3.074172365646e+00
3.079417555203e+00
3.084698964201e+00
3.088512295369e+00
</dep>
<indep frequency 78>
1.000000000000e+00
1.232846739442e+00
1.519911082953e+00
1.873817422860e+00
2.310129700083e+00
2.848035868436e+00
3.511191734215e+00
4.328761281083e+00
5.336699231206e+00
6.579332246576e+00
8.111308307897e+00
1.000000000000e+01
1.232846739442e+01
1.519911082953e+01
1.873817422860e+01
2.310129700083e+01
2.848035868436e+01
3.511191734215e+01
4.328761281083e+01
5.336699231206e+01
6.579332246576e+01
8.111308307897e+01
1.000000000000e+02
1.232846739442e+02
1.519911082953e+02
1.873817422860e+02
2.310129700083e+02
2.848035868436e+02
3.511191734215e+02
4.328761281083e+02
5.336699231206e+02
6.579332246576e+02
8.111308307897e+02
1.000000000000e+03
1.232846739442e+03
1.519911082953e+03
1.873817422860e+03
2.310129700083e+03
2.848035868436e+03
3.511191734215e+03
4.328761281083e+03
5.336699231206e+03
6.579332246576e+03
8.111308307897e+03
1.000000000000e+04
1.232846739442e+04
1.519911082953e+04
1.873817422860e+04
2.310129700083e+04
2.848035868436e+04
3.511191734215e+04
4.328761281083e+04
5.336699231206e+04
6.579332246576e+04
8.111308307897e+04
1.000000000000e+05
1.232846739442e+05
1.519911082953e+05
1.873817422860e+05
2.310129700083e+05
2.848035868436e+05
3.511191734215e+05
4.328761281083e+05
5.336699231206e+05
6.579332246576e+05
8.111308307897e+05
1.000000000000e+06
1.232846739442e+06
1.519911082953e+06
1.873817422860e+06
2.310129700083e+06
2.848035868436e+06
3.511191734215e+06
4.328761281083e+06
5.336699231206e+06
6.579332246576e+06
8.111308307897e+06
1.000000000000e+07
</indep>
<dep ac.i(pr1) frequency>
1.695003153346e-04-j9.347148579669e-16
1.695003153346e-04-j1.152360164953e-15
1.695003153346e-04-j1.420683472025e-15
1.695003153346e-04-j1.751484986265e-15
1.695003153346e-04-j2.159312554498e-15
1.695003153346e-04-j2.662101442250e-15
1.695003153346e-04-j3.281963083142e-15
1.695003153346e-04-j4.046157486020e-15
1.695003153346e-04-j4.988292063909e-15
1.695003153346e-04-j6.149799606375e-15
1.695003153346e-04-j7.581760392942e-15
1.695003153346e-04-j9.347148579669e-15
1.695003153346e-04-j1.152360164953e-14
1.695003153346e-04-j1.420683472025e-14
1.695003153346e-04-j1.751484986265e-14
1.695003153346e-04-j2.159312554498e-14
1.695003153346e-04-j2.662101442250e-14
1.695003153346e-04-j3.281963083142e-14
1.695003153346e-04-j4.046157486020e-14
1.695003153346e-04-j4.988292063909e-14
1.695003153346e-04-j6.149799606375e-14
1.695003153346e-04-j7.581760392942e-14
1.695003153346e-04-j9.347148579669e-14
1.695003153346e-04-j1.152360164953e-13
1.695003153346e-04-j1.420683472025e-13
1.695003153346e-04-j1.751484986265e-13
1.695003153346e-04-j2.159312554498e-13
1.695003153346e-04-j2.662101442250e-13
1.695003153346e-04-j3.281963083142e-13
1.695003153346e-04-j4.046157486020e-13
1.695003153346e-04-j4.988292063909e-13
1.695003153346e-04-j6.149799606375e-13
1.695003153346e-04-j7.581760392942e-13
1.695003153346e-04-j9.347148579669e-13
1.695003153346e-04-j1.152360164953e-12
1.695003153346e-04-j1.420683472025e-12
1.695003153346e-04-j1.751484986265e-12
1.695003153346e-04-j2.159312554498e-12
1.695003153346e-04-j2.662101442250e-12
1.695003153346e-04-j3.281963083142e-12
1.695003153346e-04-j4.046157486020e-12
1.695003153346e-04-j4.988292063909e-12
1.695003153346e-04-j6.149799606375e-12
1.695003153346e-04-j7.581760392942e-12
1.695003153346e-04-j9.347148579669e-12
1.695003153346e-04-j1.152360164953e-11
1.695003153346e-04-j1.420683472025e-11
1.695003153346e-04-j1.751484986265e-11
1.695003153346e-04-j2.159312554498e-11
1.695003153346e-04-j2.662101442250e-11
1.695003153346e-04-j3.281963083141e-11
1.695003153345e-04-j4.046157486020e-11
1.695003153345e-04-j4.988292063909e-11
1.695003153345e-04-j6.149799606374e-11
1.695003153345e-04-j7.581760392940e-11
1.695003153345e-04-j9.347148579666e-11
1.695003153345e-04-j1.152360164952e-10
1.695003153344e-04-j1.420683472024e-10
1.695003153344e-04-j1.751484986263e-10
1.695003153343e-04-j2.159312554495e-10
1.695003153341e-04-j2.662101442243e-10
1.695003153339e-04-j3.281963083129e-10
