<Qucs Dataset 0.0.22>
<indep time 209>
0.000000000000e+00
9.950250000000e-08
1.990050000000e-07
3.980100000000e-07
7.960200000000e-07
1.592040000000e-06
3.184080000000e-06
6.368160000000e-06
1.273632000000e-05
2.268657000000e-05
3.263682000000e-05
4.258707000000e-05
5.253732000000e-05
6.248757000000e-05
7.243782000000e-05
8.238807000000e-05
9.233832000000e-05
1.022885700000e-04
1.122388200000e-04
1.221890700000e-04
1.321393200000e-04
1.420895700000e-04
1.520398200000e-04
1.619900700000e-04
1.719403200000e-04
1.818905700000e-04
1.918408200000e-04
2.017910700000e-04
2.117413200000e-04
2.216915700000e-04
2.316418200000e-04
2.415920700000e-04
2.515423200000e-04
2.614925700000e-04
2.714428200000e-04
2.813930700000e-04
2.913433200000e-04
3.012935700000e-04
3.112438200000e-04
3.211940700000e-04
3.311443200000e-04
3.410945700000e-04
3.510448200000e-04
3.609950700000e-04
3.709453200000e-04
3.808955700000e-04
3.908458200000e-04
4.007960700000e-04
4.107463200000e-04
4.206965700000e-04
4.306468200000e-04
4.405970700000e-04
4.505473200000e-04
4.604975700000e-04
4.704478200000e-04
4.803980700000e-04
4.903483200000e-04
5.002985700000e-04
5.102488200000e-04
5.201990700000e-04
5.301493200000e-04
5.400995700000e-04
5.500498200000e-04
5.600000700000e-04
5.699503200000e-04
5.799005700000e-04
5.898508200000e-04
5.998010700000e-04
6.097513200000e-04
6.197015700000e-04
6.296518200000e-04
6.396020700000e-04
6.495523200000e-04
6.595025700000e-04
6.694528200000e-04
6.794030700000e-04
6.893533200000e-04
6.993035700000e-04
7.092538200000e-04
7.192040700000e-04
7.291543200000e-04
7.391045700000e-04
7.490548200000e-04
7.590050700000e-04
7.689553200000e-04
7.789055700000e-04
7.888558200000e-04
7.988060700000e-04
8.087563200000e-04
8.187065700000e-04
8.286568200000e-04
8.386070700000e-04
8.485573200000e-04
8.585075700000e-04
8.684578200000e-04
8.784080700000e-04
8.883583200000e-04
8.983085700000e-04
9.082588200000e-04
9.182090700000e-04
9.281593200000e-04
9.381095700000e-04
9.480598200000e-04
9.580100700000e-04
9.679603200000e-04
9.779105700000e-04
9.878608200000e-04
9.978110700000e-04
1.007761320000e-03
1.017711570000e-03
1.027661820000e-03
1.037612070000e-03
1.047562320000e-03
1.057512570000e-03
1.067462820000e-03
1.077413070000e-03
1.087363320000e-03
1.097313570000e-03
1.107263820000e-03
1.117214070000e-03
1.127164320000e-03
1.137114570000e-03
1.147064820000e-03
1.157015070000e-03
1.166965320000e-03
1.176915570000e-03
1.186865820000e-03
1.196816070000e-03
1.206766320000e-03
1.216716570000e-03
1.226666820000e-03
1.236617070000e-03
1.246567320000e-03
1.256517570000e-03
1.266467820000e-03
1.276418070000e-03
1.286368320000e-03
1.296318570000e-03
1.306268820000e-03
1.316219070000e-03
1.326169320000e-03
1.336119570000e-03
1.346069820000e-03
1.356020070000e-03
1.365970320000e-03
1.375920570000e-03
1.385870820000e-03
1.395821070000e-03
1.405771320000e-03
1.415721570000e-03
1.425671820000e-03
1.435622070000e-03
1.445572320000e-03
1.455522570000e-03
1.465472820000e-03
1.475423070000e-03
1.485373320000e-03
1.495323570000e-03
1.505273820000e-03
1.515224070000e-03
1.525174320000e-03
1.535124570000e-03
1.545074820000e-03
1.555025070000e-03
1.564975320000e-03
1.574925570000e-03
1.584875820000e-03
1.594826070000e-03
1.604776320000e-03
1.614726570000e-03
1.624676820000e-03
1.634627070000e-03
1.644577320000e-03
1.654527570000e-03
1.664477820000e-03
1.674428070000e-03
1.684378320000e-03
1.694328570000e-03
1.704278820000e-03
1.714229070000e-03
1.724179320000e-03
1.734129570000e-03
1.744079820000e-03
1.754030070000e-03
1.763980320000e-03
1.773930570000e-03
1.783880820000e-03
1.793831070000e-03
1.803781320000e-03
1.813731570000e-03
1.823681820000e-03
1.833632070000e-03
1.843582320000e-03
1.853532570000e-03
1.863482820000e-03
1.873433070000e-03
1.883383320000e-03
1.893333570000e-03
1.903283820000e-03
1.913234070000e-03
1.923184320000e-03
1.933134570000e-03
1.943084820000e-03
1.953035070000e-03
1.962985320000e-03
1.972935570000e-03
1.982885820000e-03
1.992836070000e-03
2.000000000000e-03
</indep>
<dep tran.v(uin) time>
1.000000000000e+00
1.000312596303e+00
1.000625192483e+00
1.001250383989e+00
1.002500760158e+00
1.005001457758e+00
1.010002415066e+00
1.020000826834e+00
1.039969636885e+00
1.071030846968e+00
1.101814512152e+00
1.132200348788e+00
1.162069627702e+00
1.191305638106e+00
1.219794143638e+00
1.247423828725e+00
1.274086733537e+00
1.299678675826e+00
1.324099658009e+00
1.347254257895e+00
1.369052001537e+00
1.389407716747e+00
1.408241865899e+00
1.425480856714e+00
1.441057329807e+00
1.454910421895e+00
1.466986003607e+00
1.477236890989e+00
1.485623029875e+00
1.492111652385e+00
1.496677404971e+00
1.499302447478e+00
1.499976522853e+00
1.498696997222e+00
1.495468870187e+00
1.490304755283e+00
1.483224830699e+00
1.474256760429e+00
1.463435586180e+00
1.450803590452e+00
1.436410131320e+00
1.420311449580e+00
1.402570448985e+00
1.383256450463e+00
1.362444921253e+00
1.340217180021e+00
1.316660079120e+00
1.291865665224e+00
1.265930819667e+00
1.238956879887e+00
1.211049243464e+00
1.182316956292e+00
1.152872286493e+00
1.122830285742e+00
1.092308339715e+00
1.061425709423e+00
1.030303065206e+00
9.990620152316e-01
9.678246303254e-01
9.367129669915e-01
9.058485904913e-01
8.753520998414e-01
8.453426565864e-01
8.159375191892e-01
7.872515848565e-01
7.593969405916e-01
7.324824252271e-01
7.066132041494e-01
6.818903583772e-01
6.584104895992e-01
6.362653427136e-01
6.155414473457e-01
5.963197797434e-01
5.786754463715e-01
5.626773904421e-01
5.483881225265e-01
5.358634763026e-01
5.251523903913e-01
5.162967171341e-01
5.093310590601e-01
5.042826336804e-01
5.011711671392e-01
5.000088171355e-01
5.008001254189e-01
5.035420000430e-01
5.082237274465e-01
5.148270143159e-01
5.233260590639e-01
5.336876526466e-01
5.458713083235e-01
5.598294198555e-01
5.755074475202e-01
5.928441312200e-01
6.117717298488e-01
6.322162859826e-01
6.540979148597e-01
6.773311165210e-01
7.018251098919e-01
7.274841874984e-01
7.542080894331e-01
7.818923951099e-01
8.104289312746e-01
8.397061946804e-01
8.696097877732e-01
9.000228656879e-01
9.308265928052e-01
9.619006070894e-01
9.931234903881e-01
1.024373242861e+00
1.055527759678e+00
1.086465308133e+00
1.117065003300e+00
1.147207280372e+00
1.176774361854e+00
1.205650717763e+00
1.233723517043e+00
1.260883068447e+00
1.287023249137e+00
1.312041919352e+00
1.335841321503e+00
1.358328462151e+00
1.379415475370e+00
1.399019966070e+00
1.417065331949e+00
1.433481062807e+00
1.448203016055e+00
1.461173667347e+00
1.472342335348e+00
1.481665379768e+00
1.489106371877e+00
1.494636236851e+00
1.498233367377e+00
1.499883708078e+00
1.499580810437e+00
1.497325857993e+00
1.493127661713e+00
1.487002625569e+00
1.478974682438e+00
1.469075200589e+00
1.457342861113e+00
1.443823506782e+00
1.428569962927e+00
1.411641831021e+00
1.393105255804e+00
1.373032666818e+00
1.351502495407e+00
1.328598868250e+00
1.304411278647e+00
1.279034236835e+00
1.252566900697e+00
1.225112688320e+00
1.196778873893e+00
1.167676168553e+00
1.137918287786e+00
1.107621507104e+00
1.076904207708e+00
1.045886413928e+00
1.014689324240e+00
9.834348377006e-01
9.522450776354e-01
9.212419144604e-01
8.905464894850e-01
8.602787415672e-01
8.305569384656e-01
8.014972147220e-01
7.732131178789e-01
7.458151648057e-01
7.194104098662e-01
6.941020266166e-01
6.699889046659e-01
6.471652632767e-01
6.257202832140e-01
6.057377582814e-01
5.872957679067e-01
5.704663720551e-01
5.553153296638e-01
5.419018416957e-01
5.302783198188e-01
5.204901816139e-01
5.125756731099e-01
5.065657193425e-01
5.024838035177e-01
5.003458752542e-01
5.001602882618e-01
5.019277677004e-01
5.056414073465e-01
5.112866965785e-01
5.188415770753e-01
5.282765290065e-01
5.395546863779e-01
5.526319810812e-01
5.674573150850e-01
5.839727600945e-01
6.021137838997e-01
6.218095025276e-01
6.429829572133e-01
6.655514151074e-01
6.894266925453e-01
7.145154996146e-01
7.407198046750e-01
7.679372174053e-01
7.960613888824e-01
8.249824271269e-01
8.545873264941e-01
8.847604092301e-01
9.153837774696e-01
9.463377739082e-01
9.775014493497e-01
1.000000000000e+00
</dep>
<dep tran.v(uut) time>
2.999953766150e+00
3.000112216498e+00
3.000402344685e+00
3.001201458613e+00
3.003733216991e+00
3.010437282588e+00
3.025326971142e+00
3.055357493954e+00
3.115252735283e+00
3.208480468104e+00
3.300867226898e+00
3.392099691373e+00
3.481782249314e+00
3.569596599031e+00
3.655173247086e+00
3.738199458326e+00
3.818333048672e+00
3.895275491293e+00
3.968714169010e+00
4.038371957357e+00
4.103968608244e+00
4.165254433367e+00
4.221984528596e+00
4.273941690545e+00
4.320919238983e+00
4.362736621883e+00
4.399227973916e+00
4.430252735813e+00
4.455688018342e+00
4.475435801611e+00
4.489417802452e+00
4.497580307980e+00
4.499890668779e+00
4.496340477440e+00
4.486943096932e+00
4.471735664270e+00
4.450777257768e+00
4.424150051553e+00
4.391957857260e+00
4.354326651928e+00
4.311403319439e+00
4.263355705645e+00
4.210371446148e+00
4.152657657024e+00
4.090439777575e+00
4.023960975092e+00
3.953480960228e+00
3.879275164689e+00
3.801633507010e+00
3.720859389437e+00
3.637268405945e+00
3.551187196493e+00
3.462952098967e+00
3.372907893875e+00
3.281406408812e+00
3.188805183415e+00
3.095466039749e+00
3.001753695262e+00
2.908034315748e+00
2.814674102610e+00
2.722037847183e+00
2.630487517495e+00
2.540380833949e+00
2.452069879754e+00
2.365899718485e+00
2.282207051300e+00
2.201318896790e+00
2.123551316913e+00
2.049208178958e+00
1.978579970735e+00
1.911942663459e+00
1.849556635120e+00
1.791665651698e+00
1.738495915813e+00
1.690255181928e+00
1.647131945342e+00
1.609294705035e+00
1.576891305796e+00
1.550048360111e+00
1.528870753786e+00
1.513441235834e+00
1.503820095378e+00
1.500044925883e+00
1.502130478424e+00
1.510068603916e+00
1.523828285065e+00
1.543355757475e+00
1.568574719798e+00
1.599386631815e+00
1.635671099518e+00
1.677286345498e+00
1.724069762952e+00
1.775838551030e+00
1.832390429126e+00
1.893504427247e+00
1.958941749450e+00
2.028446706888e+00
2.101747716902e+00
2.178558364189e+00
2.258578519942e+00
2.341495514565e+00
2.426985359399e+00
2.514714012665e+00
2.604338684698e+00
2.695509177354e+00
2.787869252377e+00
2.881058023348e+00
2.974711365819e+00
3.068463340078e+00
3.161947621023e+00
3.254798929532e+00
3.346654459750e+00
3.437155296714e+00
3.525947818766e+00
3.612685079295e+00
3.697028162390e+00
3.778647507112e+00
3.857224195218e+00
3.932451197300e+00
4.004034572461e+00
4.071694616860e+00
4.135166956624e+00
4.194203580852e+00
4.248573810697e+00
4.298065200713e+00
4.342484368961e+00
4.381657752627e+00
4.415432286202e+00
4.443675999564e+00
4.466278533636e+00
4.483151571605e+00
4.494229184009e+00
4.499468086345e+00
4.498847808202e+00
4.492370773246e+00
4.480062289749e+00
4.461970451702e+00
4.438165950888e+00
4.408741800670e+00
4.373812972544e+00
4.333515946907e+00
4.288008179770e+00
4.237467487523e+00
4.182091352132e+00
4.122096149504e+00
4.057716304024e+00
3.989203372564e+00
3.916825061558e+00
3.840864180967e+00
3.761617539233e+00
3.679394783533e+00
3.594517189868e+00
3.507316407716e+00
3.418133164147e+00
3.327315932471e+00
3.235219570620e+00
3.142203934581e+00
3.048632472300e+00
2.954870803550e+00
2.861285291313e+00
2.768241610262e+00
2.676103317923e+00
2.585230434123e+00
2.495978034249e+00
2.408694861830e+00
2.323721965868e+00
2.241391368223e+00
2.162024766276e+00
2.085932275935e+00
2.013411219891e+00
1.944744965866e+00
1.880201819384e+00
1.820033975398e+00
1.764476532868e+00
1.713746576138e+00
1.668042326704e+00
1.627542368687e+00
1.592404951035e+00
1.562767369182e+00
1.538745428587e+00
1.520432992230e+00
1.507901613860e+00
1.501200258403e+00
1.500355110637e+00
1.505369472881e+00
1.516223752088e+00
1.532875536406e+00
1.555259760894e+00
1.583288961759e+00
1.616853618108e+00
1.655822579890e+00
1.700043580350e+00
1.749343830994e+00
1.803530696737e+00
1.862392448607e+00
1.925699091049e+00
1.993203260610e+00
2.064641192476e+00
2.139733751109e+00
2.218187520938e+00
2.299695952841e+00
2.383940561954e+00
2.470592172116e+00
2.559312202084e+00
2.649753988500e+00
2.741564140442e+00
2.834383920255e+00
2.927850645280e+00
2.995341218406e+00
</dep>
<dep tran.i(pr1) time>
9.999845887301e-04
1.000037405499e-03
1.000134114895e-03
1.000400486204e-03
1.001244405664e-03
1.003479094196e-03
1.008442323714e-03
1.018452497985e-03
1.038417578428e-03
1.069493489368e-03
1.100289075633e-03
1.130699897124e-03
1.160594083105e-03
1.189865533010e-03
1.218391082362e-03
1.246066486109e-03
1.272777682891e-03
1.298425163764e-03
1.322904723003e-03
1.346123985786e-03
1.367989536081e-03
1.388418144456e-03
1.407328176199e-03
1.424647230182e-03
1.440306412994e-03
1.454245540628e-03
1.466409324639e-03
1.476750911938e-03
1.485229339447e-03
1.491811933870e-03
1.496472600817e-03
1.499193435993e-03
1.499963556260e-03
1.498780159147e-03
1.495647698977e-03
1.490578554757e-03
1.483592419256e-03
1.474716683851e-03
1.463985952420e-03
1.451442217309e-03
1.437134439813e-03
1.421118568548e-03
1.403457148716e-03
1.384219219008e-03
1.363479925858e-03
1.341320325031e-03
1.317826986743e-03
1.293091721563e-03
1.267211169003e-03
1.240286463146e-03
1.212422801982e-03
1.183729065498e-03
1.154317366322e-03
1.124302631292e-03
1.093802136271e-03
1.062935061138e-03
1.031822013250e-03
1.000584565087e-03
9.693447719158e-04
9.382247008698e-04
9.073459490611e-04
8.768291724984e-04
8.467936113164e-04
8.173566265847e-04
7.886332394951e-04
7.607356837666e-04
7.337729655968e-04
7.078504389708e-04
6.830693929861e-04
6.595266569115e-04
6.373142211529e-04
6.165188783733e-04
5.972218838995e-04
5.794986386043e-04
5.634183939759e-04
5.490439817805e-04
5.364315683450e-04
5.256304352655e-04
5.166827867037e-04
5.096235845953e-04
5.044804119448e-04
5.012733651261e-04
5.000149752944e-04
5.007101594746e-04
5.033562013053e-04
5.079427616883e-04
5.144519191582e-04
5.228582399325e-04
5.331288772715e-04
5.452236998394e-04
5.590954484992e-04
5.746899209841e-04
5.919461836768e-04
6.107968097086e-04
6.311681424158e-04
6.529805831499e-04
6.761489022959e-04
7.005825723006e-04
7.261861213962e-04
7.528595066472e-04
7.804985048550e-04
8.089951197997e-04
8.382380042217e-04
8.681128948993e-04
8.985030591181e-04
9.292897507922e-04
9.603526744493e-04
9.915704552729e-04
1.022821113359e-03
1.053982540341e-03
1.084932976511e-03
1.115551486583e-03
1.145718432238e-03
1.175315939589e-03
1.204228359765e-03
1.232342720797e-03
1.259549169037e-03
1.285741398406e-03
1.310817065767e-03
1.334678190820e-03
1.357231538953e-03
1.378388985541e-03
1.398067860284e-03
1.416191270232e-03
1.432688400238e-03
1.447494789654e-03
1.460552584209e-03
1.471810762067e-03
1.481225333188e-03
1.488759511212e-03
1.494383857202e-03
1.498076394670e-03
1.499822695448e-03
1.499615936067e-03
1.497456924415e-03
1.493354096583e-03
1.487323483901e-03
1.479388650296e-03
1.469580600223e-03
1.457937657515e-03
1.444505315636e-03
1.429336059923e-03
1.412489162508e-03
1.394030450711e-03
1.374032049835e-03
1.352572101341e-03
1.329734457521e-03
1.305608353853e-03
1.280288060322e-03
1.253872513078e-03
1.226464927844e-03
1.198172396623e-03
1.169105469239e-03
1.139377721382e-03
1.109105310824e-03
1.078406523540e-03
1.047401311527e-03
1.016210824100e-03
9.849569345167e-04
9.537617637711e-04
9.227472034206e-04
8.920344393077e-04
8.617434780411e-04
8.319926780829e-04
8.028982872767e-04
7.745739886228e-04
7.471304560744e-04
7.206749220920e-04
6.953107586448e-04
6.711370732970e-04
6.482483219554e-04
6.267339397947e-04
6.066779917994e-04
5.881588442894e-04
5.712488587127e-04
5.560141089014e-04
5.425141228957e-04
5.308016503449e-04
5.209224563941e-04
5.129151428622e-04
5.068109974100e-04
5.026338712867e-04
5.004000861343e-04
5.001183702123e-04
5.017898242936e-04
5.054079173627e-04
5.109585121354e-04
5.184199202981e-04
5.277629872530e-04
5.389512060360e-04
5.519408599634e-04
5.666811934502e-04
5.831146103313e-04
6.011768989122e-04
6.207974828689e-04
6.418996970165e-04
6.644010868699e-04
6.882137308252e-04
7.132445837031e-04
7.393958403127e-04
7.665653176136e-04
7.946468539848e-04
8.235307240388e-04
8.531040673613e-04
8.832513294999e-04
9.138547134805e-04
9.447946400849e-04
9.759502150932e-04
9.984470728019e-04
</dep>
