<Qucs Dataset 0.0.24>
<indep time 209>
0.000000000000e+00
9.950250000000e-08
1.990050000000e-07
3.980100000000e-07
7.960200000000e-07
1.592040000000e-06
3.184080000000e-06
6.368160000000e-06
1.273632000000e-05
2.268657000000e-05
3.263682000000e-05
4.258707000000e-05
5.253732000000e-05
6.248757000000e-05
7.243782000000e-05
8.238807000000e-05
9.233832000000e-05
1.022885700000e-04
1.122388200000e-04
1.221890700000e-04
1.321393200000e-04
1.420895700000e-04
1.520398200000e-04
1.619900700000e-04
1.719403200000e-04
1.818905700000e-04
1.918408200000e-04
2.017910700000e-04
2.117413200000e-04
2.216915700000e-04
2.316418200000e-04
2.415920700000e-04
2.515423200000e-04
2.614925700000e-04
2.714428200000e-04
2.813930700000e-04
2.913433200000e-04
3.012935700000e-04
3.112438200000e-04
3.211940700000e-04
3.311443200000e-04
3.410945700000e-04
3.510448200000e-04
3.609950700000e-04
3.709453200000e-04
3.808955700000e-04
3.908458200000e-04
4.007960700000e-04
4.107463200000e-04
4.206965700000e-04
4.306468200000e-04
4.405970700000e-04
4.505473200000e-04
4.604975700000e-04
4.704478200000e-04
4.803980700000e-04
4.903483200000e-04
5.002985700000e-04
5.102488200000e-04
5.201990700000e-04
5.301493200000e-04
5.400995700000e-04
5.500498200000e-04
5.600000700000e-04
5.699503200000e-04
5.799005700000e-04
5.898508200000e-04
5.998010700000e-04
6.097513200000e-04
6.197015700000e-04
6.296518200000e-04
6.396020700000e-04
6.495523200000e-04
6.595025700000e-04
6.694528200000e-04
6.794030700000e-04
6.893533200000e-04
6.993035700000e-04
7.092538200000e-04
7.192040700000e-04
7.291543200000e-04
7.391045700000e-04
7.490548200000e-04
7.590050700000e-04
7.689553200000e-04
7.789055700000e-04
7.888558200000e-04
7.988060700000e-04
8.087563200000e-04
8.187065700000e-04
8.286568200000e-04
8.386070700000e-04
8.485573200000e-04
8.585075700000e-04
8.684578200000e-04
8.784080700000e-04
8.883583200000e-04
8.983085700000e-04
9.082588200000e-04
9.182090700000e-04
9.281593200000e-04
9.381095700000e-04
9.480598200000e-04
9.580100700000e-04
9.679603200000e-04
9.779105700000e-04
9.878608200000e-04
9.978110700000e-04
1.007761320000e-03
1.017711570000e-03
1.027661820000e-03
1.037612070000e-03
1.047562320000e-03
1.057512570000e-03
1.067462820000e-03
1.077413070000e-03
1.087363320000e-03
1.097313570000e-03
1.107263820000e-03
1.117214070000e-03
1.127164320000e-03
1.137114570000e-03
1.147064820000e-03
1.157015070000e-03
1.166965320000e-03
1.176915570000e-03
1.186865820000e-03
1.196816070000e-03
1.206766320000e-03
1.216716570000e-03
1.226666820000e-03
1.236617070000e-03
1.246567320000e-03
1.256517570000e-03
1.266467820000e-03
1.276418070000e-03
1.286368320000e-03
1.296318570000e-03
1.306268820000e-03
1.316219070000e-03
1.326169320000e-03
1.336119570000e-03
1.346069820000e-03
1.356020070000e-03
1.365970320000e-03
1.375920570000e-03
1.385870820000e-03
1.395821070000e-03
1.405771320000e-03
1.415721570000e-03
1.425671820000e-03
1.435622070000e-03
1.445572320000e-03
1.455522570000e-03
1.465472820000e-03
1.475423070000e-03
1.485373320000e-03
1.495323570000e-03
1.505273820000e-03
1.515224070000e-03
1.525174320000e-03
1.535124570000e-03
1.545074820000e-03
1.555025070000e-03
1.564975320000e-03
1.574925570000e-03
1.584875820000e-03
1.594826070000e-03
1.604776320000e-03
1.614726570000e-03
1.624676820000e-03
1.634627070000e-03
1.644577320000e-03
1.654527570000e-03
1.664477820000e-03
1.674428070000e-03
1.684378320000e-03
1.694328570000e-03
1.704278820000e-03
1.714229070000e-03
1.724179320000e-03
1.734129570000e-03
1.744079820000e-03
1.754030070000e-03
1.763980320000e-03
1.773930570000e-03
1.783880820000e-03
1.793831070000e-03
1.803781320000e-03
1.813731570000e-03
1.823681820000e-03
1.833632070000e-03
1.843582320000e-03
1.853532570000e-03
1.863482820000e-03
1.873433070000e-03
1.883383320000e-03
1.893333570000e-03
1.903283820000e-03
1.913234070000e-03
1.923184320000e-03
1.933134570000e-03
1.943084820000e-03
1.953035070000e-03
1.962985320000e-03
1.972935570000e-03
1.982885820000e-03
1.992836070000e-03
2.000000000000e-03
</indep>
<dep tran.v(uin) time>
5.000000000000e-01
5.003125963026e-01
5.006251924831e-01
5.012503839888e-01
5.025007601578e-01
5.050014577582e-01
5.100024150665e-01
5.200008268336e-01
5.399696368853e-01
5.710308469684e-01
6.018145121515e-01
6.322003487884e-01
6.620696277022e-01
6.913056381063e-01
7.197941436382e-01
7.474238287251e-01
7.740867335367e-01
7.996786758259e-01
8.240996580091e-01
8.472542578951e-01
8.690520015366e-01
8.894077167467e-01
9.082418658993e-01
9.254808567135e-01
9.410573298070e-01
9.549104218950e-01
9.669860036066e-01
9.772368909893e-01
9.856230298745e-01
9.921116523850e-01
9.966774049713e-01
9.993024474782e-01
9.999765228526e-01
9.986969972222e-01
9.954688701869e-01
9.903047552833e-01
9.832248306992e-01
9.742567604289e-01
9.634355861800e-01
9.508035904516e-01
9.364101313205e-01
9.203114495797e-01
9.025704489846e-01
8.832564504632e-01
8.624449212528e-01
8.402171800206e-01
8.166600791197e-01
7.918656652242e-01
7.659308196668e-01
7.389568798865e-01
7.110492434639e-01
6.823169562921e-01
6.528722864930e-01
6.228302857416e-01
5.923083397154e-01
5.614257094231e-01
5.303030652058e-01
4.990620152316e-01
4.678246303254e-01
4.367129669915e-01
4.058485904913e-01
3.753520998414e-01
3.453426565864e-01
3.159375191892e-01
2.872515848565e-01
2.593969405916e-01
2.324824252271e-01
2.066132041494e-01
1.818903583772e-01
1.584104895992e-01
1.362653427136e-01
1.155414473457e-01
9.631977974341e-02
7.867544637155e-02
6.267739044209e-02
4.838812252647e-02
3.586347630262e-02
2.515239039132e-02
1.629671713411e-02
9.331059060086e-03
4.282633680439e-03
1.171167139189e-03
8.817135515427e-06
8.001254189423e-04
3.542000042975e-03
8.223727446523e-03
1.482701431592e-02
2.332605906394e-02
3.368765264657e-02
4.587130832350e-02
5.982941985547e-02
7.550744752018e-02
9.284413122002e-02
1.117717298488e-01
1.322162859826e-01
1.540979148597e-01
1.773311165210e-01
2.018251098919e-01
2.274841874984e-01
2.542080894331e-01
2.818923951099e-01
3.104289312746e-01
3.397061946804e-01
3.696097877732e-01
4.000228656879e-01
4.308265928052e-01
4.619006070894e-01
4.931234903881e-01
5.243732428606e-01
5.555277596779e-01
5.864653081334e-01
6.170650032995e-01
6.472072803718e-01
6.767743618544e-01
7.056507177627e-01
7.337235170428e-01
7.608830684465e-01
7.870232491371e-01
8.120419193521e-01
8.358413215029e-01
8.583284621512e-01
8.794154753700e-01
8.990199660702e-01
9.170653319495e-01
9.334810628073e-01
9.482030160553e-01
9.611736673471e-01
9.723423353482e-01
9.816653797676e-01
9.891063718767e-01
9.946362368510e-01
9.982333673766e-01
9.998837080778e-01
9.995808104373e-01
9.973258579930e-01
9.931276617132e-01
9.870026255693e-01
9.789746824384e-01
9.690752005889e-01
9.573428611126e-01
9.438235067822e-01
9.285699629266e-01
9.116418310215e-01
8.931052558037e-01
8.730326668179e-01
8.515024954071e-01
8.285988682501e-01
8.044112786472e-01
7.790342368348e-01
7.525669006975e-01
7.251126883201e-01
6.967788738935e-01
6.676761685526e-01
6.379182877857e-01
6.076215071039e-01
5.769042077081e-01
5.458864139280e-01
5.146893242404e-01
4.834348377006e-01
4.522450776354e-01
4.212419144604e-01
3.905464894850e-01
3.602787415672e-01
3.305569384656e-01
3.014972147220e-01
2.732131178789e-01
2.458151648057e-01
2.194104098662e-01
1.941020266166e-01
1.699889046659e-01
1.471652632767e-01
1.257202832140e-01
1.057377582814e-01
8.729576790666e-02
7.046637205514e-02
5.531532966380e-02
4.190184169567e-02
3.027831981884e-02
2.049018161389e-02
1.257567310991e-02
6.565719342493e-03
2.483803517711e-03
3.458752541821e-04
1.602882617553e-04
1.927767700350e-03
5.641407346476e-03
1.128669657851e-02
1.884157707528e-02
2.827652900645e-02
3.955468637786e-02
5.263198108118e-02
6.745731508498e-02
8.397276009448e-02
1.021137838997e-01
1.218095025276e-01
1.429829572133e-01
1.655514151074e-01
1.894266925453e-01
2.145154996146e-01
2.407198046750e-01
2.679372174053e-01
2.960613888824e-01
3.249824271269e-01
3.545873264941e-01
3.847604092301e-01
4.153837774696e-01
4.463377739082e-01
4.775014493497e-01
5.000000000000e-01
</dep>
<dep tran.v(uut) time>
1.499976883089e+00
1.500135333420e+00
1.500425461605e+00
1.501224575528e+00
1.503756333899e+00
1.510460399493e+00
1.525350088047e+00
1.555380610859e+00
1.615275852188e+00
1.708503585009e+00
1.800890343803e+00
1.892122808278e+00
1.981805366219e+00
2.069619715936e+00
2.155196363991e+00
2.238222575231e+00
2.318356165577e+00
2.395298608198e+00
2.468737285915e+00
2.538395074262e+00
2.603991725149e+00
2.665277550272e+00
2.722007645501e+00
2.773964807450e+00
2.820942355888e+00
2.862759738788e+00
2.899251090821e+00
2.930275852718e+00
2.955711135247e+00
2.975458918515e+00
2.989440919357e+00
2.997603424885e+00
2.999913785684e+00
2.996363594345e+00
2.986966213837e+00
2.971758781175e+00
2.950800374673e+00
2.924173168457e+00
2.891980974165e+00
2.854349768832e+00
2.811426436343e+00
2.763378822550e+00
2.710394563053e+00
2.652680773929e+00
2.590462894480e+00
2.523984091997e+00
2.453504077133e+00
2.379298281593e+00
2.301656623914e+00
2.220882506341e+00
2.137291522850e+00
2.051210313398e+00
1.962975215872e+00
1.872931010780e+00
1.781429525717e+00
1.688828300320e+00
1.595489156654e+00
1.501776812167e+00
1.408057432652e+00
1.314697219514e+00
1.222060964088e+00
1.130510634400e+00
1.040403950854e+00
9.520929966589e-01
8.659228353901e-01
7.822301682047e-01
7.013420136953e-01
6.235744338174e-01
5.492312958633e-01
4.786030876395e-01
4.119657803635e-01
3.495797520248e-01
2.916887686033e-01
2.385190327178e-01
1.902782988326e-01
1.471550622465e-01
1.093178219400e-01
7.691442270127e-02
5.007147701592e-02
2.889387069076e-02
1.346435273919e-02
3.843212283209e-03
6.804278822370e-05
2.153595328792e-03
1.009172082085e-02
2.385140196977e-02
4.337887437948e-02
6.859783670243e-02
9.940974871952e-02
1.356942164230e-01
1.773094624026e-01
2.240928798572e-01
2.758616679353e-01
3.324135460306e-01
3.935275441523e-01
4.589648663546e-01
5.284698237925e-01
6.017708338067e-01
6.785814810935e-01
7.586016368464e-01
8.415186314699e-01
9.270084763041e-01
1.014737129570e+00
1.104361801603e+00
1.195532294259e+00
1.287892369282e+00
1.381081140253e+00
1.474734482723e+00
1.568486456983e+00
1.661970737928e+00
1.754822046437e+00
1.846677576655e+00
1.937178413619e+00
2.025970935671e+00
2.112708196200e+00
2.197051279295e+00
2.278670624017e+00
2.357247312123e+00
2.432474314205e+00
2.504057689366e+00
2.571717733765e+00
2.635190073528e+00
2.694226697757e+00
2.748596927602e+00
2.798088317618e+00
2.842507485866e+00
2.881680869532e+00
2.915455403107e+00
2.943699116468e+00
2.966301650541e+00
2.983174688510e+00
2.994252300914e+00
2.999491203250e+00
2.998870925107e+00
2.992393890151e+00
2.980085406654e+00
2.961993568607e+00
2.938189067793e+00
2.908764917575e+00
2.873836089449e+00
2.833539063812e+00
2.788031296675e+00
2.737490604427e+00
2.682114469036e+00
2.622119266409e+00
2.557739420929e+00
2.489226489469e+00
2.416848178463e+00
2.340887297872e+00
2.261640656138e+00
2.179417900438e+00
2.094540306773e+00
2.007339524621e+00
1.918156281052e+00
1.827339049376e+00
1.735242687525e+00
1.642227051486e+00
1.548655589205e+00
1.454893920455e+00
1.361308408218e+00
1.268264727167e+00
1.176126434828e+00
1.085253551028e+00
9.960011511535e-01
9.087179787351e-01
8.237450827733e-01
7.414144851280e-01
6.620478831807e-01
5.859553928394e-01
5.134343367958e-01
4.447680827711e-01
3.802249362891e-01
3.200570923032e-01
2.644996497731e-01
2.137696930430e-01
1.680654436091e-01
1.275654855921e-01
9.242806793954e-02
6.279048608707e-02
3.876854549159e-02
2.045610913494e-02
7.924730764999e-03
1.223375307635e-03
3.782275418455e-04
5.392589785737e-03
1.624686899310e-02
3.289865331097e-02
5.528287779914e-02
8.331207866389e-02
1.168767350128e-01
1.558456967951e-01
2.000666972554e-01
2.493669478987e-01
3.035538136415e-01
3.624155655115e-01
4.257222079544e-01
4.932263775146e-01
5.646643093804e-01
6.397568680143e-01
7.182106378430e-01
7.997190697457e-01
8.839636788592e-01
9.706152890213e-01
1.059335318989e+00
1.149777105405e+00
1.241587257346e+00
1.334407037160e+00
1.427873762184e+00
1.495364335311e+00
</dep>
<dep tran.i(pr1) time>
4.999922943650e-04
5.000451111400e-04
5.001418205349e-04
5.004081918426e-04
5.012521112998e-04
5.034867998311e-04
5.084500293489e-04
5.184602036195e-04
5.384252840628e-04
5.695011950031e-04
6.002967812676e-04
6.307076027593e-04
6.606017887397e-04
6.898732386452e-04
7.183987879969e-04
7.460741917436e-04
7.727853885257e-04
7.984328693993e-04
8.229124286384e-04
8.461316914206e-04
8.679972417164e-04
8.884258500906e-04
9.073358818335e-04
9.246549358166e-04
9.403141186293e-04
9.542532462625e-04
9.664170302737e-04
9.767586175725e-04
9.852370450823e-04
9.918196395052e-04
9.964803064523e-04
9.992011416284e-04
9.999712618945e-04
9.987878647817e-04
9.956554046122e-04
9.905862603916e-04
9.836001248910e-04
9.747243894858e-04
9.639936580550e-04
9.514499229442e-04
9.371421454478e-04
9.211262741832e-04
9.034648543511e-04
8.842269246430e-04
8.634876314934e-04
8.413280306656e-04
8.178346923777e-04
7.930994271978e-04
7.672188746382e-04
7.402941687805e-04
7.124305076167e-04
6.837367711327e-04
6.543250719574e-04
6.243103369268e-04
5.938098419055e-04
5.629427667734e-04
5.318297188847e-04
5.005922707224e-04
4.693524775508e-04
4.382324065048e-04
4.073536546960e-04
3.768368781334e-04
3.468013169513e-04
3.173643322196e-04
2.886409451300e-04
2.607433894016e-04
2.337806712318e-04
2.078581446058e-04
1.830770986211e-04
1.595343625465e-04
1.373219267878e-04
1.165265840083e-04
9.722958953442e-05
7.950634423927e-05
6.342609961088e-05
4.905168741550e-05
3.643927397999e-05
2.563814090042e-05
1.669049233864e-05
9.631290230253e-06
4.488117579729e-06
1.281070761070e-06
2.268092940790e-08
7.178651095975e-07
3.363906940285e-06
7.950467323256e-06
1.445962479316e-05
2.286594556748e-05
3.313658290651e-05
4.523140547433e-05
5.910315413420e-05
7.469762661906e-05
9.195388931176e-05
1.108045153435e-04
1.311758480508e-04
1.529882887849e-04
1.761566079308e-04
2.005902779356e-04
2.261938270312e-04
2.528672122821e-04
2.805062104900e-04
3.090028254347e-04
3.382457098567e-04
3.681206005342e-04
3.985107647531e-04
4.292974564272e-04
4.603603800843e-04
4.915781609078e-04
5.228288189942e-04
5.539902459759e-04
5.849406821455e-04
6.155591922185e-04
6.457261378729e-04
6.753236452236e-04
7.042360654001e-04
7.323504264316e-04
7.595568746722e-04
7.857491040411e-04
8.108247714016e-04
8.346858964552e-04
8.572392445884e-04
8.783966911761e-04
8.980755659190e-04
9.161989758674e-04
9.326961058727e-04
9.475024952886e-04
9.605602898441e-04
9.718184677024e-04
9.812330388228e-04
9.887672168469e-04
9.943915628368e-04
9.980841003046e-04
9.998304010832e-04
9.996236417022e-04
9.974646300502e-04
9.933618022180e-04
9.873311895355e-04
9.793963559311e-04
9.695883058584e-04
9.579453631498e-04
9.445130212705e-04
9.293437655583e-04
9.124968681425e-04
8.940381563455e-04
8.740397554697e-04
8.525798069762e-04
8.297421631562e-04
8.056160594875e-04
7.802957659572e-04
7.538802187125e-04
7.264726334792e-04
6.981801022577e-04
6.691131748738e-04
6.393854270173e-04
6.091130164585e-04
5.784142291749e-04
5.474090171620e-04
5.162185297350e-04
4.849646401516e-04
4.537694694061e-04
4.227549090555e-04
3.920421449427e-04
3.617511836761e-04
3.320003837178e-04
3.029059929117e-04
2.745816942578e-04
2.471381617093e-04
2.206826277269e-04
1.953184642798e-04
1.711447789319e-04
1.482560275904e-04
1.267416454297e-04
1.066856974344e-04
8.816654992436e-05
7.125656434767e-05
5.602181453638e-05
4.252182853068e-05
3.080935597985e-05
2.093016202902e-05
1.292284849720e-05
6.818703044980e-06
2.641576921666e-06
4.077917692117e-07
1.260758472818e-07
1.797529928579e-06
5.415622997699e-06
1.096621777032e-05
1.842762593305e-05
2.777069288796e-05
3.895891167094e-05
5.194856559836e-05
6.668889908513e-05
8.312231596622e-05
1.011846045472e-04
1.208051885038e-04
1.419074026515e-04
1.644087925049e-04
1.882214364601e-04
2.132522893381e-04
2.394035459477e-04
2.665730232486e-04
2.946545596197e-04
3.235384296738e-04
3.531117729962e-04
3.832590351349e-04
4.138624191155e-04
4.448023457199e-04
4.759579207281e-04
4.984547784369e-04
</dep>
