<Qucs Dataset 0.0.19>
<indep time 201>
  +0.00000000000000000000e+00
  +1.00000000000000008180e-05
  +2.00000000000000016361e-05
  +3.00000000000000041482e-05
  +4.00000000000000032721e-05
  +5.00000000000000023961e-05
  +6.00000000000000082963e-05
  +7.00000000000000074203e-05
  +8.00000000000000065442e-05
  +9.00000000000000056682e-05
  +1.00000000000000004792e-04
  +1.10000000000000003916e-04
  +1.20000000000000016593e-04
  +1.30000000000000015717e-04
  +1.40000000000000014841e-04
  +1.50000000000000013965e-04
  +1.60000000000000013088e-04
  +1.70000000000000012212e-04
  +1.80000000000000011336e-04
  +1.90000000000000010460e-04
  +2.00000000000000009584e-04
  +2.10000000000000008708e-04
  +2.20000000000000007832e-04
  +2.30000000000000006956e-04
  +2.40000000000000033185e-04
  +2.50000000000000005204e-04
  +2.60000000000000031433e-04
  +2.70000000000000003452e-04
  +2.80000000000000029681e-04
  +2.90000000000000001700e-04
  +3.00000000000000027929e-04
  +3.09999999999999999948e-04
  +3.20000000000000026177e-04
  +3.30000000000000052406e-04
  +3.40000000000000024425e-04
  +3.50000000000000050654e-04
  +3.60000000000000022673e-04
  +3.70000000000000048902e-04
  +3.80000000000000020921e-04
  +3.90000000000000047150e-04
  +4.00000000000000019169e-04
  +4.10000000000000045398e-04
  +4.20000000000000017417e-04
  +4.30000000000000043646e-04
  +4.40000000000000015665e-04
  +4.50000000000000041894e-04
  +4.60000000000000013912e-04
  +4.70000000000000040142e-04
  +4.80000000000000066371e-04
  +4.90000000000000092600e-04
  +5.00000000000000010408e-04
  +5.10000000000000036637e-04
  +5.20000000000000062866e-04
  +5.30000000000000089095e-04
  +5.40000000000000006904e-04
  +5.50000000000000033133e-04
  +5.60000000000000059362e-04
  +5.70000000000000085591e-04
  +5.80000000000000003400e-04
  +5.90000000000000029629e-04
  +6.00000000000000055858e-04
  +6.10000000000000082087e-04
  +6.19999999999999999896e-04
  +6.30000000000000026125e-04
  +6.40000000000000052354e-04
  +6.50000000000000078583e-04
  +6.60000000000000104812e-04
  +6.70000000000000022621e-04
  +6.80000000000000048850e-04
  +6.90000000000000075079e-04
  +7.00000000000000101308e-04
  +7.10000000000000019117e-04
  +7.20000000000000045346e-04
  +7.30000000000000071575e-04
  +7.40000000000000097804e-04
  +7.50000000000000015613e-04
  +7.60000000000000041842e-04
  +7.70000000000000068071e-04
  +7.80000000000000094300e-04
  +7.90000000000000012108e-04
  +8.00000000000000038337e-04
  +8.10000000000000064566e-04
  +8.20000000000000090795e-04
  +8.30000000000000117024e-04
  +8.40000000000000034833e-04
  +8.50000000000000061062e-04
  +8.60000000000000087291e-04
  +8.70000000000000113520e-04
  +8.80000000000000031329e-04
  +8.90000000000000057558e-04
  +9.00000000000000083787e-04
  +9.10000000000000110016e-04
  +9.20000000000000027825e-04
  +9.30000000000000054054e-04
  +9.40000000000000080283e-04
  +9.50000000000000106512e-04
  +9.60000000000000132741e-04
  +9.70000000000000050550e-04
  +9.80000000000000185199e-04
  +9.89999999999999994588e-04
  +1.00000000000000002082e-03
  +1.01000000000000004705e-03
  +1.02000000000000007327e-03
  +1.03000000000000009950e-03
  +1.04000000000000012573e-03
  +1.05000000000000015196e-03
  +1.06000000000000017819e-03
  +1.06999999999999998758e-03
  +1.08000000000000001381e-03
  +1.09000000000000004004e-03
  +1.10000000000000006627e-03
  +1.11000000000000009250e-03
  +1.12000000000000011872e-03
  +1.13000000000000014495e-03
  +1.14000000000000017118e-03
  +1.15000000000000019741e-03
  +1.16000000000000000680e-03
  +1.17000000000000003303e-03
  +1.18000000000000005926e-03
  +1.19000000000000008549e-03
  +1.20000000000000011172e-03
  +1.21000000000000013795e-03
  +1.22000000000000016417e-03
  +1.23000000000000019040e-03
  +1.23999999999999999979e-03
  +1.25000000000000002602e-03
  +1.26000000000000005225e-03
  +1.27000000000000007848e-03
  +1.28000000000000010471e-03
  +1.29000000000000013094e-03
  +1.30000000000000015717e-03
  +1.31000000000000018339e-03
  +1.32000000000000020962e-03
  +1.33000000000000001901e-03
  +1.34000000000000004524e-03
  +1.35000000000000007147e-03
  +1.36000000000000009770e-03
  +1.37000000000000012393e-03
  +1.38000000000000015016e-03
  +1.39000000000000017639e-03
  +1.40000000000000020262e-03
  +1.41000000000000001200e-03
  +1.42000000000000003823e-03
  +1.43000000000000006446e-03
  +1.44000000000000009069e-03
  +1.45000000000000011692e-03
  +1.46000000000000014315e-03
  +1.47000000000000016938e-03
  +1.48000000000000019561e-03
  +1.49000000000000022184e-03
  +1.50000000000000003123e-03
  +1.51000000000000005745e-03
  +1.52000000000000008368e-03
  +1.53000000000000010991e-03
  +1.54000000000000013614e-03
  +1.55000000000000016237e-03
  +1.56000000000000018860e-03
  +1.57000000000000021483e-03
  +1.58000000000000002422e-03
  +1.59000000000000005045e-03
  +1.60000000000000007667e-03
  +1.61000000000000010290e-03
  +1.62000000000000012913e-03
  +1.63000000000000015536e-03
  +1.64000000000000018159e-03
  +1.65000000000000020782e-03
  +1.66000000000000023405e-03
  +1.67000000000000004344e-03
  +1.68000000000000006967e-03
  +1.69000000000000009590e-03
  +1.70000000000000012212e-03
  +1.71000000000000014835e-03
  +1.72000000000000017458e-03
  +1.73000000000000020081e-03
  +1.74000000000000022704e-03
  +1.75000000000000003643e-03
  +1.76000000000000006266e-03
  +1.77000000000000008889e-03
  +1.78000000000000011512e-03
  +1.79000000000000014135e-03
  +1.80000000000000016757e-03
  +1.81000000000000019380e-03
  +1.82000000000000022003e-03
  +1.83000000000000024626e-03
  +1.84000000000000005565e-03
  +1.85000000000000008188e-03
  +1.86000000000000010811e-03
  +1.87000000000000013434e-03
  +1.88000000000000016057e-03
  +1.89000000000000018680e-03
  +1.90000000000000021302e-03
  +1.91000000000000023925e-03
  +1.92000000000000026548e-03
  +1.93000000000000007487e-03
  +1.94000000000000010110e-03
  +1.95000000000000012733e-03
  +1.96000000000000037040e-03
  +1.96999999999999996295e-03
  +1.97999999999999998918e-03
  +1.99000000000000001540e-03
  +2.00000000000000004163e-03
</indep>
<dep Pr1.It time>
  +9.99984588730076610907e-04
  +1.02984465447483177977e-03
  +1.06112437671129398141e-03
  +1.09216270527923760975e-03
  +1.12283727677856925813e-03
  +1.15302701739914510368e-03
  +1.18261277513298621207e-03
  +1.21147778540232442350e-03
  +1.23950812979725590209e-03
  +1.26659318472237096553e-03
  +1.29262605755493917466e-03
  +1.31750400831071078425e-03
  +1.34112885502578348985e-03
  +1.36340736119722151162e-03
  +1.38425160372747228267e-03
  +1.40357931990878789623e-03
  +1.42131423207300091813e-03
  +1.43738634862302988235e-03
  +1.45173224025701682119e-03
  +1.46429529029447791540e-03
  +1.47502591811632757270e-03
  +1.48388177483686528775e-03
  +1.49082791043545219607e-03
  +1.49583691168825869480e-03
  +1.49888901035573058988e-03
  +1.49997216119879673950e-03
  +1.49908208951592385877e-03
  +1.49622230801340792491e-03
  +1.49140410294233043478e-03
  +1.48464648955687751435e-03
  +1.47597613706982179298e-03
  +1.46542726340132228695e-03
  +1.45304150013642703262e-03
  +1.43886772822422541983e-03
  +1.42296188506707359765e-03
  +1.40538674376122600662e-03
  +1.38621166536009735384e-03
  +1.36551232513787662408e-03
  +1.34337041393379303875e-03
  +1.31987331575569074443e-03
  +1.29511376291527725672e-03
  +1.26918947005604789910e-03
  +1.24220274851823716915e-03
  +1.21426010256269379002e-03
  +1.18547180904722332037e-03
  +1.15595148221421138365e-03
  +1.12581562530711344269e-03
  +1.09518317078537846809e-03
  +1.06417501095236607077e-03
  +1.03291352084865640897e-03
  +1.00152207529367333859e-03
  +9.70124561981634673559e-04
  +9.38844892553423082844e-04
  +9.07806513573950878832e-04
  +8.77131919344962857239e-04
  +8.46942168475992105542e-04
  +8.17356406121333054458e-04
  +7.88491393768550531858e-04
  +7.60461048434231488141e-04
  +7.33375993085563196612e-04
  +7.07343120062022749465e-04
  +6.82465169220145212794e-04
  +6.58840322466249070539e-04
  +6.36561816277305845754e-04
  +6.15717573739162299731e-04
  +5.96389857554287792542e-04
  +5.78654945388470368269e-04
  +5.62582828837718024358e-04
  +5.48236937203404740664e-04
  +5.35673887165796845482e-04
  +5.24943259343881051850e-04
  +5.16087402623312979134e-04
  +5.09141267024712626706e-04
  +5.04132265771900381704e-04
  +5.01080167104425667698e-04
  +4.99997016261358108620e-04
  +5.00887087944230555668e-04
  +5.03746869446745839001e-04
  +5.08565074517823545973e-04
  +5.15322687903276249570e-04
  +5.23993040390331970939e-04
  +5.34541914058831368547e-04
  +5.46927677323726731291e-04
  +5.61101449235928777769e-04
  +5.77007292393079624163e-04
  +5.94582433698927865715e-04
  +6.13757512100056843753e-04
  +6.34456852322277139837e-04
  +6.56598763526360833589e-04
  +6.80095861704462911063e-04
  +7.04855414544876832453e-04
  +7.30779707404105973237e-04
  +7.57766428941916377927e-04
  +7.85709074897460082315e-04
  +8.14497368412930443544e-04
  +8.44017695245942163422e-04
  +8.74153552153040321222e-04
  +9.04786006674775404243e-04
  +9.35794166507787801568e-04
  +9.67055656611496487589e-04
  +9.98447102166480316907e-04
  +1.02984461547851887352e-03
  +1.06112428490673068107e-03
  +1.09216266388620299350e-03
  +1.12283725811519112352e-03
  +1.15302700898416176679e-03
  +1.18261277133882070946e-03
  +1.21147778369160236470e-03
  +1.23950812902592195051e-03
  +1.26659318437459035046e-03
  +1.29262605739813123129e-03
  +1.31750400824000909322e-03
  +1.34112885499390491022e-03
  +1.36340736118284780974e-03
  +1.38425160372099178945e-03
  +1.40357931990586640505e-03
  +1.42131423207168339565e-03
  +1.43738634862243595640e-03
  +1.45173224025674880641e-03
  +1.46429529029435735211e-03
  +1.47502591811627314575e-03
  +1.48388177483684078478e-03
  +1.49082791043544135405e-03
  +1.49583691168825370747e-03
  +1.49888901035572798780e-03
  +1.49997216119879587214e-03
  +1.49908208951592320825e-03
  +1.49622230801340792491e-03
  +1.49140410294233043478e-03
  +1.48464648955687751435e-03
  +1.47597613706982179298e-03
  +1.46542726340132272063e-03
  +1.45304150013642746631e-03
  +1.43886772822422541983e-03
  +1.42296188506707381449e-03
  +1.40538674376122600662e-03
  +1.38621166536009778752e-03
  +1.36551232513787640724e-03
  +1.34337041393379303875e-03
  +1.31987331575569117811e-03
  +1.29511376291527703988e-03
  +1.26918947005604811594e-03
  +1.24220274851823760283e-03
  +1.21426010256269357318e-03
  +1.18547180904722353721e-03
  +1.15595148221421181733e-03
  +1.12581562530711387637e-03
  +1.09518317078537803441e-03
  +1.06417501095236607077e-03
  +1.03291352084865705949e-03
  +1.00152207529367377227e-03
  +9.70124561981635107240e-04
  +9.38844892553423950206e-04
  +9.07806513573950661991e-04
  +8.77131919344963074080e-04
  +8.46942168475992539223e-04
  +8.17356406121332837618e-04
  +7.88491393768550531858e-04
  +7.60461048434232138662e-04
  +7.33375993085563413452e-04
  +7.07343120062022966306e-04
  +6.82465169220145646475e-04
  +6.58840322466249287379e-04
  +6.36561816277305520494e-04
  +6.15717573739162299731e-04
  +5.96389857554288009382e-04
  +5.78654945388470151428e-04
  +5.62582828837718349618e-04
  +5.48236937203404957504e-04
  +5.35673887165796845482e-04
  +5.24943259343881160270e-04
  +5.16087402623313195975e-04
  +5.09141267024712735126e-04
  +5.04132265771900381704e-04
  +5.01080167104425776119e-04
  +4.99997016261358108620e-04
  +5.00887087944230555668e-04
  +5.03746869446745947421e-04
  +5.08565074517823545973e-04
  +5.15322687903276466410e-04
  +5.23993040390332079359e-04
  +5.34541914058831260127e-04
  +5.46927677323727056552e-04
  +5.61101449235928777769e-04
  +5.77007292393079732583e-04
  +5.94582433698927757294e-04
  +6.13757512100056410072e-04
  +6.34456852322276922997e-04
  +6.56598763526361158850e-04
  +6.80095861704462911063e-04
  +7.04855414544876832453e-04
  +7.30779707404106298498e-04
  +7.57766428941916811608e-04
  +7.85709074897459431794e-04
  +8.14497368412930335124e-04
  +8.44017695245942055002e-04
  +8.74153552153040754903e-04
  +9.04786006674774753722e-04
  +9.35794166507786934206e-04
  +9.67055656611496053908e-04
  +9.98447102166480316907e-04
</dep>
<dep V1.It time>
  +0.00000000000000000000e+00
  +0.00000000000000000000e+00
  +0.00000000000000000000e+00
  +0.00000000000000000000e+00
  +0.00000000000000000000e+00
  +0.00000000000000000000e+00
  +0.00000000000000000000e+00
  +0.00000000000000000000e+00
  +0.00000000000000000000e+00
  +0.00000000000000000000e+00
  +0.00000000000000000000e+00
  +0.00000000000000000000e+00
  +0.00000000000000000000e+00
  +0.00000000000000000000e+00
  +0.00000000000000000000e+00
  +0.00000000000000000000e+00
  +0.00000000000000000000e+00
  +0.00000000000000000000e+00
  +0.00000000000000000000e+00
  +0.00000000000000000000e+00
  +0.00000000000000000000e+00
  +0.00000000000000000000e+00
  +0.00000000000000000000e+00
  +0.00000000000000000000e+00
  +0.00000000000000000000e+00
  +0.00000000000000000000e+00
  +0.00000000000000000000e+00
  +0.00000000000000000000e+00
  +0.00000000000000000000e+00
  +0.00000000000000000000e+00
  +0.00000000000000000000e+00
  +0.00000000000000000000e+00
  +0.00000000000000000000e+00
  +0.00000000000000000000e+00
  +0.00000000000000000000e+00
  +0.00000000000000000000e+00
  +0.00000000000000000000e+00
  +0.00000000000000000000e+00
  +0.00000000000000000000e+00
  +0.00000000000000000000e+00
  +0.00000000000000000000e+00
  +0.00000000000000000000e+00
  +0.00000000000000000000e+00
  +0.00000000000000000000e+00
  +0.00000000000000000000e+00
  +0.00000000000000000000e+00
  +0.00000000000000000000e+00
  +0.00000000000000000000e+00
  +0.00000000000000000000e+00
  +0.00000000000000000000e+00
  +0.00000000000000000000e+00
  +0.00000000000000000000e+00
  +0.00000000000000000000e+00
  +0.00000000000000000000e+00
  +0.00000000000000000000e+00
  +0.00000000000000000000e+00
  +0.00000000000000000000e+00
  +0.00000000000000000000e+00
  +0.00000000000000000000e+00
  +0.00000000000000000000e+00
  +0.00000000000000000000e+00
  +0.00000000000000000000e+00
  +0.00000000000000000000e+00
  +0.00000000000000000000e+00
  +0.00000000000000000000e+00
  +0.00000000000000000000e+00
  +0.00000000000000000000e+00
  +0.00000000000000000000e+00
  +0.00000000000000000000e+00
  +0.00000000000000000000e+00
  +0.00000000000000000000e+00
  +0.00000000000000000000e+00
  +0.00000000000000000000e+00
  +0.00000000000000000000e+00
  +0.00000000000000000000e+00
  +0.00000000000000000000e+00
  +0.00000000000000000000e+00
  +0.00000000000000000000e+00
  +0.00000000000000000000e+00
  +0.00000000000000000000e+00
  +0.00000000000000000000e+00
  +0.00000000000000000000e+00
  +0.00000000000000000000e+00
  +0.00000000000000000000e+00
  +0.00000000000000000000e+00
  +0.00000000000000000000e+00
  +0.00000000000000000000e+00
  +0.00000000000000000000e+00
  +0.00000000000000000000e+00
  +0.00000000000000000000e+00
  +0.00000000000000000000e+00
  +0.00000000000000000000e+00
  +0.00000000000000000000e+00
  +0.00000000000000000000e+00
  +0.00000000000000000000e+00
  +0.00000000000000000000e+00
  +0.00000000000000000000e+00
  +0.00000000000000000000e+00
  +0.00000000000000000000e+00
  +0.00000000000000000000e+00
  +0.00000000000000000000e+00
  +0.00000000000000000000e+00
  +0.00000000000000000000e+00
  +0.00000000000000000000e+00
  +0.00000000000000000000e+00
  +0.00000000000000000000e+00
  +0.00000000000000000000e+00
  +0.00000000000000000000e+00
  +0.00000000000000000000e+00
  +0.00000000000000000000e+00
  +0.00000000000000000000e+00
  +0.00000000000000000000e+00
  +0.00000000000000000000e+00
  +0.00000000000000000000e+00
  +0.00000000000000000000e+00
  +0.00000000000000000000e+00
  +0.00000000000000000000e+00
  +0.00000000000000000000e+00
  +0.00000000000000000000e+00
  +0.00000000000000000000e+00
  +0.00000000000000000000e+00
  +0.00000000000000000000e+00
  +0.00000000000000000000e+00
  +0.00000000000000000000e+00
  +0.00000000000000000000e+00
  +0.00000000000000000000e+00
  +0.00000000000000000000e+00
  +0.00000000000000000000e+00
  +0.00000000000000000000e+00
  +0.00000000000000000000e+00
  +0.00000000000000000000e+00
  +0.00000000000000000000e+00
  +0.00000000000000000000e+00
  +0.00000000000000000000e+00
  +0.00000000000000000000e+00
  +0.00000000000000000000e+00
  +0.00000000000000000000e+00
  +0.00000000000000000000e+00
  +0.00000000000000000000e+00
  +0.00000000000000000000e+00
  +0.00000000000000000000e+00
  +0.00000000000000000000e+00
  +0.00000000000000000000e+00
  +0.00000000000000000000e+00
  +0.00000000000000000000e+00
  +0.00000000000000000000e+00
  +0.00000000000000000000e+00
  +0.00000000000000000000e+00
  +0.00000000000000000000e+00
  +0.00000000000000000000e+00
  +0.00000000000000000000e+00
  +0.00000000000000000000e+00
  +0.00000000000000000000e+00
  +0.00000000000000000000e+00
  +0.00000000000000000000e+00
  +0.00000000000000000000e+00
  +0.00000000000000000000e+00
  +0.00000000000000000000e+00
  +0.00000000000000000000e+00
  +0.00000000000000000000e+00
  +0.00000000000000000000e+00
  +0.00000000000000000000e+00
  +0.00000000000000000000e+00
  +0.00000000000000000000e+00
  +0.00000000000000000000e+00
  +0.00000000000000000000e+00
  +0.00000000000000000000e+00
  +0.00000000000000000000e+00
  +0.00000000000000000000e+00
  +0.00000000000000000000e+00
  +0.00000000000000000000e+00
  +0.00000000000000000000e+00
  +0.00000000000000000000e+00
  +0.00000000000000000000e+00
  +0.00000000000000000000e+00
  +0.00000000000000000000e+00
  +0.00000000000000000000e+00
  +0.00000000000000000000e+00
  +0.00000000000000000000e+00
  +0.00000000000000000000e+00
  +0.00000000000000000000e+00
  +0.00000000000000000000e+00
  +0.00000000000000000000e+00
  +0.00000000000000000000e+00
  +0.00000000000000000000e+00
  +0.00000000000000000000e+00
  +0.00000000000000000000e+00
  +0.00000000000000000000e+00
  +0.00000000000000000000e+00
  +0.00000000000000000000e+00
  +0.00000000000000000000e+00
  +0.00000000000000000000e+00
  +0.00000000000000000000e+00
  +0.00000000000000000000e+00
  +0.00000000000000000000e+00
  +0.00000000000000000000e+00
  +0.00000000000000000000e+00
  +0.00000000000000000000e+00
  +0.00000000000000000000e+00
  +0.00000000000000000000e+00
  +0.00000000000000000000e+00
</dep>
<dep V2.It time>
  +0.00000000000000000000e+00
  +0.00000000000000000000e+00
  +0.00000000000000000000e+00
  +0.00000000000000000000e+00
  +0.00000000000000000000e+00
  +0.00000000000000000000e+00
  +0.00000000000000000000e+00
  +0.00000000000000000000e+00
  +0.00000000000000000000e+00
  +0.00000000000000000000e+00
  +0.00000000000000000000e+00
  +0.00000000000000000000e+00
  +0.00000000000000000000e+00
  +0.00000000000000000000e+00
  +0.00000000000000000000e+00
  +0.00000000000000000000e+00
  +0.00000000000000000000e+00
  +0.00000000000000000000e+00
  +0.00000000000000000000e+00
  +0.00000000000000000000e+00
  +0.00000000000000000000e+00
  +0.00000000000000000000e+00
  +0.00000000000000000000e+00
  +0.00000000000000000000e+00
  +0.00000000000000000000e+00
  +0.00000000000000000000e+00
  +0.00000000000000000000e+00
  +0.00000000000000000000e+00
  +0.00000000000000000000e+00
  +0.00000000000000000000e+00
  +0.00000000000000000000e+00
  +0.00000000000000000000e+00
  +0.00000000000000000000e+00
  +0.00000000000000000000e+00
  +0.00000000000000000000e+00
  +0.00000000000000000000e+00
  +0.00000000000000000000e+00
  +0.00000000000000000000e+00
  +0.00000000000000000000e+00
  +0.00000000000000000000e+00
  +0.00000000000000000000e+00
  +0.00000000000000000000e+00
  +0.00000000000000000000e+00
  +0.00000000000000000000e+00
  +0.00000000000000000000e+00
  +0.00000000000000000000e+00
  +0.00000000000000000000e+00
  +0.00000000000000000000e+00
  +0.00000000000000000000e+00
  +0.00000000000000000000e+00
  +0.00000000000000000000e+00
  +0.00000000000000000000e+00
  +0.00000000000000000000e+00
  +0.00000000000000000000e+00
  +0.00000000000000000000e+00
  +0.00000000000000000000e+00
  +0.00000000000000000000e+00
  +0.00000000000000000000e+00
  +0.00000000000000000000e+00
