<Qucs Dataset 0.0.21>
<indep time 218>
0.000000000000e+00
9.950250000000e-08
1.079572968103e-07
1.248668904310e-07
1.586860776722e-07
2.263244521548e-07
3.616012011199e-07
6.321546990501e-07
1.173261694910e-06
2.255475686631e-06
4.419903670073e-06
8.215291435644e-06
1.404329775988e-05
2.332526107010e-05
3.327551107010e-05
4.322576107010e-05
5.317601107010e-05
6.312626107010e-05
7.307651107010e-05
8.302676107010e-05
9.297701107010e-05
1.029272610701e-04
1.128775110701e-04
1.228277610701e-04
1.327780110701e-04
1.427282610701e-04
1.526785110701e-04
1.626287610701e-04
1.725790110701e-04
1.825292610701e-04
1.924795110701e-04
2.024297610701e-04
2.123800110701e-04
2.223302610701e-04
2.322805110701e-04
2.422307610701e-04
2.521810110701e-04
2.621312610701e-04
2.720815110701e-04
2.820317610701e-04
2.919820110701e-04
3.019322610701e-04
3.118825110701e-04
3.218327610701e-04
3.317830110701e-04
3.417332610701e-04
3.516835110701e-04
3.616337610701e-04
3.715840110701e-04
3.815342610701e-04
3.914845110701e-04
4.014347610701e-04
4.113850110701e-04
4.213352610701e-04
4.312855110701e-04
4.412357610701e-04
4.511860110701e-04
4.611362610701e-04
4.710865110701e-04
4.810367610701e-04
4.909870110701e-04
4.945924715417e-04
5.001355098660e-04
5.061985057926e-04
5.161487557926e-04
5.260990057926e-04
5.360492557926e-04
5.459995057926e-04
5.559497557926e-04
5.659000057926e-04
5.758502557926e-04
5.858005057926e-04
5.957507557926e-04
6.057010057926e-04
6.156512557926e-04
6.256015057926e-04
6.355517557926e-04
6.455020057926e-04
6.554522557926e-04
6.654025057926e-04
6.753527557926e-04
6.853030057926e-04
6.952532557926e-04
7.052035057926e-04
7.151537557926e-04
7.251040057926e-04
7.350542557926e-04
7.450045057926e-04
7.549547557926e-04
7.649050057926e-04
7.748552557926e-04
7.848055057926e-04
7.947557557926e-04
8.047060057926e-04
8.146562557926e-04
8.246065057926e-04
8.345567557926e-04
8.445070057926e-04
8.544572557926e-04
8.644075057926e-04
8.743577557926e-04
8.843080057926e-04
8.942582557926e-04
9.042085057926e-04
9.141587557926e-04
9.241090057926e-04
9.340592557926e-04
9.440095057926e-04
9.539597557926e-04
9.639100057926e-04
9.738602557926e-04
9.838105057926e-04
9.937607557926e-04
9.969276338501e-04
1.001952104570e-03
1.011265239342e-03
1.021215489342e-03
1.031165739342e-03
1.041115989342e-03
1.051066239342e-03
1.061016489342e-03
1.070966739342e-03
1.080916989342e-03
1.090867239342e-03
1.100817489342e-03
1.110767739342e-03
1.120717989342e-03
1.130668239342e-03
1.140618489342e-03
1.150568739342e-03
1.160518989342e-03
1.170469239342e-03
1.180419489342e-03
1.190369739342e-03
1.200319989342e-03
1.210270239342e-03
1.220220489342e-03
1.230170739342e-03
1.240120989342e-03
1.250071239342e-03
1.260021489342e-03
1.269971739342e-03
1.279921989342e-03
1.289872239342e-03
1.299822489342e-03
1.309772739342e-03
1.319722989342e-03
1.329673239342e-03
1.339623489342e-03
1.349573739342e-03
1.359523989342e-03
1.369474239342e-03
1.379424489342e-03
1.389374739342e-03
1.399324989342e-03
1.409275239342e-03
1.419225489342e-03
1.429175739342e-03
1.439125989342e-03
1.449076239342e-03
1.459026489342e-03
1.468976739342e-03
1.478926989342e-03
1.488877239342e-03
1.493618616365e-03
1.497937370189e-03
1.503129850632e-03
1.513080100632e-03
1.523030350632e-03
1.532980600632e-03
1.542930850632e-03
1.552881100632e-03
1.562831350632e-03
1.572781600632e-03
1.582731850632e-03
1.592682100632e-03
1.602632350632e-03
1.612582600632e-03
1.622532850632e-03
1.632483100632e-03
1.642433350632e-03
1.652383600632e-03
1.662333850632e-03
1.672284100632e-03
1.682234350632e-03
1.692184600632e-03
1.702134850632e-03
1.712085100632e-03
1.722035350632e-03
1.731985600632e-03
1.741935850632e-03
1.751886100632e-03
1.761836350632e-03
1.771786600632e-03
1.781736850632e-03
1.791687100632e-03
1.801637350632e-03
1.811587600632e-03
1.821537850632e-03
1.831488100632e-03
1.841438350632e-03
1.851388600632e-03
1.861338850632e-03
1.871289100632e-03
1.881239350632e-03
1.891189600632e-03
1.901139850632e-03
1.911090100632e-03
1.921040350632e-03
1.930990600632e-03
1.940940850632e-03
1.950891100632e-03
1.960841350632e-03
1.970791600632e-03
1.980741850632e-03
1.990692100632e-03
1.994501029149e-03
2.000000000000e-03
</indep>
<dep tran.v(uin) time>
0.000000000000e+00
3.125963026499e-04
3.391578245523e-04
3.922808654106e-04
4.985269332431e-04
7.110189965808e-04
1.136002699623e-03
1.985967336573e-03
3.685876937201e-03
7.085548672723e-03
1.388375213865e-02
2.579763962221e-02
4.406109465093e-02
7.301642647550e-02
1.037781541304e-01
1.341343805329e-01
1.639664922048e-01
1.931579235861e-01
2.215946125019e-01
2.491654458467e-01
2.757626937468e-01
3.012824305019e-01
3.256249406633e-01
3.486951086603e-01
3.704027904533e-01
3.906631657620e-01
4.093970694899e-01
4.265313010536e-01
4.419989104057e-01
4.557394596340e-01
4.676992591159e-01
4.778315773046e-01
4.860968233271e-01
4.924627016813e-01
4.969043384263e-01
4.994043783755e-01
4.999530529088e-01
4.985482181435e-01
4.951953633105e-01
4.899075893060e-01
4.827055575015e-01
4.736174090115e-01
4.626786547352e-01
4.499320366025e-01
4.354273605638e-01
4.192213019796e-01
4.013771841680e-01
3.819647309758e-01
3.610597943405e-01
3.387440579082e-01
3.151047178632e-01
2.902341422195e-01
2.642295099033e-01
2.371924310372e-01
2.092285499105e-01
1.804471321863e-01
1.509606379583e-01
1.208842823257e-01
9.033558520382e-02
5.943391212817e-02
2.830000784737e-02
1.698498331970e-02
-4.257167479785e-04
-1.946825775300e-02
-5.064580600264e-02
-8.162546156537e-02
-1.122861749849e-01
-1.425081430350e-01
-1.721732768364e-01
-2.011656632762e-01
-2.293720179247e-01
-2.566821276812e-01
-2.829892814195e-01
-3.081906869492e-01
-3.321878726641e-01
-3.548870723095e-01
-3.761995913621e-01
-3.960421535946e-01
-4.143372264674e-01
-4.310133240784e-01
-4.460052864861e-01
-4.592545343143e-01
-4.707092976443e-01
-4.803248183003e-01
-4.880635247364e-01
-4.938951788437e-01
-4.977969941014e-01
-4.997537246133e-01
-4.997577246791e-01
-4.978089786689e-01
-4.939151010845e-01
-4.880913068068e-01
-4.803603516449e-01
-4.707524434207e-01
-4.593051239353e-01
-4.460631222786e-01
-4.310781800556e-01
-4.144088492120e-01
-3.961202632489e-01
-3.762838827216e-01
-3.549772160154e-01
-3.322835164902e-01
-3.082914571781e-01
-2.830947843032e-01
-2.567919509792e-01
-2.294857325150e-01
-2.012828248322e-01
-1.722934275626e-01
-1.426308134562e-01
-1.124108857806e-01
-8.175172544229e-02
-5.077312959919e-02
-1.959614356681e-02
-9.651523453204e-03
6.132563609408e-03
3.536124905216e-02
6.645321422041e-02
9.728552106443e-02
1.277376958762e-01
1.576907502701e-01
1.870276461164e-01
2.156337528543e-01
2.433972953976e-01
2.702097908835e-01
2.959664725565e-01
3.205666991326e-01
3.439143480437e-01
3.659181910256e-01
3.864922505818e-01
4.055561359305e-01
4.230353571232e-01
4.388616161048e-01
4.529730735807e-01
4.653145906469e-01
4.758379442389e-01
4.845020155576e-01
4.912729507367e-01
4.961242931222e-01
4.990370866495e-01
4.999999499113e-01
4.990091206299e-01
4.960684703570e-01
4.911894893469e-01
4.843912416592e-01
4.757002906681e-01
4.651505952693e-01
4.527833771894e-01
4.386469599168e-01
4.227965798829e-01
4.052941706327e-01
3.862081208258e-01
3.656130070160e-01
3.435893022520e-01
3.202230616380e-01
2.956055860831e-01
2.698330655540e-01
2.430062032230e-01
2.152298219824e-01
1.866124548610e-01
1.572659209434e-01
1.273048884502e-01
9.684642668448e-02
6.600954859755e-02
3.491474575902e-02
2.004233678896e-02
6.479761269406e-03
-9.832081998149e-03
-4.104610516606e-02
-7.209974537872e-02
-1.028716640933e-01
-1.332416235615e-01
-1.630909566447e-01
-1.923030304924e-01
-2.207637022712e-01
-2.483617651658e-01
-2.749893829058e-01
-3.005425111244e-01
-3.249213038995e-01
-3.480305038902e-01
-3.697798145441e-01
-3.900842529205e-01
-4.088644817519e-01
-4.260471194447e-01
-4.415650268100e-01
-4.553575694020e-01
-4.673708544399e-01
-4.775579413883e-01
-4.858790253716e-01
-4.923015927070e-01
-4.968005479482e-01
-4.993583119429e-01
-4.999648905211e-01
-4.986179135465e-01
-4.953226441774e-01
-4.900919583015e-01
-4.829462942248e-01
-4.739135728114e-01
-4.630290883856e-01
-4.503353708240e-01
-4.358820193741e-01
-4.197255088516e-01
-4.019289689710e-01
-3.825619376738e-01
-3.617000894169e-01
-3.394249394832e-01
-3.158235254700e-01
-2.909880671997e-01
-2.650156063814e-01
-2.380076274313e-01
-2.100696609340e-01
-1.813108712942e-01
-1.518436301889e-01
-1.217830774881e-01
-9.124667135880e-02
-6.035372931092e-02
-2.922496197757e-02
-1.727208944892e-02
-2.449293598295e-16
</dep>
<dep tran.v(uut) time>
0.000000000000e+00
1.917035505004e-04
2.093748024514e-04
2.474773762341e-04
3.401943032738e-04
5.911917223686e-04
1.351623015092e-03
3.876479043806e-03
1.271618245483e-02
4.392265412782e-02
1.497082107546e-01
4.301707505233e-01
9.871196806237e-01
1.988406469462e+00
3.096494883778e+00
4.197002304196e+00
5.281433129176e+00
6.345250408465e+00
7.384275994745e+00
8.394448485823e+00
9.371820639189e+00
1.031257347729e+01
1.121303111558e+01
1.206967511893e+01
1.287915824899e+01
1.363831754315e+01
1.397089397089e+01
1.397089397089e+01
1.397089397089e+01
1.397089397089e+01
1.397089397089e+01
1.397089397089e+01
1.397089397089e+01
1.397089397089e+01
1.397089397089e+01
1.397089397089e+01
1.397089397089e+01
1.397089397089e+01
1.397089397089e+01
1.397089397089e+01
1.397089397089e+01
1.397089397089e+01
1.397089397089e+01
1.397089397089e+01
1.397089397089e+01
1.397089397089e+01
1.397089397089e+01
1.397089397089e+01
1.397089397089e+01
1.397089397089e+01
1.397089397089e+01
1.397089397089e+01
1.397089397089e+01
1.397089397089e+01
1.397089397089e+01
1.397089397089e+01
1.397089397089e+01
1.397089397089e+01
1.397089397089e+01
4.640718956197e+00
1.797612091234e+00
1.327940510972e+00
6.572488207766e-01
-4.448697493133e-02
-1.174877281041e+00
-2.294344856262e+00
-3.404395279643e+00
-4.501111115769e+00
-5.580237068490e+00
-6.637558719136e+00
-7.668944857462e+00
-8.670365471180e+00
-9.637907624705e+00
-1.056779075793e+01
-1.145638145902e+01
-1.230020766156e+01
-1.309597221131e+01
-1.384056574942e+01
-1.397089397089e+01
-1.397089397089e+01
-1.397089397089e+01
-1.397089397089e+01
-1.397089397089e+01
-1.397089397089e+01
-1.397089397089e+01
-1.397089397089e+01
-1.397089397089e+01
-1.397089397089e+01
-1.397089397089e+01
-1.397089397089e+01
-1.397089397089e+01
-1.397089397089e+01
-1.397089397089e+01
-1.397089397089e+01
-1.397089397089e+01
-1.397089397089e+01
-1.397089397089e+01
-1.397089397089e+01
-1.397089397089e+01
-1.397089397089e+01
-1.397089397089e+01
-1.397089397089e+01
-1.397089397089e+01
-1.397089397089e+01
-1.397089397089e+01
-1.397089397089e+01
-1.397089397089e+01
-1.397089397089e+01
-1.397089397089e+01
-1.397089397089e+01
-1.226331044373e+01
-3.090568111317e+00
-1.396706904518e+00
-1.020368370220e+00
-4.376981773128e-01
6.232720310587e-01
1.745972790365e+00
2.860998541719e+00
3.964784356756e+00
5.053073880355e+00
6.121618785714e+00
7.166244144532e+00
8.182868223463e+00
9.167518681814e+00
1.011634811079e+01
1.102564906807e+01
1.189186856429e+01
1.271162194597e+01
1.348170612066e+01
1.397089397089e+01
1.397089397089e+01
1.397089397089e+01
1.397089397089e+01
1.397089397089e+01
1.397089397089e+01
1.397089397089e+01
1.397089397089e+01
1.397089397089e+01
1.397089397089e+01
1.397089397089e+01
1.397089397089e+01
1.397089397089e+01
1.397089397089e+01
1.397089397089e+01
1.397089397089e+01
1.397089397089e+01
1.397089397089e+01
1.397089397089e+01
1.397089397089e+01
1.397089397089e+01
1.397089397089e+01
1.397089397089e+01
1.397089397089e+01
1.397089397089e+01
1.397089397089e+01
1.397089397089e+01
1.397089397089e+01
1.397089397089e+01
1.397089397089e+01
1.397089397089e+01
1.397089397089e+01
1.397089397089e+01
6.937954228445e+00
2.182119709990e+00
1.484711120804e+00
9.339783261823e-01
3.146784157556e-01
-8.277668464716e-01
-1.949941367739e+00
-3.063279905084e+00
-4.164562116908e+00
-5.249565571685e+00
-6.314056506812e+00
-7.353875957570e+00
-8.364960977942e+00
-9.343360871102e+00
-1.028525265167e+01
-1.118695598538e+01
-1.204494756973e+01
-1.285587490087e+01
-1.361656937310e+01
-1.397089397089e+01
-1.397089397089e+01
-1.397089397089e+01
-1.397089397089e+01
-1.397089397089e+01
-1.397089397089e+01
-1.397089397089e+01
-1.397089397089e+01
-1.397089397089e+01
-1.397089397089e+01
-1.397089397089e+01
-1.397089397089e+01
-1.397089397089e+01
-1.397089397089e+01
-1.397089397089e+01
-1.397089397089e+01
-1.397089397089e+01
-1.397089397089e+01
-1.397089397089e+01
-1.397089397089e+01
-1.397089397089e+01
-1.397089397089e+01
-1.397089397089e+01
-1.397089397089e+01
-1.397089397089e+01
-1.397089397089e+01
-1.397089397089e+01
-1.397089397089e+01
-1.397089397089e+01
-1.397089397089e+01
-1.397089397089e+01
-1.397089397089e+01
-1.397089397089e+01
-4.966390755203e+00
-1.851701624146e+00
-1.346046712703e+00
-6.755418893051e-01
</dep>
<dep tran.i(pr1) time>
0.000000000000e+00
5.325098625012e-09
5.815966734761e-09
6.874371562058e-09
9.449841757605e-09
1.642199228802e-08
3.754508375255e-08
1.076799734391e-07
3.532272904120e-07
1.220073725773e-06
4.158561409850e-06
1.194918751453e-05
2.741999112844e-05
5.523351304062e-05
8.601374677162e-05
1.165833973388e-04
1.467064758104e-04
1.762569557907e-04
2.051187776318e-04
2.331791246062e-04
2.603283510886e-04
2.864603743691e-04
3.114730865439e-04
3.352687533036e-04
3.577543958054e-04
3.788421539763e-04
3.880803880804e-04
3.880803880804e-04
3.880803880804e-04
3.880803880804e-04
3.880803880804e-04
3.880803880804e-04
3.880803880804e-04
3.880803880804e-04
3.880803880804e-04
3.880803880804e-04
3.880803880804e-04
3.880803880804e-04
3.880803880804e-04
3.880803880804e-04
3.880803880804e-04
3.880803880804e-04
3.880803880804e-04
3.880803880804e-04
3.880803880804e-04
3.880803880804e-04
3.880803880804e-04
3.880803880804e-04
3.880803880804e-04
3.880803880804e-04
3.880803880804e-04
3.880803880804e-04
3.880803880804e-04
3.880803880804e-04
3.880803880804e-04
3.880803880804e-04
3.880803880804e-04
3.880803880804e-04
3.880803880804e-04
1.289088598944e-04
4.993366920095e-05
3.688723641588e-05
1.825691168824e-05
-1.235749303648e-06
-3.263548002892e-05
-6.373180156284e-05
-9.456653554565e-05
-1.250308643269e-04
-1.550065852358e-04
-1.843766310871e-04
-2.130262460406e-04
-2.408434853105e-04
-2.677196562418e-04
-2.935497432760e-04
-3.182328183061e-04
-3.416724350434e-04
-3.637770058697e-04
-3.844601597060e-04
-3.880803880804e-04
-3.880803880804e-04
-3.880803880804e-04
-3.880803880804e-04
-3.880803880804e-04
-3.880803880804e-04
-3.880803880804e-04
-3.880803880804e-04
-3.880803880804e-04
-3.880803880804e-04
-3.880803880804e-04
-3.880803880804e-04
-3.880803880804e-04
-3.880803880804e-04
-3.880803880804e-04
-3.880803880804e-04
-3.880803880804e-04
-3.880803880804e-04
-3.880803880804e-04
-3.880803880804e-04
-3.880803880804e-04
-3.880803880804e-04
-3.880803880804e-04
-3.880803880804e-04
-3.880803880804e-04
-3.880803880804e-04
-3.880803880804e-04
-3.880803880804e-04
-3.880803880804e-04
-3.880803880804e-04
-3.880803880804e-04
-3.880803880804e-04
-3.406475123257e-04
-8.584911420325e-05
-3.879741401439e-05
-2.834356583945e-05
-1.215828270313e-05
1.731311197385e-05
4.849924417680e-05
7.947218171441e-05
1.101328987988e-04
1.403631633432e-04
1.700449662698e-04
1.990623373481e-04
2.273018950962e-04
2.546532967171e-04
2.810096697442e-04
3.062680296685e-04
3.303296823413e-04
3.531006096103e-04
3.744918366851e-04
3.880803880804e-04
3.880803880804e-04
3.880803880804e-04
3.880803880804e-04
3.880803880804e-04
3.880803880804e-04
3.880803880804e-04
3.880803880804e-04
3.880803880804e-04
3.880803880804e-04
3.880803880804e-04
3.880803880804e-04
3.880803880804e-04
3.880803880804e-04
3.880803880804e-04
3.880803880804e-04
3.880803880804e-04
3.880803880804e-04
3.880803880804e-04
3.880803880804e-04
3.880803880804e-04
3.880803880804e-04
3.880803880804e-04
3.880803880804e-04
3.880803880804e-04
3.880803880804e-04
3.880803880804e-04
3.880803880804e-04
3.880803880804e-04
3.880803880804e-04
3.880803880804e-04
3.880803880804e-04
3.880803880804e-04
1.927209507901e-04
6.061443638861e-05
4.124197557789e-05
2.594384239395e-05
8.741067104321e-06
-2.299352351310e-05
-5.416503799274e-05
-8.509110847457e-05
-1.156822810252e-04
-1.458212658801e-04
-1.753904585226e-04
-2.042743321547e-04
-2.323600271650e-04
-2.595378019751e-04
-2.857014625463e-04
-3.107487773717e-04
-3.345818769370e-04
-3.571076361352e-04
-3.782380381418e-04
-3.880803880804e-04
-3.880803880804e-04
-3.880803880804e-04
-3.880803880804e-04
-3.880803880804e-04
-3.880803880804e-04
-3.880803880804e-04
-3.880803880804e-04
-3.880803880804e-04
-3.880803880804e-04
-3.880803880804e-04
-3.880803880804e-04
-3.880803880804e-04
-3.880803880804e-04
-3.880803880804e-04
-3.880803880804e-04
-3.880803880804e-04
-3.880803880804e-04
-3.880803880804e-04
-3.880803880804e-04
-3.880803880804e-04
-3.880803880804e-04
-3.880803880804e-04
-3.880803880804e-04
-3.880803880804e-04
-3.880803880804e-04
-3.880803880804e-04
-3.880803880804e-04
-3.880803880804e-04
-3.880803880804e-04
-3.880803880804e-04
-3.880803880804e-04
-3.880803880804e-04
-1.379552987556e-04
-5.143615622627e-05
-3.739018646397e-05
-1.876505248070e-05
</dep>
