<Qucs Dataset 0.0.24>
<indep time 209>
0.000000000000e+00
9.950250000000e-08
1.990050000000e-07
3.980100000000e-07
7.960200000000e-07
1.592040000000e-06
3.184080000000e-06
6.368160000000e-06
1.273632000000e-05
2.268657000000e-05
3.263682000000e-05
4.258707000000e-05
5.253732000000e-05
6.248757000000e-05
7.243782000000e-05
8.238807000000e-05
9.233832000000e-05
1.022885700000e-04
1.122388200000e-04
1.221890700000e-04
1.321393200000e-04
1.420895700000e-04
1.520398200000e-04
1.619900700000e-04
1.719403200000e-04
1.818905700000e-04
1.918408200000e-04
2.017910700000e-04
2.117413200000e-04
2.216915700000e-04
2.316418200000e-04
2.415920700000e-04
2.515423200000e-04
2.614925700000e-04
2.714428200000e-04
2.813930700000e-04
2.913433200000e-04
3.012935700000e-04
3.112438200000e-04
3.211940700000e-04
3.311443200000e-04
3.410945700000e-04
3.510448200000e-04
3.609950700000e-04
3.709453200000e-04
3.808955700000e-04
3.908458200000e-04
4.007960700000e-04
4.107463200000e-04
4.206965700000e-04
4.306468200000e-04
4.405970700000e-04
4.505473200000e-04
4.604975700000e-04
4.704478200000e-04
4.803980700000e-04
4.903483200000e-04
5.002985700000e-04
5.102488200000e-04
5.201990700000e-04
5.301493200000e-04
5.400995700000e-04
5.500498200000e-04
5.600000700000e-04
5.699503200000e-04
5.799005700000e-04
5.898508200000e-04
5.998010700000e-04
6.097513200000e-04
6.197015700000e-04
6.296518200000e-04
6.396020700000e-04
6.495523200000e-04
6.595025700000e-04
6.694528200000e-04
6.794030700000e-04
6.893533200000e-04
6.993035700000e-04
7.092538200000e-04
7.192040700000e-04
7.291543200000e-04
7.391045700000e-04
7.490548200000e-04
7.590050700000e-04
7.689553200000e-04
7.789055700000e-04
7.888558200000e-04
7.988060700000e-04
8.087563200000e-04
8.187065700000e-04
8.286568200000e-04
8.386070700000e-04
8.485573200000e-04
8.585075700000e-04
8.684578200000e-04
8.784080700000e-04
8.883583200000e-04
8.983085700000e-04
9.082588200000e-04
9.182090700000e-04
9.281593200000e-04
9.381095700000e-04
9.480598200000e-04
9.580100700000e-04
9.679603200000e-04
9.779105700000e-04
9.878608200000e-04
9.978110700000e-04
1.007761320000e-03
1.017711570000e-03
1.027661820000e-03
1.037612070000e-03
1.047562320000e-03
1.057512570000e-03
1.067462820000e-03
1.077413070000e-03
1.087363320000e-03
1.097313570000e-03
1.107263820000e-03
1.117214070000e-03
1.127164320000e-03
1.137114570000e-03
1.147064820000e-03
1.157015070000e-03
1.166965320000e-03
1.176915570000e-03
1.186865820000e-03
1.196816070000e-03
1.206766320000e-03
1.216716570000e-03
1.226666820000e-03
1.236617070000e-03
1.246567320000e-03
1.256517570000e-03
1.266467820000e-03
1.276418070000e-03
1.286368320000e-03
1.296318570000e-03
1.306268820000e-03
1.316219070000e-03
1.326169320000e-03
1.336119570000e-03
1.346069820000e-03
1.356020070000e-03
1.365970320000e-03
1.375920570000e-03
1.385870820000e-03
1.395821070000e-03
1.405771320000e-03
1.415721570000e-03
1.425671820000e-03
1.435622070000e-03
1.445572320000e-03
1.455522570000e-03
1.465472820000e-03
1.475423070000e-03
1.485373320000e-03
1.495323570000e-03
1.505273820000e-03
1.515224070000e-03
1.525174320000e-03
1.535124570000e-03
1.545074820000e-03
1.555025070000e-03
1.564975320000e-03
1.574925570000e-03
1.584875820000e-03
1.594826070000e-03
1.604776320000e-03
1.614726570000e-03
1.624676820000e-03
1.634627070000e-03
1.644577320000e-03
1.654527570000e-03
1.664477820000e-03
1.674428070000e-03
1.684378320000e-03
1.694328570000e-03
1.704278820000e-03
1.714229070000e-03
1.724179320000e-03
1.734129570000e-03
1.744079820000e-03
1.754030070000e-03
1.763980320000e-03
1.773930570000e-03
1.783880820000e-03
1.793831070000e-03
1.803781320000e-03
1.813731570000e-03
1.823681820000e-03
1.833632070000e-03
1.843582320000e-03
1.853532570000e-03
1.863482820000e-03
1.873433070000e-03
1.883383320000e-03
1.893333570000e-03
1.903283820000e-03
1.913234070000e-03
1.923184320000e-03
1.933134570000e-03
1.943084820000e-03
1.953035070000e-03
1.962985320000e-03
1.972935570000e-03
1.982885820000e-03
1.992836070000e-03
2.000000000000e-03
</indep>
<dep tran.v(uin) time>
1.000000000000e-01
1.000937788908e-01
1.001875577449e-01
1.003751151966e-01
1.007502280473e-01
1.015004373275e-01
1.030007245199e-01
1.060002480501e-01
1.119908910656e-01
1.213092540905e-01
1.305443536455e-01
1.396601046365e-01
1.486208883107e-01
1.573916914319e-01
1.659382430915e-01
1.742271486175e-01
1.822260200610e-01
1.899036027478e-01
1.972298974027e-01
2.041762773685e-01
2.107156004610e-01
2.168223150240e-01
2.224725597698e-01
2.276442570141e-01
2.323171989421e-01
2.364731265685e-01
2.400958010820e-01
2.431710672968e-01
2.456869089624e-01
2.476334957155e-01
2.490032214914e-01
2.497907342435e-01
2.499929568558e-01
2.496090991667e-01
2.486406610561e-01
2.470914265850e-01
2.449674492098e-01
2.422770281287e-01
2.390306758540e-01
2.352410771355e-01
2.309230393961e-01
2.260934348739e-01
2.207711346954e-01
2.149769351389e-01
2.087334763758e-01
2.020651540062e-01
1.949980237359e-01
1.875596995673e-01
1.797792459001e-01
1.716870639660e-01
1.633147730392e-01
1.546950868876e-01
1.458616859479e-01
1.368490857225e-01
1.276925019146e-01
1.184277128269e-01
1.090909195617e-01
9.971860456948e-02
9.034738909763e-02
8.101389009746e-02
7.175457714740e-02
6.260562995242e-02
5.360279697592e-02
4.478125575675e-02
3.617547545695e-02
2.781908217749e-02
1.974472756813e-02
1.198396124482e-02
4.567107513169e-03
-2.476853120241e-03
-9.120397185929e-03
-1.533756579629e-02
-2.110406607698e-02
-2.639736608854e-02
-3.119678286737e-02
-3.548356324206e-02
-3.924095710921e-02
-4.245428288260e-02
-4.511098485977e-02
-4.720068228197e-02
-4.871520989587e-02
-4.964864985824e-02
-4.999735485935e-02
-4.975996237432e-02
-4.893739998711e-02
-4.753288176604e-02
-4.555189570522e-02
-4.300218228082e-02
-3.989370420603e-02
-3.623860750295e-02
-3.205117404336e-02
-2.734776574395e-02
-2.214676063399e-02
-1.646848104535e-02
-1.033511420521e-02
-3.770625542096e-03
3.199334956310e-03
1.054753296758e-02
1.824525624951e-02
2.626242682993e-02
3.456771853296e-02
4.312867938238e-02
5.191185840411e-02
6.088293633197e-02
7.000685970636e-02
7.924797784157e-02
8.857018212681e-02
9.793704711642e-02
1.073119728582e-01
1.166583279034e-01
1.259395924400e-01
1.351195009899e-01
1.441621841115e-01
1.530323085563e-01
1.616952153288e-01
1.701170551128e-01
1.782649205340e-01
1.861069747411e-01
1.936125758056e-01
2.007523964509e-01
2.074985386454e-01
2.138246426110e-01
2.197059898211e-01
2.251195995848e-01
2.300443188422e-01
2.344609048166e-01
2.383521002041e-01
2.417027006045e-01
2.444996139303e-01
2.467319115630e-01
2.483908710553e-01
2.494700102130e-01
2.499651124233e-01
2.498742431312e-01
2.491977573979e-01
2.479382985140e-01
2.461007876708e-01
2.436924047315e-01
2.407225601767e-01
2.372028583338e-01
2.331470520347e-01
2.285709888780e-01
2.234925493064e-01
2.179315767411e-01
2.119098000454e-01
2.054507486221e-01
1.985796604750e-01
1.913233835942e-01
1.837102710504e-01
1.757700702092e-01
1.675338064960e-01
1.590336621680e-01
1.503028505658e-01
1.413754863357e-01
1.322864521312e-01
1.230712623124e-01
1.137659241784e-01
1.044067972721e-01
9.503045131018e-02
8.567352329062e-02
7.637257433811e-02
6.716394684551e-02
5.808362247017e-02
4.916708153968e-02
4.044916441660e-02
3.196393536368e-02
2.374454944171e-02
1.582312295987e-02
8.230607984974e-03
9.966713997696e-04
-5.850421016979e-03
-1.228391503579e-02
-1.827867251558e-02
-2.381126962800e-02
-2.886008838346e-02
-3.340540110086e-02
-3.742944749130e-02
-4.091650405435e-02
-4.385294551583e-02
-4.622729806703e-02
-4.803028419725e-02
-4.925485894469e-02
-4.989623742375e-02
-4.995191352147e-02
-4.942166968989e-02
-4.830757779606e-02
-4.661399102645e-02
-4.434752687742e-02
-4.151704129806e-02
-3.813359408664e-02
-3.421040567565e-02
-2.976280547451e-02
-2.480817197166e-02
-1.936586483010e-02
-1.345714924172e-02
-7.105112836012e-03
-3.345754677771e-04
6.828007763592e-03
1.435464988439e-02
2.221594140250e-02
3.038116522159e-02
3.881841666471e-02
4.749472813807e-02
5.637619794823e-02
6.542812276903e-02
7.461513324087e-02
8.390133217245e-02
9.325043480491e-02
1.000000000000e-01
</dep>
<dep tran.v(uut) time>
3.599349225805e+00
3.599406736870e+00
3.599520779096e+00
3.599859999339e+00
3.601182910193e+00
3.606197638096e+00
3.624259635123e+00
3.683784412304e+00
3.854571354125e+00
4.174068314475e+00
4.506941401159e+00
4.837383952393e+00
5.163068718499e+00
5.482649121854e+00
5.794871153098e+00
6.098514462884e+00
6.392392572790e+00
6.675357185830e+00
6.946302650048e+00
7.204170277060e+00
7.447952478646e+00
7.676696703770e+00
7.889509160570e+00
8.085558308742e+00
8.264078108691e+00
8.424371014745e+00
8.565810700729e+00
8.687844507268e+00
8.789995601239e+00
8.871864838940e+00
8.933132325702e+00
8.973558665836e+00
8.992985898048e+00
8.991338112652e+00
8.968621748182e+00
8.924925566230e+00
8.860420304623e+00
8.775358010284e+00
8.670071054385e+00
8.544970833650e+00
8.400546162864e+00
8.237361364889e+00
8.056054065635e+00
7.857332702609e+00
7.641973756779e+00
7.410818718564e+00
7.164770799803e+00
6.904791404561e+00
6.631896372550e+00
6.347152009856e+00
6.051670922468e+00
5.746607668894e+00
5.433154248862e+00
5.112535445713e+00
4.786004040703e+00
4.454835917902e+00
4.120325078823e+00
3.783778586261e+00
3.446511457095e+00
3.109841524007e+00
2.775084286204e+00
2.443547769257e+00
2.116527414136e+00
1.795301015428e+00
1.481123728500e+00
1.175223165119e+00
8.787945967051e-01
5.929962839409e-01
3.189449510038e-01
5.771142209239e-02
-1.896835626962e-01
-4.222733357909e-01
-6.391490792902e-01
-8.394633760631e-01
-1.022433520936e+00
-1.187344579020e+00
-1.333552179244e+00
-1.460485032153e+00
-1.567647162161e+00
-1.654619845517e+00
-1.721063246422e+00
-1.766717744895e+00
-1.791404951212e+00
-1.795028402942e+00
-1.777573941862e+00
-1.739109769280e+00
-1.679786179545e+00
-1.599834972790e+00
-1.499568549200e+00
-1.379378688342e+00
-1.239735018333e+00
-1.081183180820e+00
-9.043426989528e-01
-7.099045566607e-01
-4.986284987175e-01
-2.713400621240e-01
-2.892735041656e-02
2.276624364953e-01
4.974267034043e-01
7.793113773316e-01
1.072215026196e+00
1.374993162532e+00
1.686462715449e+00
2.005406653337e+00
2.330578739286e+00
2.660708400609e+00
2.994505693461e+00
3.330666343149e+00
3.667876840430e+00
4.004819573905e+00
4.340177978430e+00
4.672641679445e+00
5.000911613113e+00
5.323705102262e+00
5.639760868300e+00
5.947843959517e+00
6.246750576517e+00
6.535312775924e+00
6.812403033990e+00
7.076938652267e+00
7.327885988119e+00
7.564264493572e+00
7.785150546686e+00
7.989681060505e+00
8.177056855468e+00
8.346545782117e+00
8.497485581879e+00
8.629286474774e+00
8.741433463907e+00
8.833488347760e+00
8.905091432419e+00
8.955962937028e+00
8.985904087010e+00
8.994797890751e+00
8.982609596731e+00
8.949386829312e+00
8.895259402654e+00
8.820438813478e+00
8.725217414667e+00
8.609967272932e+00
8.475138715004e+00
8.321258568031e+00
8.148928101066e+00
7.958820675672e+00
7.751679114842e+00
7.528312800504e+00
7.289594510950e+00
7.036457010558e+00
6.769889405122e+00
6.490933277031e+00
6.200678615409e+00
5.900259557107e+00
5.590849955190e+00
5.273658792244e+00
4.949925456411e+00
4.620914898628e+00
4.287912689970e+00
3.952219998432e+00
3.615148504760e+00
3.278015277216e+00
2.942137625276e+00
2.608827952400e+00
2.279388627963e+00
1.955106898398e+00
1.637249857426e+00
1.327059495032e+00
1.025747844534e+00
7.344922466999e-01
4.544307494226e-01
1.866576609297e-01
-6.778072610139e-02
-3.078902228121e-01
-5.327326288419e-01
-7.414293982385e-01
-9.331650722759e-01
-1.107190465766e+00
-1.262825594413e+00
-1.399462331775e+00
-1.516566785450e+00
-1.613681383195e+00
-1.690426660842e+00
-1.746502745006e+00
-1.781690524813e+00
-1.795852508040e+00
-1.788933358361e+00
-1.760960111561e+00
-1.712042069898e+00
-1.642370375018e+00
-1.552217261089e+00
-1.441934991080e+00
-1.311954480331e+00
-1.162783612802e+00
-9.950052565748e-01
-8.092749863619e-01
-6.063185219240e-01
-3.869288924029e-01
-1.519633376511e-01
9.766004133491e-02
3.609658697891e-01
6.369253103412e-01
9.244600830804e-01
1.222446678811e+00
1.529720749037e+00
1.845081655519e+00
2.167297161629e+00
2.495108247178e+00
2.827234027892e+00
3.162376760317e+00
3.404827715449e+00
</dep>
<dep tran.i(pr1) time>
9.998192293894e-05
9.998352046861e-05
9.998668830822e-05
9.999611109276e-05
1.000328586165e-04
1.001721566138e-04
1.006738787534e-04
1.023273447862e-04
1.070714265035e-04
1.159463420687e-04
1.251928166989e-04
1.343717764554e-04
1.434185755139e-04
1.522958089404e-04
1.609686431416e-04
1.694031795246e-04
1.775664603553e-04
1.854265884953e-04
1.929528513902e-04
2.001158410294e-04
2.068875688513e-04
2.132415751047e-04
2.191530322381e-04
2.245988419095e-04
2.295577252414e-04
2.340103059651e-04
2.379391861314e-04
2.413290140908e-04
2.441665444789e-04
2.464406899706e-04
2.481425646028e-04
2.492655184955e-04
2.498051638347e-04
2.497593920181e-04
2.491283818940e-04
2.479145990620e-04
2.461227862395e-04
2.437599447301e-04
2.408353070663e-04
2.373603009347e-04
2.333485045240e-04
2.288155934691e-04
2.237792796010e-04
2.182592417391e-04
2.122770487994e-04
2.058560755157e-04
1.990214111056e-04
1.917997612378e-04
1.842193436819e-04
1.763097780516e-04
1.681019700685e-04
1.596279908026e-04
1.509209513573e-04
1.420148734920e-04
1.329445566862e-04
1.237454421639e-04
1.144534744117e-04
1.051049607295e-04
9.573642936376e-05
8.638448677798e-05
7.708567461679e-05
6.787632692380e-05
5.879242817044e-05
4.986947265079e-05
4.114232579167e-05
3.264508791998e-05
2.441096101959e-05
1.647211899836e-05
8.859581972329e-06
1.603095058122e-06
-5.268987852672e-06
-1.172981488308e-05
-1.775414109139e-05
-2.331842711286e-05
-2.840093113710e-05
-3.298179386168e-05
-3.704311609012e-05
-4.056902867092e-05
-4.354575450447e-05
-4.596166237548e-05
-4.780731240060e-05
-4.907549291374e-05
-4.976124864477e-05
-4.986190008172e-05
-4.937705394061e-05
-4.830860470222e-05
-4.666072720958e-05
-4.443986035529e-05
-4.165468192223e-05
-3.831607467616e-05
-3.443708384257e-05
-3.003286613390e-05
-2.512063052647e-05
-1.971957101835e-05
-1.385079163104e-05
-7.537223947888e-06
-8.035375115712e-07
6.323956569313e-06
1.381740842790e-05
2.164753825921e-05
2.978375072766e-05
3.819425451479e-05
4.684618654025e-05
5.570574037048e-05
6.473829831350e-05
7.390856668358e-05
8.318071370726e-05
9.251850953191e-05
1.018854677897e-04
1.112449881640e-04
1.205604994008e-04
1.297956022068e-04
1.389142114754e-04
1.478806972851e-04
1.566600241195e-04
1.652178877644e-04
1.735208493477e-04
1.815364659979e-04
1.892334176108e-04
1.965816292296e-04
2.035523885589e-04
2.101184581548e-04
2.162541818524e-04
2.219355850140e-04
2.271404682075e-04
2.318484939477e-04
2.360412661633e-04
2.397024020771e-04
2.428175962196e-04
2.453746763267e-04
2.473636509005e-04
2.487767482508e-04
2.496084468614e-04
2.498554969653e-04
2.495169332425e-04
2.485940785920e-04
2.470905389626e-04
2.450121892633e-04
2.423671504074e-04
2.391657575815e-04
2.354205198612e-04
2.311460713342e-04
2.263591139185e-04
2.210783521020e-04
2.153244198567e-04
2.091198000140e-04
2.024887364153e-04
1.954571391822e-04
1.880524834756e-04
1.803037021397e-04
1.722410726503e-04
1.638960988085e-04
1.553013876442e-04
1.464905220068e-04
1.374979293448e-04
1.283587471841e-04
1.191086858325e-04
1.097838888453e-04
1.004207917989e-04
9.105597992267e-05
8.172604514656e-05
7.246744312222e-05
6.331635077676e-05
5.430852495551e-05
4.547916270627e-05
3.686276375089e-05
2.849299568150e-05
2.040256240833e-05
1.262307637285e-05
5.184935025825e-06
-1.882797947261e-06
-8.552506189226e-06
-1.479812857894e-05
-2.059526106218e-05
-2.592125200767e-05
-3.075529071572e-05
-3.507848873369e-05
-3.887395366042e-05
-4.212685515139e-05
-4.482448286653e-05
-4.695629613449e-05
-4.851396513907e-05
-4.949140346701e-05
-4.988479189000e-05
-4.969259328781e-05
-4.891555865447e-05
-4.755672416384e-05
-4.562139930605e-05
-4.311714614137e-05
-4.005374975222e-05
-3.644318000919e-05
-3.229954480006e-05
-2.763903490486e-05
-2.247986073228e-05
-1.684218116456e-05
-1.074802478897e-05
-4.221203823642e-06
2.712778925970e-06
1.002682971636e-05
1.769236973170e-05
2.567944675223e-05
3.395685218921e-05
4.249224302882e-05
5.125226820885e-05
6.020269893413e-05
6.930856242161e-05
7.853427855254e-05
8.784379889769e-05
9.457854765136e-05
</dep>
