<Qucs Dataset 0.0.21>
<indep time 209>
0.000000000000e+00
9.950250000000e-08
1.990050000000e-07
3.980100000000e-07
7.960200000000e-07
1.592040000000e-06
3.184080000000e-06
6.368160000000e-06
1.273632000000e-05
2.268657000000e-05
3.263682000000e-05
4.258707000000e-05
5.253732000000e-05
6.248757000000e-05
7.243782000000e-05
8.238807000000e-05
9.233832000000e-05
1.022885700000e-04
1.122388200000e-04
1.221890700000e-04
1.321393200000e-04
1.420895700000e-04
1.520398200000e-04
1.619900700000e-04
1.719403200000e-04
1.818905700000e-04
1.918408200000e-04
2.017910700000e-04
2.117413200000e-04
2.216915700000e-04
2.316418200000e-04
2.415920700000e-04
2.515423200000e-04
2.614925700000e-04
2.714428200000e-04
2.813930700000e-04
2.913433200000e-04
3.012935700000e-04
3.112438200000e-04
3.211940700000e-04
3.311443200000e-04
3.410945700000e-04
3.510448200000e-04
3.609950700000e-04
3.709453200000e-04
3.808955700000e-04
3.908458200000e-04
4.007960700000e-04
4.107463200000e-04
4.206965700000e-04
4.306468200000e-04
4.405970700000e-04
4.505473200000e-04
4.604975700000e-04
4.704478200000e-04
4.803980700000e-04
4.903483200000e-04
5.002985700000e-04
5.102488200000e-04
5.201990700000e-04
5.301493200000e-04
5.400995700000e-04
5.500498200000e-04
5.600000700000e-04
5.699503200000e-04
5.799005700000e-04
5.898508200000e-04
5.998010700000e-04
6.097513200000e-04
6.197015700000e-04
6.296518200000e-04
6.396020700000e-04
6.495523200000e-04
6.595025700000e-04
6.694528200000e-04
6.794030700000e-04
6.893533200000e-04
6.993035700000e-04
7.092538200000e-04
7.192040700000e-04
7.291543200000e-04
7.391045700000e-04
7.490548200000e-04
7.590050700000e-04
7.689553200000e-04
7.789055700000e-04
7.888558200000e-04
7.988060700000e-04
8.087563200000e-04
8.187065700000e-04
8.286568200000e-04
8.386070700000e-04
8.485573200000e-04
8.585075700000e-04
8.684578200000e-04
8.784080700000e-04
8.883583200000e-04
8.983085700000e-04
9.082588200000e-04
9.182090700000e-04
9.281593200000e-04
9.381095700000e-04
9.480598200000e-04
9.580100700000e-04
9.679603200000e-04
9.779105700000e-04
9.878608200000e-04
9.978110700000e-04
1.007761320000e-03
1.017711570000e-03
1.027661820000e-03
1.037612070000e-03
1.047562320000e-03
1.057512570000e-03
1.067462820000e-03
1.077413070000e-03
1.087363320000e-03
1.097313570000e-03
1.107263820000e-03
1.117214070000e-03
1.127164320000e-03
1.137114570000e-03
1.147064820000e-03
1.157015070000e-03
1.166965320000e-03
1.176915570000e-03
1.186865820000e-03
1.196816070000e-03
1.206766320000e-03
1.216716570000e-03
1.226666820000e-03
1.236617070000e-03
1.246567320000e-03
1.256517570000e-03
1.266467820000e-03
1.276418070000e-03
1.286368320000e-03
1.296318570000e-03
1.306268820000e-03
1.316219070000e-03
1.326169320000e-03
1.336119570000e-03
1.346069820000e-03
1.356020070000e-03
1.365970320000e-03
1.375920570000e-03
1.385870820000e-03
1.395821070000e-03
1.405771320000e-03
1.415721570000e-03
1.425671820000e-03
1.435622070000e-03
1.445572320000e-03
1.455522570000e-03
1.465472820000e-03
1.475423070000e-03
1.485373320000e-03
1.495323570000e-03
1.505273820000e-03
1.515224070000e-03
1.525174320000e-03
1.535124570000e-03
1.545074820000e-03
1.555025070000e-03
1.564975320000e-03
1.574925570000e-03
1.584875820000e-03
1.594826070000e-03
1.604776320000e-03
1.614726570000e-03
1.624676820000e-03
1.634627070000e-03
1.644577320000e-03
1.654527570000e-03
1.664477820000e-03
1.674428070000e-03
1.684378320000e-03
1.694328570000e-03
1.704278820000e-03
1.714229070000e-03
1.724179320000e-03
1.734129570000e-03
1.744079820000e-03
1.754030070000e-03
1.763980320000e-03
1.773930570000e-03
1.783880820000e-03
1.793831070000e-03
1.803781320000e-03
1.813731570000e-03
1.823681820000e-03
1.833632070000e-03
1.843582320000e-03
1.853532570000e-03
1.863482820000e-03
1.873433070000e-03
1.883383320000e-03
1.893333570000e-03
1.903283820000e-03
1.913234070000e-03
1.923184320000e-03
1.933134570000e-03
1.943084820000e-03
1.953035070000e-03
1.962985320000e-03
1.972935570000e-03
1.982885820000e-03
1.992836070000e-03
2.000000000000e-03
</indep>
<dep tran.v(uin) time>
1.000000000000e+00
1.000312596303e+00
1.000625192483e+00
1.001250383989e+00
1.002500760158e+00
1.005001457758e+00
1.010002415066e+00
1.020000826834e+00
1.039969636885e+00
1.071030846968e+00
1.101814512152e+00
1.132200348788e+00
1.162069627702e+00
1.191305638106e+00
1.219794143638e+00
1.247423828725e+00
1.274086733537e+00
1.299678675826e+00
1.324099658009e+00
1.347254257895e+00
1.369052001537e+00
1.389407716747e+00
1.408241865899e+00
1.425480856714e+00
1.441057329807e+00
1.454910421895e+00
1.466986003607e+00
1.477236890989e+00
1.485623029875e+00
1.492111652385e+00
1.496677404971e+00
1.499302447478e+00
1.499976522853e+00
1.498696997222e+00
1.495468870187e+00
1.490304755283e+00
1.483224830699e+00
1.474256760429e+00
1.463435586180e+00
1.450803590452e+00
1.436410131320e+00
1.420311449580e+00
1.402570448985e+00
1.383256450463e+00
1.362444921253e+00
1.340217180021e+00
1.316660079120e+00
1.291865665224e+00
1.265930819667e+00
1.238956879887e+00
1.211049243464e+00
1.182316956292e+00
1.152872286493e+00
1.122830285742e+00
1.092308339715e+00
1.061425709423e+00
1.030303065206e+00
9.990620152316e-01
9.678246303254e-01
9.367129669915e-01
9.058485904913e-01
8.753520998414e-01
8.453426565864e-01
8.159375191892e-01
7.872515848565e-01
7.593969405916e-01
7.324824252271e-01
7.066132041494e-01
6.818903583772e-01
6.584104895992e-01
6.362653427136e-01
6.155414473457e-01
5.963197797434e-01
5.786754463715e-01
5.626773904421e-01
5.483881225265e-01
5.358634763026e-01
5.251523903913e-01
5.162967171341e-01
5.093310590601e-01
5.042826336804e-01
5.011711671392e-01
5.000088171355e-01
5.008001254189e-01
5.035420000430e-01
5.082237274465e-01
5.148270143159e-01
5.233260590639e-01
5.336876526466e-01
5.458713083235e-01
5.598294198555e-01
5.755074475202e-01
5.928441312200e-01
6.117717298488e-01
6.322162859826e-01
6.540979148597e-01
6.773311165210e-01
7.018251098919e-01
7.274841874984e-01
7.542080894331e-01
7.818923951099e-01
8.104289312746e-01
8.397061946804e-01
8.696097877732e-01
9.000228656879e-01
9.308265928052e-01
9.619006070894e-01
9.931234903881e-01
1.024373242861e+00
1.055527759678e+00
1.086465308133e+00
1.117065003300e+00
1.147207280372e+00
1.176774361854e+00
1.205650717763e+00
1.233723517043e+00
1.260883068447e+00
1.287023249137e+00
1.312041919352e+00
1.335841321503e+00
1.358328462151e+00
1.379415475370e+00
1.399019966070e+00
1.417065331949e+00
1.433481062807e+00
1.448203016055e+00
1.461173667347e+00
1.472342335348e+00
1.481665379768e+00
1.489106371877e+00
1.494636236851e+00
1.498233367377e+00
1.499883708078e+00
1.499580810437e+00
1.497325857993e+00
1.493127661713e+00
1.487002625569e+00
1.478974682438e+00
1.469075200589e+00
1.457342861113e+00
1.443823506782e+00
1.428569962927e+00
1.411641831021e+00
1.393105255804e+00
1.373032666818e+00
1.351502495407e+00
1.328598868250e+00
1.304411278647e+00
1.279034236835e+00
1.252566900697e+00
1.225112688320e+00
1.196778873893e+00
1.167676168553e+00
1.137918287786e+00
1.107621507104e+00
1.076904207708e+00
1.045886413928e+00
1.014689324240e+00
9.834348377006e-01
9.522450776354e-01
9.212419144604e-01
8.905464894850e-01
8.602787415672e-01
8.305569384656e-01
8.014972147220e-01
7.732131178789e-01
7.458151648057e-01
7.194104098662e-01
6.941020266166e-01
6.699889046659e-01
6.471652632767e-01
6.257202832140e-01
6.057377582814e-01
5.872957679067e-01
5.704663720551e-01
5.553153296638e-01
5.419018416957e-01
5.302783198188e-01
5.204901816139e-01
5.125756731099e-01
5.065657193425e-01
5.024838035177e-01
5.003458752542e-01
5.001602882618e-01
5.019277677004e-01
5.056414073465e-01
5.112866965785e-01
5.188415770753e-01
5.282765290065e-01
5.395546863779e-01
5.526319810812e-01
5.674573150850e-01
5.839727600945e-01
6.021137838997e-01
6.218095025276e-01
6.429829572133e-01
6.655514151074e-01
6.894266925453e-01
7.145154996146e-01
7.407198046750e-01
7.679372174053e-01
7.960613888824e-01
8.249824271269e-01
8.545873264941e-01
8.847604092301e-01
9.153837774696e-01
9.463377739082e-01
9.775014493497e-01
1.000000000000e+00
</dep>
<dep tran.v(uut) time>
-2.999938355229e+00
-3.000058106059e+00
-3.000286666856e+00
-3.000932461005e+00
-3.003090277189e+00
-3.009223595531e+00
-3.023752027212e+00
-3.053812121684e+00
-3.113699391984e+00
-3.206942489633e+00
-3.299340972883e+00
-3.390597093995e+00
-3.480305588791e+00
-3.568153392382e+00
-3.653768429006e+00
-3.736838340848e+00
-3.817021482793e+00
-3.894017672732e+00
-3.967515959636e+00
-4.037236925696e+00
-4.102902167639e+00
-4.164259704149e+00
-4.221066250125e+00
-4.273102562117e+00
-4.320163220309e+00
-4.362065951506e+00
-4.398645786205e+00
-4.429760746411e+00
-4.455288520388e+00
-4.475129925672e+00
-4.489207000032e+00
-4.497465072973e+00
-4.499871620010e+00
-4.496417435569e+00
-4.487115864353e+00
-4.472003368226e+00
-4.451138907491e+00
-4.424604076915e+00
-4.392502505011e+00
-4.354959666002e+00
-4.312122222683e+00
-4.264157581729e+00
-4.211253140808e+00
-4.153615632332e+00
-4.091470257212e+00
-4.025059849885e+00
-3.954643894873e+00
-3.880497539488e+00
-3.802910498250e+00
-3.722185936616e+00
-3.638639274275e+00
-3.552596962004e+00
-3.464395198929e+00
-3.374378624382e+00
-3.282898967015e+00
-3.190313673732e+00
-3.096984510487e+00
-3.003276150663e+00
-2.909554748664e+00
-2.816186510350e+00
-2.723536261254e+00
-2.631966021742e+00
-2.541833591940e+00
-2.453491154070e+00
-2.367283896033e+00
-2.283548662862e+00
-2.202612640356e+00
-2.124792076782e+00
-2.050391047058e+00
-1.979700264704e+00
-1.912995945844e+00
-1.850538729974e+00
-1.792572661505e+00
-1.739324236217e+00
-1.691001516229e+00
-1.647793317039e+00
-1.609868469734e+00
-1.577375161315e+00
-1.550440355660e+00
-1.529169297440e+00
-1.513645100877e+00
-1.503928424993e+00
-1.500057236585e+00
-1.502046661880e+00
-1.509888927424e+00
-1.523553390465e+00
-1.542986658676e+00
-1.568112798790e+00
-1.598833633289e+00
-1.635029124033e+00
-1.676557841285e+00
-1.723257516339e+00
-1.774945675564e+00
-1.831420353396e+00
-1.892460881499e+00
-1.957828751000e+00
-2.027268544436e+00
-2.100508933765e+00
-2.177263740554e+00
-2.257233054185e+00
-2.340104403725e+00
-2.425553978865e+00
-2.513247895175e+00
-2.602843498722e+00
-2.693990704944e+00
-2.786333366572e+00
-2.879510665231e+00
-2.973158521297e+00
-3.066911016497e+00
-3.160401823693e+00
-3.253265638262e+00
-3.345139605485e+00
-3.435664738355e+00
-3.524487320284e+00
-3.611260287204e+00
-3.695644583684e+00
-3.777310487751e+00
-3.855938899235e+00
-3.931222586625e+00
-4.002867387533e+00
-4.070593358105e+00
-4.134135866866e+00
-4.193246628741e+00
-4.247694675198e+00
-4.297267256729e+00
-4.341770674151e+00
-4.381031035455e+00
-4.414894935277e+00
-4.443230054306e+00
-4.465925676309e+00
-4.482893120743e+00
-4.494066089261e+00
-4.499400924769e+00
-4.498876782008e+00
-4.492495709005e+00
-4.480282639073e+00
-4.462285293384e+00
-4.438573994504e+00
-4.409241391620e+00
-4.374402098517e+00
-4.334192245743e+00
-4.288768948693e+00
-4.238309693699e+00
-4.183011644520e+00
-4.123090871951e+00
-4.058781509549e+00
-3.990334838782e+00
-3.918018307177e+00
-3.842114483301e+00
-3.762919952651e+00
-3.680744158788e+00
-3.595908194215e+00
-3.508743545747e+00
-3.419590799267e+00
-3.328798308921e+00
-3.236720835967e+00
-3.143718162587e+00
-3.050153686076e+00
-2.956392998910e+00
-2.862802460237e+00
-2.769747764369e+00
-2.677592511873e+00
-2.586696788843e+00
-2.497415759910e+00
-2.410098280467e+00
-2.325085533568e+00
-2.242709696783e+00
-2.163292644262e+00
-2.087144689042e+00
-2.014563370538e+00
-1.945832291940e+00
-1.881220012066e+00
-1.820978996000e+00
-1.765344628614e+00
-1.714534294826e+00
-1.668746530197e+00
-1.628160245174e+00
-1.592934026018e+00
-1.563205515145e+00
-1.539090873307e+00
-1.520684325706e+00
-1.508057793818e+00
-1.501260614371e+00
-1.500319346565e+00
-1.505237668296e+00
-1.515996361785e+00
-1.532553388670e+00
-1.554844054264e+00
-1.582781260344e+00
-1.616255845476e+00
-1.655137011554e+00
-1.699272834873e+00
-1.748490859758e+00
-1.802598772413e+00
-1.861385152367e+00
-1.924620298571e+00
-1.992057126935e+00
-2.063432135773e+00
-2.138466435413e+00
-2.216866837923e+00
-2.298327002708e+00
-2.382528633503e+00
-2.469142722079e+00
-2.557830833803e+00
-2.648246430037e+00
-2.740036222191e+00
-2.832841552166e+00
-2.926299793763e+00
-2.993788333261e+00
</dep>
<dep tran.i(pr1) time>
9.999845888073e-04
1.000092675591e-03
1.000227964835e-03
1.000545711248e-03
1.001397759337e-03
1.003556263322e-03
1.008438610570e-03
1.018453237129e-03
1.038417257217e-03
1.069493334150e-03
1.100288871259e-03
1.130699360696e-03
1.160593804123e-03
1.189864757622e-03
1.218390643161e-03
1.246065542393e-03
1.272777054082e-03
1.298424087140e-03
1.322903904411e-03
1.346122795898e-03
1.367988542294e-03
1.388416855224e-03
1.407327029006e-03
1.424645854708e-03
1.440305137529e-03
1.454244093350e-03
1.466407947453e-03
1.476749409350e-03
1.485227887566e-03
1.491810394514e-03
1.496471101251e-03
1.499191880113e-03
1.499962035716e-03
1.498778608198e-03
1.495646183635e-03
1.490577030877e-03
1.483590934548e-03
1.474715209336e-03
1.463984522798e-03
1.451440814113e-03
1.437133088501e-03
1.421117257827e-03
1.403455897448e-03
1.384218020699e-03
1.363478794616e-03
1.341319257476e-03
1.317825993498e-03
1.293090801178e-03
1.267210329479e-03
1.240285704126e-03
1.212422129435e-03
1.183728479574e-03
1.154316871356e-03
1.124302227531e-03
1.093801826683e-03
1.062934845789e-03
1.031821893923e-03
1.000584541474e-03
9.693448447473e-04
9.382248693354e-04
9.073462129364e-04
8.768295303959e-04
8.467940621316e-04
8.173571683147e-04
7.886338702223e-04
7.607364008633e-04
7.337737663958e-04
7.078513202328e-04
6.830703513589e-04
6.595276885759e-04
6.373153221394e-04
6.165200443299e-04
5.972231103121e-04
5.794999206471e-04
5.634197266677e-04
5.490453598913e-04
5.364329865092e-04
5.256318879265e-04
5.166842681985e-04
5.096250891249e-04
5.044819336394e-04
5.012748980330e-04
5.000165134302e-04
5.007116968246e-04
5.033577318668e-04
5.079442794778e-04
5.144534182481e-04
5.228597144634e-04
5.331303214839e-04
5.452251080890e-04
5.590968152851e-04
5.746912409649e-04
5.919474516960e-04
6.107980208112e-04
6.311692918704e-04
6.529816664650e-04
6.761499152392e-04
7.005835109142e-04
7.261869820130e-04
7.528602859046e-04
7.804991997087e-04
8.089957275348e-04
8.382385224639e-04
8.681133216237e-04
8.985033926580e-04
9.292899898443e-04
9.603528180800e-04
9.915705029212e-04
1.022821064839e-03
1.053982395843e-03
1.084932736599e-03
1.115551152196e-03
1.145718004682e-03
1.175315420535e-03
1.204227751242e-03
1.232342025182e-03
1.259548389049e-03
1.285740537093e-03
1.310816126494e-03
1.334677177259e-03
1.357230455064e-03
1.378387835559e-03
1.398066648703e-03
1.416190001787e-03
1.432687079884e-03
1.447493422551e-03
1.460551175701e-03
1.471809317656e-03
1.481223858518e-03
1.488758012046e-03
1.494382339398e-03
1.498074864159e-03
1.499821158212e-03
1.499614398111e-03
1.497455391749e-03
1.493352575197e-03
1.487321979738e-03
1.479387169236e-03
1.469579148052e-03
1.457936239907e-03
1.444503938131e-03
1.429334727905e-03
1.412487881180e-03
1.394029225081e-03
1.374030884692e-03
1.352571001239e-03
1.329733426758e-03
1.305607396456e-03
1.280287180034e-03
1.253871713337e-03
1.226464211777e-03
1.198171767027e-03
1.169104928575e-03
1.139377271763e-03
1.109104954006e-03
1.078406260919e-03
1.047401144129e-03
1.016210752579e-03
9.849569591527e-04
9.537618844682e-04
9.227474197073e-04
8.920347503394e-04
8.617438826027e-04
8.319931745938e-04
8.028988737974e-04
7.745746628616e-04
7.471312153972e-04
7.206757635321e-04
6.953116789147e-04
6.711380688011e-04
6.482493888042e-04
6.267350738200e-04
6.066791885704e-04
5.881600991301e-04
5.712501667202e-04
5.560154649652e-04
5.425155217175e-04
5.308030864591e-04
5.209239241896e-04
5.129166366042e-04
5.068125112621e-04
5.026353993339e-04
5.004016224063e-04
5.001199087067e-04
5.017913589991e-04
5.054094422829e-04
5.109600213121e-04
5.184214078348e-04
5.277644473376e-04
5.389526329636e-04
5.519422481588e-04
5.666825374895e-04
5.831159049631e-04
6.011781390782e-04
6.207986637236e-04
6.419008139461e-04
6.644021355105e-04
6.882147070796e-04
7.132454837570e-04
7.393966606496e-04
7.665660550284e-04
7.946475055964e-04
8.235312873014e-04
8.531045400743e-04
8.832517098167e-04
9.138549999152e-04
9.447948315186e-04
9.759503107782e-04
9.984470833151e-04
</dep>
