<Qucs Dataset 0.0.22>
<indep time 209>
0.000000000000e+00
9.950250000000e-08
1.990050000000e-07
3.980100000000e-07
7.960200000000e-07
1.592040000000e-06
3.184080000000e-06
6.368160000000e-06
1.273632000000e-05
2.268657000000e-05
3.263682000000e-05
4.258707000000e-05
5.253732000000e-05
6.248757000000e-05
7.243782000000e-05
8.238807000000e-05
9.233832000000e-05
1.022885700000e-04
1.122388200000e-04
1.221890700000e-04
1.321393200000e-04
1.420895700000e-04
1.520398200000e-04
1.619900700000e-04
1.719403200000e-04
1.818905700000e-04
1.918408200000e-04
2.017910700000e-04
2.117413200000e-04
2.216915700000e-04
2.316418200000e-04
2.415920700000e-04
2.515423200000e-04
2.614925700000e-04
2.714428200000e-04
2.813930700000e-04
2.913433200000e-04
3.012935700000e-04
3.112438200000e-04
3.211940700000e-04
3.311443200000e-04
3.410945700000e-04
3.510448200000e-04
3.609950700000e-04
3.709453200000e-04
3.808955700000e-04
3.908458200000e-04
4.007960700000e-04
4.107463200000e-04
4.206965700000e-04
4.306468200000e-04
4.405970700000e-04
4.505473200000e-04
4.604975700000e-04
4.704478200000e-04
4.803980700000e-04
4.903483200000e-04
5.002985700000e-04
5.102488200000e-04
5.201990700000e-04
5.301493200000e-04
5.400995700000e-04
5.500498200000e-04
5.600000700000e-04
5.699503200000e-04
5.799005700000e-04
5.898508200000e-04
5.998010700000e-04
6.097513200000e-04
6.197015700000e-04
6.296518200000e-04
6.396020700000e-04
6.495523200000e-04
6.595025700000e-04
6.694528200000e-04
6.794030700000e-04
6.893533200000e-04
6.993035700000e-04
7.092538200000e-04
7.192040700000e-04
7.291543200000e-04
7.391045700000e-04
7.490548200000e-04
7.590050700000e-04
7.689553200000e-04
7.789055700000e-04
7.888558200000e-04
7.988060700000e-04
8.087563200000e-04
8.187065700000e-04
8.286568200000e-04
8.386070700000e-04
8.485573200000e-04
8.585075700000e-04
8.684578200000e-04
8.784080700000e-04
8.883583200000e-04
8.983085700000e-04
9.082588200000e-04
9.182090700000e-04
9.281593200000e-04
9.381095700000e-04
9.480598200000e-04
9.580100700000e-04
9.679603200000e-04
9.779105700000e-04
9.878608200000e-04
9.978110700000e-04
1.007761320000e-03
1.017711570000e-03
1.027661820000e-03
1.037612070000e-03
1.047562320000e-03
1.057512570000e-03
1.067462820000e-03
1.077413070000e-03
1.087363320000e-03
1.097313570000e-03
1.107263820000e-03
1.117214070000e-03
1.127164320000e-03
1.137114570000e-03
1.147064820000e-03
1.157015070000e-03
1.166965320000e-03
1.176915570000e-03
1.186865820000e-03
1.196816070000e-03
1.206766320000e-03
1.216716570000e-03
1.226666820000e-03
1.236617070000e-03
1.246567320000e-03
1.256517570000e-03
1.266467820000e-03
1.276418070000e-03
1.286368320000e-03
1.296318570000e-03
1.306268820000e-03
1.316219070000e-03
1.326169320000e-03
1.336119570000e-03
1.346069820000e-03
1.356020070000e-03
1.365970320000e-03
1.375920570000e-03
1.385870820000e-03
1.395821070000e-03
1.405771320000e-03
1.415721570000e-03
1.425671820000e-03
1.435622070000e-03
1.445572320000e-03
1.455522570000e-03
1.465472820000e-03
1.475423070000e-03
1.485373320000e-03
1.495323570000e-03
1.505273820000e-03
1.515224070000e-03
1.525174320000e-03
1.535124570000e-03
1.545074820000e-03
1.555025070000e-03
1.564975320000e-03
1.574925570000e-03
1.584875820000e-03
1.594826070000e-03
1.604776320000e-03
1.614726570000e-03
1.624676820000e-03
1.634627070000e-03
1.644577320000e-03
1.654527570000e-03
1.664477820000e-03
1.674428070000e-03
1.684378320000e-03
1.694328570000e-03
1.704278820000e-03
1.714229070000e-03
1.724179320000e-03
1.734129570000e-03
1.744079820000e-03
1.754030070000e-03
1.763980320000e-03
1.773930570000e-03
1.783880820000e-03
1.793831070000e-03
1.803781320000e-03
1.813731570000e-03
1.823681820000e-03
1.833632070000e-03
1.843582320000e-03
1.853532570000e-03
1.863482820000e-03
1.873433070000e-03
1.883383320000e-03
1.893333570000e-03
1.903283820000e-03
1.913234070000e-03
1.923184320000e-03
1.933134570000e-03
1.943084820000e-03
1.953035070000e-03
1.962985320000e-03
1.972935570000e-03
1.982885820000e-03
1.992836070000e-03
2.000000000000e-03
</indep>
<dep tran.v(uin) time>
1.000000000000e+00
1.000312596303e+00
1.000625192483e+00
1.001250383989e+00
1.002500760158e+00
1.005001457758e+00
1.010002415066e+00
1.020000826834e+00
1.039969636885e+00
1.071030846968e+00
1.101814512152e+00
1.132200348788e+00
1.162069627702e+00
1.191305638106e+00
1.219794143638e+00
1.247423828725e+00
1.274086733537e+00
1.299678675826e+00
1.324099658009e+00
1.347254257895e+00
1.369052001537e+00
1.389407716747e+00
1.408241865899e+00
1.425480856714e+00
1.441057329807e+00
1.454910421895e+00
1.466986003607e+00
1.477236890989e+00
1.485623029875e+00
1.492111652385e+00
1.496677404971e+00
1.499302447478e+00
1.499976522853e+00
1.498696997222e+00
1.495468870187e+00
1.490304755283e+00
1.483224830699e+00
1.474256760429e+00
1.463435586180e+00
1.450803590452e+00
1.436410131320e+00
1.420311449580e+00
1.402570448985e+00
1.383256450463e+00
1.362444921253e+00
1.340217180021e+00
1.316660079120e+00
1.291865665224e+00
1.265930819667e+00
1.238956879887e+00
1.211049243464e+00
1.182316956292e+00
1.152872286493e+00
1.122830285742e+00
1.092308339715e+00
1.061425709423e+00
1.030303065206e+00
9.990620152316e-01
9.678246303254e-01
9.367129669915e-01
9.058485904913e-01
8.753520998414e-01
8.453426565864e-01
8.159375191892e-01
7.872515848565e-01
7.593969405916e-01
7.324824252271e-01
7.066132041494e-01
6.818903583772e-01
6.584104895992e-01
6.362653427136e-01
6.155414473457e-01
5.963197797434e-01
5.786754463715e-01
5.626773904421e-01
5.483881225265e-01
5.358634763026e-01
5.251523903913e-01
5.162967171341e-01
5.093310590601e-01
5.042826336804e-01
5.011711671392e-01
5.000088171355e-01
5.008001254189e-01
5.035420000430e-01
5.082237274465e-01
5.148270143159e-01
5.233260590639e-01
5.336876526466e-01
5.458713083235e-01
5.598294198555e-01
5.755074475202e-01
5.928441312200e-01
6.117717298488e-01
6.322162859826e-01
6.540979148597e-01
6.773311165210e-01
7.018251098919e-01
7.274841874984e-01
7.542080894331e-01
7.818923951099e-01
8.104289312746e-01
8.397061946804e-01
8.696097877732e-01
9.000228656879e-01
9.308265928052e-01
9.619006070894e-01
9.931234903881e-01
1.024373242861e+00
1.055527759678e+00
1.086465308133e+00
1.117065003300e+00
1.147207280372e+00
1.176774361854e+00
1.205650717763e+00
1.233723517043e+00
1.260883068447e+00
1.287023249137e+00
1.312041919352e+00
1.335841321503e+00
1.358328462151e+00
1.379415475370e+00
1.399019966070e+00
1.417065331949e+00
1.433481062807e+00
1.448203016055e+00
1.461173667347e+00
1.472342335348e+00
1.481665379768e+00
1.489106371877e+00
1.494636236851e+00
1.498233367377e+00
1.499883708078e+00
1.499580810437e+00
1.497325857993e+00
1.493127661713e+00
1.487002625569e+00
1.478974682438e+00
1.469075200589e+00
1.457342861113e+00
1.443823506782e+00
1.428569962927e+00
1.411641831021e+00
1.393105255804e+00
1.373032666818e+00
1.351502495407e+00
1.328598868250e+00
1.304411278647e+00
1.279034236835e+00
1.252566900697e+00
1.225112688320e+00
1.196778873893e+00
1.167676168553e+00
1.137918287786e+00
1.107621507104e+00
1.076904207708e+00
1.045886413928e+00
1.014689324240e+00
9.834348377006e-01
9.522450776354e-01
9.212419144604e-01
8.905464894850e-01
8.602787415672e-01
8.305569384656e-01
8.014972147220e-01
7.732131178789e-01
7.458151648057e-01
7.194104098662e-01
6.941020266166e-01
6.699889046659e-01
6.471652632767e-01
6.257202832140e-01
6.057377582814e-01
5.872957679067e-01
5.704663720551e-01
5.553153296638e-01
5.419018416957e-01
5.302783198188e-01
5.204901816139e-01
5.125756731099e-01
5.065657193425e-01
5.024838035177e-01
5.003458752542e-01
5.001602882618e-01
5.019277677004e-01
5.056414073465e-01
5.112866965785e-01
5.188415770753e-01
5.282765290065e-01
5.395546863779e-01
5.526319810812e-01
5.674573150850e-01
5.839727600945e-01
6.021137838997e-01
6.218095025276e-01
6.429829572133e-01
6.655514151074e-01
6.894266925453e-01
7.145154996146e-01
7.407198046750e-01
7.679372174053e-01
7.960613888824e-01
8.249824271269e-01
8.545873264941e-01
8.847604092301e-01
9.153837774696e-01
9.463377739082e-01
9.775014493497e-01
1.000000000000e+00
</dep>
<dep tran.v(uut) time>
-3.999897885698e+00
-4.000030913507e+00
-4.000286491327e+00
-4.001015863655e+00
-4.003525078988e+00
-4.011011474870e+00
-4.029730141352e+00
-4.069715004421e+00
-4.149614012339e+00
-4.273917644399e+00
-4.397160135928e+00
-4.518843481006e+00
-4.638504070721e+00
-4.755665801749e+00
-4.869877034822e+00
-4.980687065694e+00
-5.087666114372e+00
-5.190393868161e+00
-5.288470590750e+00
-5.381511861836e+00
-5.469154995749e+00
-5.551056915455e+00
-5.626898046490e+00
-5.696381725531e+00
-5.759236685680e+00
-5.815217160739e+00
-5.864104534223e+00
-5.905707697257e+00
-5.939864152987e+00
-5.966440393758e+00
-5.985332608539e+00
-5.996466954681e+00
-5.999799942925e+00
-5.995318537805e+00
-5.983040258687e+00
-5.963013075207e+00
-5.935315245856e+00
-5.900054993440e+00
-5.857370095728e+00
-5.807427337360e+00
-5.750421865178e+00
-5.686576420648e+00
-5.616140473172e+00
-5.539389242687e+00
-5.456622626170e+00
-5.368164024456e+00
-5.274359079573e+00
-5.175574323477e+00
-5.072195746378e+00
-4.964627288164e+00
-4.853289260311e+00
-4.738616703381e+00
-4.621057687279e+00
-4.501071560382e+00
-4.379127154752e+00
-4.255700954180e+00
-4.131275232415e+00
-4.006336168711e+00
-3.881371948155e+00
-3.756870854125e+00
-3.633319360391e+00
-3.511200230261e+00
-3.390990630255e+00
-3.273160265615e+00
-3.158169544999e+00
-3.046467781477e+00
-2.938491436900e+00
-2.834662416466e+00
-2.735386420184e+00
-2.641051357639e+00
-2.552025832284e+00
-2.468657701166e+00
-2.391272715707e+00
-2.320173248878e+00
-2.255637113702e+00
-2.197916477736e+00
-2.147236877756e+00
-2.103796338493e+00
-2.067764598882e+00
-2.039282448817e+00
-2.018461179038e+00
-2.005382146273e+00
-2.000096455343e+00
-2.002624759482e+00
-2.012957179630e+00
-2.031053343039e+00
-2.056842541022e+00
-2.090224005242e+00
-2.131067301451e+00
-2.179212839145e+00
-2.234472495151e+00
-2.296630348690e+00
-2.365443525069e+00
-2.440643144681e+00
-2.521935373624e+00
-2.609002571825e+00
-2.701504534176e+00
-2.799079819855e+00
-2.901347164605e+00
-3.007906970490e+00
-3.118342867272e+00
-3.232223339330e+00
-3.349103411763e+00
-3.468526389073e+00
-3.590025639652e+00
-3.713126419093e+00
-3.837347725198e+00
-3.962204177440e+00
-4.087207913531e+00
-4.211870495686e+00
-4.335704819143e+00
-4.458227015465e+00
-4.578958343202e+00
-4.697427058515e+00
-4.813170258469e+00
-4.925735689763e+00
-5.034683515866e+00
-5.139588035626e+00
-5.240039346643e+00
-5.335644946926e+00
-5.426031268539e+00
-5.510845137282e+00
-5.589755152677e+00
-5.662452982874e+00
-5.728654569427e+00
-5.788101237220e+00
-5.840560705205e+00
-5.885827994019e+00
-5.923726226915e+00
-5.954107320888e+00
-5.976852565293e+00
-5.991873085692e+00
-5.999110191122e+00
-5.998535603422e+00
-5.990151567728e+00
-5.973990843699e+00
-5.950116577513e+00
-5.918622055132e+00
-5.879630337795e+00
-5.833293781172e+00
-5.779793440051e+00
-5.719338360888e+00
-5.652164764983e+00
-5.578535125467e+00
-5.498737141726e+00
-5.413082615241e+00
-5.321906231267e+00
-5.225564251081e+00
-5.124433119938e+00
-5.018907996151e+00
-4.909401207056e+00
-4.796340637891e+00
-4.680168059883e+00
-4.561337404074e+00
-4.440312987644e+00
-4.317567699641e+00
-4.193581153220e+00
-4.068837811612e+00
-3.943825095139e+00
-3.819031476674e+00
-3.694944572988e+00
-3.572049239448e+00
-3.450825675495e+00
-3.331747548323e+00
-3.215280142076e+00
-3.101878539807e+00
-2.991985845288e+00
-2.886031451640e+00
-2.784429363520e+00
-2.687576579453e+00
-2.595851540601e+00
-2.509612652048e+00
-2.429196882376e+00
-2.354918446994e+00
-2.287067580383e+00
-2.225909402033e+00
-2.171682880523e+00
-2.124599899774e+00
-2.084844431143e+00
-2.052571814570e+00
-2.027908151609e+00
-2.010949812697e+00
-2.001763060603e+00
-2.000383791507e+00
-2.006817394747e+00
-2.021038731753e+00
-2.042992234281e+00
-2.072592121533e+00
-2.109722735339e+00
-2.154238992080e+00
-2.205966949578e+00
-2.264704486766e+00
-2.330222093442e+00
-2.402263767062e+00
-2.480548013036e+00
-2.564768944639e+00
-2.654597478225e+00
-2.749682619087e+00
-2.849652832926e+00
-2.954117497581e+00
-3.062668429338e+00
-3.174881477862e+00
-3.290318183517e+00
-3.408527490596e+00
-3.529047509770e+00
-3.651407322864e+00
-3.775128822923e+00
-3.899728582353e+00
-3.989710446517e+00
</dep>
<dep tran.i(pr1) time>
9.999795771397e-04
1.000068701962e-03
1.000182336762e-03
1.000453249529e-03
1.001205167829e-03
1.003202586526e-03
1.007946511284e-03
1.017943166251e-03
1.037916729845e-03
1.068989698273e-03
1.099794929616e-03
1.130208765959e-03
1.160114739685e-03
1.189394287971e-03
1.217934235692e-03
1.245622178884e-03
1.272350569582e-03
1.298014508797e-03
1.322514049752e-03
1.345753223946e-03
1.367641399457e-03
1.388092926440e-03
1.407027982478e-03
1.424372516449e-03
1.440058803097e-03
1.454025516527e-03
1.466218107566e-03
1.476588917649e-03
1.485097436572e-03
1.491710409229e-03
1.496402002702e-03
1.499153880432e-03
1.499955293156e-03
1.498803107005e-03
1.495701825775e-03
1.490663566098e-03
1.483708015311e-03
1.474862350774e-03
1.464161136382e-03
1.451646185562e-03
1.437366399300e-03
1.421377574046e-03
1.403742184431e-03
1.384529138630e-03
1.363813509485e-03
1.341676240895e-03
1.318203831739e-03
1.293487997740e-03
1.267625313209e-03
1.240716833610e-03
1.212867700755e-03
1.184186731935e-03
1.154785994754e-03
1.124780369225e-03
1.094287098894e-03
1.063425332721e-03
1.032315659524e-03
1.001079636789e-03
9.698393156961e-04
9.387167642234e-04
9.078335901764e-04
8.773104660206e-04
8.472666573682e-04
8.178195569608e-04
7.890842259711e-04
7.611729444138e-04
7.341947724253e-04
7.082551241231e-04
6.834553557122e-04
6.598923694476e-04
6.376582349996e-04
6.168398297022e-04
5.975184990901e-04
5.797697390499e-04
5.636629008288e-04
5.492609200525e-04
5.366200708117e-04
5.257897457770e-04
5.168122632032e-04
5.097227015754e-04
5.045487625437e-04
5.013106626824e-04
5.000210544958e-04
5.006849769802e-04
5.032998359346e-04
5.078554140971e-04
5.143339110676e-04
5.227100128612e-04
5.329509908195e-04
5.450168294937e-04
5.588603830012e-04
5.744275592420e-04
5.916575312577e-04
6.104829749059e-04
6.308303319214e-04
6.526200973369e-04
6.757671301395e-04
7.001809859493e-04
7.257662704207e-04
7.524230119846e-04
7.800470524763e-04
8.085304541210e-04
8.377619212887e-04
8.676272353692e-04
8.980097010680e-04
9.287906023797e-04
9.598496664576e-04
9.910655335657e-04
1.022316231278e-03
1.053479651073e-03
1.084434025455e-03
1.115058403753e-03
1.145233124715e-03
1.174840284074e-03
1.203764195246e-03
1.231891841361e-03
1.259113316863e-03
1.285322256953e-03
1.310416253199e-03
1.334297253686e-03
1.356871946138e-03
1.378052122530e-03
1.397755023749e-03
1.415903662965e-03
1.432427126447e-03
1.447260850655e-03
1.460346874510e-03
1.471634065873e-03
1.481078321336e-03
1.488642738553e-03
1.494297760429e-03
1.498021290614e-03
1.499798779840e-03
1.499623282772e-03
1.497495485144e-03
1.493423701082e-03
1.487423840616e-03
1.479519347514e-03
1.469741107677e-03
1.458127328457e-03
1.444723389367e-03
1.429581664763e-03
1.412761319201e-03
1.394328076254e-03
1.374353961709e-03
1.352917022130e-03
1.330101019903e-03
1.305995105946e-03
1.280693471354e-03
1.254294979370e-03
1.226902779075e-03
1.198623902357e-03
1.169568845687e-03
1.139851138372e-03
1.109586898950e-03
1.078894381470e-03
1.047893513430e-03
1.016705427171e-03
9.854519865680e-04
9.542553108618e-04
9.232372974897e-04
8.925191457866e-04
8.622208834125e-04
8.324608973577e-04
8.033554713596e-04
7.750183315371e-04
7.475602020188e-04
7.210883723012e-04
6.957062780274e-04
6.715130968239e-04
6.486033607756e-04
6.270665870525e-04
6.069869281315e-04
5.884428429802e-04
5.715067904876e-04
5.562449463394e-04
5.427169444437e-04
5.309756439186e-04
5.210669225514e-04
5.130294975360e-04
5.068947741903e-04
5.026867232430e-04
5.004217871714e-04
5.001088159538e-04
5.017490324894e-04
5.053360278199e-04
5.108557861718e-04
5.182867397216e-04
5.275998528692e-04
5.387587356915e-04
5.517197861319e-04
5.664323603702e-04
5.828389707072e-04
6.008755101922e-04
6.204715031127e-04
6.415503803704e-04
6.640297786665e-04
6.878218623265e-04
7.128336665082e-04
7.389674604513e-04
7.661211293487e-04
7.941885733489e-04
8.230601221288e-04
8.526229634181e-04
8.827615837999e-04
9.133582200667e-04
9.442933193662e-04
9.754460063406e-04
9.979420893034e-04
</dep>
