<Qucs Dataset 0.0.19>
<indep time 201>
  +0.00000000000000000000e+00
  +1.00000000000000008180e-05
  +2.00000000000000016361e-05
  +3.00000000000000041482e-05
  +4.00000000000000032721e-05
  +5.00000000000000023961e-05
  +6.00000000000000082963e-05
  +7.00000000000000074203e-05
  +8.00000000000000065442e-05
  +9.00000000000000056682e-05
  +1.00000000000000004792e-04
  +1.10000000000000003916e-04
  +1.20000000000000016593e-04
  +1.30000000000000015717e-04
  +1.40000000000000014841e-04
  +1.50000000000000013965e-04
  +1.60000000000000013088e-04
  +1.70000000000000012212e-04
  +1.80000000000000011336e-04
  +1.90000000000000010460e-04
  +2.00000000000000009584e-04
  +2.10000000000000008708e-04
  +2.20000000000000007832e-04
  +2.30000000000000006956e-04
  +2.40000000000000033185e-04
  +2.50000000000000005204e-04
  +2.60000000000000031433e-04
  +2.70000000000000003452e-04
  +2.80000000000000029681e-04
  +2.90000000000000001700e-04
  +3.00000000000000027929e-04
  +3.09999999999999999948e-04
  +3.20000000000000026177e-04
  +3.30000000000000052406e-04
  +3.40000000000000024425e-04
  +3.50000000000000050654e-04
  +3.60000000000000022673e-04
  +3.70000000000000048902e-04
  +3.80000000000000020921e-04
  +3.90000000000000047150e-04
  +4.00000000000000019169e-04
  +4.10000000000000045398e-04
  +4.20000000000000017417e-04
  +4.30000000000000043646e-04
  +4.40000000000000015665e-04
  +4.50000000000000041894e-04
  +4.60000000000000013912e-04
  +4.70000000000000040142e-04
  +4.80000000000000066371e-04
  +4.90000000000000092600e-04
  +5.00000000000000010408e-04
  +5.10000000000000036637e-04
  +5.20000000000000062866e-04
  +5.30000000000000089095e-04
  +5.40000000000000006904e-04
  +5.50000000000000033133e-04
  +5.60000000000000059362e-04
  +5.70000000000000085591e-04
  +5.80000000000000003400e-04
  +5.90000000000000029629e-04
  +6.00000000000000055858e-04
  +6.10000000000000082087e-04
  +6.19999999999999999896e-04
  +6.30000000000000026125e-04
  +6.40000000000000052354e-04
  +6.50000000000000078583e-04
  +6.60000000000000104812e-04
  +6.70000000000000022621e-04
  +6.80000000000000048850e-04
  +6.90000000000000075079e-04
  +7.00000000000000101308e-04
  +7.10000000000000019117e-04
  +7.20000000000000045346e-04
  +7.30000000000000071575e-04
  +7.40000000000000097804e-04
  +7.50000000000000015613e-04
  +7.60000000000000041842e-04
  +7.70000000000000068071e-04
  +7.80000000000000094300e-04
  +7.90000000000000012108e-04
  +8.00000000000000038337e-04
  +8.10000000000000064566e-04
  +8.20000000000000090795e-04
  +8.30000000000000117024e-04
  +8.40000000000000034833e-04
  +8.50000000000000061062e-04
  +8.60000000000000087291e-04
  +8.70000000000000113520e-04
  +8.80000000000000031329e-04
  +8.90000000000000057558e-04
  +9.00000000000000083787e-04
  +9.10000000000000110016e-04
  +9.20000000000000027825e-04
  +9.30000000000000054054e-04
  +9.40000000000000080283e-04
  +9.50000000000000106512e-04
  +9.60000000000000132741e-04
  +9.70000000000000050550e-04
  +9.80000000000000185199e-04
  +9.89999999999999994588e-04
  +1.00000000000000002082e-03
  +1.01000000000000004705e-03
  +1.02000000000000007327e-03
  +1.03000000000000009950e-03
  +1.04000000000000012573e-03
  +1.05000000000000015196e-03
  +1.06000000000000017819e-03
  +1.06999999999999998758e-03
  +1.08000000000000001381e-03
  +1.09000000000000004004e-03
  +1.10000000000000006627e-03
  +1.11000000000000009250e-03
  +1.12000000000000011872e-03
  +1.13000000000000014495e-03
  +1.14000000000000017118e-03
  +1.15000000000000019741e-03
  +1.16000000000000000680e-03
  +1.17000000000000003303e-03
  +1.18000000000000005926e-03
  +1.19000000000000008549e-03
  +1.20000000000000011172e-03
  +1.21000000000000013795e-03
  +1.22000000000000016417e-03
  +1.23000000000000019040e-03
  +1.23999999999999999979e-03
  +1.25000000000000002602e-03
  +1.26000000000000005225e-03
  +1.27000000000000007848e-03
  +1.28000000000000010471e-03
  +1.29000000000000013094e-03
  +1.30000000000000015717e-03
  +1.31000000000000018339e-03
  +1.32000000000000020962e-03
  +1.33000000000000001901e-03
  +1.34000000000000004524e-03
  +1.35000000000000007147e-03
  +1.36000000000000009770e-03
  +1.37000000000000012393e-03
  +1.38000000000000015016e-03
  +1.39000000000000017639e-03
  +1.40000000000000020262e-03
  +1.41000000000000001200e-03
  +1.42000000000000003823e-03
  +1.43000000000000006446e-03
  +1.44000000000000009069e-03
  +1.45000000000000011692e-03
  +1.46000000000000014315e-03
  +1.47000000000000016938e-03
  +1.48000000000000019561e-03
  +1.49000000000000022184e-03
  +1.50000000000000003123e-03
  +1.51000000000000005745e-03
  +1.52000000000000008368e-03
  +1.53000000000000010991e-03
  +1.54000000000000013614e-03
  +1.55000000000000016237e-03
  +1.56000000000000018860e-03
  +1.57000000000000021483e-03
  +1.58000000000000002422e-03
  +1.59000000000000005045e-03
  +1.60000000000000007667e-03
  +1.61000000000000010290e-03
  +1.62000000000000012913e-03
  +1.63000000000000015536e-03
  +1.64000000000000018159e-03
  +1.65000000000000020782e-03
  +1.66000000000000023405e-03
  +1.67000000000000004344e-03
  +1.68000000000000006967e-03
  +1.69000000000000009590e-03
  +1.70000000000000012212e-03
  +1.71000000000000014835e-03
  +1.72000000000000017458e-03
  +1.73000000000000020081e-03
  +1.74000000000000022704e-03
  +1.75000000000000003643e-03
  +1.76000000000000006266e-03
  +1.77000000000000008889e-03
  +1.78000000000000011512e-03
  +1.79000000000000014135e-03
  +1.80000000000000016757e-03
  +1.81000000000000019380e-03
  +1.82000000000000022003e-03
  +1.83000000000000024626e-03
  +1.84000000000000005565e-03
  +1.85000000000000008188e-03
  +1.86000000000000010811e-03
  +1.87000000000000013434e-03
  +1.88000000000000016057e-03
  +1.89000000000000018680e-03
  +1.90000000000000021302e-03
  +1.91000000000000023925e-03
  +1.92000000000000026548e-03
  +1.93000000000000007487e-03
  +1.94000000000000010110e-03
  +1.95000000000000012733e-03
  +1.96000000000000037040e-03
  +1.96999999999999996295e-03
  +1.97999999999999998918e-03
  +1.99000000000000001540e-03
  +2.00000000000000004163e-03
</indep>
<dep V1.It time>
  -9.99989600525173598367e-04
  -1.03034891576040169535e-03
  -1.06162591836546946027e-03
  -1.09265960207849226193e-03
  -1.12332757749857383746e-03
  -1.15350880232341660922e-03
  -1.18308416062399895594e-03
  -1.21193692997935680705e-03
  -1.23995324079199942258e-03
  -1.26702252507767711143e-03
  -1.29303795255560744458e-03
  -1.31789685213660849594e-03
  -1.34150111706391860639e-03
  -1.36375759207092738835e-03
  -1.38457844101126919395e-03
  -1.40388149350292477588e-03
  -1.42159056921490581545e-03
  -1.43763577851519484298e-03
  -1.45195379829273244973e-03
  -1.46448812186459709044e-03
  -1.47518928198197597779e-03
  -1.48401504605475136229e-03
  -1.49093058282422411508e-03
  -1.49590859982616747152e-03
  -1.49892945110171129687e-03
  -1.49998121473096635535e-03
  -1.49905973988339160166e-03
  -1.49616866319922901807e-03
  -1.49131939443734331217e-03
  -1.48453107144611733993e-03
  -1.47583048463510810994e-03
  -1.46525197124553786809e-03
  -1.45283727983689346652e-03
  -1.43863540552443039920e-03
  -1.42270239661784194882e-03
  -1.40510113342418182202e-03
  -1.38590108008802403300e-03
  -1.36517801044821638842e-03
  -1.34301370899315704148e-03
  -1.31949564809478244072e-03
  -1.29471664279507975986e-03
  -1.26877448450751491131e-03
  -1.24177155507900534998e-03
  -1.21381442273553875714e-03
  -1.18501342150607803967e-03
  -1.15548221578454799255e-03
  -1.12533735174840852054e-03
  -1.09469779740413095115e-03
  -1.06368447307483176591e-03
  -1.03241977418299800580e-03
  -1.00102708821167454660e-03
  -9.69630307750435024329e-04
  -9.38353341547935719015e-04
  -9.07319625500691570932e-04
  -8.76651635507984662403e-04
  -8.46470404115444224544e-04
  -8.16895042854883478289e-04
  -7.88042272165500831162e-04
  -7.60025960751630272338e-04
  -7.32956676194986499716e-04
  -7.06941248594935428562e-04
  -6.82082348958895829695e-04
  -6.58478084006780799847e-04
  -6.36221608988592700860e-04
  -6.15400760043212174087e-04
  -5.96097707549285947548e-04
  -5.78388631836281529551e-04
  -5.62343422535531282415e-04
  -5.48025402757785942524e-04
  -5.35491079185827518333e-04
  -5.24789919068406455517e-04
  -5.15964154995611880630e-04
  -5.09048618226130454231e-04
  -5.04070601224183411498e-04
  -5.01049749948637526166e-04
  -4.99997986319382034005e-04
  -5.00919461166956354013e-04
  -5.03810537851118829186e-04
  -5.08659806613004643501e-04
  -5.15448129604230182062e-04
  -5.24148716415239737318e-04
  -5.34727229804809437060e-04
  -5.47141921213454380732e-04
  -5.61343795525917339632e-04
  -5.77276804432505790017e-04
  -5.94878067626165916819e-04
  -6.14078120962323597415e-04
  -6.34801190602131241991e-04
  -6.56965492057190588934e-04
  -6.80483552955564972853e-04
  -7.05262558255267762129e-04
  -7.31204716542832719103e-04
  -7.58207645971342605699e-04
  -7.86164778314808439588e-04
  -8.14965779544269807583e-04
  -8.44496985265799312605e-04
  -8.74641849301939326711e-04
  -9.05281403646216570845e-04
  -9.36294727975516081347e-04
  -9.67559426867349082514e-04
  -9.98952112838673083814e-04
  -1.03034889329991228082e-03
  -1.06162585950241201982e-03
  -1.09265957554965605948e-03
  -1.12332756554236285959e-03
  -1.15350879693490362271e-03
  -1.18308415819546436897e-03
  -1.21193692888484647399e-03
  -1.23995324029871735808e-03
  -1.26702252485536080544e-03
  -1.29303795245541220185e-03
  -1.31789685209145169230e-03
  -1.34150111704356704741e-03
  -1.36375759206175525481e-03
  -1.38457844100713534791e-03
  -1.40388149350106189971e-03
  -1.42159056921406599244e-03
  -1.43763577851481623958e-03
  -1.45195379829256157947e-03
  -1.46448812186452011208e-03
  -1.47518928198194106648e-03
  -1.48401504605473574978e-03
  -1.49093058282421717618e-03
  -1.49590859982616421892e-03
  -1.49892945110170999583e-03
  -1.49998121473096570483e-03
  -1.49905973988339116798e-03
  -1.49616866319922901807e-03
  -1.49131939443734309533e-03
  -1.48453107144611733993e-03
  -1.47583048463510789310e-03
  -1.46525197124553786809e-03
  -1.45283727983689324968e-03
  -1.43863540552443083288e-03
  -1.42270239661784173198e-03
  -1.40510113342418182202e-03
  -1.38590108008802424984e-03
  -1.36517801044821617158e-03
  -1.34301370899315682464e-03
  -1.31949564809478265756e-03
  -1.29471664279507954302e-03
  -1.26877448450751534499e-03
  -1.24177155507900534998e-03
  -1.21381442273553875714e-03
  -1.18501342150607803967e-03
  -1.15548221578454820939e-03
  -1.12533735174840873738e-03
  -1.09469779740413073431e-03
  -1.06368447307483154907e-03
  -1.03241977418299800580e-03
  -1.00102708821167454660e-03
  -9.69630307750435241169e-04
  -9.38353341547936152696e-04
  -9.07319625500691354092e-04
  -8.76651635507984662403e-04
  -8.46470404115444224544e-04
  -8.16895042854883044608e-04
  -7.88042272165500614321e-04
  -7.60025960751630706019e-04
  -7.32956676194986499716e-04
  -7.06941248594935536982e-04
  -6.82082348958896154956e-04
  -6.58478084006780908267e-04
  -6.36221608988592267180e-04
  -6.15400760043212174087e-04
  -5.96097707549285947548e-04
  -5.78388631836281312711e-04
  -5.62343422535531499255e-04
  -5.48025402757786159365e-04
  -5.35491079185827518333e-04
  -5.24789919068406563937e-04
  -5.15964154995611880630e-04
  -5.09048618226130345811e-04
  -5.04070601224183303078e-04
  -5.01049749948637526166e-04
  -4.99997986319382034005e-04
  -5.00919461166956354013e-04
  -5.03810537851118829186e-04
  -5.08659806613004643501e-04
  -5.15448129604230290482e-04
  -5.24148716415239628898e-04
  -5.34727229804809437060e-04
  -5.47141921213454597572e-04
  -5.61343795525917339632e-04
  -5.77276804432506006858e-04
  -5.94878067626165808399e-04
  -6.14078120962323272154e-04
  -6.34801190602130916731e-04
  -6.56965492057190805775e-04
  -6.80483552955564972853e-04
  -7.05262558255267870549e-04
  -7.31204716542833044364e-04
  -7.58207645971342822540e-04
  -7.86164778314808005907e-04
  -8.14965779544269699163e-04
  -8.44496985265799204184e-04
  -8.74641849301939435131e-04
  -9.05281403646216028744e-04
  -9.36294727975515105566e-04
  -9.67559426867348431993e-04
  -9.98952112838672866973e-04
</dep>
<dep V2.It time>
  -9.99989600525173598367e-04
  -1.03034891576040169535e-03
  -1.06162591836546946027e-03
  -1.09265960207849226193e-03
  -1.12332757749857383746e-03
  -1.15350880232341660922e-03
  -1.18308416062399895594e-03
  -1.21193692997935680705e-03
  -1.23995324079199942258e-03
  -1.26702252507767711143e-03
  -1.29303795255560744458e-03
  -1.31789685213660849594e-03
  -1.34150111706391860639e-03
  -1.36375759207092738835e-03
  -1.38457844101126919395e-03
  -1.40388149350292477588e-03
  -1.42159056921490581545e-03
  -1.43763577851519484298e-03
  -1.45195379829273244973e-03
  -1.46448812186459709044e-03
  -1.47518928198197597779e-03
  -1.48401504605475136229e-03
  -1.49093058282422411508e-03
  -1.49590859982616747152e-03
  -1.49892945110171129687e-03
  -1.49998121473096635535e-03
  -1.49905973988339160166e-03
  -1.49616866319922901807e-03
  -1.49131939443734331217e-03
  -1.48453107144611733993e-03
  -1.47583048463510810994e-03
  -1.46525197124553786809e-03
  -1.45283727983689346652e-03
  -1.43863540552443039920e-03
  -1.42270239661784194882e-03
  -1.40510113342418182202e-03
  -1.38590108008802403300e-03
  -1.36517801044821638842e-03
  -1.34301370899315704148e-03
  -1.31949564809478244072e-03
  -1.29471664279507975986e-03
  -1.26877448450751491131e-03
  -1.24177155507900534998e-03
  -1.21381442273553875714e-03
  -1.18501342150607803967e-03
  -1.15548221578454799255e-03
  -1.12533735174840852054e-03
  -1.09469779740413095115e-03
  -1.06368447307483176591e-03
  -1.03241977418299800580e-03
  -1.00102708821167454660e-03
  -9.69630307750435024329e-04
  -9.38353341547935719015e-04
  -9.07319625500691570932e-04
  -8.76651635507984662403e-04
  -8.46470404115444224544e-04
  -8.16895042854883478289e-04
  -7.88042272165500831162e-04
  -7.60025960751630272338e-04
  -7.32956676194986499716e-04
  -7.06941248594935428562e-04
  -6.82082348958895829695e-04
  -6.58478084006780799847e-04
  -6.36221608988592700860e-04
  -6.15400760043212174087e-04
  -5.96097707549285947548e-04
  -5.78388631836281529551e-04
  -5.62343422535531282415e-04
  -5.48025402757785942524e-04
  -5.35491079185827518333e-04
  -5.24789919068406455517e-04
  -5.15964154995611880630e-04
  -5.09048618226130454231e-04
  -5.04070601224183411498e-04
  -5.01049749948637526166e-04
  -4.99997986319382034005e-04
  -5.00919461166956354013e-04
  -5.03810537851118829186e-04
  -5.08659806613004643501e-04
  -5.15448129604230182062e-04
  -5.24148716415239737318e-04
  -5.34727229804809437060e-04
  -5.47141921213454380732e-04
  -5.61343795525917339632e-04
  -5.77276804432505790017e-04
  -5.94878067626165916819e-04
  -6.14078120962323597415e-04
  -6.34801190602131241991e-04
  -6.56965492057190588934e-04
  -6.80483552955564972853e-04
  -7.05262558255267762129e-04
  -7.31204716542832719103e-04
  -7.58207645971342605699e-04
  -7.86164778314808439588e-04
  -8.14965779544269807583e-04
  -8.44496985265799312605e-04
  -8.74641849301939326711e-04
  -9.05281403646216570845e-04
  -9.36294727975516081347e-04
  -9.67559426867349082514e-04
  -9.98952112838673083814e-04
  -1.03034889329991228082e-03
  -1.06162585950241201982e-03
  -1.09265957554965605948e-03
  -1.12332756554236285959e-03
  -1.15350879693490362271e-03
  -1.18308415819546436897e-03
  -1.21193692888484647399e-03
  -1.23995324029871735808e-03
  -1.26702252485536080544e-03
  -1.29303795245541220185e-03
  -1.31789685209145169230e-03
  -1.34150111704356704741e-03
  -1.36375759206175525481e-03
  -1.38457844100713534791e-03
  -1.40388149350106189971e-03
  -1.42159056921406599244e-03
  -1.43763577851481623958e-03
  -1.45195379829256157947e-03
  -1.46448812186452011208e-03
  -1.47518928198194106648e-03
  -1.48401504605473574978e-03
  -1.49093058282421717618e-03
  -1.49590859982616421892e-03
  -1.49892945110170999583e-03
  -1.49998121473096570483e-03
  -1.49905973988339116798e-03
  -1.49616866319922901807e-03
  -1.49131939443734309533e-03
  -1.48453107144611733993e-03
  -1.47583048463510789310e-03
  -1.46525197124553786809e-03
  -1.45283727983689324968e-03
  -1.43863540552443083288e-03
  -1.42270239661784173198e-03
  -1.40510113342418182202e-03
  -1.38590108008802424984e-03
  -1.36517801044821617158e-03
  -1.34301370899315682464e-03
  -1.31949564809478265756e-03
  -1.29471664279507954302e-03
  -1.26877448450751534499e-03
  -1.24177155507900534998e-03
  -1.21381442273553875714e-03
  -1.18501342150607803967e-03
  -1.15548221578454820939e-03
  -1.12533735174840873738e-03
  -1.09469779740413073431e-03
  -1.06368447307483154907e-03
  -1.03241977418299800580e-03
  -1.00102708821167454660e-03
  -9.69630307750435241169e-04
  -9.38353341547936152696e-04
  -9.07319625500691354092e-04
  -8.76651635507984662403e-04
  -8.46470404115444224544e-04
  -8.16895042854883044608e-04
  -7.88042272165500614321e-04
  -7.60025960751630706019e-04
  -7.32956676194986499716e-04
  -7.06941248594935536982e-04
  -6.82082348958896154956e-04
  -6.58478084006780908267e-04
  -6.36221608988592267180e-04
  -6.15400760043212174087e-04
  -5.96097707549285947548e-04
  -5.78388631836281312711e-04
  -5.62343422535531499255e-04
  -5.48025402757786159365e-04
  -5.35491079185827518333e-04
  -5.24789919068406563937e-04
  -5.15964154995611880630e-04
  -5.09048618226130345811e-04
  -5.04070601224183303078e-04
  -5.01049749948637526166e-04
  -4.99997986319382034005e-04
  -5.00919461166956354013e-04
  -5.03810537851118829186e-04
  -5.08659806613004643501e-04
  -5.15448129604230290482e-04
  -5.24148716415239628898e-04
  -5.34727229804809437060e-04
  -5.47141921213454597572e-04
  -5.61343795525917339632e-04
  -5.77276804432506006858e-04
  -5.94878067626165808399e-04
  -6.14078120962323272154e-04
  -6.34801190602130916731e-04
  -6.56965492057190805775e-04
  -6.80483552955564972853e-04
  -7.05262558255267870549e-04
  -7.31204716542833044364e-04
  -7.58207645971342822540e-04
  -7.86164778314808005907e-04
  -8.14965779544269699163e-04
  -8.44496985265799204184e-04
  -8.74641849301939435131e-04
  -9.05281403646216028744e-04
  -9.36294727975515105566e-04
  -9.67559426867348431993e-04
  -9.98952112838672866973e-04
</dep>
<dep Pr1.It time>
  +9.99989600525173598367e-04
  +1.03034891576040169535e-03
  +1.06162591836546946027e-03
  +1.09265960207849226193e-03
  +1.12332757749857383746e-03
  +1.15350880232341660922e-03
  +1.18308416062399895594e-03
  +1.21193692997935680705e-03
  +1.23995324079199942258e-03
  +1.26702252507767711143e-03
  +1.29303795255560744458e-03
  +1.31789685213660849594e-03
  +1.34150111706391860639e-03
  +1.36375759207092738835e-03
  +1.38457844101126919395e-03
  +1.40388149350292477588e-03
  +1.42159056921490581545e-03
  +1.43763577851519484298e-03
  +1.45195379829273244973e-03
  +1.46448812186459709044e-03
  +1.47518928198197597779e-03
  +1.48401504605475136229e-03
  +1.49093058282422411508e-03
  +1.49590859982616747152e-03
  +1.49892945110171129687e-03
  +1.49998121473096635535e-03
  +1.49905973988339160166e-03
  +1.49616866319922901807e-03
  +1.49131939443734331217e-03
  +1.48453107144611733993e-03
  +1.47583048463510810994e-03
  +1.46525197124553786809e-03
  +1.45283727983689346652e-03
  +1.43863540552443039920e-03
  +1.42270239661784194882e-03
  +1.40510113342418182202e-03
  +1.38590108008802403300e-03
  +1.36517801044821638842e-03
  +1.34301370899315704148e-03
  +1.31949564809478244072e-03
  +1.29471664279507975986e-03
  +1.26877448450751491131e-03
  +1.24177155507900534998e-03
  +1.21381442273553875714e-03
  +1.18501342150607803967e-03
  +1.15548221578454799255e-03
  +1.12533735174840852054e-03
  +1.09469779740413095115e-03
  +1.06368447307483176591e-03
  +1.03241977418299800580e-03
  +1.00102708821167454660e-03
  +9.69630307750435024329e-04
  +9.38353341547935719015e-04
  +9.07319625500691570932e-04
  +8.76651635507984662403e-04
  +8.46470404115444224544e-04
  +8.16895042854883478289e-04
  +7.88042272165500831162e-04
  +7.60025960751630272338e-04
