<Qucs Dataset 0.0.24>
<indep v(v-sweep) 282>
-1.400000000000e+01
-1.390035590000e+01
-1.380071180000e+01
-1.370106770000e+01
-1.360142360000e+01
-1.350177950000e+01
-1.340213540000e+01
-1.330249130000e+01
-1.320284720000e+01
-1.310320310000e+01
-1.300355900000e+01
-1.290391490000e+01
-1.280427080000e+01
-1.270462670000e+01
-1.260498260000e+01
-1.250533850000e+01
-1.240569440000e+01
-1.230605030000e+01
-1.220640620000e+01
-1.210676210000e+01
-1.200711800000e+01
-1.190747390000e+01
-1.180782980000e+01
-1.170818570000e+01
-1.160854160000e+01
-1.150889750000e+01
-1.140925340000e+01
-1.130960930000e+01
-1.120996520000e+01
-1.111032110000e+01
-1.101067700000e+01
-1.091103290000e+01
-1.081138880000e+01
-1.071174470000e+01
-1.061210060000e+01
-1.051245650000e+01
-1.041281240000e+01
-1.031316830000e+01
-1.021352420000e+01
-1.011388010000e+01
-1.001423600000e+01
-9.914591900000e+00
-9.814947800000e+00
-9.715303700000e+00
-9.615659600000e+00
-9.516015500000e+00
-9.416371400000e+00
-9.316727300000e+00
-9.217083200000e+00
-9.117439100000e+00
-9.017795000000e+00
-8.918150900000e+00
-8.818506800000e+00
-8.718862700000e+00
-8.619218600000e+00
-8.519574500000e+00
-8.419930400000e+00
-8.320286300000e+00
-8.220642200000e+00
-8.120998100000e+00
-8.021354000000e+00
-7.921709900000e+00
-7.822065800000e+00
-7.722421700000e+00
-7.622777600000e+00
-7.523133500000e+00
-7.423489400000e+00
-7.323845300000e+00
-7.224201200000e+00
-7.124557100000e+00
-7.024913000000e+00
-6.925268900000e+00
-6.825624800000e+00
-6.725980700000e+00
-6.626336600000e+00
-6.526692500000e+00
-6.427048400000e+00
-6.327404300000e+00
-6.227760200000e+00
-6.128116100000e+00
-6.028472000000e+00
-5.928827900000e+00
-5.829183800000e+00
-5.729539700000e+00
-5.629895600000e+00
-5.530251500000e+00
-5.430607400000e+00
-5.330963300000e+00
-5.231319200000e+00
-5.131675100000e+00
-5.032031000000e+00
-4.932386900000e+00
-4.832742800000e+00
-4.733098700000e+00
-4.633454600000e+00
-4.533810500000e+00
-4.434166400000e+00
-4.334522300000e+00
-4.234878200000e+00
-4.135234100000e+00
-4.035590000000e+00
-3.935945900000e+00
-3.836301800000e+00
-3.736657700000e+00
-3.637013600000e+00
-3.537369500000e+00
-3.437725400000e+00
-3.338081300000e+00
-3.238437200000e+00
-3.138793100000e+00
-3.039149000000e+00
-2.939504900000e+00
-2.839860800000e+00
-2.740216700000e+00
-2.640572600000e+00
-2.540928500000e+00
-2.441284400000e+00
-2.341640300000e+00
-2.241996200000e+00
-2.142352100000e+00
-2.042708000000e+00
-1.943063900000e+00
-1.843419800000e+00
-1.743775700000e+00
-1.644131600000e+00
-1.544487500000e+00
-1.444843400000e+00
-1.345199300000e+00
-1.245555200000e+00
-1.145911100000e+00
-1.046267000000e+00
-9.466229000000e-01
-8.469788000000e-01
-7.473347000000e-01
-6.476906000000e-01
-5.480465000000e-01
-4.484024000000e-01
-3.487583000000e-01
-2.491142000000e-01
-1.494701000000e-01
-4.982599999996e-02
4.981810000004e-02
1.494622000000e-01
2.491063000000e-01
3.487504000000e-01
4.483945000000e-01
5.480386000000e-01
6.476827000000e-01
7.473268000000e-01
8.469709000000e-01
9.466150000000e-01
1.046259100000e+00
1.145903200000e+00
1.245547300000e+00
1.345191400000e+00
1.444835500000e+00
1.544479600000e+00
1.644123700000e+00
1.743767800000e+00
1.843411900000e+00
1.943056000000e+00
2.042700100000e+00
2.142344200000e+00
2.241988300000e+00
2.341632400000e+00
2.441276500000e+00
2.540920600000e+00
2.640564700000e+00
2.740208800000e+00
2.839852900000e+00
2.939497000000e+00
3.039141100000e+00
3.138785200000e+00
3.238429300000e+00
3.338073400000e+00
3.437717500000e+00
3.537361600000e+00
3.637005700000e+00
3.736649800000e+00
3.836293900000e+00
3.935938000000e+00
4.035582100000e+00
4.135226200000e+00
4.234870300000e+00
4.334514400000e+00
4.434158500000e+00
4.533802600000e+00
4.633446700000e+00
4.733090800000e+00
4.832734900000e+00
4.932379000000e+00
5.032023100000e+00
5.131667200000e+00
5.231311300000e+00
5.330955400000e+00
5.430599500000e+00
5.530243600000e+00
5.629887700000e+00
5.729531800000e+00
5.829175900000e+00
5.928820000000e+00
6.028464100000e+00
6.128108200000e+00
6.227752300000e+00
6.327396400000e+00
6.427040500000e+00
6.526684600000e+00
6.626328700000e+00
6.725972800000e+00
6.825616900000e+00
6.925261000000e+00
7.024905100000e+00
7.124549200000e+00
7.224193300000e+00
7.323837400000e+00
7.423481500000e+00
7.523125600000e+00
7.622769700000e+00
7.722413800000e+00
7.822057900000e+00
7.921702000000e+00
8.021346100000e+00
8.120990200000e+00
8.220634300000e+00
8.320278400000e+00
8.419922500000e+00
8.519566600000e+00
8.619210700000e+00
8.718854800000e+00
8.818498900000e+00
8.918143000000e+00
9.017787100000e+00
9.117431200000e+00
9.217075300000e+00
9.316719400000e+00
9.416363500000e+00
9.516007600000e+00
9.615651700000e+00
9.715295800000e+00
9.814939900000e+00
9.914584000000e+00
1.001422810000e+01
1.011387220000e+01
1.021351630000e+01
1.031316040000e+01
1.041280450000e+01
1.051244860000e+01
1.061209270000e+01
1.071173680000e+01
1.081138090000e+01
1.091102500000e+01
1.101066910000e+01
1.111031320000e+01
1.120995730000e+01
1.130960140000e+01
1.140924550000e+01
1.150888960000e+01
1.160853370000e+01
1.170817780000e+01
1.180782190000e+01
1.190746600000e+01
1.200711010000e+01
1.210675420000e+01
1.220639830000e+01
1.230604240000e+01
1.240568650000e+01
1.250533060000e+01
1.260497470000e+01
1.270461880000e+01
1.280426290000e+01
1.290390700000e+01
1.300355110000e+01
1.310319520000e+01
1.320283930000e+01
1.330248340000e+01
1.340212750000e+01
1.350177160000e+01
1.360141570000e+01
1.370105980000e+01
1.380070390000e+01
1.390034800000e+01
1.399999210000e+01
</indep>
<dep v(uin) v(v-sweep)>
-1.400000000000e+01
-1.390035590000e+01
-1.380071180000e+01
-1.370106770000e+01
-1.360142360000e+01
-1.350177950000e+01
-1.340213540000e+01
-1.330249130000e+01
-1.320284720000e+01
-1.310320310000e+01
-1.300355900000e+01
-1.290391490000e+01
-1.280427080000e+01
-1.270462670000e+01
-1.260498260000e+01
-1.250533850000e+01
-1.240569440000e+01
-1.230605030000e+01
-1.220640620000e+01
-1.210676210000e+01
-1.200711800000e+01
-1.190747390000e+01
-1.180782980000e+01
-1.170818570000e+01
-1.160854160000e+01
-1.150889750000e+01
-1.140925340000e+01
-1.130960930000e+01
-1.120996520000e+01
-1.111032110000e+01
-1.101067700000e+01
-1.091103290000e+01
-1.081138880000e+01
-1.071174470000e+01
-1.061210060000e+01
-1.051245650000e+01
-1.041281240000e+01
-1.031316830000e+01
-1.021352420000e+01
-1.011388010000e+01
-1.001423600000e+01
-9.914591900000e+00
-9.814947800000e+00
-9.715303700000e+00
-9.615659600000e+00
-9.516015500000e+00
-9.416371400000e+00
-9.316727300000e+00
-9.217083200000e+00
-9.117439100000e+00
-9.017795000000e+00
-8.918150900000e+00
-8.818506800000e+00
-8.718862700000e+00
-8.619218600000e+00
-8.519574500000e+00
-8.419930400000e+00
-8.320286300000e+00
-8.220642200000e+00
-8.120998100000e+00
-8.021354000000e+00
-7.921709900000e+00
-7.822065800000e+00
-7.722421700000e+00
-7.622777600000e+00
-7.523133500000e+00
-7.423489400000e+00
-7.323845300000e+00
-7.224201200000e+00
-7.124557100000e+00
-7.024913000000e+00
-6.925268900000e+00
-6.825624800000e+00
-6.725980700000e+00
-6.626336600000e+00
-6.526692500000e+00
-6.427048400000e+00
-6.327404300000e+00
-6.227760200000e+00
-6.128116100000e+00
-6.028472000000e+00
-5.928827900000e+00
-5.829183800000e+00
-5.729539700000e+00
-5.629895600000e+00
-5.530251500000e+00
-5.430607400000e+00
-5.330963300000e+00
-5.231319200000e+00
-5.131675100000e+00
-5.032031000000e+00
-4.932386900000e+00
-4.832742800000e+00
-4.733098700000e+00
-4.633454600000e+00
-4.533810500000e+00
-4.434166400000e+00
-4.334522300000e+00
-4.234878200000e+00
-4.135234100000e+00
-4.035590000000e+00
-3.935945900000e+00
-3.836301800000e+00
-3.736657700000e+00
-3.637013600000e+00
-3.537369500000e+00
-3.437725400000e+00
-3.338081300000e+00
-3.238437200000e+00
-3.138793100000e+00
-3.039149000000e+00
-2.939504900000e+00
-2.839860800000e+00
-2.740216700000e+00
-2.640572600000e+00
-2.540928500000e+00
-2.441284400000e+00
-2.341640300000e+00
-2.241996200000e+00
-2.142352100000e+00
-2.042708000000e+00
-1.943063900000e+00
-1.843419800000e+00
-1.743775700000e+00
-1.644131600000e+00
-1.544487500000e+00
-1.444843400000e+00
-1.345199300000e+00
-1.245555200000e+00
-1.145911100000e+00
-1.046267000000e+00
-9.466229000000e-01
-8.469788000000e-01
-7.473347000000e-01
-6.476906000000e-01
-5.480465000000e-01
-4.484024000000e-01
-3.487583000000e-01
-2.491142000000e-01
-1.494701000000e-01
-4.982599999996e-02
4.981810000004e-02
1.494622000000e-01
2.491063000000e-01
3.487504000000e-01
4.483945000000e-01
5.480386000000e-01
6.476827000000e-01
7.473268000000e-01
8.469709000000e-01
9.466150000000e-01
1.046259100000e+00
1.145903200000e+00
1.245547300000e+00
1.345191400000e+00
1.444835500000e+00
1.544479600000e+00
1.644123700000e+00
1.743767800000e+00
1.843411900000e+00
1.943056000000e+00
2.042700100000e+00
2.142344200000e+00
2.241988300000e+00
2.341632400000e+00
2.441276500000e+00
2.540920600000e+00
2.640564700000e+00
2.740208800000e+00
2.839852900000e+00
2.939497000000e+00
3.039141100000e+00
3.138785200000e+00
3.238429300000e+00
3.338073400000e+00
3.437717500000e+00
3.537361600000e+00
3.637005700000e+00
3.736649800000e+00
3.836293900000e+00
3.935938000000e+00
4.035582100000e+00
4.135226200000e+00
4.234870300000e+00
4.334514400000e+00
4.434158500000e+00
4.533802600000e+00
4.633446700000e+00
4.733090800000e+00
4.832734900000e+00
4.932379000000e+00
5.032023100000e+00
5.131667200000e+00
5.231311300000e+00
5.330955400000e+00
5.430599500000e+00
5.530243600000e+00
5.629887700000e+00
5.729531800000e+00
5.829175900000e+00
5.928820000000e+00
6.028464100000e+00
6.128108200000e+00
6.227752300000e+00
6.327396400000e+00
6.427040500000e+00
6.526684600000e+00
6.626328700000e+00
6.725972800000e+00
6.825616900000e+00
6.925261000000e+00
7.024905100000e+00
7.124549200000e+00
7.224193300000e+00
7.323837400000e+00
7.423481500000e+00
7.523125600000e+00
7.622769700000e+00
7.722413800000e+00
7.822057900000e+00
7.921702000000e+00
8.021346100000e+00
8.120990200000e+00
8.220634300000e+00
8.320278400000e+00
8.419922500000e+00
8.519566600000e+00
8.619210700000e+00
8.718854800000e+00
8.818498900000e+00
8.918143000000e+00
9.017787100000e+00
9.117431200000e+00
9.217075300000e+00
9.316719400000e+00
9.416363500000e+00
9.516007600000e+00
9.615651700000e+00
9.715295800000e+00
9.814939900000e+00
9.914584000000e+00
1.001422810000e+01
1.011387220000e+01
1.021351630000e+01
1.031316040000e+01
1.041280450000e+01
1.051244860000e+01
1.061209270000e+01
1.071173680000e+01
1.081138090000e+01
1.091102500000e+01
1.101066910000e+01
1.111031320000e+01
1.120995730000e+01
1.130960140000e+01
1.140924550000e+01
1.150888960000e+01
1.160853370000e+01
1.170817780000e+01
1.180782190000e+01
1.190746600000e+01
1.200711010000e+01
1.210675420000e+01
1.220639830000e+01
1.230604240000e+01
1.240568650000e+01
1.250533060000e+01
1.260497470000e+01
1.270461880000e+01
1.280426290000e+01
1.290390700000e+01
1.300355110000e+01
1.310319520000e+01
1.320283930000e+01
1.330248340000e+01
1.340212750000e+01
1.350177160000e+01
1.360141570000e+01
1.370105980000e+01
1.380070390000e+01
1.390034800000e+01
1.399999210000e+01
</dep>
<dep v(ut) v(v-sweep)>
3.000000000000e+00
3.000000000000e+00
3.000000000000e+00
3.000000000000e+00
3.000000000000e+00
3.000000000000e+00
3.000000000000e+00
3.000000000000e+00
3.000000000000e+00
3.000000000000e+00
3.000000000000e+00
3.000000000000e+00
3.000000000000e+00
3.000000000000e+00
3.000000000000e+00
3.000000000000e+00
3.000000000000e+00
3.000000000000e+00
3.000000000000e+00
3.000000000000e+00
3.000000000000e+00
3.000000000000e+00
3.000000000000e+00
3.000000000000e+00
3.000000000000e+00
3.000000000000e+00
3.000000000000e+00
3.000000000000e+00
3.000000000000e+00
3.000000000000e+00
3.000000000000e+00
3.000000000000e+00
3.000000000000e+00
3.000000000000e+00
3.000000000000e+00
3.000000000000e+00
3.000000000000e+00
3.000000000000e+00
3.000000000000e+00
3.000000000000e+00
3.000000000000e+00
3.000000000000e+00
3.000000000000e+00
3.000000000000e+00
3.000000000000e+00
3.000000000000e+00
3.000000000000e+00
3.000000000000e+00
3.000000000000e+00
3.000000000000e+00
3.000000000000e+00
3.000000000000e+00
3.000000000000e+00
3.000000000000e+00
3.000000000000e+00
3.000000000000e+00
3.000000000000e+00
3.000000000000e+00
3.000000000000e+00
3.000000000000e+00
3.000000000000e+00
3.000000000000e+00
3.000000000000e+00
3.000000000000e+00
3.000000000000e+00
3.000000000000e+00
3.000000000000e+00
3.000000000000e+00
3.000000000000e+00
3.000000000000e+00
3.000000000000e+00
3.000000000000e+00
3.000000000000e+00
3.000000000000e+00
3.000000000000e+00
3.000000000000e+00
3.000000000000e+00
3.000000000000e+00
3.000000000000e+00
3.000000000000e+00
3.000000000000e+00
3.000000000000e+00
3.000000000000e+00
3.000000000000e+00
3.000000000000e+00
3.000000000000e+00
3.000000000000e+00
3.000000000000e+00
3.000000000000e+00
3.000000000000e+00
3.000000000000e+00
3.000000000000e+00
3.000000000000e+00
3.000000000000e+00
3.000000000000e+00
3.000000000000e+00
3.000000000000e+00
3.000000000000e+00
3.000000000000e+00
3.000000000000e+00
3.000000000000e+00
3.000000000000e+00
3.000000000000e+00
3.000000000000e+00
3.000000000000e+00
3.000000000000e+00
3.000000000000e+00
3.000000000000e+00
3.000000000000e+00
3.000000000000e+00
3.000000000000e+00
3.000000000000e+00
3.000000000000e+00
3.000000000000e+00
3.000000000000e+00
3.000000000000e+00
3.000000000000e+00
3.000000000000e+00
3.000000000000e+00
3.000000000000e+00
3.000000000000e+00
3.000000000000e+00
3.000000000000e+00
3.000000000000e+00
3.000000000000e+00
3.000000000000e+00
3.000000000000e+00
3.000000000000e+00
3.000000000000e+00
3.000000000000e+00
3.000000000000e+00
3.000000000000e+00
3.000000000000e+00
3.000000000000e+00
3.000000000000e+00
3.000000000000e+00
3.000000000000e+00
3.000000000000e+00
3.000000000000e+00
3.000000000000e+00
3.000000000000e+00
3.000000000000e+00
3.000000000000e+00
3.000000000000e+00
3.000000000000e+00
3.000000000000e+00
3.000000000000e+00
3.000000000000e+00
3.000000000000e+00
3.000000000000e+00
3.000000000000e+00
3.000000000000e+00
3.000000000000e+00
3.000000000000e+00
3.000000000000e+00
3.000000000000e+00
3.000000000000e+00
3.000000000000e+00
3.000000000000e+00
3.000000000000e+00
3.000000000000e+00
3.000000000000e+00
3.000000000000e+00
3.000000000000e+00
3.000000000000e+00
3.000000000000e+00
3.000000000000e+00
3.000000000000e+00
3.000000000000e+00
3.000000000000e+00
3.000000000000e+00
3.000000000000e+00
3.000000000000e+00
3.000000000000e+00
3.000000000000e+00
3.000000000000e+00
3.000000000000e+00
3.000000000000e+00
3.000000000000e+00
3.000000000000e+00
3.000000000000e+00
3.000000000000e+00
3.000000000000e+00
3.000000000000e+00
3.000000000000e+00
3.000000000000e+00
3.000000000000e+00
3.000000000000e+00
3.000000000000e+00
3.000000000000e+00
3.000000000000e+00
3.000000000000e+00
3.000000000000e+00
3.000000000000e+00
3.000000000000e+00
3.000000000000e+00
3.000000000000e+00
3.000000000000e+00
3.000000000000e+00
3.000000000000e+00
3.000000000000e+00
3.000000000000e+00
3.000000000000e+00
3.000000000000e+00
3.000000000000e+00
3.000000000000e+00
3.000000000000e+00
3.000000000000e+00
3.000000000000e+00
3.000000000000e+00
3.000000000000e+00
3.000000000000e+00
3.000000000000e+00
3.000000000000e+00
3.000000000000e+00
3.000000000000e+00
3.000000000000e+00
3.000000000000e+00
3.000000000000e+00
3.000000000000e+00
3.000000000000e+00
3.000000000000e+00
3.000000000000e+00
3.000000000000e+00
3.000000000000e+00
3.000000000000e+00
3.000000000000e+00
3.000000000000e+00
3.000000000000e+00
3.000000000000e+00
3.000000000000e+00
3.000000000000e+00
3.000000000000e+00
3.000000000000e+00
3.000000000000e+00
3.000000000000e+00
3.000000000000e+00
3.000000000000e+00
3.000000000000e+00
3.000000000000e+00
3.000000000000e+00
3.000000000000e+00
3.000000000000e+00
3.000000000000e+00
3.000000000000e+00
3.000000000000e+00
3.000000000000e+00
3.000000000000e+00
3.000000000000e+00
3.000000000000e+00
3.000000000000e+00
3.000000000000e+00
3.000000000000e+00
3.000000000000e+00
3.000000000000e+00
3.000000000000e+00
3.000000000000e+00
3.000000000000e+00
3.000000000000e+00
3.000000000000e+00
3.000000000000e+00
3.000000000000e+00
3.000000000000e+00
3.000000000000e+00
3.000000000000e+00
3.000000000000e+00
3.000000000000e+00
3.000000000000e+00
3.000000000000e+00
3.000000000000e+00
3.000000000000e+00
3.000000000000e+00
3.000000000000e+00
3.000000000000e+00
3.000000000000e+00
3.000000000000e+00
3.000000000000e+00
3.000000000000e+00
3.000000000000e+00
3.000000000000e+00
3.000000000000e+00
3.000000000000e+00
</dep>
<dep v(uut) v(v-sweep)>
-1.400000000000e+01
-1.400000000000e+01
-1.400000000000e+01
-1.400000000000e+01
-1.400000000000e+01
-1.400000000000e+01
-1.400000000000e+01
-1.400000000000e+01
-1.400000000000e+01
-1.400000000000e+01
-1.400000000000e+01
-1.400000000000e+01
-1.400000000000e+01
-1.400000000000e+01
-1.400000000000e+01
-1.400000000000e+01
-1.400000000000e+01
-1.400000000000e+01
-1.400000000000e+01
-1.400000000000e+01
-1.400000000000e+01
-1.400000000000e+01
-1.400000000000e+01
-1.400000000000e+01
-1.400000000000e+01
-1.400000000000e+01
-1.400000000000e+01
-1.400000000000e+01
-1.400000000000e+01
-1.400000000000e+01
-1.400000000000e+01
-1.400000000000e+01
-1.400000000000e+01
-1.400000000000e+01
-1.400000000000e+01
-1.400000000000e+01
-1.400000000000e+01
-1.400000000000e+01
-1.400000000000e+01
-1.400000000000e+01
-1.400000000000e+01
-1.400000000000e+01
-1.400000000000e+01
-1.400000000000e+01
-1.400000000000e+01
-1.400000000000e+01
-1.400000000000e+01
-1.400000000000e+01
-1.400000000000e+01
-1.400000000000e+01
-1.400000000000e+01
-1.400000000000e+01
-1.400000000000e+01
-1.400000000000e+01
-1.400000000000e+01
-1.400000000000e+01
-1.400000000000e+01
-1.400000000000e+01
-1.400000000000e+01
-1.400000000000e+01
-1.400000000000e+01
-1.400000000000e+01
-1.400000000000e+01
-1.400000000000e+01
-1.400000000000e+01
-1.400000000000e+01
-1.400000000000e+01
-1.400000000000e+01
-1.400000000000e+01
-1.400000000000e+01
-1.400000000000e+01
-1.400000000000e+01
-1.400000000000e+01
-1.400000000000e+01
-1.400000000000e+01
-1.400000000000e+01
-1.400000000000e+01
-1.400000000000e+01
-1.400000000000e+01
-1.400000000000e+01
-1.400000000000e+01
-1.400000000000e+01
-1.400000000000e+01
-1.400000000000e+01
-1.400000000000e+01
-1.400000000000e+01
-1.400000000000e+01
-1.400000000000e+01
-1.400000000000e+01
-1.400000000000e+01
-1.400000000000e+01
-1.400000000000e+01
-1.400000000000e+01
-1.400000000000e+01
-1.400000000000e+01
-1.400000000000e+01
-1.400000000000e+01
-1.400000000000e+01
-1.400000000000e+01
-1.400000000000e+01
-1.400000000000e+01
-1.400000000000e+01
-1.400000000000e+01
-1.400000000000e+01
-1.400000000000e+01
-1.400000000000e+01
-1.400000000000e+01
-1.400000000000e+01
-1.400000000000e+01
-1.400000000000e+01
-1.400000000000e+01
-1.400000000000e+01
-1.400000000000e+01
-1.400000000000e+01
-1.400000000000e+01
-1.400000000000e+01
-1.400000000000e+01
-1.400000000000e+01
-1.400000000000e+01
-1.400000000000e+01
-1.400000000000e+01
-1.400000000000e+01
-1.400000000000e+01
-1.400000000000e+01
-1.400000000000e+01
-1.400000000000e+01
-1.400000000000e+01
-1.400000000000e+01
-1.400000000000e+01
-1.400000000000e+01
-1.400000000000e+01
-1.400000000000e+01
-1.400000000000e+01
-1.400000000000e+01
-1.400000000000e+01
-1.400000000000e+01
-1.400000000000e+01
-1.400000000000e+01
-1.400000000000e+01
-1.400000000000e+01
-1.400000000000e+01
-1.400000000000e+01
-1.400000000000e+01
-1.400000000000e+01
-1.400000000000e+01
-1.400000000000e+01
-1.400000000000e+01
-1.400000000000e+01
-1.400000000000e+01
-1.400000000000e+01
-1.400000000000e+01
-1.400000000000e+01
-1.400000000000e+01
-1.400000000000e+01
-1.400000000000e+01
-1.400000000000e+01
-1.400000000000e+01
-1.400000000000e+01
-1.400000000000e+01
-1.400000000000e+01
-1.400000000000e+01
-1.400000000000e+01
-1.400000000000e+01
-1.400000000000e+01
-1.400000000000e+01
-1.400000000000e+01
-1.400000000000e+01
-1.400000000000e+01
-1.400000000000e+01
-1.400000000000e+01
-1.400000000000e+01
1.400000000000e+01
1.400000000000e+01
1.400000000000e+01
1.400000000000e+01
