<Qucs Dataset 0.0.21>
<indep time 209>
0.000000000000e+00
9.950250000000e-08
1.990050000000e-07
3.980100000000e-07
7.960200000000e-07
1.592040000000e-06
3.184080000000e-06
6.368160000000e-06
1.273632000000e-05
2.268657000000e-05
3.263682000000e-05
4.258707000000e-05
5.253732000000e-05
6.248757000000e-05
7.243782000000e-05
8.238807000000e-05
9.233832000000e-05
1.022885700000e-04
1.122388200000e-04
1.221890700000e-04
1.321393200000e-04
1.420895700000e-04
1.520398200000e-04
1.619900700000e-04
1.719403200000e-04
1.818905700000e-04
1.918408200000e-04
2.017910700000e-04
2.117413200000e-04
2.216915700000e-04
2.316418200000e-04
2.415920700000e-04
2.515423200000e-04
2.614925700000e-04
2.714428200000e-04
2.813930700000e-04
2.913433200000e-04
3.012935700000e-04
3.112438200000e-04
3.211940700000e-04
3.311443200000e-04
3.410945700000e-04
3.510448200000e-04
3.609950700000e-04
3.709453200000e-04
3.808955700000e-04
3.908458200000e-04
4.007960700000e-04
4.107463200000e-04
4.206965700000e-04
4.306468200000e-04
4.405970700000e-04
4.505473200000e-04
4.604975700000e-04
4.704478200000e-04
4.803980700000e-04
4.903483200000e-04
5.002985700000e-04
5.102488200000e-04
5.201990700000e-04
5.301493200000e-04
5.400995700000e-04
5.500498200000e-04
5.600000700000e-04
5.699503200000e-04
5.799005700000e-04
5.898508200000e-04
5.998010700000e-04
6.097513200000e-04
6.197015700000e-04
6.296518200000e-04
6.396020700000e-04
6.495523200000e-04
6.595025700000e-04
6.694528200000e-04
6.794030700000e-04
6.893533200000e-04
6.993035700000e-04
7.092538200000e-04
7.192040700000e-04
7.291543200000e-04
7.391045700000e-04
7.490548200000e-04
7.590050700000e-04
7.689553200000e-04
7.789055700000e-04
7.888558200000e-04
7.988060700000e-04
8.087563200000e-04
8.187065700000e-04
8.286568200000e-04
8.386070700000e-04
8.485573200000e-04
8.585075700000e-04
8.684578200000e-04
8.784080700000e-04
8.883583200000e-04
8.983085700000e-04
9.082588200000e-04
9.182090700000e-04
9.281593200000e-04
9.381095700000e-04
9.480598200000e-04
9.580100700000e-04
9.679603200000e-04
9.779105700000e-04
9.878608200000e-04
9.978110700000e-04
1.007761320000e-03
1.017711570000e-03
1.027661820000e-03
1.037612070000e-03
1.047562320000e-03
1.057512570000e-03
1.067462820000e-03
1.077413070000e-03
1.087363320000e-03
1.097313570000e-03
1.107263820000e-03
1.117214070000e-03
1.127164320000e-03
1.137114570000e-03
1.147064820000e-03
1.157015070000e-03
1.166965320000e-03
1.176915570000e-03
1.186865820000e-03
1.196816070000e-03
1.206766320000e-03
1.216716570000e-03
1.226666820000e-03
1.236617070000e-03
1.246567320000e-03
1.256517570000e-03
1.266467820000e-03
1.276418070000e-03
1.286368320000e-03
1.296318570000e-03
1.306268820000e-03
1.316219070000e-03
1.326169320000e-03
1.336119570000e-03
1.346069820000e-03
1.356020070000e-03
1.365970320000e-03
1.375920570000e-03
1.385870820000e-03
1.395821070000e-03
1.405771320000e-03
1.415721570000e-03
1.425671820000e-03
1.435622070000e-03
1.445572320000e-03
1.455522570000e-03
1.465472820000e-03
1.475423070000e-03
1.485373320000e-03
1.495323570000e-03
1.505273820000e-03
1.515224070000e-03
1.525174320000e-03
1.535124570000e-03
1.545074820000e-03
1.555025070000e-03
1.564975320000e-03
1.574925570000e-03
1.584875820000e-03
1.594826070000e-03
1.604776320000e-03
1.614726570000e-03
1.624676820000e-03
1.634627070000e-03
1.644577320000e-03
1.654527570000e-03
1.664477820000e-03
1.674428070000e-03
1.684378320000e-03
1.694328570000e-03
1.704278820000e-03
1.714229070000e-03
1.724179320000e-03
1.734129570000e-03
1.744079820000e-03
1.754030070000e-03
1.763980320000e-03
1.773930570000e-03
1.783880820000e-03
1.793831070000e-03
1.803781320000e-03
1.813731570000e-03
1.823681820000e-03
1.833632070000e-03
1.843582320000e-03
1.853532570000e-03
1.863482820000e-03
1.873433070000e-03
1.883383320000e-03
1.893333570000e-03
1.903283820000e-03
1.913234070000e-03
1.923184320000e-03
1.933134570000e-03
1.943084820000e-03
1.953035070000e-03
1.962985320000e-03
1.972935570000e-03
1.982885820000e-03
1.992836070000e-03
2.000000000000e-03
</indep>
<dep tran.v(uin) time>
1.000000000000e+00
1.000312596303e+00
1.000625192483e+00
1.001250383989e+00
1.002500760158e+00
1.005001457758e+00
1.010002415066e+00
1.020000826834e+00
1.039969636885e+00
1.071030846968e+00
1.101814512152e+00
1.132200348788e+00
1.162069627702e+00
1.191305638106e+00
1.219794143638e+00
1.247423828725e+00
1.274086733537e+00
1.299678675826e+00
1.324099658009e+00
1.347254257895e+00
1.369052001537e+00
1.389407716747e+00
1.408241865899e+00
1.425480856714e+00
1.441057329807e+00
1.454910421895e+00
1.466986003607e+00
1.477236890989e+00
1.485623029875e+00
1.492111652385e+00
1.496677404971e+00
1.499302447478e+00
1.499976522853e+00
1.498696997222e+00
1.495468870187e+00
1.490304755283e+00
1.483224830699e+00
1.474256760429e+00
1.463435586180e+00
1.450803590452e+00
1.436410131320e+00
1.420311449580e+00
1.402570448985e+00
1.383256450463e+00
1.362444921253e+00
1.340217180021e+00
1.316660079120e+00
1.291865665224e+00
1.265930819667e+00
1.238956879887e+00
1.211049243464e+00
1.182316956292e+00
1.152872286493e+00
1.122830285742e+00
1.092308339715e+00
1.061425709423e+00
1.030303065206e+00
9.990620152316e-01
9.678246303254e-01
9.367129669915e-01
9.058485904913e-01
8.753520998414e-01
8.453426565864e-01
8.159375191892e-01
7.872515848565e-01
7.593969405916e-01
7.324824252271e-01
7.066132041494e-01
6.818903583772e-01
6.584104895992e-01
6.362653427136e-01
6.155414473457e-01
5.963197797434e-01
5.786754463715e-01
5.626773904421e-01
5.483881225265e-01
5.358634763026e-01
5.251523903913e-01
5.162967171341e-01
5.093310590601e-01
5.042826336804e-01
5.011711671392e-01
5.000088171355e-01
5.008001254189e-01
5.035420000430e-01
5.082237274465e-01
5.148270143159e-01
5.233260590639e-01
5.336876526466e-01
5.458713083235e-01
5.598294198555e-01
5.755074475202e-01
5.928441312200e-01
6.117717298488e-01
6.322162859826e-01
6.540979148597e-01
6.773311165210e-01
7.018251098919e-01
7.274841874984e-01
7.542080894331e-01
7.818923951099e-01
8.104289312746e-01
8.397061946804e-01
8.696097877732e-01
9.000228656879e-01
9.308265928052e-01
9.619006070894e-01
9.931234903881e-01
1.024373242861e+00
1.055527759678e+00
1.086465308133e+00
1.117065003300e+00
1.147207280372e+00
1.176774361854e+00
1.205650717763e+00
1.233723517043e+00
1.260883068447e+00
1.287023249137e+00
1.312041919352e+00
1.335841321503e+00
1.358328462151e+00
1.379415475370e+00
1.399019966070e+00
1.417065331949e+00
1.433481062807e+00
1.448203016055e+00
1.461173667347e+00
1.472342335348e+00
1.481665379768e+00
1.489106371877e+00
1.494636236851e+00
1.498233367377e+00
1.499883708078e+00
1.499580810437e+00
1.497325857993e+00
1.493127661713e+00
1.487002625569e+00
1.478974682438e+00
1.469075200589e+00
1.457342861113e+00
1.443823506782e+00
1.428569962927e+00
1.411641831021e+00
1.393105255804e+00
1.373032666818e+00
1.351502495407e+00
1.328598868250e+00
1.304411278647e+00
1.279034236835e+00
1.252566900697e+00
1.225112688320e+00
1.196778873893e+00
1.167676168553e+00
1.137918287786e+00
1.107621507104e+00
1.076904207708e+00
1.045886413928e+00
1.014689324240e+00
9.834348377006e-01
9.522450776354e-01
9.212419144604e-01
8.905464894850e-01
8.602787415672e-01
8.305569384656e-01
8.014972147220e-01
7.732131178789e-01
7.458151648057e-01
7.194104098662e-01
6.941020266166e-01
6.699889046659e-01
6.471652632767e-01
6.257202832140e-01
6.057377582814e-01
5.872957679067e-01
5.704663720551e-01
5.553153296638e-01
5.419018416957e-01
5.302783198188e-01
5.204901816139e-01
5.125756731099e-01
5.065657193425e-01
5.024838035177e-01
5.003458752542e-01
5.001602882618e-01
5.019277677004e-01
5.056414073465e-01
5.112866965785e-01
5.188415770753e-01
5.282765290065e-01
5.395546863779e-01
5.526319810812e-01
5.674573150850e-01
5.839727600945e-01
6.021137838997e-01
6.218095025276e-01
6.429829572133e-01
6.655514151074e-01
6.894266925453e-01
7.145154996146e-01
7.407198046750e-01
7.679372174053e-01
7.960613888824e-01
8.249824271269e-01
8.545873264941e-01
8.847604092301e-01
9.153837774696e-01
9.463377739082e-01
9.775014493497e-01
1.000000000000e+00
</dep>
<dep tran.v(uut) time>
9.999949881528e-01
1.000115240004e+00
1.000309484065e+00
1.000789028246e+00
1.001990886822e+00
1.004498526991e+00
1.009496053742e+00
1.019497210734e+00
1.039464858156e+00
1.070531232186e+00
1.101318356661e+00
1.131712983438e+00
1.161589736990e+00
1.190838079405e+00
1.219337908563e+00
1.246983321547e+00
1.273661178479e+00
1.299272039946e+00
1.323711330844e+00
1.346887781830e+00
1.368706871088e+00
1.389087059851e+00
1.407945228471e+00
1.425210961063e+00
1.440813726250e+00
1.454695435343e+00
1.466799148210e+00
1.477080102596e+00
1.485495752184e+00
1.492015441231e+00
1.496611605449e+00
1.499268245670e+00
1.499973143061e+00
1.498725267662e+00
1.495527877962e+00
1.490394984559e+00
1.483345220542e+00
1.474407466934e+00
1.463615394863e+00
1.451012347608e+00
1.436646468454e+00
1.420574923808e+00
1.402859542076e+00
1.383570453303e+00
1.362782174545e+00
1.340576733594e+00
1.317040145290e+00
1.292265080014e+00
1.266347683275e+00
1.239389843623e+00
1.211496314832e+00
1.182776632554e+00
1.153342504558e+00
1.123309420742e+00
1.092794282250e+00
1.061916745303e+00
1.030797064679e+00
9.995572080982e-01
9.683188935996e-01
9.372045078603e-01
9.063353204828e-01
8.758322365887e-01
8.458141739901e-01
8.163986776160e-01
7.877004480346e-01
7.598318427062e-01
7.329015463887e-01
7.070149818227e-01
6.822731142351e-01
6.587727918193e-01
6.366056778892e-01
6.158585393958e-01
5.966123013068e-01
5.789422993836e-01
5.629174521085e-01
5.486004920125e-01
5.360472509726e-01
5.253068825257e-01
5.164212566435e-01
5.094251836789e-01
5.043459148270e-01
5.012033766284e-01
5.000097732643e-01
5.007698388847e-01
5.034805376960e-01
5.081313397902e-01
5.147040146872e-01
5.231729348201e-01
5.335049578189e-01
5.456597603574e-01
5.595898040341e-01
5.752407009175e-01
5.925512574126e-01
6.114538715608e-01
6.318746488012e-01
6.537338298911e-01
6.769459719995e-01
7.014204050275e-01
7.270614710214e-01
7.537690056935e-01
7.814386287344e-01
8.099622464692e-01
8.392283852965e-01
8.691227106708e-01
8.995283956104e-01
9.303266505760e-01
9.613971187867e-01
9.926184110731e-01
1.023868519622e+00
1.055025351523e+00
1.085967152538e+00
1.116573032835e+00
1.146723392457e+00
1.176300432629e+00
1.205188574790e+00
1.233274950898e+00
1.260449808151e+00
1.286606971884e+00
1.311644228492e+00
1.335463754782e+00
1.357972472098e+00
1.379082436380e+00
1.398711157069e+00
1.416781942619e+00
1.433224178409e+00
1.447973623066e+00
1.460972640341e+00
1.472170442267e+00
1.481523270771e+00
1.488994584448e+00
1.494555186523e+00
1.498183352837e+00
1.499864903691e+00
1.499593271482e+00
1.497369514897e+00
1.493202325528e+00
1.487107983826e+00
1.479110304953e+00
1.469240536842e+00
1.457537246433e+00
1.444046161162e+00
1.428819997617e+00
1.411918248678e+00
1.393406957504e+00
1.373358453428e+00
1.351851075013e+00
1.328968858631e+00
1.304801215090e+00
1.279442575594e+00
1.252992027150e+00
1.225552921284e+00
1.197232474063e+00
1.168141343543e+00
1.138393200781e+00
1.108104282492e+00
1.077392939854e+00
1.046379173267e+00
1.015184166086e+00
9.839298086519e-01
9.527382243296e-01
9.217312901538e-01
8.910301626459e-01
8.607548024982e-01
8.310235076332e-01
8.019524492867e-01
7.736552196594e-01
7.462423865889e-01
7.198210629061e-01
6.944944866026e-01
6.703616186609e-01
6.475167552303e-01
6.260491602502e-01
6.060427156534e-01
5.875755945524e-01
5.707199549003e-01
5.555416583735e-01
5.421000122448e-01
5.304475383784e-01
5.206297673207e-01
5.126850610385e-01
5.066444624205e-01
5.025315745465e-01
5.003624679305e-01
5.001456182249e-01
5.018818726355e-01
5.055644470500e-01
5.111789521340e-01
5.187034499423e-01
5.281085392768e-01
5.393574709074e-01
5.524062908474e-01
5.672040123974e-01
5.836928150892e-01
6.018082708764e-01
6.214795956323e-01
6.426299259624e-01
6.651766193223e-01
6.890315771374e-01
7.141015888473e-01
7.402886962943e-01
7.674905763155e-01
7.956009407171e-01
8.245099514346e-01
8.541046498520e-01
8.842693980438e-01
9.148863307398e-01
9.458358157548e-01
9.769969215457e-01
9.994949805307e-01
</dep>
