<Qucs Dataset 0.0.24>
<indep time 209>
0.000000000000e+00
9.950250000000e-08
1.990050000000e-07
3.980100000000e-07
7.960200000000e-07
1.592040000000e-06
3.184080000000e-06
6.368160000000e-06
1.273632000000e-05
2.268657000000e-05
3.263682000000e-05
4.258707000000e-05
5.253732000000e-05
6.248757000000e-05
7.243782000000e-05
8.238807000000e-05
9.233832000000e-05
1.022885700000e-04
1.122388200000e-04
1.221890700000e-04
1.321393200000e-04
1.420895700000e-04
1.520398200000e-04
1.619900700000e-04
1.719403200000e-04
1.818905700000e-04
1.918408200000e-04
2.017910700000e-04
2.117413200000e-04
2.216915700000e-04
2.316418200000e-04
2.415920700000e-04
2.515423200000e-04
2.614925700000e-04
2.714428200000e-04
2.813930700000e-04
2.913433200000e-04
3.012935700000e-04
3.112438200000e-04
3.211940700000e-04
3.311443200000e-04
3.410945700000e-04
3.510448200000e-04
3.609950700000e-04
3.709453200000e-04
3.808955700000e-04
3.908458200000e-04
4.007960700000e-04
4.107463200000e-04
4.206965700000e-04
4.306468200000e-04
4.405970700000e-04
4.505473200000e-04
4.604975700000e-04
4.704478200000e-04
4.803980700000e-04
4.903483200000e-04
5.002985700000e-04
5.102488200000e-04
5.201990700000e-04
5.301493200000e-04
5.400995700000e-04
5.500498200000e-04
5.600000700000e-04
5.699503200000e-04
5.799005700000e-04
5.898508200000e-04
5.998010700000e-04
6.097513200000e-04
6.197015700000e-04
6.296518200000e-04
6.396020700000e-04
6.495523200000e-04
6.595025700000e-04
6.694528200000e-04
6.794030700000e-04
6.893533200000e-04
6.993035700000e-04
7.092538200000e-04
7.192040700000e-04
7.291543200000e-04
7.391045700000e-04
7.490548200000e-04
7.590050700000e-04
7.689553200000e-04
7.789055700000e-04
7.888558200000e-04
7.988060700000e-04
8.087563200000e-04
8.187065700000e-04
8.286568200000e-04
8.386070700000e-04
8.485573200000e-04
8.585075700000e-04
8.684578200000e-04
8.784080700000e-04
8.883583200000e-04
8.983085700000e-04
9.082588200000e-04
9.182090700000e-04
9.281593200000e-04
9.381095700000e-04
9.480598200000e-04
9.580100700000e-04
9.679603200000e-04
9.779105700000e-04
9.878608200000e-04
9.978110700000e-04
1.007761320000e-03
1.017711570000e-03
1.027661820000e-03
1.037612070000e-03
1.047562320000e-03
1.057512570000e-03
1.067462820000e-03
1.077413070000e-03
1.087363320000e-03
1.097313570000e-03
1.107263820000e-03
1.117214070000e-03
1.127164320000e-03
1.137114570000e-03
1.147064820000e-03
1.157015070000e-03
1.166965320000e-03
1.176915570000e-03
1.186865820000e-03
1.196816070000e-03
1.206766320000e-03
1.216716570000e-03
1.226666820000e-03
1.236617070000e-03
1.246567320000e-03
1.256517570000e-03
1.266467820000e-03
1.276418070000e-03
1.286368320000e-03
1.296318570000e-03
1.306268820000e-03
1.316219070000e-03
1.326169320000e-03
1.336119570000e-03
1.346069820000e-03
1.356020070000e-03
1.365970320000e-03
1.375920570000e-03
1.385870820000e-03
1.395821070000e-03
1.405771320000e-03
1.415721570000e-03
1.425671820000e-03
1.435622070000e-03
1.445572320000e-03
1.455522570000e-03
1.465472820000e-03
1.475423070000e-03
1.485373320000e-03
1.495323570000e-03
1.505273820000e-03
1.515224070000e-03
1.525174320000e-03
1.535124570000e-03
1.545074820000e-03
1.555025070000e-03
1.564975320000e-03
1.574925570000e-03
1.584875820000e-03
1.594826070000e-03
1.604776320000e-03
1.614726570000e-03
1.624676820000e-03
1.634627070000e-03
1.644577320000e-03
1.654527570000e-03
1.664477820000e-03
1.674428070000e-03
1.684378320000e-03
1.694328570000e-03
1.704278820000e-03
1.714229070000e-03
1.724179320000e-03
1.734129570000e-03
1.744079820000e-03
1.754030070000e-03
1.763980320000e-03
1.773930570000e-03
1.783880820000e-03
1.793831070000e-03
1.803781320000e-03
1.813731570000e-03
1.823681820000e-03
1.833632070000e-03
1.843582320000e-03
1.853532570000e-03
1.863482820000e-03
1.873433070000e-03
1.883383320000e-03
1.893333570000e-03
1.903283820000e-03
1.913234070000e-03
1.923184320000e-03
1.933134570000e-03
1.943084820000e-03
1.953035070000e-03
1.962985320000e-03
1.972935570000e-03
1.982885820000e-03
1.992836070000e-03
2.000000000000e-03
</indep>
<dep tran.v(uin) time>
1.000000000000e+00
1.000156298151e+00
1.000312596242e+00
1.000625191994e+00
1.001250380079e+00
1.002500728879e+00
1.005001207533e+00
1.010000413417e+00
1.019984818443e+00
1.035515423484e+00
1.050907256076e+00
1.066100174394e+00
1.081034813851e+00
1.095652819053e+00
1.109897071819e+00
1.123711914363e+00
1.137043366768e+00
1.149839337913e+00
1.162049829005e+00
1.173627128948e+00
1.184526000768e+00
1.194703858373e+00
1.204120932950e+00
1.212740428357e+00
1.220528664904e+00
1.227455210948e+00
1.233493001803e+00
1.238618445495e+00
1.242811514937e+00
1.246055826193e+00
1.248338702486e+00
1.249651223739e+00
1.249988261426e+00
1.249348498611e+00
1.247734435093e+00
1.245152377642e+00
1.241612415350e+00
1.237128380214e+00
1.231717793090e+00
1.225401795226e+00
1.218205065660e+00
1.210155724790e+00
1.201285224492e+00
1.191628225232e+00
1.181222460626e+00
1.170108590010e+00
1.158330039560e+00
1.145932832612e+00
1.132965409833e+00
1.119478439943e+00
1.105524621732e+00
1.091158478146e+00
1.076436143246e+00
1.061415142871e+00
1.046154169858e+00
1.030712854712e+00
1.015151532603e+00
9.995310076158e-01
9.839123151627e-01
9.683564834958e-01
9.529242952457e-01
9.376760499207e-01
9.226713282932e-01
9.079687595946e-01
8.936257924282e-01
8.796984702958e-01
8.662412126136e-01
8.533066020747e-01
8.409451791886e-01
8.292052447996e-01
8.181326713568e-01
8.077707236729e-01
7.981598898717e-01
7.893377231858e-01
7.813386952210e-01
7.741940612632e-01
7.679317381513e-01
7.625761951957e-01
7.581483585671e-01
7.546655295300e-01
7.521413168402e-01
7.505855835696e-01
7.500044085678e-01
7.504000627095e-01
7.517710000215e-01
7.541118637233e-01
7.574135071580e-01
7.616630295320e-01
7.668438263233e-01
7.729356541617e-01
7.799147099277e-01
7.877537237601e-01
7.964220656100e-01
8.058858649244e-01
8.161081429913e-01
8.270489574298e-01
8.386655582605e-01
8.509125549460e-01
8.637420937492e-01
8.771040447166e-01
8.909461975549e-01
9.052144656373e-01
9.198530973402e-01
9.348048938866e-01
9.500114328439e-01
9.654132964026e-01
9.809503035447e-01
9.965617451940e-01
1.012186621430e+00
1.027763879839e+00
1.043232654067e+00
1.058532501650e+00
1.073603640186e+00
1.088387180927e+00
1.102825358881e+00
1.116861758521e+00
1.130441534223e+00
1.143511624569e+00
1.156020959676e+00
1.167920660751e+00
1.179164231076e+00
1.189707737685e+00
1.199509983035e+00
1.208532665975e+00
1.216740531404e+00
1.224101508028e+00
1.230586833674e+00
1.236171167674e+00
1.240832689884e+00
1.244553185938e+00
1.247318118426e+00
1.249116683688e+00
1.249941854039e+00
1.249790405219e+00
1.248662928996e+00
1.246563830857e+00
1.243501312785e+00
1.239487341219e+00
1.234537600294e+00
1.228671430556e+00
1.221911753391e+00
1.214284981463e+00
1.205820915511e+00
1.196552627902e+00
1.186516333409e+00
1.175751247704e+00
1.164299434125e+00
1.152205639324e+00
1.139517118417e+00
1.126283450349e+00
1.112556344160e+00
1.098389436947e+00
1.083838084276e+00
1.068959143893e+00
1.053810753552e+00
1.038452103854e+00
1.022943206964e+00
1.007344662120e+00
9.917174188503e-01
9.761225388177e-01
9.606209572302e-01
9.452732447425e-01
9.301393707836e-01
9.152784692328e-01
9.007486073610e-01
8.866065589395e-01
8.729075824028e-01
8.597052049331e-01
8.470510133083e-01
8.349944523329e-01
8.235826316384e-01
8.128601416070e-01
8.028688791407e-01
7.936478839533e-01
7.852331860276e-01
7.776576648319e-01
7.709509208478e-01
7.651391599094e-01
7.602450908069e-01
7.562878365550e-01
7.532828596712e-01
7.512419017589e-01
7.501729376271e-01
7.500801441309e-01
7.509638838502e-01
7.528207036732e-01
7.556433482893e-01
7.594207885376e-01
7.641382645032e-01
7.697773431889e-01
7.763159905406e-01
7.837286575425e-01
7.919863800472e-01
8.010568919498e-01
8.109047512638e-01
8.214914786066e-01
8.327757075537e-01
8.447133462727e-01
8.572577498073e-01
8.703599023375e-01
8.839686087027e-01
8.980306944412e-01
9.124912135635e-01
9.272936632471e-01
9.423802046150e-01
9.576918887348e-01
9.731688869541e-01
9.887507246749e-01
1.000000000000e+00
</dep>
<dep tran.v(uut) time>
9.999949881528e-01
1.000055114094e+00
1.000152236119e+00
1.000392008201e+00
1.000992937487e+00
1.002246757572e+00
1.004745520947e+00
1.009746099443e+00
1.019729923155e+00
1.035263110169e+00
1.050656672407e+00
1.065853985795e+00
1.080792362571e+00
1.095416533779e+00
1.109666448358e+00
1.123489154850e+00
1.136828083316e+00
1.149633514049e+00
1.161853159499e+00
1.173441384992e+00
1.184350929620e+00
1.194541024002e+00
1.203970108312e+00
1.212602974608e+00
1.220404357201e+00
1.227345211748e+00
1.233397068181e+00
1.238537545374e+00
1.242745370168e+00
1.246005214692e+00
1.248303296801e+00
1.249631616911e+00
1.249984065607e+00
1.249360127907e+00
1.247761433057e+00
1.245194986356e+00
1.241670104347e+00
1.237201227543e+00
1.231805191508e+00
1.225503667880e+00
1.218320728303e+00
1.210284955980e+00
1.201427265115e+00
1.191782720728e+00
1.181388581349e+00
1.170285860874e+00
1.158517566721e+00
1.146130034084e+00
1.133171335714e+00
1.119692415888e+00
1.105745651492e+00
1.091385810353e+00
1.076668746355e+00
1.061652204447e+00
1.046394635201e+00
1.030955866728e+00
1.015396026416e+00
9.997760981255e-01
9.841569408762e-01
9.685997480065e-01
9.531651543178e-01
9.379136123707e-01
9.229045810714e-01
9.081968328844e-01
8.938477180937e-01
8.799134154295e-01
8.664482672708e-01
8.535049849877e-01
8.411340511939e-01
8.293838899861e-01
8.183003330210e-01
8.079267637743e-01
7.983036447298e-01
7.894686437682e-01
7.814562201306e-01
7.742977400826e-01
7.680211195627e-01
7.626509353392e-01
7.582081223981e-01
7.547100859158e-01
7.521704514899e-01
7.505991823906e-01
7.500023807085e-01
7.503824135188e-01
7.517377629244e-01
7.540631639715e-01
7.573495014200e-01
7.615839614864e-01
7.667499729858e-01
7.728273742551e-01
7.797923960934e-01
7.876178445351e-01
7.962731227827e-01
8.057244298568e-01
8.159348184770e-01
8.268644090219e-01
8.384704800761e-01
8.507076965902e-01
8.635282295871e-01
8.768819969232e-01
8.907168084436e-01
9.049786173110e-01
9.196116867247e-01
9.345588494118e-01
9.497616918816e-01
9.651608193644e-01
9.806960534698e-01
9.963066996130e-01
1.011931753887e+00
1.027510169838e+00
1.042981070346e+00
1.058284010494e+00
1.073359190305e+00
1.088147710391e+00
1.102591781471e+00
1.116634969525e+00
1.130222398152e+00
1.143300980018e+00
1.155819608323e+00
1.167729371467e+00
1.178983730125e+00
1.189538712266e+00
1.199353072611e+00
1.208388465386e+00
1.216609583281e+00
1.223984305610e+00
1.230483814247e+00
1.236082715210e+00
1.240759129462e+00
1.244494786300e+00
1.247275087338e+00
1.249089170495e+00
1.249929945922e+00
1.249794129818e+00
1.248682251525e+00
1.246598656840e+00
1.243551485990e+00
1.239552646553e+00
1.234617762497e+00
1.228766117293e+00
1.222020574657e+00
1.214407492885e+00
1.205956618415e+00
1.196700972828e+00
1.186676720790e+00
1.175923031583e+00
1.164481923392e+00
1.152398101621e+00
1.139718781873e+00
1.126493507652e+00
1.112773954718e+00
1.098613731108e+00
1.084068165848e+00
1.069194094467e+00
1.054049635322e+00
1.038693964004e+00
1.023187080710e+00
1.007589577119e+00
9.919623984023e-01
9.763666062412e-01
9.608631391533e-01
9.455125753994e-01
9.303748953255e-01
9.155092478930e-01
9.009737187197e-01
8.868251039061e-01
8.731186873708e-01
8.599080255295e-01
8.472447373777e-01
8.351783034068e-01
8.237558716915e-01
8.130220742015e-01
8.030188519031e-01
7.937852913526e-01
7.853574715265e-01
7.777683232632e-01
7.710475001988e-01
7.652212632656e-01
7.603123777367e-01
7.563400245957e-01
7.533197252866e-01
7.512632813496e-01
7.501787280416e-01
7.500703031888e-01
7.509384303942e-01
7.527797176014e-01
7.555869701434e-01
7.593492190476e-01
7.640517637148e-01
7.696762295301e-01
7.762006395001e-01
7.835995002751e-01
7.918439016210e-01
8.009016295146e-01
8.107372918926e-01
8.213124570576e-01
8.325858037376e-01
8.445132826451e-01
8.570482885001e-01
8.701418422235e-01
8.837427822342e-01
8.977979644349e-01
9.122524697937e-01
9.270498190024e-01
9.421321930983e-01
9.574406594463e-01
9.729154019538e-01
9.884959548492e-01
9.997449843417e-01
</dep>
