<Qucs Dataset 0.0.22>
<indep time 414>
0.000000000000e+00
4.987530000000e-08
5.423481165794e-08
6.295383497383e-08
8.039188160560e-08
1.152679748691e-07
1.850201613962e-07
3.245245344504e-07
6.035332805587e-07
1.153174874201e-06
1.956201235960e-06
3.278764140821e-06
5.384842685336e-06
9.527665725861e-06
1.451519572586e-05
1.950272572586e-05
2.449025572586e-05
2.947778572586e-05
3.446531572586e-05
3.945284572586e-05
4.444037572586e-05
4.942790572586e-05
5.441543572586e-05
5.940296572586e-05
6.439049572586e-05
6.937802572586e-05
7.436555572586e-05
7.935308572586e-05
8.434061572586e-05
8.932814572586e-05
9.431567572586e-05
9.930320572586e-05
1.042907357259e-04
1.092782657259e-04
1.142657957259e-04
1.192533257259e-04
1.242408557259e-04
1.292283857259e-04
1.342159157259e-04
1.392034457259e-04
1.441909757259e-04
1.491785057259e-04
1.541660357259e-04
1.591535657259e-04
1.641410957259e-04
1.691286257259e-04
1.741161557259e-04
1.791036857259e-04
1.840912157259e-04
1.890787457259e-04
1.940662757259e-04
1.990538057259e-04
2.040413357259e-04
2.090288657259e-04
2.140163957259e-04
2.190039257259e-04
2.239914557259e-04
2.289789857259e-04
2.339665157259e-04
2.389540457259e-04
2.439415757259e-04
2.489291057259e-04
2.539166357259e-04
2.589041657259e-04
2.638916957259e-04
2.688792257259e-04
2.738667557259e-04
2.788542857259e-04
2.838418157259e-04
2.888293457259e-04
2.938168757259e-04
2.988044057259e-04
3.037919357259e-04
3.087794657259e-04
3.137669957259e-04
3.187545257259e-04
3.237420557259e-04
3.287295857259e-04
3.337171157259e-04
3.387046457259e-04
3.436921757259e-04
3.486797057259e-04
3.536672357259e-04
3.586547657259e-04
3.636422957259e-04
3.686298257259e-04
3.736173557259e-04
3.786048857259e-04
3.835924157259e-04
3.885799457259e-04
3.935674757259e-04
3.985550057259e-04
4.035425357259e-04
4.085300657259e-04
4.135175957259e-04
4.185051257259e-04
4.234926557259e-04
4.284801857259e-04
4.334677157259e-04
4.384552457259e-04
4.434427757259e-04
4.484303057259e-04
4.534178357259e-04
4.584053657259e-04
4.633928957259e-04
4.683804257259e-04
4.733679557259e-04
4.783554857259e-04
4.833430157259e-04
4.883305457259e-04
4.933180757259e-04
4.983056057259e-04
5.032931357259e-04
5.082806657259e-04
5.132681957259e-04
5.182557257259e-04
5.232432557259e-04
5.282307857259e-04
5.332183157259e-04
5.382058457259e-04
5.431933757259e-04
5.481809057259e-04
5.531684357259e-04
5.581559657259e-04
5.631434957259e-04
5.681310257259e-04
5.731185557259e-04
5.781060857259e-04
5.830936157259e-04
5.880811457259e-04
5.930686757259e-04
5.980562057259e-04
6.030437357259e-04
6.080312657259e-04
6.130187957259e-04
6.180063257259e-04
6.229938557259e-04
6.279813857259e-04
6.329689157259e-04
6.379564457259e-04
6.429439757259e-04
6.479315057259e-04
6.529190357259e-04
6.579065657259e-04
6.628940957259e-04
6.678816257259e-04
6.728691557259e-04
6.778566857259e-04
6.828442157259e-04
6.878317457259e-04
6.928192757259e-04
6.978068057259e-04
7.027943357259e-04
7.077818657259e-04
7.127693957259e-04
7.177569257259e-04
7.227444557259e-04
7.277319857259e-04
7.327195157259e-04
7.377070457259e-04
7.426945757259e-04
7.476821057259e-04
7.526696357259e-04
7.576571657259e-04
7.626446957259e-04
7.676322257259e-04
7.726197557259e-04
7.776072857259e-04
7.825948157259e-04
7.875823457259e-04
7.925698757259e-04
7.975574057259e-04
8.025449357259e-04
8.075324657259e-04
8.125199957259e-04
8.175075257259e-04
8.224950557259e-04
8.274825857259e-04
8.324701157259e-04
8.374576457259e-04
8.424451757259e-04
8.474327057259e-04
8.524202357259e-04
8.574077657259e-04
8.623952957259e-04
8.673828257259e-04
8.723703557259e-04
8.773578857259e-04
8.823454157259e-04
8.873329457259e-04
8.923204757259e-04
8.973080057259e-04
9.022955357259e-04
9.072830657259e-04
9.122705957259e-04
9.172581257259e-04
9.222456557259e-04
9.272331857259e-04
9.322207157259e-04
9.372082457259e-04
9.421957757259e-04
9.471833057259e-04
9.521708357259e-04
9.571583657259e-04
9.621458957259e-04
9.671334257259e-04
9.721209557259e-04
9.771084857259e-04
9.820960157259e-04
9.870835457259e-04
9.920710757259e-04
9.970586057259e-04
1.002046135726e-03
1.007033665726e-03
1.012021195726e-03
1.017008725726e-03
1.021996255726e-03
1.026983785726e-03
1.031971315726e-03
1.036958845726e-03
1.041946375726e-03
1.046933905726e-03
1.051921435726e-03
1.056908965726e-03
1.061896495726e-03
1.066884025726e-03
1.071871555726e-03
1.076859085726e-03
1.081846615726e-03
1.086834145726e-03
1.091821675726e-03
1.096809205726e-03
1.101796735726e-03
1.106784265726e-03
1.111771795726e-03
1.116759325726e-03
1.121746855726e-03
1.126734385726e-03
1.131721915726e-03
1.136709445726e-03
1.141696975726e-03
1.146684505726e-03
1.151672035726e-03
1.156659565726e-03
1.161647095726e-03
1.166634625726e-03
1.171622155726e-03
1.176609685726e-03
1.181597215726e-03
1.186584745726e-03
1.191572275726e-03
1.196559805726e-03
1.201547335726e-03
1.206534865726e-03
1.211522395726e-03
1.216509925726e-03
1.221497455726e-03
1.226484985726e-03
1.231472515726e-03
1.236460045726e-03
1.241447575726e-03
1.246435105726e-03
1.251422635726e-03
1.256410165726e-03
1.261397695726e-03
1.266385225726e-03
1.271372755726e-03
1.276360285726e-03
1.281347815726e-03
1.286335345726e-03
1.291322875726e-03
1.296310405726e-03
1.301297935726e-03
1.306285465726e-03
1.311272995726e-03
1.316260525726e-03
1.321248055726e-03
1.326235585726e-03
1.331223115726e-03
1.336210645726e-03
1.341198175726e-03
1.346185705726e-03
1.351173235726e-03
1.356160765726e-03
1.361148295726e-03
1.366135825726e-03
1.371123355726e-03
1.376110885726e-03
1.381098415726e-03
1.386085945726e-03
1.391073475726e-03
1.396061005726e-03
1.401048535726e-03
1.406036065726e-03
1.411023595726e-03
1.416011125726e-03
1.420998655726e-03
1.425986185726e-03
1.430973715726e-03
1.435961245726e-03
1.440948775726e-03
1.445936305726e-03
1.450923835726e-03
1.455911365726e-03
1.460898895726e-03
1.465886425726e-03
1.470873955726e-03
1.475861485726e-03
1.480849015726e-03
1.485836545726e-03
1.490824075726e-03
1.495811605726e-03
1.500799135726e-03
1.505786665726e-03
1.510774195726e-03
1.515761725726e-03
1.520749255726e-03
1.525736785726e-03
1.530724315726e-03
1.535711845726e-03
1.540699375726e-03
1.545686905726e-03
1.550674435726e-03
1.555661965726e-03
1.560649495726e-03
1.565637025726e-03
1.570624555726e-03
1.575612085726e-03
1.580599615726e-03
1.585587145726e-03
1.590574675726e-03
1.595562205726e-03
1.600549735726e-03
1.605537265726e-03
1.610524795726e-03
1.615512325726e-03
1.620499855726e-03
1.625487385726e-03
1.630474915726e-03
1.635462445726e-03
1.640449975726e-03
1.645437505726e-03
1.650425035726e-03
1.655412565726e-03
1.660400095726e-03
1.665387625726e-03
1.670375155726e-03
1.675362685726e-03
1.680350215726e-03
1.685337745726e-03
1.690325275726e-03
1.695312805726e-03
1.700300335726e-03
1.705287865726e-03
1.710275395726e-03
1.715262925726e-03
1.720250455726e-03
1.725237985726e-03
1.730225515726e-03
1.735213045726e-03
1.740200575726e-03
1.745188105726e-03
1.750175635726e-03
1.755163165726e-03
1.760150695726e-03
1.765138225726e-03
1.770125755726e-03
1.775113285726e-03
1.780100815726e-03
1.785088345726e-03
1.790075875726e-03
1.795063405726e-03
1.800050935726e-03
1.805038465726e-03
1.810025995726e-03
1.815013525726e-03
1.820001055726e-03
1.824988585726e-03
1.829976115726e-03
1.834963645726e-03
1.839951175726e-03
1.844938705726e-03
1.849926235726e-03
1.854913765726e-03
1.859901295726e-03
1.864888825726e-03
1.869876355726e-03
1.874863885726e-03
1.879851415726e-03
1.884838945726e-03
1.889826475726e-03
1.894814005726e-03
1.899801535726e-03
1.904789065726e-03
1.909776595726e-03
1.914764125726e-03
1.919751655726e-03
1.924739185726e-03
1.929726715726e-03
1.934714245726e-03
1.939701775726e-03
1.944689305726e-03
1.949676835726e-03
1.954664365726e-03
1.959651895726e-03
1.964639425726e-03
1.969626955726e-03
1.974614485726e-03
1.979602015726e-03
1.984589545726e-03
1.989577075726e-03
1.994564605726e-03
1.999552135726e-03
2.000000000000e-03
</indep>
<dep tran.v(u1) time>
0.000000000000e+00
1.566878735110e-04
1.703836825759e-04
1.977753003118e-04
2.525585339206e-04
3.621249913850e-04
5.812578488855e-04
1.019523186857e-03
1.896051176156e-03
3.622774014300e-03
6.145432694304e-03
1.029981275358e-02
1.691375482272e-02
2.991416989619e-02
4.553764253811e-02
6.111639888833e-02
7.663514118052e-02
9.207863058000e-02
1.074317021476e-01
1.226792797313e-01
1.378063907700e-01
1.527981809966e-01
1.676399290240e-01
1.823170608009e-01
1.968151639232e-01
2.111200017865e-01
2.252175275655e-01
2.390938980079e-01
2.527354870278e-01
2.661288990862e-01
2.792609823443e-01
2.921188415792e-01
3.046898508453e-01
3.169616658736e-01
3.289222361926e-01
3.405598169617e-01
3.518629805043e-01
3.628206275290e-01
3.734219980292e-01
3.836566818485e-01
3.935146289035e-01
4.029861590523e-01
4.120619716006e-01
4.207331544337e-01
4.289911927687e-01
4.368279775155e-01
4.442358132395e-01
4.512074257180e-01
4.577359690839e-01
4.638150325473e-01
4.694386466915e-01
4.746012893339e-01
4.792978909492e-01
4.835238396471e-01
4.872749857012e-01
4.905476456241e-01
4.933386057839e-01
4.956451255603e-01
4.974649400357e-01
4.987962622189e-01
4.996377848008e-01
4.999886814368e-01
4.998486075595e-01
4.992177007163e-01
4.980965804344e-01
4.964863476129e-01
4.943885834412e-01
4.918053478465e-01
4.887391774714e-01
4.851930831825e-01
4.811705471141e-01
4.766755192487e-01
4.717124135387e-01
4.662861035714e-01
4.604019177838e-01
4.540656342302e-01
4.472834749082e-01
4.400620996490e-01
4.324085995778e-01
4.243304901505e-01
4.158357037736e-01
4.069325820153e-01
3.976298674140e-01
3.879366948936e-01
3.778625827933e-01
3.674174235211e-01
3.566114738395e-01
3.454553447942e-01
3.339599912938e-01
3.221367013532e-01
3.099970850086e-01
2.975530629172e-01
2.848168546514e-01
2.718009666998e-01
2.585181801861e-01
2.449815383186e-01
2.312043335821e-01
2.172000946856e-01
2.029825732770e-01
1.885657304399e-01
1.739637229843e-01
1.591908895449e-01
1.442617365014e-01
1.291909237334e-01
1.139932502254e-01
9.868363953432e-02
8.327712513527e-02
6.778883565932e-02
5.223398003761e-02
3.662783256681e-02
2.098571791031e-02
5.322996049922e-03
-1.034495279699e-02
-2.600274328038e-02
-4.163500002532e-02
-5.722637273010e-02
-7.276155123961e-02
-8.822528057938e-02
-1.036023759354e-01
-1.188777375651e-01
-1.340363656246e-01
-1.490633748982e-01
-1.639440094148e-01
-1.786636569383e-01
-1.932078633155e-01
-2.075623466703e-01
-2.217130114274e-01
-2.356459621540e-01
-2.493475172045e-01
-2.628042221552e-01
-2.760028630164e-01
-2.889304792077e-01
-3.015743762850e-01
-3.139221384060e-01
-3.259616405220e-01
-3.376810602842e-01
-3.490688896532e-01
-3.601139461989e-01
-3.708053840816e-01
-3.811327047023e-01
-3.910857670114e-01
-4.006547974675e-01
-4.098303996344e-01
-4.186035634079e-01
-4.269656738634e-01
-4.349085197159e-01
-4.424243013825e-01
-4.495056386418e-01
-4.561455778807e-01
-4.623375989231e-01
-4.680756214316e-01
-4.733540108791e-01
-4.781675840811e-01
-4.825116142855e-01
-4.863818358143e-01
-4.897744482522e-01
-4.926861201784e-01
-4.951139924381e-01
-4.970556809499e-01
-4.985092790471e-01
-4.994733593498e-01
-4.999469751664e-01
-4.999296614237e-01
-4.994214351231e-01
-4.984227953243e-01
-4.969347226547e-01
-4.949586783471e-01
-4.924966028043e-01
-4.895509136941e-01
-4.861245035750e-01
-4.822207370557e-01
-4.778434474916e-01
-4.729969332202e-01
-4.676859533404e-01
-4.619157230393e-01
-4.556919084710e-01
-4.490206211927e-01
-4.419084121635e-01
-4.343622653112e-01
-4.263895906748e-01
-4.179982171278e-01
-4.091963846907e-01
-3.999927364396e-01
-3.903963100188e-01
-3.804165287664e-01
-3.700631924611e-01
-3.593464676985e-01
-3.482768779086e-01
-3.368652930219e-01
-3.251229187954e-01
-3.130612858091e-01
-3.006922381433e-01
-2.880279217486e-01
-2.750807725181e-01
-2.618635040766e-01
-2.483890952963e-01
-2.346707775512e-01
-2.207220217255e-01
-2.065565249847e-01
-1.921881973263e-01
-1.776311479199e-01
-1.628996712532e-01
-1.480082330950e-01
-1.329714562904e-01
-1.178041064016e-01
-1.025210772091e-01
-8.713737608580e-02
-7.166810926101e-02
-5.612846698633e-02
-4.053370861948e-02
-2.489914764016e-02
-9.240136612762e-03
6.427947889266e-03
2.208972038266e-02
3.772980158231e-02
5.333283350317e-02
6.888349454122e-02
8.436651451871e-02
9.976668967896e-02
1.150688976158e-01
1.302581121233e-01
1.453194179511e-01
1.602380254500e-01
1.749992850958e-01
1.895887018740e-01
2.039919495132e-01
2.181948845536e-01
2.321835602348e-01
2.459442401913e-01
2.594634119410e-01
2.727278001541e-01
2.857243796886e-01
2.984403883811e-01
3.108633395783e-01
3.229810343985e-01
3.347815737106e-01
3.462533698188e-01
3.573851578407e-01
3.681660067695e-01
3.785853302078e-01
3.886328967627e-01
3.982988400931e-01
4.075736685978e-01
4.164482747361e-01
4.249139439707e-01
4.329623633256e-01
4.405856295486e-01
4.477762568726e-01
4.545271843656e-01
4.608317828649e-01
4.666838614865e-01
4.720776737041e-01
4.770079229924e-01
4.814697680278e-01
4.854588274423e-01
4.889711841261e-01
4.920033890742e-01
4.945524647726e-01
4.966159081227e-01
4.981916928988e-01
4.992782717384e-01
4.998745776608e-01
4.999800251156e-01
4.995945105572e-01
4.987184125468e-01
4.973525913804e-01
4.954983882443e-01
4.931576238977e-01
4.903325968853e-01
4.870260812798e-01
4.832413239579e-01
4.789820414124e-01
4.742524161022e-01
4.690570923455e-01
4.634011717593e-01
4.572902082500e-01
4.507302025590e-01
4.437275963710e-01
4.362892659879e-01
4.284225155768e-01
4.201350699975e-01
4.114350672172e-01
4.023310503188e-01
3.928319591125e-01
3.829471213567e-01
3.726862435989e-01
3.620594016441e-01
3.510770306606e-01
3.397499149330e-01
3.280891772730e-01
3.161062680963e-01
3.038129541796e-01
2.912213071052e-01
2.783436914081e-01
2.651927524336e-01
2.517814039206e-01
2.381228153205e-01
2.242303988655e-01
2.101177963980e-01
1.957988659751e-01
1.812876682603e-01
1.665984527167e-01
1.517456436140e-01
1.367438258652e-01
1.216077307039e-01
1.063522212194e-01
9.099227776163e-02
7.554298323053e-02
6.001950826568e-02
4.443709634910e-02
2.881104883672e-02
1.315670993303e-02
-2.510548376371e-03
-1.817534141952e-02
-3.382228694524e-02
-4.943602022796e-02
-6.500120915532e-02
-8.050256928372e-02
-9.592487884711e-02
-1.112529937042e-01
-1.264718622094e-01
-1.415665399930e-01
-1.565222046362e-01
-1.713241702257e-01
-1.859579017753e-01
-2.004090294983e-01
-2.146633629182e-01
-2.287069048034e-01
-2.425258649119e-01
-2.561066735324e-01
-2.694359948101e-01
-2.825007398412e-01
-2.952880795260e-01
-3.077854571670e-01
-3.199806007985e-01
-3.318615352375e-01
-3.434165938430e-01
-3.546344299720e-01
-3.655040281216e-01
-3.760147147458e-01
-3.861561687367e-01
-3.959184315589e-01
-4.052919170292e-01
-4.142674207292e-01
-4.228361290440e-01
-4.309896278171e-01
-4.387199106121e-01
-4.460193865754e-01
-4.528808878899e-01
-4.592976768133e-01
-4.652634522948e-01
-4.707723561619e-01
-4.758189788736e-01
-4.803983648318e-01
-4.845060172477e-01
-4.881379025575e-01
-4.912904543835e-01
-4.939605770354e-01
-4.961456485510e-01
-4.978435232703e-01
-4.990525339428e-01
-4.997714933644e-01
-4.999996955434e-01
-4.997369163935e-01
-4.989834139544e-01
-4.977399281376e-01
-4.960076800005e-01
-4.937883705473e-01
-4.910841790582e-01
-4.878977609498e-01
-4.842322451678e-01
-4.800912311139e-01
-4.754787851117e-01
-4.703994364138e-01
-4.648581727539e-01
-4.588604354493e-01
-4.524121140577e-01
-4.455195405937e-01
-4.381894833112e-01
-4.304291400572e-01
-4.222461312036e-01
-4.136484921643e-01
-4.046446655050e-01
-3.952434926526e-01
-3.854542052135e-01
-3.752864159082e-01
-3.647501091321e-01
-3.538556311515e-01
-3.426136799432e-01
-3.310352946905e-01
-3.191318449421e-01
-3.069150194482e-01
-2.943968146827e-01
-2.815895230627e-01
-2.685057208778e-01
-2.551582559412e-01
-2.415602349729e-01
-2.277250107298e-01
-2.136661688939e-01
-1.993975147311e-01
-1.849330595356e-01
-1.702870068710e-01
-1.554737386227e-01
-1.405078008759e-01
-1.254038896315e-01
-1.101768363753e-01
-9.484159351429e-02
-7.941321969331e-02
-6.390686500860e-02
-4.833775613067e-02
-3.272118135236e-02
-1.707247557629e-02
-1.407005256522e-03
-2.449293598295e-16
</dep>
<dep tran.v(u2) time>
0.000000000000e+00
1.566876196185e-03
1.703833561176e-03
1.977747897365e-03
2.525574706849e-03
3.621218572450e-03
5.812448876096e-03
1.019453246630e-02
1.895601328268e-02
3.619636657396e-02
6.130125245979e-02
1.022783583864e-01
1.659606626075e-01
2.817601164184e-01
3.953699204222e-01
4.704693841135e-01
4.997435708857e-01
4.803410779469e-01
4.141517723995e-01
3.076227119232e-01
1.711301799936e-01
1.796900149065e-02
-1.369424172981e-01
-2.785151908814e-01
-3.929596620093e-01
-4.691285599804e-01
-4.996027817459e-01
-4.814140371290e-01
-4.163339701240e-01
-3.107015949009e-01
-1.748058548207e-01
-2.188344525947e-02
1.331704843811e-01
2.752531675808e-01
3.905252802032e-01
4.677589365232e-01
4.994313225005e-01
4.824574427941e-01
4.184906095304e-01
3.137614042245e-01
1.784707984945e-01
2.579654562589e-02
-1.293903762639e-01
-2.719742467689e-01
-3.880669244484e-01
-4.663605978217e-01
-4.992292036754e-01
-4.834712308886e-01
-4.206215582250e-01
-3.168019520553e-01
-1.821247860280e-01
-2.970806236868e-02
1.256023250034e-01
2.686786297351e-01
3.855847456606e-01
4.649336297186e-01
4.989964376783e-01
4.844553391770e-01
4.227266853908e-01
3.198230517371e-01
1.857675931064e-01
3.361775536379e-02
-1.218065631441e-01
-2.653665187942e-01
-3.830788962183e-01
-4.634781198138e-01
-4.987330387986e-01
-4.854097072461e-01
-4.248058617963e-01
-3.228245178079e-01
-1.893989961017e-01
-3.752538459917e-02
1.180033237042e-01
2.620381172732e-01
3.805495299531e-01
4.619941574597e-01
4.984390232061e-01
4.863342765080e-01
4.268589598031e-01
3.258061660106e-01
1.930187720857e-01
4.143071018944e-02
-1.141928401605e-01
-2.586936294993e-01
-3.779968021401e-01
-4.604818337552e-01
-4.981144089500e-01
-4.872289902044e-01
-4.288858533734e-01
-3.287678133049e-01
-1.966266988440e-01
-4.533349239064e-02
1.103753464347e-01
2.553332607872e-01
3.754208694888e-01
4.589412415404e-01
4.977592159581e-01
4.880937934098e-01
4.308864180783e-01
3.317092778782e-01
2.002225548897e-01
4.923349161496e-02
-1.065510768789e-01
-2.519572174264e-01
-3.728218901331e-01
-4.573724753906e-01
-4.973734660353e-01
-4.889286330348e-01
-4.328605311053e-01
-3.346303791571e-01
-2.038061194769e-01
-5.313046844542e-02
1.027202662612e-01
2.485657066690e-01
3.702000236215e-01
4.557756316107e-01
4.969571828625e-01
4.897334578294e-01
4.348080712655e-01
3.375309378182e-01
2.073771726142e-01
5.702418365059e-02
-9.888314975095e-02
-2.451589367161e-01
-3.675554309078e-01
-4.541508082294e-01
-4.965103919948e-01
-4.905082183863e-01
-4.367289190015e-01
-3.404107757990e-01
-2.109354950782e-01
-6.091439819925e-02
9.503996290496e-02
2.417371167061e-01
3.648882743409e-01
4.524981049929e-01
4.960331208603e-01
4.912528671436e-01
4.386229563943e-01
3.432697163094e-01
2.144808684272e-01
6.480087327511e-02
-9.119094165255e-02
-2.383004567009e-01
-3.621987176549e-01
-4.508176233591e-01
-4.955253987581e-01
-4.919673583882e-01
-4.404900671710e-01
-3.461075838418e-01
-2.180130750144e-01
-6.868337029141e-02
8.733632228117e-02
2.348491676735e-01
3.594869259587e-01
4.491094664909e-01
4.949872568568e-01
4.926516482581e-01
4.423301367114e-01
3.489242041824e-01
2.215318980011e-01
7.256165090563e-02
-8.347634142200e-02
-2.313834614952e-01
-3.567530657266e-01
-4.473737392503e-01
-4.944187281924e-01
-4.933056947456e-01
-4.441430520557e-01
-3.517194044218e-01
-2.250371213704e-01
-7.643547703406e-02
7.961123603533e-02
2.279035509220e-01
3.539973047875e-01
4.456105481920e-01
4.938198476662e-01
4.939294576993e-01
4.459287019107e-01
3.544930129655e-01
2.285285299402e-01
8.030461086647e-02
-7.574124339603e-02
-2.244096495821e-01
-3.512198123147e-01
-4.438200015563e-01
-4.931906520430e-01
-4.945228988271e-01
-4.476869766573e-01
-3.572448595445e-01
-2.320059093765e-01
-8.416881488068e-02
7.186660107900e-02
2.209019719627e-01
3.484207588156e-01
4.420022092632e-01
4.925311799484e-01
4.950859816982e-01
4.494177683568e-01
3.599747752257e-01
2.354690462066e-01
8.802785185715e-02
-6.798754694459e-02
