<Qucs Dataset 0.0.24>
<indep time 414>
0.000000000000e+00
4.987530000000e-08
5.427768840509e-08
6.308246521526e-08
8.069201883561e-08
1.159111260763e-07
1.863493405577e-07
3.272257695205e-07
6.089786274460e-07
1.113856889963e-06
1.874720312651e-06
3.111022429133e-06
5.203931161487e-06
9.389748626194e-06
1.437727862619e-05
1.936480862619e-05
2.435233862619e-05
2.933986862619e-05
3.432739862619e-05
3.931492862619e-05
4.430245862619e-05
4.928998862619e-05
5.427751862619e-05
5.926504862619e-05
6.425257862619e-05
6.924010862619e-05
7.422763862619e-05
7.921516862619e-05
8.420269862619e-05
8.919022862619e-05
9.417775862619e-05
9.916528862619e-05
1.041528186262e-04
1.091403486262e-04
1.141278786262e-04
1.191154086262e-04
1.241029386262e-04
1.290904686262e-04
1.340779986262e-04
1.390655286262e-04
1.440530586262e-04
1.490405886262e-04
1.540281186262e-04
1.590156486262e-04
1.640031786262e-04
1.689907086262e-04
1.739782386262e-04
1.789657686262e-04
1.839532986262e-04
1.889408286262e-04
1.939283586262e-04
1.989158886262e-04
2.039034186262e-04
2.088909486262e-04
2.138784786262e-04
2.188660086262e-04
2.238535386262e-04
2.288410686262e-04
2.338285986262e-04
2.388161286262e-04
2.438036586262e-04
2.487911886262e-04
2.537787186262e-04
2.587662486262e-04
2.637537786262e-04
2.687413086262e-04
2.737288386262e-04
2.787163686262e-04
2.837038986262e-04
2.886914286262e-04
2.936789586262e-04
2.986664886262e-04
3.036540186262e-04
3.086415486262e-04
3.136290786262e-04
3.186166086262e-04
3.236041386262e-04
3.285916686262e-04
3.335791986262e-04
3.385667286262e-04
3.435542586262e-04
3.485417886262e-04
3.535293186262e-04
3.585168486262e-04
3.635043786262e-04
3.684919086262e-04
3.734794386262e-04
3.784669686262e-04
3.834544986262e-04
3.884420286262e-04
3.934295586262e-04
3.984170886262e-04
4.034046186262e-04
4.083921486262e-04
4.133796786262e-04
4.183672086262e-04
4.233547386262e-04
4.283422686262e-04
4.333297986262e-04
4.383173286262e-04
4.433048586262e-04
4.482923886262e-04
4.532799186262e-04
4.582674486262e-04
4.632549786262e-04
4.682425086262e-04
4.732300386262e-04
4.782175686262e-04
4.832050986262e-04
4.881926286262e-04
4.931801586262e-04
4.981676886262e-04
5.031552186262e-04
5.081427486262e-04
5.131302786262e-04
5.181178086262e-04
5.231053386262e-04
5.280928686262e-04
5.330803986262e-04
5.380679286262e-04
5.430554586262e-04
5.480429886262e-04
5.530305186262e-04
5.580180486262e-04
5.630055786262e-04
5.679931086262e-04
5.729806386262e-04
5.779681686262e-04
5.829556986262e-04
5.879432286262e-04
5.929307586262e-04
5.979182886262e-04
6.029058186262e-04
6.078933486262e-04
6.128808786262e-04
6.178684086262e-04
6.228559386262e-04
6.278434686262e-04
6.328309986262e-04
6.378185286262e-04
6.428060586262e-04
6.477935886262e-04
6.527811186262e-04
6.577686486262e-04
6.627561786262e-04
6.677437086262e-04
6.727312386262e-04
6.777187686262e-04
6.827062986262e-04
6.876938286262e-04
6.926813586262e-04
6.976688886262e-04
7.026564186262e-04
7.076439486262e-04
7.126314786262e-04
7.176190086262e-04
7.226065386262e-04
7.275940686262e-04
7.325815986262e-04
7.375691286262e-04
7.425566586262e-04
7.475441886262e-04
7.525317186262e-04
7.575192486262e-04
7.625067786262e-04
7.674943086262e-04
7.724818386262e-04
7.774693686262e-04
7.824568986262e-04
7.874444286262e-04
7.924319586262e-04
7.974194886262e-04
8.024070186262e-04
8.073945486262e-04
8.123820786262e-04
8.173696086262e-04
8.223571386262e-04
8.273446686262e-04
8.323321986262e-04
8.373197286262e-04
8.423072586262e-04
8.472947886262e-04
8.522823186262e-04
8.572698486262e-04
8.622573786262e-04
8.672449086262e-04
8.722324386262e-04
8.772199686262e-04
8.822074986262e-04
8.871950286262e-04
8.921825586262e-04
8.971700886262e-04
9.021576186262e-04
9.071451486262e-04
9.121326786262e-04
9.171202086262e-04
9.221077386262e-04
9.270952686262e-04
9.320827986262e-04
9.370703286262e-04
9.420578586262e-04
9.470453886262e-04
9.520329186262e-04
9.570204486262e-04
9.620079786262e-04
9.669955086262e-04
9.719830386262e-04
9.769705686262e-04
9.819580986262e-04
9.869456286262e-04
9.919331586262e-04
9.969206886262e-04
1.001908218626e-03
1.006895748626e-03
1.011883278626e-03
1.016870808626e-03
1.021858338626e-03
1.026845868626e-03
1.031833398626e-03
1.036820928626e-03
1.041808458626e-03
1.046795988626e-03
1.051783518626e-03
1.056771048626e-03
1.061758578626e-03
1.066746108626e-03
1.071733638626e-03
1.076721168626e-03
1.081708698626e-03
1.086696228626e-03
1.091683758626e-03
1.096671288626e-03
1.101658818626e-03
1.106646348626e-03
1.111633878626e-03
1.116621408626e-03
1.121608938626e-03
1.126596468626e-03
1.131583998626e-03
1.136571528626e-03
1.141559058626e-03
1.146546588626e-03
1.151534118626e-03
1.156521648626e-03
1.161509178626e-03
1.166496708626e-03
1.171484238626e-03
1.176471768626e-03
1.181459298626e-03
1.186446828626e-03
1.191434358626e-03
1.196421888626e-03
1.201409418626e-03
1.206396948626e-03
1.211384478626e-03
1.216372008626e-03
1.221359538626e-03
1.226347068626e-03
1.231334598626e-03
1.236322128626e-03
1.241309658626e-03
1.246297188626e-03
1.251284718626e-03
1.256272248626e-03
1.261259778626e-03
1.266247308626e-03
1.271234838626e-03
1.276222368626e-03
1.281209898626e-03
1.286197428626e-03
1.291184958626e-03
1.296172488626e-03
1.301160018626e-03
1.306147548626e-03
1.311135078626e-03
1.316122608626e-03
1.321110138626e-03
1.326097668626e-03
1.331085198626e-03
1.336072728626e-03
1.341060258626e-03
1.346047788626e-03
1.351035318626e-03
1.356022848626e-03
1.361010378626e-03
1.365997908626e-03
1.370985438626e-03
1.375972968626e-03
1.380960498626e-03
1.385948028626e-03
1.390935558626e-03
1.395923088626e-03
1.400910618626e-03
1.405898148626e-03
1.410885678626e-03
1.415873208626e-03
1.420860738626e-03
1.425848268626e-03
1.430835798626e-03
1.435823328626e-03
1.440810858626e-03
1.445798388626e-03
1.450785918626e-03
1.455773448626e-03
1.460760978626e-03
1.465748508626e-03
1.470736038626e-03
1.475723568626e-03
1.480711098626e-03
1.485698628626e-03
1.490686158626e-03
1.495673688626e-03
1.500661218626e-03
1.505648748626e-03
1.510636278626e-03
1.515623808626e-03
1.520611338626e-03
1.525598868626e-03
1.530586398626e-03
1.535573928626e-03
1.540561458626e-03
1.545548988626e-03
1.550536518626e-03
1.555524048626e-03
1.560511578626e-03
1.565499108626e-03
1.570486638626e-03
1.575474168626e-03
1.580461698626e-03
1.585449228626e-03
1.590436758626e-03
1.595424288626e-03
1.600411818626e-03
1.605399348626e-03
1.610386878626e-03
1.615374408626e-03
1.620361938626e-03
1.625349468626e-03
1.630336998626e-03
1.635324528626e-03
1.640312058626e-03
1.645299588626e-03
1.650287118626e-03
1.655274648626e-03
1.660262178626e-03
1.665249708626e-03
1.670237238626e-03
1.675224768626e-03
1.680212298626e-03
1.685199828626e-03
1.690187358626e-03
1.695174888626e-03
1.700162418626e-03
1.705149948626e-03
1.710137478626e-03
1.715125008626e-03
1.720112538626e-03
1.725100068626e-03
1.730087598626e-03
1.735075128626e-03
1.740062658626e-03
1.745050188626e-03
1.750037718626e-03
1.755025248626e-03
1.760012778626e-03
1.765000308626e-03
1.769987838626e-03
1.774975368626e-03
1.779962898626e-03
1.784950428626e-03
1.789937958626e-03
1.794925488626e-03
1.799913018626e-03
1.804900548626e-03
1.809888078626e-03
1.814875608626e-03
1.819863138626e-03
1.824850668626e-03
1.829838198626e-03
1.834825728626e-03
1.839813258626e-03
1.844800788626e-03
1.849788318626e-03
1.854775848626e-03
1.859763378626e-03
1.864750908626e-03
1.869738438626e-03
1.874725968626e-03
1.879713498626e-03
1.884701028626e-03
1.889688558626e-03
1.894676088626e-03
1.899663618626e-03
1.904651148626e-03
1.909638678626e-03
1.914626208626e-03
1.919613738626e-03
1.924601268626e-03
1.929588798626e-03
1.934576328626e-03
1.939563858626e-03
1.944551388626e-03
1.949538918626e-03
1.954526448626e-03
1.959513978626e-03
1.964501508626e-03
1.969489038626e-03
1.974476568626e-03
1.979464098626e-03
1.984451628626e-03
1.989439158626e-03
1.994426688626e-03
1.999414218626e-03
2.000000000000e-03
</indep>
<dep tran.v(u1) time>
0.000000000000e+00
7.834393675551e-05
8.525919192093e-05
9.908970205079e-05
1.267507213584e-04
1.820727549798e-04
2.927167927663e-04
5.140046746602e-04
9.565790569096e-04
1.749628028459e-03
2.944735682810e-03
4.886471411492e-03
8.172859489281e-03
1.474082775666e-02
2.255307342597e-02
3.034317280587e-02
3.810347630502e-02
4.582636359054e-02
5.350425107087e-02
6.112959934264e-02
6.869492059403e-02
7.619278595755e-02
8.361583280493e-02
9.095677197691e-02
9.820839494097e-02
1.053635808698e-01
1.124153036338e-01
1.193566387002e-01
1.261807699331e-01
1.328809962864e-01
1.394507383840e-01
1.458835449806e-01
1.521730992964e-01
1.583132252202e-01
1.642978933739e-01
1.701212270334e-01
1.757775078990e-01
1.812611817107e-01
1.865668637023e-01
1.916893438890e-01
1.966235921836e-01
2.013647633355e-01
2.059082016888e-01
2.102494457540e-01
2.143842325891e-01
2.183085019851e-01
2.220184004539e-01
2.255102850113e-01
2.287807267551e-01
2.318265142317e-01
2.346446565896e-01
2.372323865167e-01
2.395871629572e-01
2.417066736072e-01
2.435888371851e-01
2.452318054754e-01
2.466339651436e-01
2.477939393205e-01
2.487105889541e-01
2.493830139280e-01
2.498105539457e-01
2.499927891786e-01
2.499295406784e-01
2.496208705528e-01
2.490670819044e-01
2.482687185335e-01
2.472265644035e-01
2.459416428715e-01
2.444152156831e-01
2.426487817339e-01
2.406440755970e-01
2.384030658202e-01
2.359279529927e-01
2.332211675845e-01
2.302853675593e-01
2.271234357649e-01
2.237384771021e-01
2.201338154759e-01
2.163129905316e-01
2.122797541790e-01
2.080380669078e-01
2.035920938992e-01
1.989462009352e-01
1.941049501122e-01
1.890730953603e-01
1.838555777763e-01
1.784575207705e-01
1.728842250367e-01
1.671411633464e-01
1.612339751753e-01
1.551684611649e-01
1.489505774273e-01
1.425864296958e-01
1.360822673296e-01
1.294444771771e-01
1.226795773044e-01
1.157942105946e-01
1.087951382248e-01
1.016892330269e-01
9.448347273863e-02
8.718493315191e-02
7.980078116439e-02
7.233826774201e-02
6.480472079874e-02
5.720753800086e-02
4.955417950272e-02
4.185216062116e-02
3.410904445570e-02
2.633243446190e-02
1.852996698504e-02
1.070930376147e-02
2.878124395109e-03
-4.955881183649e-03
-1.278502026919e-02
-2.060160493460e-02
-2.839795958096e-02
-3.616642847448e-02
-4.389938326415e-02
-5.158923047252e-02
-5.922841895219e-02
-6.680944730076e-02
-7.432487122696e-02
-8.176731086064e-02
-8.912945799956e-02
-9.640408328574e-02
-1.035840433044e-01
-1.106622875988e-01
-1.176318655929e-01
-1.244859334173e-01
-1.312177606293e-01
-1.378207368219e-01
-1.442883781151e-01
-1.506143335228e-01
-1.567923911892e-01
-1.628164844887e-01
-1.686806979830e-01
-1.743792732300e-01
-1.799066144382e-01
-1.852572939615e-01
-1.904260576294e-01
-1.954078299058e-01
-2.001977188734e-01
-2.047910210372e-01
-2.091832259433e-01
-2.133700206078e-01
-2.173472937523e-01
-2.211111398406e-01
-2.246578629143e-01
-2.279839802214e-01
-2.310862256372e-01
-2.339615528705e-01
-2.366071384557e-01
-2.390203845249e-01
-2.411989213592e-01
-2.431406097155e-01
-2.448435429271e-01
-2.463060487762e-01
-2.475266911357e-01
-2.485042713799e-01
-2.492378295606e-01
-2.497266453509e-01
-2.499702387515e-01
-2.499683705627e-01
-2.497210426190e-01
-2.492284977872e-01
-2.484912197285e-01
-2.475099324226e-01
-2.462855994577e-01
-2.448194230838e-01
-2.431128430321e-01
-2.411675351017e-01
-2.389854095134e-01
-2.365686090343e-01
-2.339195068737e-01
-2.310407043527e-01
-2.279350283494e-01
-2.246055285236e-01
-2.210554743219e-01
-2.172883517669e-01
-2.133078600347e-01
-2.091179078218e-01
-2.047226095073e-01
-2.001262811127e-01
-1.953334360636e-01
-1.903487807577e-01
-1.851772099434e-01
-1.798238019132e-01
-1.742938135170e-01
-1.685926750002e-01
-1.627259846715e-01
-1.566995034051e-01
-1.505191489842e-01
-1.441909902897e-01
-1.377212413410e-01
-1.311162551938e-01
-1.243825177018e-01
-1.175266411478e-01
-1.105553577507e-01
-1.034755130545e-01
-9.629405920664e-02
-8.901804813093e-02
-8.165462460288e-02
-7.421101923382e-02
-6.669454137072e-02
-5.911257191865e-02
-5.147255609302e-02
-4.378199610864e-02
-3.604844381282e-02
-2.827949326976e-02
-2.048277330343e-02
-1.266594000634e-02
-4.836669221569e-03
2.997350994658e-03
1.082842792234e-02
1.864887173169e-02
2.645100303425e-02
3.422716042375e-02
4.196970799938e-02
4.967104286390e-02
5.732360258947e-02
6.491987264362e-02
7.245239376829e-02
7.991376930449e-02
8.729667245563e-02
9.459385348209e-02
1.017981468202e-01
1.089024781187e-01
1.158998711853e-01
1.227834548370e-01
1.295464696477e-01
1.361822745853e-01
1.426843535332e-01
1.490463216888e-01
1.552619318331e-01
1.613250804654e-01
1.672298137964e-01
1.729703335951e-01
1.785410028820e-01
1.839363514643e-01
1.891510813082e-01
1.941800717405e-01
1.990183844774e-01
2.036612684736e-01
2.081041645876e-01
2.123427100586e-01
2.163727427907e-01
2.201903054400e-01
2.237916493000e-01
2.271732379836e-01
2.303317508948e-01
2.332640864901e-01
2.359673653236e-01
2.384389328749e-01
2.406763621553e-01
2.426774560917e-01
2.444402496833e-01
2.459630119315e-01
2.472442475397e-01
2.482826983818e-01
2.490773447370e-01
2.496274062919e-01
2.499323429063e-01
2.499918551436e-01
2.498058845649e-01
2.493746137866e-01
2.486984663007e-01
2.477781060592e-01
2.466144368220e-01
2.452086012696e-01
2.435619798808e-01
2.416761895773e-01
2.395530821359e-01
2.371947423701e-01
2.346034860828e-01
2.317818577927e-01
2.287326282349e-01
2.254587916408e-01
2.219635627977e-01
2.182503738918e-01
2.143228711383e-01
2.101849112006e-01
2.058405574031e-01
2.012940757418e-01
1.965499306946e-01
1.916127808375e-01
1.864874742704e-01
1.811790438559e-01
1.756927022777e-01
1.700338369216e-01
1.642080045854e-01
1.582209260225e-01
1.520784803239e-01
1.457866991458e-01
1.393517607859e-01
1.327799841173e-01
1.260778223833e-01
1.192518568603e-01
1.123087903958e-01
1.052554408258e-01
9.809873428051e-02
9.084569838272e-02
8.350345534719e-02
7.607921498681e-02
6.858026763279e-02
6.101397697591e-02
5.338777283557e-02
4.570914386400e-02
3.798563019273e-02
3.022481602836e-02
2.243432220525e-02
1.462179870207e-02
6.794917129835e-03
-1.038636801344e-03
-8.871170829349e-03
-1.669499369357e-02
-2.450242268743e-02
-3.228579120253e-02
-4.003745625701e-02
-4.774980600059e-02
-5.541526718922e-02
-6.302631262168e-02
-7.057546853101e-02
-7.805532192351e-02
-8.545852785797e-02
-9.277781665821e-02
-1.000060010516e-01
-1.071359832266e-01
-1.141607618027e-01
-1.210734387055e-01
-1.278672259403e-01
-1.345354522576e-01
-1.410715697042e-01
-1.474691600530e-01
-1.537219411053e-01
-1.598237728598e-01
-1.657686635421e-01
-1.715507754878e-01
-1.771644308756e-01
-1.826041173020e-01
-1.878644931950e-01
-1.929403930586e-01
-1.978268325457e-01
-2.025190133523e-01
-2.070123279293e-01
-2.113023640068e-01
-2.153849089270e-01
-2.192559537809e-01
-2.229116973446e-01
-2.263485498122e-01
-2.295631363211e-01
-2.325523002652e-01
-2.353131063955e-01
-2.378428437018e-01
-2.401390280749e-01
-2.421994047463e-01
-2.440219505017e-01
-2.456048756682e-01
-2.469466258714e-01
-2.480458835619e-01
-2.489015693090e-01
-2.495128428609e-01
-2.498791039693e-01
-2.499999929793e-01
-2.498753911823e-01
-2.495054209327e-01
-2.488904455276e-01
-2.480310688505e-01
-2.469281347774e-01
-2.455827263493e-01
-2.439961647077e-01
-2.421700077979e-01
-2.401060488388e-01
-2.378063145624e-01
-2.352730632231e-01
-2.325087823807e-01
-2.295161864574e-01
-2.262982140725e-01
-2.228580251566e-01
-2.191989978488e-01
-2.153247251794e-01
-2.112390115419e-01
-2.069458689569e-01
-2.024495131328e-01
-1.977543593256e-01
-1.928650180040e-01
-1.877862903214e-01
-1.825231634018e-01
-1.770808054425e-01
-1.714645606390e-01
-1.656799439373e-01
-1.597326356185e-01
-1.536284757208e-01
-1.473734583049e-01
-1.409737255682e-01
-1.344355618129e-01
-1.277653872758e-01
-1.209697518229e-01
-1.140553285188e-01
-1.070289070729e-01
-9.989738717308e-02
-9.266777170969e-02
-8.534715989950e-02
-7.794274031434e-02
-7.046178382215e-02
-6.291163644732e-02
-5.529971215716e-02
-4.763348558162e-02
-3.992048467351e-02
-3.216828331631e-02
-2.438449388689e-02
-1.657675978048e-02
-8.752747905063e-03
-9.201411528203e-04
-1.224646799147e-16
</dep>
<dep tran.v(u2) time>
0.000000000000e+00
1.566876196185e-03
1.705180566087e-03
1.981788903902e-03
2.535003675280e-03
3.641423230646e-03
5.854203429061e-03
1.027937648062e-02
1.912695980165e-02
3.496428741137e-02
5.875997298760e-02
9.711444264141e-02
1.605887676712e-01
2.781702517728e-01
3.927027793511e-01
4.689847549947e-01
4.995860615148e-01
4.815260302584e-01
4.165637681121e-01
3.110268146622e-01
1.751948188727e-01
2.229826721479e-02
-1.327702095555e-01
-2.749064279792e-01
-3.902658494118e-01
-4.676120839606e-01
-4.994113520930e-01
-4.825662997254e-01
-4.187176907749e-01
-3.140845913164e-01
-1.788586119403e-01
-2.621121111083e-02
1.289892485320e-01
2.716257279603e-01
3.878049614498e-01
4.662107066974e-01
4.992059843173e-01
4.835769449392e-01
4.208459087855e-01
3.171230866378e-01
1.825114250600e-01
3.012254592734e-02
-1.252003689901e-01
-2.683283531148e-01
-3.853202665366e-01
-4.647807092340e-01
-4.989699707951e-01
-4.845579038573e-01
-4.229482914948e-01
-3.201421140961e-01
-1.861530339893e-01
-3.403203155146e-02
1.214038035251e-01
2.650145058652e-01
3.828119172050e-01
4.633221793568e-01
4.987033260151e-01
4.855091162596e-01
4.250247098396e-01
3.231414883564e-01
1.897832151736e-01
3.793942798386e-02
-1.175997852043e-01
-2.616843896452e-01
-3.802800674400e-01
-4.618352066032e-01
-4.984060663462e-01
-4.864305237522e-01
-4.270750363507e-01
-3.261210252901e-01
-1.934017457599e-01
-4.184449535344e-02
1.137885475527e-01
2.583382088873e-01
3.777248726694e-01
4.603198822571e-01
4.980782100370e-01
4.873220697707e-01
4.290991451607e-01
3.290805419865e-01
1.970084036100e-01
4.574699393210e-02
-1.099703245381e-01
-2.549761690102e-01
-3.751464897538e-01
-4.587762993426e-01
-4.977197772142e-01
-4.881836995842e-01
-4.310969120116e-01
-3.320198567638e-01
-2.006029673152e-01
-4.964668414944e-02
1.061453505574e-01
2.515984764059e-01
3.725450769777e-01
4.572045526188e-01
4.973307898817e-01
4.890153602980e-01
4.330682142625e-01
3.349387891807e-01
2.041852162086e-01
5.354332660745e-02
-1.023138604218e-01
-2.482053384276e-01
-3.699207940390e-01
-4.556047385736e-01
-4.969112719189e-01
-4.898170008573e-01
-4.350129308972e-01
-3.378371600467e-01
-2.077549303798e-01
-5.743668209522e-02
9.847608934260e-02
2.447969633766e-01
3.672738020399e-01
4.539769554179e-01
4.964612490796e-01
4.905885720502e-01
4.369309425315e-01
3.407147914338e-01
2.113118906876e-01
6.132651160364e-02
-9.463227291666e-02
-2.413735604896e-01
-3.646042634764e-01
-4.523213030797e-01
-4.959807489904e-01
-4.913300265108e-01
-4.388221314206e-01
-3.435715066872e-01
-2.148558787738e-01
-6.521257634003e-02
9.078264711195e-02
2.379353399257e-01
3.619123422289e-01
4.506378831977e-01
4.954698011486e-01
4.920413187219e-01
4.406863814664e-01
3.464071304360e-01
2.183866770766e-01
6.909463774283e-02
-8.692744825308e-02
-2.344825127539e-01
-3.591982035516e-01
-4.489267991155e-01
-4.949284369207e-01
-4.927224050181e-01
-4.425235782245e-01
-3.492214886042e-01
-2.219040688440e-01
-7.297245749626e-02
8.306691300676e-02
2.310152909396e-01
3.564620140628e-01
4.471881558747e-01
4.943566895407e-01
4.933732435880e-01
4.443336089112e-01
3.520144084212e-01
2.254078381467e-01
7.684579754490e-02
-7.920127836734e-02
-2.275338873321e-01
-3.537039417343e-01
-4.454220602089e-01
-4.937545941073e-01
-4.939937944775e-01
-4.461163624106e-01
-3.547857184326e-01
-2.288977698921e-01
-8.071442010837e-02
7.533078164217e-02
2.240385156512e-01
3.509241558813e-01
4.436286205368e-01
4.931221875828e-01
4.945840195914e-01
4.478717292813e-01
3.575352485103e-01
2.323736498367e-01
8.457808769587e-02
-7.145566043711e-02
-2.205293904743e-01
-3.481228271522e-01
-4.418079469560e-01
-4.924595087899e-01
-4.951438826966e-01
-4.495996017630e-01
-3.602628298635e-01
-2.358352645998e-01
-8.843656312078e-02
6.757615264189e-02
2.170067272228e-01
3.453001275176e-01
4.399601512356e-01
4.917665984097e-01
4.956733494236e-01
4.512998737835e-01
3.629682950489e-01
2.392824016764e-01
9.228960951523e-02
-6.369249641555e-02
