<Qucs Dataset 0.0.21>
<indep time 414>
0.000000000000e+00
4.987530000000e-08
5.427768602243e-08
6.308245806729e-08
8.069200215701e-08
1.159110903364e-07
1.863492666953e-07
3.272256194131e-07
6.089783248486e-07
1.113880135331e-06
1.874821348171e-06
3.111462190291e-06
5.206043179659e-06
9.395205158395e-06
1.438273515840e-05
1.937026515840e-05
2.435779515840e-05
2.934532515840e-05
3.433285515840e-05
3.932038515840e-05
4.430791515840e-05
4.929544515840e-05
5.428297515840e-05
5.927050515840e-05
6.425803515840e-05
6.924556515840e-05
7.423309515840e-05
7.922062515840e-05
8.420815515840e-05
8.919568515840e-05
9.418321515840e-05
9.917074515840e-05
1.041582751584e-04
1.091458051584e-04
1.141333351584e-04
1.191208651584e-04
1.241083951584e-04
1.290959251584e-04
1.340834551584e-04
1.390709851584e-04
1.440585151584e-04
1.490460451584e-04
1.540335751584e-04
1.590211051584e-04
1.640086351584e-04
1.689961651584e-04
1.739836951584e-04
1.789712251584e-04
1.839587551584e-04
1.889462851584e-04
1.939338151584e-04
1.989213451584e-04
2.039088751584e-04
2.088964051584e-04
2.138839351584e-04
2.188714651584e-04
2.238589951584e-04
2.288465251584e-04
2.338340551584e-04
2.388215851584e-04
2.438091151584e-04
2.487966451584e-04
2.537841751584e-04
2.587717051584e-04
2.637592351584e-04
2.687467651584e-04
2.737342951584e-04
2.787218251584e-04
2.837093551584e-04
2.886968851584e-04
2.936844151584e-04
2.986719451584e-04
3.036594751584e-04
3.086470051584e-04
3.136345351584e-04
3.186220651584e-04
3.236095951584e-04
3.285971251584e-04
3.335846551584e-04
3.385721851584e-04
3.435597151584e-04
3.485472451584e-04
3.535347751584e-04
3.585223051584e-04
3.635098351584e-04
3.684973651584e-04
3.734848951584e-04
3.784724251584e-04
3.834599551584e-04
3.884474851584e-04
3.934350151584e-04
3.984225451584e-04
4.034100751584e-04
4.083976051584e-04
4.133851351584e-04
4.183726651584e-04
4.233601951584e-04
4.283477251584e-04
4.333352551584e-04
4.383227851584e-04
4.433103151584e-04
4.482978451584e-04
4.532853751584e-04
4.582729051584e-04
4.632604351584e-04
4.682479651584e-04
4.732354951584e-04
4.782230251584e-04
4.832105551584e-04
4.881980851584e-04
4.931856151584e-04
4.981731451584e-04
5.031606751584e-04
5.081482051584e-04
5.131357351584e-04
5.181232651584e-04
5.231107951584e-04
5.280983251584e-04
5.330858551584e-04
5.380733851584e-04
5.430609151584e-04
5.480484451584e-04
5.530359751584e-04
5.580235051584e-04
5.630110351584e-04
5.679985651584e-04
5.729860951584e-04
5.779736251584e-04
5.829611551584e-04
5.879486851584e-04
5.929362151584e-04
5.979237451584e-04
6.029112751584e-04
6.078988051584e-04
6.128863351584e-04
6.178738651584e-04
6.228613951584e-04
6.278489251584e-04
6.328364551584e-04
6.378239851584e-04
6.428115151584e-04
6.477990451584e-04
6.527865751584e-04
6.577741051584e-04
6.627616351584e-04
6.677491651584e-04
6.727366951584e-04
6.777242251584e-04
6.827117551584e-04
6.876992851584e-04
6.926868151584e-04
6.976743451584e-04
7.026618751584e-04
7.076494051584e-04
7.126369351584e-04
7.176244651584e-04
7.226119951584e-04
7.275995251584e-04
7.325870551584e-04
7.375745851584e-04
7.425621151584e-04
7.475496451584e-04
7.525371751584e-04
7.575247051584e-04
7.625122351584e-04
7.674997651584e-04
7.724872951584e-04
7.774748251584e-04
7.824623551584e-04
7.874498851584e-04
7.924374151584e-04
7.974249451584e-04
8.024124751584e-04
8.074000051584e-04
8.123875351584e-04
8.173750651584e-04
8.223625951584e-04
8.273501251584e-04
8.323376551584e-04
8.373251851584e-04
8.423127151584e-04
8.473002451584e-04
8.522877751584e-04
8.572753051584e-04
8.622628351584e-04
8.672503651584e-04
8.722378951584e-04
8.772254251584e-04
8.822129551584e-04
8.872004851584e-04
8.921880151584e-04
8.971755451584e-04
9.021630751584e-04
9.071506051584e-04
9.121381351584e-04
9.171256651584e-04
9.221131951584e-04
9.271007251584e-04
9.320882551584e-04
9.370757851584e-04
9.420633151584e-04
9.470508451584e-04
9.520383751584e-04
9.570259051584e-04
9.620134351584e-04
9.670009651584e-04
9.719884951584e-04
9.769760251584e-04
9.819635551584e-04
9.869510851584e-04
9.919386151584e-04
9.969261451584e-04
1.001913675158e-03
1.006901205158e-03
1.011888735158e-03
1.016876265158e-03
1.021863795158e-03
1.026851325158e-03
1.031838855158e-03
1.036826385158e-03
1.041813915158e-03
1.046801445158e-03
1.051788975158e-03
1.056776505158e-03
1.061764035158e-03
1.066751565158e-03
1.071739095158e-03
1.076726625158e-03
1.081714155158e-03
1.086701685158e-03
1.091689215158e-03
1.096676745158e-03
1.101664275158e-03
1.106651805158e-03
1.111639335158e-03
1.116626865158e-03
1.121614395158e-03
1.126601925158e-03
1.131589455158e-03
1.136576985158e-03
1.141564515158e-03
1.146552045158e-03
1.151539575158e-03
1.156527105158e-03
1.161514635158e-03
1.166502165158e-03
1.171489695158e-03
1.176477225158e-03
1.181464755158e-03
1.186452285158e-03
1.191439815158e-03
1.196427345158e-03
1.201414875158e-03
1.206402405158e-03
1.211389935158e-03
1.216377465158e-03
1.221364995158e-03
1.226352525158e-03
1.231340055158e-03
1.236327585158e-03
1.241315115158e-03
1.246302645158e-03
1.251290175158e-03
1.256277705158e-03
1.261265235158e-03
1.266252765158e-03
1.271240295158e-03
1.276227825158e-03
1.281215355158e-03
1.286202885158e-03
1.291190415158e-03
1.296177945158e-03
1.301165475158e-03
1.306153005158e-03
1.311140535158e-03
1.316128065158e-03
1.321115595158e-03
1.326103125158e-03
1.331090655158e-03
1.336078185158e-03
1.341065715158e-03
1.346053245158e-03
1.351040775158e-03
1.356028305158e-03
1.361015835158e-03
1.366003365158e-03
1.370990895158e-03
1.375978425158e-03
1.380965955158e-03
1.385953485158e-03
1.390941015158e-03
1.395928545158e-03
1.400916075158e-03
1.405903605158e-03
1.410891135158e-03
1.415878665158e-03
1.420866195158e-03
1.425853725158e-03
1.430841255158e-03
1.435828785158e-03
1.440816315158e-03
1.445803845158e-03
1.450791375158e-03
1.455778905158e-03
1.460766435158e-03
1.465753965158e-03
1.470741495158e-03
1.475729025158e-03
1.480716555158e-03
1.485704085158e-03
1.490691615158e-03
1.495679145158e-03
1.500666675158e-03
1.505654205158e-03
1.510641735158e-03
1.515629265158e-03
1.520616795158e-03
1.525604325158e-03
1.530591855158e-03
1.535579385158e-03
1.540566915158e-03
1.545554445158e-03
1.550541975158e-03
1.555529505158e-03
1.560517035158e-03
1.565504565158e-03
1.570492095158e-03
1.575479625158e-03
1.580467155158e-03
1.585454685158e-03
1.590442215158e-03
1.595429745158e-03
1.600417275158e-03
1.605404805158e-03
1.610392335158e-03
1.615379865158e-03
1.620367395158e-03
1.625354925158e-03
1.630342455158e-03
1.635329985158e-03
1.640317515158e-03
1.645305045158e-03
1.650292575158e-03
1.655280105158e-03
1.660267635158e-03
1.665255165158e-03
1.670242695158e-03
1.675230225158e-03
1.680217755158e-03
1.685205285158e-03
1.690192815158e-03
1.695180345158e-03
1.700167875158e-03
1.705155405158e-03
1.710142935158e-03
1.715130465158e-03
1.720117995158e-03
1.725105525158e-03
1.730093055158e-03
1.735080585158e-03
1.740068115158e-03
1.745055645158e-03
1.750043175158e-03
1.755030705158e-03
1.760018235158e-03
1.765005765158e-03
1.769993295158e-03
1.774980825158e-03
1.779968355158e-03
1.784955885158e-03
1.789943415158e-03
1.794930945158e-03
1.799918475158e-03
1.804906005158e-03
1.809893535158e-03
1.814881065158e-03
1.819868595158e-03
1.824856125158e-03
1.829843655158e-03
1.834831185158e-03
1.839818715158e-03
1.844806245158e-03
1.849793775158e-03
1.854781305158e-03
1.859768835158e-03
1.864756365158e-03
1.869743895158e-03
1.874731425158e-03
1.879718955158e-03
1.884706485158e-03
1.889694015158e-03
1.894681545158e-03
1.899669075158e-03
1.904656605158e-03
1.909644135158e-03
1.914631665158e-03
1.919619195158e-03
1.924606725158e-03
1.929594255158e-03
1.934581785158e-03
1.939569315158e-03
1.944556845158e-03
1.949544375158e-03
1.954531905158e-03
1.959519435158e-03
1.964506965158e-03
1.969494495158e-03
1.974482025158e-03
1.979469555158e-03
1.984457085158e-03
1.989444615158e-03
1.994432145158e-03
1.999419675158e-03
2.000000000000e-03
</indep>
<dep tran.v(u1) time>
0.000000000000e+00
1.566878735110e-04
1.705183763565e-04
1.981793816456e-04
2.535013903194e-04
3.641453976796e-04
5.854333534872e-04
1.028008877745e-03
1.913157163188e-03
3.499329082606e-03
5.889788756044e-03
9.774324109441e-03
1.635235053138e-02
2.949876787262e-02
4.512321913057e-02
6.070336104537e-02
7.622389449014e-02
9.166957887132e-02
1.070252470944e-01
1.222758204574e-01
1.374063234577e-01
1.524018984973e-01
1.672478204725e-01
1.819295112334e-01
1.964325538992e-01
2.107427070149e-01
2.248459185359e-01
2.387283396267e-01
2.523763382600e-01
2.657765126026e-01
2.789157041756e-01
2.917810107757e-01
3.043597991446e-01
3.166397173743e-01
3.286087070362e-01
3.402550150224e-01
3.515672050864e-01
3.625341690731e-01
3.731451378269e-01
3.833896917663e-01
3.932577711160e-01
4.027396857844e-01
4.118261248799e-01
4.205081658530e-01
4.287772832587e-01
4.366253571273e-01
4.440446809389e-01
4.510279691900e-01
4.575683645481e-01
4.636594445853e-01
4.692952280849e-01
4.744701809145e-01
4.791792214606e-01
4.834177256184e-01
4.871815313326e-01
4.904669426843e-01
4.932707335202e-01
4.955901506207e-01
4.974229164036e-01
4.987672311600e-01
4.996217748225e-01
4.999857082604e-01
4.998586741045e-01
4.992407970976e-01
4.981326839724e-01
4.965354228551e-01
4.944505821975e-01
4.918802092366e-01
4.888268279840e-01
4.852934367481e-01
4.812835051891e-01
4.768009709125e-01
4.718502356023e-01
4.664361606987e-01
4.605640626241e-01
4.542397075633e-01
4.474693058004e-01
4.402595056213e-01
4.326173867848e-01
4.245504535707e-01
4.160666274111e-01
4.071742391116e-01
3.978820206706e-01
3.881990967053e-01
3.781349754912e-01
3.676995396256e-01
3.569030363230e-01
3.457560673529e-01
3.342695786293e-01
3.224548494621e-01
3.103234814811e-01
2.978873872440e-01
2.851587785383e-01
2.721501543901e-01
2.588742887903e-01
2.453442181512e-01
2.315732285048e-01
2.175748424571e-01
2.033628059088e-01
1.889510745575e-01
1.743538001939e-01
1.595853168051e-01
1.446601264991e-01
1.295928852643e-01
1.143983885779e-01
9.909155687755e-02
8.368742090937e-02
6.820110696891e-02
5.264782204742e-02
3.704283889919e-02
2.140148104429e-02
5.739107721391e-03
-9.928901194413e-03
-2.558716029408e-02
-4.122029374252e-02
-5.681295037712e-02
-7.234981878202e-02
-8.781564232332e-02
-1.031952341306e-01
-1.184734920098e-01
-1.336354132732e-01
-1.486661094710e-01
-1.635508210120e-01
-1.782749316564e-01
-1.928239828685e-01
-2.071836880146e-01
-2.213399463920e-01
-2.352788570750e-01
-2.489867325656e-01
-2.624501122337e-01
-2.756557755351e-01
-2.885907549938e-01
-3.012423489353e-01
-3.135981339590e-01
-3.256459771382e-01
-3.373740479336e-01
-3.487708298105e-01
-3.598251315480e-01
-3.705260982278e-01
-3.808632218940e-01
-3.908263518709e-01
-4.004057047310e-01
-4.095918739018e-01
-4.183758389026e-01
-4.267489742026e-01
-4.347030576906e-01
-4.422302787489e-01
-4.493232459230e-01
-4.559749941797e-01
-4.621789917467e-01
-4.679291465263e-01
-4.732198120779e-01
-4.780457931622e-01
-4.824023508432e-01
-4.862852071413e-01
-4.896905492342e-01
-4.926150332013e-01
-4.950557873066e-01
-4.970104148193e-01
-4.984769963671e-01
-4.994540918207e-01
-4.999407417084e-01
-4.999364681577e-01
-4.994412753652e-01
-4.984556495921e-01
-4.969805586865e-01
-4.950174511335e-01
-4.925682546328e-01
-4.896353742051e-01
-4.862216898313e-01
-4.823305536242e-01
-4.779657865363e-01
-4.731316746086e-01
-4.678329647615e-01
-4.620748601333e-01
-4.558630149711e-01
-4.492035290786e-01
-4.421029418264e-01
-4.345682257301e-01
-4.266067796041e-01
-4.182264212960e-01
-4.094353800097e-01
-4.002422882247e-01
-3.906561732194e-01
-3.806864482064e-01
-3.703429030894e-01
-3.596356948497e-01
-3.485753375722e-01
-3.371726921215e-01
-3.254389554763e-01
-3.133856497349e-01
-3.010246108007e-01
-2.883679767597e-01
-2.754281759614e-01
-2.622179148148e-01
-2.487501653109e-01
-2.350381522848e-01
-2.210953404296e-01
-2.069354210741e-01
-1.925722987389e-01
-1.780200774822e-01
-1.632930470507e-01
-1.484056688472e-01
-1.333725617299e-01
-1.182084876577e-01
-1.029283371941e-01
-8.754711488546e-02
-7.207992452687e-02
-5.654195433094e-02
-4.094846201345e-02
-2.531475981090e-02
-9.656199444388e-03
6.011842955163e-03
2.167398194583e-02
3.731483788263e-02
5.291905201975e-02
6.847130159226e-02
8.395631486255e-02
9.935888611658e-02
1.146638905953e-01
1.298562993468e-01
1.449211939838e-01
1.598437813333e-01
1.746094079630e-01
1.892035745700e-01
2.036119502189e-01
2.178203864143e-01
2.318149309940e-01
2.455818418294e-01
2.591076003198e-01
2.723789246676e-01
2.853827829197e-01
2.981064057652e-01
3.105372990740e-01
3.226632561657e-01
3.344723697959e-01
3.459530438490e-01
3.570940047249e-01
3.678843124094e-01
3.783133712168e-01
3.883709401946e-01
3.980471431796e-01
4.073324784961e-01
4.162178282858e-01
4.246944674620e-01
4.327540722762e-01
4.403887284928e-01
4.475909391599e-01
4.543536319712e-01
4.606701662109e-01
4.665343392745e-01
4.719403927594e-01
4.768830181199e-01
4.813573618794e-01
4.853590303968e-01
4.888840941806e-01
4.919290917477e-01
4.944910330223e-01
4.965674022724e-01
4.981561605795e-01
4.992557478414e-01
4.998650843039e-01
4.999835716208e-01
4.996110934421e-01
4.987480155275e-01
4.973951853879e-01
4.955539314528e-01
4.932260617659e-01
4.904138622097e-01
4.871200942607e-01
4.833479922782e-01
4.791012603276e-01
4.743840685438e-01
4.692010490356e-01
4.635572913378e-01
4.574583374130e-01
4.509101762100e-01
4.439192377825e-01
4.364923869750e-01
4.286369166822e-01
4.203605406872e-01
4.116713860872e-01
4.025779853127e-01
3.930892677492e-01
3.832145509686e-01
3.729635315800e-01
3.623462757077e-01
3.513732091069e-01
3.400551069257e-01
3.284030831248e-01
3.164285795631e-01
3.041433547634e-01
2.915594723649e-01
2.786892892777e-01
2.655454435487e-01
2.521408419515e-01
2.384886473123e-01
2.246022655845e-01
2.104953326849e-01
1.961817011031e-01
1.816754262994e-01
1.669907529026e-01
1.521421007225e-01
1.371440505899e-01
1.220113300389e-01
1.067587988450e-01
9.140143443342e-02
7.595431717175e-02
6.043261556151e-02
4.485157134337e-02
2.922648453020e-02
1.357269838315e-02
-2.094415655003e-03
-1.775947305394e-02
-3.340709130289e-02
-4.902190501572e-02
-6.458858101910e-02
-8.009183340920e-02
-9.551643856182e-02
-1.108472500815e-01
-1.260692136746e-01
-1.411673819322e-01
-1.561269290079e-01
-1.709331651761e-01
-1.855715512569e-01
-2.000277128932e-01
-2.142874546653e-01
-2.283367740307e-01
-2.421618750743e-01
-2.557491820546e-01
-2.690853527355e-01
-2.821572914874e-01
-2.949521621468e-01
-3.074574006208e-01
-3.196607272248e-01
-3.315501587404e-01
-3.431140201827e-01
-3.543409562648e-01
-3.652199425479e-01
-3.757402962673e-01
-3.858916868221e-01
-3.956641459198e-01
-4.050480773647e-01
-4.140342664809e-01
-4.226138891609e-01
-4.307785205305e-01
-4.385201432216e-01
-4.458311552453e-01
-4.527043774564e-01
-4.591330606032e-01
-4.651108919551e-01
-4.706320015014e-01
-4.756909677153e-01
-4.802828228779e-01
-4.844030579562e-01
-4.880476270307e-01
-4.912129512686e-01
-4.938959224376e-01
-4.960939059588e-01
-4.978047434930e-01
-4.990267550607e-01
-4.997587406914e-01
-4.999999816021e-01
-4.997502409032e-01
-4.990097638307e-01
-4.977792775060e-01
-4.960599902214e-01
-4.938535902539e-01
-4.911622442071e-01
-4.879885948841e-01
-4.843357586917e-01
-4.802073225810e-01
-4.756073405245e-01
-4.705403295355e-01
-4.650112652327e-01
-4.590255769540e-01
-4.525891424254e-01
-4.457082819891e-01
-4.383897523972e-01
-4.306407401769e-01
-4.224688545733e-01
-4.138821200780e-01
-4.048889685486e-01
-3.954982309296e-01
-3.857191285802e-01
-3.755612642195e-01
-3.650346124972e-01
-3.541495101984e-01
-3.429166460936e-01
-3.313470504427e-01
-3.194520841634e-01
-3.072434276756e-01
-2.947330694313e-01
-2.819332941426e-01
-2.688566707185e-01
-2.555160399229e-01
-2.419245017648e-01
-2.280954026353e-01
-2.140423222018e-01
-1.997790600727e-01
-1.853196222474e-01
-1.706782073625e-01
-1.558691927494e-01
-1.409071203164e-01
-1.258066822689e-01
-1.105827066820e-01
-9.525014294049e-02
-7.982404705851e-02
-6.431956689542e-02
-4.875192728103e-02
-3.313641506541e-02
-1.748836410778e-02
-1.823140219194e-03
-2.449293598295e-16
</dep>
<dep tran.v(u2) time>
0.000000000000e+00
1.566876196185e-03
1.705180491234e-03
1.981788679344e-03
2.535003151313e-03
3.641422107875e-03
5.854201108765e-03
1.027937176586e-02
1.912695030223e-02
3.496501589837e-02
5.876312511585e-02
9.712799500939e-02
1.606516019222e-01
2.783126793021e-01
3.928088633268e-01
4.690441624862e-01
4.995930060354e-01
4.814798353889e-01
4.164689333858e-01
3.108925772956e-01
1.750342540303e-01
2.212701444412e-02
-1.329354696671e-01
-2.750495985493e-01
-3.903729851523e-01
-4.676727494956e-01
-4.994196383982e-01
-4.825213996874e-01
-4.186239778061e-01
-3.139511933704e-01
-1.786985224191e-01
-2.604002326429e-02
1.291548604404e-01
2.717696327819e-01
3.879131423782e-01
4.662726265516e-01
4.992156118985e-01
4.835333424890e-01
4.207533233271e-01
3.169905363014e-01
1.823518206878e-01
2.995143351398e-02
-1.253663225285e-01
-2.684729833538e-01
-3.854294860117e-01
-4.648438796065e-01
-4.989809390613e-01
-4.845156016717e-01
-4.228568392305e-01
-3.200104195066e-01
-1.859939245641e-01
-3.386100507570e-02
1.215700885059e-01
2.651598526430e-01
3.829221685220e-01
4.633865963694e-01
4.987156342928e-01
4.854681169354e-01
4.249343963836e-01
3.230106575983e-01
1.896246104629e-01
3.776849794483e-02
-1.177663914195e-01
-2.618304440391e-01
-3.803913438307e-01
-4.619008663015e-01
-4.984197138800e-01
-4.863908298063e-01
-4.269858672472e-01
-3.259910663950e-01
-1.932436555002e-01
-4.167367224437e-02
1.139554647743e-01
2.584849619311e-01
3.778371673025e-01
4.603867806103e-01
4.980931959890e-01
4.872836836400e-01
4.290111258837e-01
3.289514629324e-01
1.968508375065e-01
4.557628823964e-02
-1.101375425194e-01
-2.551236116948e-01
-3.752597957358e-01
-4.588444322439e-01
-4.977361006644e-01
-4.881466236251e-01
-4.310100479646e-01
-3.318916654749e-01
-2.004459350405e-01
-4.947610635304e-02
1.063128590330e-01
2.517465996801e-01
3.726593873528e-01
4.572739158855e-01
4.973484498280e-01
4.889795967866e-01
4.329825107779e-01
3.348114935263e-01
2.040287274029e-01
5.337288717871e-02
-1.024816491085e-01
-2.483541331982e-01
-3.700361017898e-01
-4.556753279476e-01
-4.969302672772e-01
-4.897825519891e-01
-4.349283932363e-01
-3.377107678414e-01
-2.075989946498e-01
-5.726639149724e-02
9.864414794005e-02
2.449464205093e-01
3.673901000878e-01
4.540487665659e-01
4.964815786839e-01
4.905554399399e-01
4.368475758840e-01
3.405893104368e-01
2.111565176059e-01
6.115638029039e-02
-9.480059110790e-02
-2.415236708093e-01
-3.647215446820e-01
-4.523943315931e-01
-4.960024115926e-01
-4.912982131924e-01
-4.387399409043e-01
-3.434469446016e-01
-2.147010778787e-01
-6.504261475570e-02
9.095121456411e-02
2.380860942173e-01
3.620305993924e-01
4.507121245936e-01
4.954927954188e-01
4.920108261484e-01
4.406053721269e-01
3.462834949085e-01
2.182324578712e-01
6.892485632118e-02
-8.709625461796e-02
-2.346339017627e-01
-3.593174294133e-01
-4.490022488361e-01
-4.949527614474e-01
-4.926932350613e-01
-4.424437550348e-01
-3.490987872247e-01
-2.217504407956e-01
-7.280286666000e-02
8.323594792153e-02
2.311673053721e-01
3.565822013036e-01
4.472648092883e-01
4.943823428305e-01
4.933453980387e-01
4.442549767716e-01
3.518926487222e-01
2.252548106864e-01
7.667640770504e-02
-7.937053145511e-02
-2.276865178562e-01
-3.538250829759e-01
-4.454999126097e-01
-4.937815745856e-01
-4.939672750451e-01
-4.460389261482e-01
-3.546649078887e-01
-2.287453524141e-01
-8.054524166358e-02
7.550024251266e-02
2.241917528971e-01
3.510462436871e-01
4.437076671457e-01
4.931504935931e-01
4.945588279040e-01
4.477954936499e-01
3.574153945381e-01
2.322218516977e-01
8.440913103184e-02
-7.162531868729e-02
-2.206832250349e-01
-3.482458540273e-01
-4.418881829203e-01
-4.924891385946e-01
-4.951200203006e-01
-4.495245714427e-01
-3.601439398207e-01
-2.356840951186e-01
-8.826783860959e-02
6.774599785662e-02
2.171611496544e-01
3.454240859094e-01
4.400415716297e-01
4.917975501898e-01
4.956508177838e-01
4.512260533802e-01
3.628503762340e-01
2.391318701331e-01
9.212112751470e-02
-6.386251816821e-02
