<Qucs Dataset 0.0.22>
<indep time 414>
0.000000000000e+00
4.987530000000e-08
5.420630794673e-08
6.286832384019e-08
8.019235562711e-08
1.148404192009e-07
1.841365463486e-07
3.227288006440e-07
5.999133092347e-07
1.154282326416e-06
2.006313416718e-06
3.375991790228e-06
5.536466286845e-06
9.518075456460e-06
1.450560545646e-05
1.949313545646e-05
2.448066545646e-05
2.946819545646e-05
3.445572545646e-05
3.944325545646e-05
4.443078545646e-05
4.941831545646e-05
5.440584545646e-05
5.939337545646e-05
6.438090545646e-05
6.936843545646e-05
7.435596545646e-05
7.934349545646e-05
8.433102545646e-05
8.931855545646e-05
9.430608545646e-05
9.929361545646e-05
1.042811454565e-04
1.092686754565e-04
1.142562054565e-04
1.192437354565e-04
1.242312654565e-04
1.292187954565e-04
1.342063254565e-04
1.391938554565e-04
1.441813854565e-04
1.491689154565e-04
1.541564454565e-04
1.591439754565e-04
1.641315054565e-04
1.691190354565e-04
1.741065654565e-04
1.790940954565e-04
1.840816254565e-04
1.890691554565e-04
1.940566854565e-04
1.990442154565e-04
2.040317454565e-04
2.090192754565e-04
2.140068054565e-04
2.189943354565e-04
2.239818654565e-04
2.289693954565e-04
2.339569254565e-04
2.389444554565e-04
2.439319854565e-04
2.489195154565e-04
2.539070454565e-04
2.588945754565e-04
2.638821054565e-04
2.688696354565e-04
2.738571654565e-04
2.788446954565e-04
2.838322254565e-04
2.888197554565e-04
2.938072854565e-04
2.987948154565e-04
3.037823454565e-04
3.087698754565e-04
3.137574054565e-04
3.187449354565e-04
3.237324654565e-04
3.287199954565e-04
3.337075254565e-04
3.386950554565e-04
3.436825854565e-04
3.486701154565e-04
3.536576454565e-04
3.586451754565e-04
3.636327054565e-04
3.686202354565e-04
3.736077654565e-04
3.785952954565e-04
3.835828254565e-04
3.885703554565e-04
3.935578854565e-04
3.985454154565e-04
4.035329454565e-04
4.085204754565e-04
4.135080054565e-04
4.184955354565e-04
4.234830654565e-04
4.284705954565e-04
4.334581254565e-04
4.384456554565e-04
4.434331854565e-04
4.484207154565e-04
4.534082454565e-04
4.583957754565e-04
4.633833054565e-04
4.683708354565e-04
4.733583654565e-04
4.783458954565e-04
4.833334254565e-04
4.883209554565e-04
4.933084854565e-04
4.982960154565e-04
5.032835454565e-04
5.082710754565e-04
5.132586054565e-04
5.182461354565e-04
5.232336654565e-04
5.282211954565e-04
5.332087254565e-04
5.381962554565e-04
5.431837854565e-04
5.481713154565e-04
5.531588454565e-04
5.581463754565e-04
5.631339054565e-04
5.681214354565e-04
5.731089654565e-04
5.780964954565e-04
5.830840254565e-04
5.880715554565e-04
5.930590854565e-04
5.980466154565e-04
6.030341454565e-04
6.080216754565e-04
6.130092054565e-04
6.179967354565e-04
6.229842654565e-04
6.279717954565e-04
6.329593254565e-04
6.379468554565e-04
6.429343854565e-04
6.479219154565e-04
6.529094454565e-04
6.578969754565e-04
6.628845054565e-04
6.678720354565e-04
6.728595654565e-04
6.778470954565e-04
6.828346254565e-04
6.878221554565e-04
6.928096854565e-04
6.977972154565e-04
7.027847454565e-04
7.077722754565e-04
7.127598054565e-04
7.177473354565e-04
7.227348654565e-04
7.277223954565e-04
7.327099254565e-04
7.376974554565e-04
7.426849854565e-04
7.476725154565e-04
7.526600454565e-04
7.576475754565e-04
7.626351054565e-04
7.676226354565e-04
7.726101654565e-04
7.775976954565e-04
7.825852254565e-04
7.875727554565e-04
7.925602854565e-04
7.975478154565e-04
8.025353454565e-04
8.075228754565e-04
8.125104054565e-04
8.174979354565e-04
8.224854654565e-04
8.274729954565e-04
8.324605254565e-04
8.374480554565e-04
8.424355854565e-04
8.474231154565e-04
8.524106454565e-04
8.573981754565e-04
8.623857054565e-04
8.673732354565e-04
8.723607654565e-04
8.773482954565e-04
8.823358254565e-04
8.873233554565e-04
8.923108854565e-04
8.972984154565e-04
9.022859454565e-04
9.072734754565e-04
9.122610054565e-04
9.172485354565e-04
9.222360654565e-04
9.272235954565e-04
9.322111254565e-04
9.371986554565e-04
9.421861854565e-04
9.471737154565e-04
9.521612454565e-04
9.571487754565e-04
9.621363054565e-04
9.671238354565e-04
9.721113654565e-04
9.770988954565e-04
9.820864254565e-04
9.870739554565e-04
9.920614854565e-04
9.970490154565e-04
1.002036545456e-03
1.007024075456e-03
1.012011605456e-03
1.016999135456e-03
1.021986665456e-03
1.026974195456e-03
1.031961725456e-03
1.036949255456e-03
1.041936785456e-03
1.046924315456e-03
1.051911845456e-03
1.056899375456e-03
1.061886905456e-03
1.066874435456e-03
1.071861965456e-03
1.076849495456e-03
1.081837025456e-03
1.086824555456e-03
1.091812085456e-03
1.096799615456e-03
1.101787145456e-03
1.106774675456e-03
1.111762205456e-03
1.116749735456e-03
1.121737265456e-03
1.126724795456e-03
1.131712325456e-03
1.136699855456e-03
1.141687385456e-03
1.146674915456e-03
1.151662445456e-03
1.156649975456e-03
1.161637505456e-03
1.166625035456e-03
1.171612565456e-03
1.176600095456e-03
1.181587625456e-03
1.186575155456e-03
1.191562685456e-03
1.196550215456e-03
1.201537745456e-03
1.206525275456e-03
1.211512805456e-03
1.216500335456e-03
1.221487865456e-03
1.226475395456e-03
1.231462925456e-03
1.236450455456e-03
1.241437985456e-03
1.246425515456e-03
1.251413045456e-03
1.256400575456e-03
1.261388105456e-03
1.266375635456e-03
1.271363165456e-03
1.276350695456e-03
1.281338225456e-03
1.286325755456e-03
1.291313285456e-03
1.296300815456e-03
1.301288345456e-03
1.306275875456e-03
1.311263405456e-03
1.316250935456e-03
1.321238465456e-03
1.326225995456e-03
1.331213525456e-03
1.336201055456e-03
1.341188585456e-03
1.346176115456e-03
1.351163645456e-03
1.356151175456e-03
1.361138705456e-03
1.366126235456e-03
1.371113765456e-03
1.376101295456e-03
1.381088825456e-03
1.386076355456e-03
1.391063885456e-03
1.396051415456e-03
1.401038945456e-03
1.406026475456e-03
1.411014005456e-03
1.416001535456e-03
1.420989065456e-03
1.425976595456e-03
1.430964125456e-03
1.435951655456e-03
1.440939185456e-03
1.445926715456e-03
1.450914245456e-03
1.455901775456e-03
1.460889305456e-03
1.465876835456e-03
1.470864365456e-03
1.475851895456e-03
1.480839425456e-03
1.485826955456e-03
1.490814485456e-03
1.495802015456e-03
1.500789545456e-03
1.505777075456e-03
1.510764605456e-03
1.515752135456e-03
1.520739665456e-03
1.525727195456e-03
1.530714725456e-03
1.535702255456e-03
1.540689785456e-03
1.545677315456e-03
1.550664845456e-03
1.555652375456e-03
1.560639905456e-03
1.565627435456e-03
1.570614965456e-03
1.575602495456e-03
1.580590025456e-03
1.585577555456e-03
1.590565085456e-03
1.595552615456e-03
1.600540145456e-03
1.605527675456e-03
1.610515205456e-03
1.615502735456e-03
1.620490265456e-03
1.625477795456e-03
1.630465325456e-03
1.635452855456e-03
1.640440385456e-03
1.645427915456e-03
1.650415445456e-03
1.655402975456e-03
1.660390505456e-03
1.665378035456e-03
1.670365565456e-03
1.675353095456e-03
1.680340625456e-03
1.685328155456e-03
1.690315685456e-03
1.695303215456e-03
1.700290745456e-03
1.705278275456e-03
1.710265805456e-03
1.715253335456e-03
1.720240865456e-03
1.725228395456e-03
1.730215925456e-03
1.735203455456e-03
1.740190985456e-03
1.745178515456e-03
1.750166045456e-03
1.755153575456e-03
1.760141105456e-03
1.765128635456e-03
1.770116165456e-03
1.775103695456e-03
1.780091225456e-03
1.785078755456e-03
1.790066285456e-03
1.795053815456e-03
1.800041345456e-03
1.805028875456e-03
1.810016405456e-03
1.815003935456e-03
1.819991465456e-03
1.824978995456e-03
1.829966525456e-03
1.834954055456e-03
1.839941585456e-03
1.844929115456e-03
1.849916645456e-03
1.854904175456e-03
1.859891705456e-03
1.864879235456e-03
1.869866765456e-03
1.874854295456e-03
1.879841825456e-03
1.884829355456e-03
1.889816885456e-03
1.894804415456e-03
1.899791945456e-03
1.904779475456e-03
1.909767005456e-03
1.914754535456e-03
1.919742065456e-03
1.924729595456e-03
1.929717125456e-03
1.934704655456e-03
1.939692185456e-03
1.944679715456e-03
1.949667245456e-03
1.954654775456e-03
1.959642305456e-03
1.964629835456e-03
1.969617365456e-03
1.974604895456e-03
1.979592425456e-03
1.984579955456e-03
1.989567485456e-03
1.994555015456e-03
1.999542545456e-03
2.000000000000e-03
</indep>
<dep tran.v(u1) time>
0.000000000000e+00
1.566878735110e-04
1.702941355313e-04
1.975066591835e-04
2.519317046522e-04
3.607817859898e-04
5.784818922102e-04
1.013881734386e-03
1.884678782117e-03
3.626253086630e-03
6.302852554283e-03
1.060519566693e-02
1.738981405207e-02
2.988409509216e-02
4.550763895022e-02
6.108649597898e-02
7.660536831328e-02
9.204901699072e-02
1.074022769158e-01
1.226500717513e-01
1.377774287231e-01
1.527694933225e-01
1.676115438929e-01
1.822890060859e-01
1.967874671731e-01
2.110926901984e-01
2.251906279584e-01
2.390674367963e-01
2.527094901956e-01
2.661033921612e-01
2.792359903736e-01
2.920943891038e-01
3.046659618767e-01
3.169383638699e-01
3.288995440355e-01
3.405377569341e-01
3.518415742683e-01
3.627998961048e-01
3.734019617742e-01
3.836373604375e-01
3.934960413095e-01
4.029683235278e-01
4.120449056592e-01
4.207168748336e-01
4.289757154959e-01
4.368133177682e-01
4.442219854128e-01
4.511944433905e-01
4.577238450037e-01
4.638037786199e-01
4.694282739677e-01
4.745918079994e-01
4.792893103142e-01
4.835161681376e-01
4.872682308504e-01
4.905418140650e-01
4.933337032428e-01
4.956411568513e-01
4.974619090559e-01
4.987941719447e-01
4.996366372847e-01
4.999884778057e-01
4.998493480133e-01
4.992193845279e-01
4.980992059504e-01
4.964899122551e-01
4.943930837092e-01
4.918107793214e-01
4.887455348195e-01
4.852003601612e-01
4.811787365776e-01
4.766846131554e-01
4.717224029586e-01
4.662969786952e-01
4.604136679327e-01
4.540782478659e-01
4.472969396445e-01
4.400764022641e-01
4.324237260271e-01
4.243464255802e-01
4.158524325359e-01
4.069500876831e-01
3.976481327973e-01
3.879557020565e-01
3.778823130716e-01
3.674378575402e-01
3.566325915341e-01
3.454771254274e-01
3.339824134779e-01
3.221597430704e-01
3.100207236327e-01
2.975772752360e-01
2.848416168894e-01
2.718262545413e-01
2.585439687993e-01
2.450078023801e-01
2.312310473016e-01
2.172272318311e-01
2.030101072009e-01
1.885936341049e-01
1.739919689900e-01
1.592194501548e-01
1.442905836699e-01
1.292200291338e-01
1.140225852772e-01
9.871317543157e-02
8.330683287482e-02
6.781868606924e-02
5.226394380591e-02
3.665788027018e-02
2.101582004299e-02
5.353123052739e-03
-1.031483050765e-02
-2.597265528350e-02
-4.160497586621e-02
-5.719644189138e-02
-7.273174311226e-02
-8.819562443389e-02
-1.035729008930e-01
-1.188484725692e-01
-1.340073394124e-01
-1.490346159723e-01
-1.639155460155e-01
-1.786355170155e-01
-1.931800745016e-01
-2.075349362530e-01
-2.216860063226e-01
-2.356193888798e-01
-2.493214018548e-01
-2.627785903744e-01
-2.759777399739e-01
-2.889058895734e-01
-3.015503442051e-01
-3.138986874790e-01
-3.259387937759e-01
-3.376588401538e-01
-3.490473179577e-01
-3.600930441209e-01
-3.707851721463e-01
-3.811132027569e-01
-3.910669942062e-01
-4.006367722367e-01
-4.098131396781e-01
-4.185870856747e-01
-4.269499945340e-01
-4.348936541866e-01
-4.424102642508e-01
-4.494924436917e-01
-4.561332380692e-01
-4.623261263672e-01
-4.680650273972e-01
-4.733443057690e-01
-4.781587774254e-01
-4.825037147320e-01
-4.863748511201e-01
-4.897683852759e-01
-4.926809848738e-01
-4.951097898478e-01
-4.970524152007e-01
-4.985069533458e-01
-4.994719759801e-01
-4.999465354868e-01
-4.999301658660e-01
-4.994228831919e-01
-4.984251855976e-01
-4.969380527854e-01
-4.949629450651e-01
-4.925018019200e-01
-4.895570401020e-01
-4.861315512592e-01
-4.822286990957e-01
-4.778523160689e-01
-4.730066996262e-01
-4.676966079848e-01
-4.619272554596e-01
-4.557043073429e-01
-4.490338743410e-01
-4.419225065740e-01
-4.343771871437e-01
-4.264053252767e-01
-4.180147490482e-01
-4.092136976960e-01
-4.000108135289e-01
-3.904151334411e-01
-3.804360800379e-01
-3.700834523830e-01
-3.593674163764e-01
-3.482984947717e-01
-3.368875568432e-01
-3.251458077126e-01
-3.130847773462e-01
-3.007163092325e-01
-2.880525487528e-01
-2.751059312546e-01
-2.618891698406e-01
-2.484152428847e-01
-2.346973812882e-01
-2.207490554871e-01
-2.065839622248e-01
-1.922160111025e-01
-1.776593109201e-01
-1.629281558224e-01
-1.480370112624e-01
-1.330004997969e-01
-1.178333867276e-01
-1.025505656022e-01
-8.716704358966e-02
-7.169792674317e-02
-5.615840516713e-02
-4.056373810072e-02
-2.492923893399e-02
-9.270260170640e-03
6.397821647567e-03
2.205962104000e-02
3.769975869514e-02
5.330287657250e-02
6.885365298366e-02
8.433681763757e-02
9.973716663548e-02
1.150395774005e-01
1.302290235277e-01
1.452905895389e-01
1.602094855298e-01
1.749710616927e-01
1.895608227023e-01
2.039644419493e-01
2.181677756089e-01
2.321568765293e-01
2.459180079274e-01
2.594376568778e-01
2.727025475822e-01
2.856996544050e-01
2.984162146652e-01
3.108397411677e-01
3.229580344660e-01
3.347591948414e-01
3.462316339880e-01
3.573640863922e-01
3.681456203946e-01
3.785656489252e-01
3.886139398987e-01
3.982806262626e-01
4.075562156862e-01
4.164315998814e-01
4.248980635471e-01
4.329472929270e-01
4.405713839737e-01
4.477628501099e-01
4.545146295801e-01
4.608200923850e-01
4.666730467917e-01
4.720677454142e-01
4.769988908565e-01
4.814616409151e-01
4.854516133334e-01
4.889648901050e-01
4.919980213213e-01
4.945480285589e-01
4.966124078044e-01
4.981891319131e-01
4.992766526001e-01
4.998739019598e-01
4.999802935154e-01
4.995957227943e-01
4.987205674308e-01
4.973556867953e-01
4.955024211504e-01
4.931625903350e-01
4.903384919768e-01
4.870328992368e-01
4.832490580854e-01
4.789906841158e-01
4.742619588946e-01
4.690675258563e-01
4.634124857433e-01
4.573023915971e-01
4.507432433057e-01
4.437414817117e-01
4.363039822877e-01
4.284380483849e-01
4.201514040612e-01
4.114521864971e-01
4.023489380044e-01
3.928505976386e-01
3.829664924211e-01
3.727063281799e-01
3.620801800194e-01
3.510984824265e-01
3.397720190248e-01
3.281119119852e-01
3.161296111043e-01
3.038368825613e-01
2.912457973640e-01
2.783687194953e-01
2.652182937726e-01
2.518074334308e-01
2.381493074418e-01
2.242573275836e-01
2.101451352699e-01
1.958265881551e-01
1.813157465262e-01
1.666268594966e-01
1.517743510136e-01
1.367728056948e-01
1.216369545064e-01
1.063816602982e-01
9.102190320855e-02
7.557276595446e-02
6.004941902109e-02
4.446710576473e-02
2.884112744442e-02
1.318682819672e-02
-2.480420031730e-03
-1.814523257885e-02
-3.379222717431e-02
-4.940603904437e-02
-6.497133599948e-02
-8.047283348999e-02
-9.589530961493e-02
-1.112236200695e-01
-1.264427130159e-01
-1.415376438643e-01
-1.564935899471e-01
-1.712958650749e-01
-1.859299339573e-01
-2.003814264765e-01
-2.146361517978e-01
-2.286801123047e-01
-2.424995173441e-01
-2.560807967680e-01
-2.694106142590e-01
-2.824758804261e-01
-2.952637656581e-01
-3.077617127215e-01
-3.199574490916e-01
-3.318389990033e-01
-3.433946952113e-01
-3.546131904464e-01
-3.654834685586e-01
-3.759948553342e-01
-3.861370289776e-01
-3.959000302469e-01
-4.052742722336e-01
-4.142505497766e-01
-4.228200485012e-01
-4.309743534744e-01
-4.387054574685e-01
-4.460057688233e-01
-4.528681189013e-01
-4.592857691270e-01
-4.652524176037e-01
-4.707622053017e-01
-4.758097218120e-01
-4.803900106589e-01
-4.844985741670e-01
-4.881313778779e-01
-4.912848545119e-01
-4.939559074708e-01
-4.961419138786e-01
-4.978407271575e-01
-4.990506791353e-01
-4.997705816835e-01
-4.999997278842e-01
-4.997378927245e-01
-4.989853333166e-01
-4.977427886465e-01
-4.960114788471e-01
-4.937931040013e-01
-4.910898424714e-01
-4.879043487611e-01
-4.842397509081e-01
-4.800996474129e-01
-4.754881037049e-01
-4.704096481506e-01
-4.648692676068e-01
-4.588724025236e-01
-4.524249416022e-01
-4.455332160122e-01
-4.382039931749e-01
-4.304444701180e-01
-4.222622664078e-01
-4.136654166679e-01
-4.046623626887e-01
-3.952619451384e-01
-3.854733948817e-01
-3.753063239153e-01
-3.647707159292e-01
-3.538769165034e-01
-3.426356229485e-01
-3.310578738020e-01
-3.191550379879e-01
-3.069388036536e-01
-2.944211666925e-01
-2.816144189641e-01
-2.685311362240e-01
-2.551841657752e-01
-2.415866138522e-01
-2.277518327513e-01
-2.136934077194e-01
-1.994251436131e-01
-1.849610513435e-01
-1.703153341178e-01
-1.555023734922e-01
-1.405367152496e-01
-1.254330551167e-01
-1.102062243325e-01
-9.487117508558e-02
-7.944296583068e-02
-6.393674650243e-02
-4.836774363844e-02
-3.275124542743e-02
-1.710258669685e-02
-1.437133854558e-03
-2.449293598295e-16
</dep>
<dep tran.v(u2) time>
0.000000000000e+00
1.566876196185e-03
1.702938095875e-03
1.975061506860e-03
2.519306493134e-03
3.607786865963e-03
5.784691157485e-03
1.013812948758e-02
1.884236979907e-02
3.623106683758e-02
6.286338969762e-02
1.052663397739e-01
1.704464084888e-01
2.815111712439e-01
3.951854149868e-01
4.703672898579e-01
4.997338321288e-01
4.804246432757e-01
4.143205022743e-01
3.078601714949e-01
1.714132399133e-01
1.827009078408e-02
-1.366526257257e-01
-2.782649236895e-01
-3.927732960515e-01
-4.690242479186e-01
-4.995906839206e-01
-4.814953319084e-01
-4.165007391272e-01
-3.109375942745e-01
-1.750880974436e-01
-2.218443976508e-02
1.328800558550e-01
2.750015937351e-01
3.903370651639e-01
4.676524130589e-01
4.994168663495e-01
4.825364620334e-01
4.186554074244e-01
3.139959289121e-01
1.787522064942e-01
2.609742686594e-02
-1.290993286132e-01
-2.717213817131e-01
-3.878768718818e-01
-4.662518694942e-01
-4.992123900862e-01
-4.835479697370e-01
-4.207843748929e-01
-3.170349876598e-01
-1.824053421290e-01
-3.000881187236e-02
1.253106760952e-01
2.684244889926e-01
3.853928672340e-01
4.648227032025e-01
4.989772676831e-01
4.845297929236e-01
4.228875108376e-01
3.200545839527e-01
1.860472800858e-01
3.391835466842e-02
-1.215143308825e-01
-2.651111179662e-01
-3.828852037109e-01
-4.633650019189e-01
-4.987115135741e-01
-4.854818713201e-01
-4.249646861490e-01
-3.230545324209e-01
-1.896777967897e-01
-3.782581525125e-02
1.177105260290e-01
2.617814720386e-01
3.803540352554e-01
4.618788551302e-01
4.984151440738e-01
4.864041464794e-01
4.270157733115e-01
3.260346489008e-01
1.932966693670e-01
4.173095374584e-02
-1.138994950462e-01
-2.584357556133e-01
-3.777995172534e-01
-4.603643540694e-01
-4.980881773758e-01
-4.872965617840e-01
-4.290406464110e-01
-3.289947504458e-01
-1.969036756588e-01
-4.563353041972e-02
1.100814718895e-01
2.550741740804e-01
3.752218065242e-01
4.588215917102e-01
4.977306335523e-01
4.881590624495e-01
4.310391811426e-01
3.319346553386e-01
2.004985942347e-01
4.953330569769e-02
-1.062566909435e-01
-2.516969338039e-01
-3.726210613108e-01
-4.572506627612e-01
-4.973425345526e-01
-4.889915955276e-01
-4.330112548183e-01
-3.348541831012e-01
-2.040812044063e-01
-5.343004017651e-02
1.024253870076e-01
2.483042421093e-01
3.699974412702e-01
4.556516636601e-01
4.969239042017e-01
4.897941099103e-01
4.349567463744e-01
3.377531545068e-01
2.076512862408e-01
5.732349463965e-02
-9.858779528152e-02
-2.448963072703e-01
-3.673511074639e-01
-4.540246925678e-01
-4.964747681989e-01
-4.905665563317e-01
-4.368755363792e-01
-3.406313915906e-01
-2.112086205745e-01
-6.121343007188e-02
9.474415135120e-02
2.414733384967e-01
3.646822223476e-01
4.523698493625e-01
4.959951541161e-01
4.913088873724e-01
4.387675070402e-01
3.434887176605e-01
2.147529890263e-01
6.509960767404e-02
-9.089469117401e-02
-2.380355459210e-01
-3.619909497614e-01
-4.506872356332e-01
-4.954850913964e-01
-4.920210574613e-01
-4.406325422112e-01
-3.463249573081e-01
-2.182841740110e-01
-6.898178887766e-02
8.703965106438e-02
2.345831405857e-01
3.592774549197e-01
4.489769546740e-01
4.949446113521e-01
4.927030228790e-01
4.424705273996e-01
3.491399364197e-01
2.218019587527e-01
7.285973535956e-02
-8.317926767931e-02
-2.311163344306e-01
-3.565419044014e-01
-4.472391114772e-01
-4.943737471626e-01
-4.933547417604e-01
-4.442813497734e-01
-3.519334821864e-01
-2.253061272983e-01
-7.673320905658e-02
7.931377800377e-02
2.276353402793e-01
3.537844661390e-01
4.454738127273e-01
4.937725338727e-01
4.939761740971e-01
4.460648981680e-01
3.547054231155e-01
2.287964645305e-01
8.060197218012e-02
-7.544341933626e-02
-2.241403718265e-01
-3.510053094089e-01
-4.436811667941e-01
-4.931410083903e-01
-4.945672817401e-01
-4.478210630932e-01
-3.574555890402e-01
-2.322727561809e-01
-8.446578723076e-02
7.156842927414e-02
2.206316436248e-01
3.482046048206e-01
4.418612837264e-01
4.924792094840e-01
4.951280284017e-01
4.495497367399e-01
3.601838111307e-01
2.357347888436e-01
8.832441701281e-02
-6.768904569910e-02
