<Qucs Dataset 0.0.21>
<indep frequency 89>
1.000000000000e-01
1.232846739442e-01
1.519911082953e-01
1.873817422860e-01
2.310129700083e-01
2.848035868436e-01
3.511191734215e-01
4.328761281083e-01
5.336699231206e-01
6.579332246576e-01
8.111308307897e-01
1.000000000000e+00
1.232846739442e+00
1.519911082953e+00
1.873817422860e+00
2.310129700083e+00
2.848035868436e+00
3.511191734215e+00
4.328761281083e+00
5.336699231206e+00
6.579332246576e+00
8.111308307897e+00
1.000000000000e+01
1.232846739442e+01
1.519911082953e+01
1.873817422860e+01
2.310129700083e+01
2.848035868436e+01
3.511191734215e+01
4.328761281083e+01
5.336699231206e+01
6.579332246576e+01
8.111308307897e+01
1.000000000000e+02
1.232846739442e+02
1.519911082953e+02
1.873817422860e+02
2.310129700083e+02
2.848035868436e+02
3.511191734215e+02
4.328761281083e+02
5.336699231206e+02
6.579332246576e+02
8.111308307897e+02
1.000000000000e+03
1.232846739442e+03
1.519911082953e+03
1.873817422860e+03
2.310129700083e+03
2.848035868436e+03
3.511191734215e+03
4.328761281083e+03
5.336699231206e+03
6.579332246576e+03
8.111308307897e+03
1.000000000000e+04
1.232846739442e+04
1.519911082953e+04
1.873817422860e+04
2.310129700083e+04
2.848035868436e+04
3.511191734215e+04
4.328761281083e+04
5.336699231206e+04
6.579332246576e+04
8.111308307897e+04
1.000000000000e+05
1.232846739442e+05
1.519911082953e+05
1.873817422860e+05
2.310129700083e+05
2.848035868436e+05
3.511191734215e+05
4.328761281083e+05
5.336699231206e+05
6.579332246576e+05
8.111308307897e+05
1.000000000000e+06
1.232846739442e+06
1.519911082953e+06
1.873817422860e+06
2.310129700083e+06
2.848035868436e+06
3.511191734215e+06
4.328761281083e+06
5.336699231206e+06
6.579332246576e+06
8.111308307897e+06
1.000000000000e+07
</indep>
<dep ac.v(out) frequency>
1.994468301495e+05-j3.979490801706e+03
1.994055734730e+05-j4.905087405218e+03
1.993428996690e+05-j6.045320353463e+03
1.992477164700e+05-j7.449394814854e+03
1.991032204145e+05-j9.177301824707e+03
1.988840001651e+05-j1.130174925788e+04
1.985517277906e+05-j1.391004653585e+04
1.980488240815e+05-j1.710551961548e+04
1.972893150980e+05-j2.100761062715e+04
1.961460200325e+05-j2.574907815080e+04
1.944334672465e+05-j3.146750404883e+04
1.918870572491e+05-j3.828653374519e+04
1.881419764349e+05-j4.628019282162e+04
1.827216711052e+05-j5.541261008972e+04
1.750562866270e+05-j6.544935204330e+04
1.645633923352e+05-j7.585251095458e+04
1.508228779446e+05-j8.570635885574e+04
1.338378282258e+05-j9.376349627346e+04
1.142774087182e+05-j9.870164417793e+04
9.350635246109e+04-j9.956672223692e+04
7.326597113489e+04-j9.617993861074e+04
5.512865091443e+04-j8.922131927302e+04
4.005683392978e+04-j7.992395870593e+04
2.829803989302e+04-j6.960906691528e+04
1.956751964530e+04-j5.934092710346e+04
1.332099344605e+04-j4.980400341032e+04
8.969156795679e+03-j4.134170148314e+04
5.993262721933e+03-j3.405721549428e+04
3.984102604772e+03-j2.791164461406e+04
2.639300757706e+03-j2.279569752129e+04
1.744376620748e+03-j1.857433830999e+04
1.151125835130e+03-j1.511140990027e+04
7.588615340824e+02-j1.228156794939e+04
4.999306201381e+02-j9.974935690074e+03
3.292031179467e+02-j8.097918425625e+03
2.167159800292e+02-j6.572180534980e+03
1.426376387065e+02-j5.332879618437e+03
9.386899605839e+01-j4.326721119914e+03
6.176947174286e+01-j3.510101772138e+03
4.064449187007e+01-j2.847453304134e+03
2.674322508766e+01-j2.309818113992e+03
1.759606307192e+01-j1.873650589754e+03
1.157738376852e+01-j1.519821607331e+03
7.617296625615e+00-j1.232798631852e+03
5.011737980628e+00-j9.999740371664e+02
3.297417262467e+00-j8.111167407299e+02
2.169492636843e+00-j6.579255150784e+02
1.427386595404e+00-j5.336656545419e+02
9.391273636898e-01-j4.328737250197e+02
6.178840895718e-01-j3.511177895143e+02
4.065269021495e-01-j2.848027660046e+02
2.674677420523e-01-j2.310124652041e+02
1.759759947133e-01-j1.873814187467e+02
1.157804885941e-01-j1.519908917170e+02
7.617584533358e-02-j1.232845227421e+02
5.011862610661e-02-j9.999989041482e+01
3.297471212302e-02-j8.111300116053e+01
2.169515990571e-02-j6.579325973859e+01
1.427396704714e-02-j5.336694341706e+01
9.391317397795e-03-j4.328757420988e+01
6.178859838796e-03-j3.511188659705e+01
4.065277221510e-03-j2.848033404775e+01
2.674680970116e-03-j2.310127717832e+01
1.759761483668e-03-j1.873815823588e+01
1.157805551071e-03-j1.519909790319e+01
7.617587412545e-04-j1.232845693394e+01
5.011863856992e-04-j9.999991528243e+00
3.297471751809e-04-j8.111301443163e+00
2.169516224111e-04-j6.579326682098e+00
1.427396805807e-04-j5.336694719671e+00
9.391317835406e-05-j4.328757622697e+00
6.178860028227e-05-j3.511188767351e+00
4.065277303510e-05-j2.848033462223e+00
2.674681005612e-05-j2.310127748490e+00
1.759761499033e-05-j1.873815839949e+00
1.157805557722e-05-j1.519909799051e+00
7.617587441337e-06-j1.232845698054e+00
5.011863869455e-06-j9.999991553110e-01
3.297471757204e-06-j8.111301456434e-01
2.169516226447e-06-j6.579326689180e-01
1.427396806818e-06-j5.336694723451e-01
9.391317839782e-07-j4.328757624714e-01
6.178860030122e-07-j3.511188768427e-01
4.065277304330e-07-j2.848033462797e-01
2.674681005967e-07-j2.310127748797e-01
1.759761499187e-07-j1.873815840113e-01
1.157805557789e-07-j1.519909799138e-01
7.617587441625e-08-j1.232845698101e-01
5.011863869580e-08-j9.999991553359e-02
</dep>
<dep ac.v(out2) frequency>
9.999495079341e+00-j1.007398997853e-05
9.999495079351e+00-j1.241968741076e-05
9.999495079308e+00-j1.531156996821e-05
9.999495079330e+00-j1.887682163326e-05
9.999495079295e+00-j2.327222424406e-05
9.999495079286e+00-j2.869108756290e-05
9.999495079205e+00-j3.537171142049e-05
9.999495079146e+00-j4.360790263206e-05
9.999495079058e+00-j5.376185846466e-05
9.999495078918e+00-j6.628013770096e-05
9.999495078710e+00-j8.171325347289e-05
9.999495078311e+00-j1.007399085829e-04
9.999495077807e+00-j1.241968665846e-04
9.999495077003e+00-j1.531157041964e-04
9.999495075791e+00-j1.887682067958e-04
9.999495073935e+00-j2.327222564236e-04
9.999495071126e+00-j2.869108804390e-04
9.999495066848e+00-j3.537171420509e-04
9.999495060340e+00-j4.360790204781e-04
9.999495050441e+00-j5.376186026701e-04
9.999495035422e+00-j6.628013448050e-04
9.999495012590e+00-j8.171324805868e-04
9.999494977872e+00-j1.007399106709e-03
9.999494925099e+00-j1.241968683755e-03
9.999494844907e+00-j1.531157049581e-03
9.999494723006e+00-j1.887681945634e-03
9.999494537733e+00-j2.327222474392e-03
9.999494256138e+00-j2.869108564953e-03
9.999493828136e+00-j3.537170988049e-03
9.999493177613e+00-j4.360789441241e-03
9.999492188875e+00-j5.376184509990e-03
9.999490686082e+00-j6.628010551301e-03
9.999488401970e+00-j8.171319330934e-03
9.999484930326e+00-j1.007398089579e-02
9.999479653740e+00-j1.241966794439e-02
9.999471633809e+00-j1.531153485203e-02
9.999459444252e+00-j1.887675280634e-02
9.999440917266e+00-j2.327210003063e-02
9.999412758026e+00-j2.869085184604e-02
9.999369958788e+00-j3.537127175483e-02
9.999304908454e+00-j4.360707336753e-02
9.999206039352e+00-j5.376030665266e-02
9.999055770852e+00-j6.627722273582e-02
9.998827384742e+00-j8.170779163808e-02
9.998480278140e+00-j1.007296875827e-01
9.997952753118e+00-j1.241777148746e-01
9.997151068582e+00-j1.530798152253e-01
9.995932825547e+00-j1.887009533591e-01
9.994081772936e+00-j2.325962747883e-01
9.991269650044e+00-j2.866748720397e-01
9.986998502603e+00-j3.532750958383e-01
9.980513726863e+00-j4.352512482815e-01
9.970673555621e+00-j5.360690296537e-01
9.955754472991e+00-j6.599020665882e-01
9.933164099364e+00-j8.117120851352e-01
9.899024390561e+00-j9.972771926289e-01
9.847582135800e+00-j1.223100645563e+00
9.770410343424e+00-j1.496078832646e+00
9.655405095995e+00-j1.822725480934e+00
9.485700945832e+00-j2.207645238337e+00
9.238892476647e+00-j2.650872623100e+00
8.887425298192e+00-j3.143793426179e+00
8.401637096932e+00-j3.663962731903e+00
7.757181316066e+00-j4.170615593574e+00
6.947229751541e+00-j4.604865741258e+00
5.995717376783e+00-j4.899542789292e+00
4.962638264178e+00-j4.999609820996e+00
3.932718352743e+00-j4.884559772871e+00
2.989672791189e+00-j4.577889794000e+00
2.191092315476e+00-j4.136294391371e+00
1.558400424043e+00-j3.626927830855e+00
1.083061869702e+00-j3.107579254520e+00
7.399992256969e-01-j2.617636292928e+00
4.995148932483e-01-j2.178389677841e+00
3.343608718767e-01-j1.797677028951e+00
2.225324420347e-01-j1.475022498597e+00
1.475345912830e-01-j1.205613936525e+00
9.756028865787e-02-j9.828711087687e-01
6.440309302867e-02-j7.999066529564e-01
4.246649375649e-02-j6.502615568089e-01
2.798076514265e-02-j5.282145398819e-01
1.842711305375e-02-j4.288615951706e-01
1.213145712389e-02-j3.480822798762e-01
7.985002463737e-03-j2.824574880941e-01
5.255033854415e-03-j2.291725764315e-01
3.458083016396e-03-j1.859223648955e-01
2.275456886430e-03-j1.508252042435e-01
1.497215229717e-03-j1.223484967985e-01
9.851180992276e-04-j9.924572095634e-02
</dep>
<dep ac.out2_db frequency>
1.999956142042e+01+j0.000000000000e+00
1.999956142043e+01+j0.000000000000e+00
1.999956142040e+01+j0.000000000000e+00
1.999956142042e+01+j0.000000000000e+00
1.999956142040e+01+j0.000000000000e+00
1.999956142040e+01+j0.000000000000e+00
1.999956142035e+01+j0.000000000000e+00
1.999956142033e+01+j0.000000000000e+00
1.999956142030e+01+j0.000000000000e+00
1.999956142024e+01+j0.000000000000e+00
1.999956142016e+01+j0.000000000000e+00
1.999956141996e+01+j0.000000000000e+00
1.999956141975e+01+j0.000000000000e+00
1.999956141940e+01+j0.000000000000e+00
1.999956141888e+01+j0.000000000000e+00
1.999956141807e+01+j0.000000000000e+00
1.999956141686e+01+j0.000000000000e+00
1.999956141500e+01+j0.000000000000e+00
1.999956141217e+01+j0.000000000000e+00
1.999956140787e+01+j0.000000000000e+00
1.999956140135e+01+j0.000000000000e+00
1.999956139143e+01+j0.000000000000e+00
1.999956137636e+01+j0.000000000000e+00
1.999956135343e+01+j0.000000000000e+00
1.999956131861e+01+j0.000000000000e+00
1.999956126566e+01+j0.000000000000e+00
1.999956118519e+01+j0.000000000000e+00
1.999956106289e+01+j0.000000000000e+00
1.999956087700e+01+j0.000000000000e+00
1.999956059447e+01+j0.000000000000e+00
1.999956016505e+01+j0.000000000000e+00
1.999955951236e+01+j0.000000000000e+00
1.999955852033e+01+j0.000000000000e+00
1.999955701254e+01+j0.000000000000e+00
1.999955472083e+01+j0.000000000000e+00
1.999955123763e+01+j0.000000000000e+00
1.999954594349e+01+j0.000000000000e+00
1.999953789688e+01+j0.000000000000e+00
1.999952566678e+01+j0.000000000000e+00
1.999950707817e+01+j0.000000000000e+00
1.999947882530e+01+j0.000000000000e+00
1.999943588380e+01+j0.000000000000e+00
1.999937061734e+01+j0.000000000000e+00
1.999927142002e+01+j0.000000000000e+00
1.999912065324e+01+j0.000000000000e+00
1.999889151117e+01+j0.000000000000e+00
1.999854325874e+01+j0.000000000000e+00
1.999801399949e+01+j0.000000000000e+00
1.999720969599e+01+j0.000000000000e+00
1.999598751137e+01+j0.000000000000e+00
1.999413055782e+01+j0.000000000000e+00
1.999130967319e+01+j0.000000000000e+00
1.998702568512e+01+j0.000000000000e+00
1.998052248598e+01+j0.000000000000e+00
1.997065681250e+01+j0.000000000000e+00
1.995570465349e+01+j0.000000000000e+00
1.993307682841e+01+j0.000000000000e+00
1.989890874878e+01+j0.000000000000e+00
1.984748570500e+01+j0.000000000000e+00
1.977047499621e+01+j0.000000000000e+00
1.965597983788e+01+j0.000000000000e+00
1.948754034383e+01+j0.000000000000e+00
1.924341989570e+01+j0.000000000000e+00
1.889682013767e+01+j0.000000000000e+00
1.841789732668e+01+j0.000000000000e+00
1.777819224118e+01+j0.000000000000e+00
1.695690690850e+01+j0.000000000000e+00
1.594670915924e+01+j0.000000000000e+00
1.475601729996e+01+j0.000000000000e+00
1.340638746737e+01+j0.000000000000e+00
1.192657128728e+01+j0.000000000000e+00
1.034631337345e+01+j0.000000000000e+00
8.692093363258e+00+j0.000000000000e+00
6.985265124507e+00+j0.000000000000e+00
5.241935200448e+00+j0.000000000000e+00
3.473714048535e+00+j0.000000000000e+00
1.688719289088e+00+j0.000000000000e+00
-1.074885236001e-01+j0.000000000000e+00
-1.911152036524e+00+j0.000000000000e+00
-3.719755240055e+00+j0.000000000000e+00
-5.531623427438e+00+j0.000000000000e+00
-7.345646286501e+00+j0.000000000000e+00
-9.161089613471e+00+j0.000000000000e+00
-1.097746874504e+01+j0.000000000000e+00
-1.279446410757e+01+j0.000000000000e+00
-1.461186514034e+01+j0.000000000000e+00
-1.642953317729e+01+j0.000000000000e+00
-1.824737692857e+01+j0.000000000000e+00
-2.006533630696e+01+j0.000000000000e+00
</dep>
<dep ac.out_db frequency>
1.059982713837e+02+j0.000000000000e+00
1.059973729287e+02+j0.000000000000e+00
1.059960077128e+02+j0.000000000000e+00
1.059939335275e+02+j0.000000000000e+00
1.059907828462e+02+j0.000000000000e+00
1.059859984637e+02+j0.000000000000e+00
1.059787367063e+02+j0.000000000000e+00
1.059677226812e+02+j0.000000000000e+00
1.059510356513e+02+j0.000000000000e+00
1.059257950036e+02+j0.000000000000e+00
1.058877102082e+02+j0.000000000000e+00
1.058304568263e+02+j0.000000000000e+00
1.057448570198e+02+j0.000000000000e+00
1.056179005848e+02+j0.000000000000e+00
1.054317771178e+02+j0.000000000000e+00
1.051633323139e+02+j0.000000000000e+00
1.047846722357e+02+j0.000000000000e+00
1.042657888075e+02+j0.000000000000e+00
1.035796038404e+02+j0.000000000000e+00
1.027084111617e+02+j0.000000000000e+00
1.016490231052e+02+j0.000000000000e+00
1.004137736473e+02+j0.000000000000e+00
9.902676619916e+01+j0.000000000000e+00
9.751756354495e+01+j0.000000000000e+00
9.591535778513e+01+j0.000000000000e+00
9.424536614628e+01+j0.000000000000e+00
9.252751616266e+01+j0.000000000000e+00
9.077663315939e+01+j0.000000000000e+00
8.900330514519e+01+j0.000000000000e+00
8.721488882440e+01+j0.000000000000e+00
8.541640257348e+01+j0.000000000000e+00
8.361122801054e+01+j0.000000000000e+00
8.180162539440e+01+j0.000000000000e+00
7.998909737572e+01+j0.000000000000e+00
7.817463939847e+01+j0.000000000000e+00
7.635890936159e+01+j0.000000000000e+00
7.454234140703e+01+j0.000000000000e+00
7.272522173052e+01+j0.000000000000e+00
7.090773887235e+01+j0.000000000000e+00
6.909001698454e+01+j0.000000000000e+00
6.727213779639e+01+j0.000000000000e+00
6.545415510007e+01+j0.000000000000e+00
6.363610429576e+01+j0.000000000000e+00
6.181800867811e+01+j0.000000000000e+00
5.999988357505e+01+j0.000000000000e+00
5.818173907204e+01+j0.000000000000e+00
5.636358180492e+01+j0.000000000000e+00
5.454541613978e+01+j0.000000000000e+00
5.272724494925e+01+j0.000000000000e+00
5.090907012337e+01+j0.000000000000e+00
4.909089290566e+01+j0.000000000000e+00
4.727271411428e+01+j0.000000000000e+00
4.545453428754e+01+j0.000000000000e+00
4.363635377959e+01+j0.000000000000e+00
4.181817282346e+01+j0.000000000000e+00
3.999999157244e+01+j0.000000000000e+00
3.818181012742e+01+j0.000000000000e+00
3.636362855475e+01+j0.000000000000e+00
3.454544689810e+01+j0.000000000000e+00
3.272726518620e+01+j0.000000000000e+00
3.090908343794e+01+j0.000000000000e+00
2.909090166576e+01+j0.000000000000e+00
2.727271987785e+01+j0.000000000000e+00
2.545453807958e+01+j0.000000000000e+00
2.363635627450e+01+j0.000000000000e+00
2.181817446494e+01+j0.000000000000e+00
1.999999265243e+01+j0.000000000000e+00
1.818181083798e+01+j0.000000000000e+00
1.636362902225e+01+j0.000000000000e+00
1.454544720569e+01+j0.000000000000e+00
1.272726538857e+01+j0.000000000000e+00
1.090908357109e+01+j0.000000000000e+00
9.090901753364e+00+j0.000000000000e+00
7.272719935485e+00+j0.000000000000e+00
5.454538117502e+00+j0.000000000000e+00
3.636356299451e+00+j0.000000000000e+00
1.818174481356e+00+j0.000000000000e+00
-7.336769297579e-06+j0.000000000000e+00
-1.818189154914e+00+j0.000000000000e+00
-3.636370973071e+00+j0.000000000000e+00
-5.454552791237e+00+j0.000000000000e+00
-7.272734609408e+00+j0.000000000000e+00
-9.090916427583e+00+j0.000000000000e+00
-1.090909824576e+01+j0.000000000000e+00
-1.272728006394e+01+j0.000000000000e+00
-1.454546188212e+01+j0.000000000000e+00
-1.636364370030e+01+j0.000000000000e+00
-1.818182551848e+01+j0.000000000000e+00
-2.000000733666e+01+j0.000000000000e+00
</dep>
