<Qucs Dataset 24.2.1>
<indep v(out) 1>
0.000000000000e+00+j0.000000000000e+00
</indep>
<indep v(out2) 1>
0.000000000000e+00+j0.000000000000e+00
</indep>
<indep frequency 81>
1.000000000000e-01
1.258925411794e-01
1.584893192461e-01
1.995262314969e-01
2.511886431510e-01
3.162277660168e-01
3.981071705535e-01
5.011872336273e-01
6.309573444802e-01
7.943282347243e-01
1.000000000000e+00
1.258925411794e+00
1.584893192461e+00
1.995262314969e+00
2.511886431510e+00
3.162277660168e+00
3.981071705535e+00
5.011872336273e+00
6.309573444802e+00
7.943282347243e+00
1.000000000000e+01
1.258925411794e+01
1.584893192461e+01
1.995262314969e+01
2.511886431510e+01
3.162277660168e+01
3.981071705535e+01
5.011872336273e+01
6.309573444802e+01
7.943282347243e+01
1.000000000000e+02
1.258925411794e+02
1.584893192461e+02
1.995262314969e+02
2.511886431510e+02
3.162277660168e+02
3.981071705535e+02
5.011872336273e+02
6.309573444802e+02
7.943282347243e+02
1.000000000000e+03
1.258925411794e+03
1.584893192461e+03
1.995262314969e+03
2.511886431510e+03
3.162277660168e+03
3.981071705535e+03
5.011872336273e+03
6.309573444802e+03
7.943282347243e+03
1.000000000000e+04
1.258925411794e+04
1.584893192461e+04
1.995262314969e+04
2.511886431510e+04
3.162277660168e+04
3.981071705535e+04
5.011872336273e+04
6.309573444802e+04
7.943282347243e+04
1.000000000000e+05
1.258925411794e+05
1.584893192461e+05
1.995262314969e+05
2.511886431510e+05
3.162277660168e+05
3.981071705535e+05
5.011872336273e+05
6.309573444802e+05
7.943282347243e+05
1.000000000000e+06
1.258925411794e+06
1.584893192461e+06
1.995262314969e+06
2.511886431510e+06
3.162277660168e+06
3.981071705535e+06
5.011872336273e+06
6.309573444802e+06
7.943282347243e+06
1.000000000000e+07
</indep>
<dep ac.v(out) frequency>
1.994468302834e+05-j3.979487447592e+03
1.994004183382e+05-j5.008712058333e+03
1.993269045918e+05-j6.303270181815e+03
1.992105041243e+05-j7.930713023209e+03
1.990263000332e+05-j9.974944084668e+03
1.987350529987e+05-j1.253933414385e+04
1.982751995601e+05-j1.574955894362e+04
1.975507242499e+05-j1.975507244756e+04
1.964132906177e+05-j2.472696830553e+04
1.946371668997e+05-j3.084791211717e+04
1.918870696433e+05-j3.828650392265e+04
1.876841614583e+05-j4.714412991152e+04
1.813874831413e+05-j5.735975864273e+04
1.722296685172e+05-j6.856586609711e+04
1.594693434100e+05-j7.992399916335e+04
1.427116858918e+05-j9.004498645945e+04
1.223368790090e+05-j9.717563725592e+04
9.976311563445e+04-j9.976311574844e+04
7.718935227159e+04-j9.717563720567e+04
5.681454541939e+04-j9.004498637086e+04
4.005688794055e+04-j7.992399905403e+04
2.729656287197e+04-j6.856586598329e+04
1.813874828021e+04-j5.735975853548e+04
1.184206998762e+04-j4.714412981657e+04
7.639161820028e+03-j3.828650384186e+04
4.889064575402e+03-j3.084791205013e+04
3.112940865196e+03-j2.472696825078e+04
1.975507238073e+03-j1.975507240331e+04
1.251031931084e+03-j1.574955890807e+04
7.911784945973e+02-j1.253933411542e+04
4.999314614301e+02-j9.974944061986e+03
3.157273711341e+02-j7.930713005142e+03
1.993269041372e+02-j6.303270167439e+03
1.258131581557e+02-j5.008712046901e+03
7.940121309868e+01-j3.979487438505e+03
5.010613715561e+01-j3.161483527799e+03
3.161776545130e+01-j2.511488384556e+03
1.995062804129e+01-j1.995062806409e+03
1.258845981106e+01-j1.584793196960e+03
7.942966113914e+00-j1.258875293628e+03
5.011746435441e+00-j9.999748806240e+02
3.162227535013e+00-j7.943156447621e+02
1.995242357986e+00-j6.309510342489e+02
1.258917465685e+00-j5.011840707969e+02
7.943250706439e-01-j3.981055852117e+02
5.011859735596e-01-j3.162269713293e+02
3.162272641077e-01-j2.511882447574e+02
1.995260315149e-01-j1.995260317429e+02
1.258924614589e-01-j1.584892190651e+02
7.943279166813e-02-j1.258924909169e+02
5.011871065894e-02-j9.999997476688e+01
3.162277151754e-02-j7.943281079241e+01
1.995262110883e-02-j6.309572806635e+01
1.258925329484e-02-j5.011872014318e+01
7.943282012862e-03-j3.981071542497e+01
5.011872198926e-03-j3.162277577122e+01
3.162277602823e-03-j2.511886388829e+01
1.995262290456e-03-j1.995262292736e+01
1.258925400974e-03-j1.584893180650e+01
7.943282297467e-04-j1.258925405344e+01
5.011872312230e-04-j9.999999963454e+00
3.162277647930e-04-j7.943282325577e+00
1.995262308414e-04-j6.309573431283e+00
1.258925408123e-04-j5.011872327384e+00
7.943282325927e-05-j3.981071699401e+00
5.011872323560e-05-j3.162277655761e+00
3.162277652440e-05-j2.511886428241e+00
1.995262310210e-05-j1.995262312489e+00
1.258925408838e-05-j1.584893190550e+00
7.943282328773e-06-j1.258925410306e+00
5.011872324693e-06-j9.999999988322e-01
3.162277652891e-06-j7.943282338040e-01
1.995262310389e-06-j6.309573437529e-01
1.258925408909e-06-j5.011872330514e-01
7.943282329058e-07-j3.981071700970e-01
5.011872324806e-07-j3.162277656547e-01
3.162277652936e-07-j2.511886428635e-01
1.995262310407e-07-j1.995262312687e-01
1.258925408916e-07-j1.584893190649e-01
7.943282329087e-08-j1.258925410355e-01
5.011872324818e-08-j9.999999988571e-02
</dep>
<dep ac.v(out2) frequency>
9.999495079370e+00-j1.007398318372e-05
9.999495079376e+00-j1.268239385292e-05
9.999495079371e+00-j1.596618800531e-05
9.999495079317e+00-j2.010023643900e-05
9.999495079255e+00-j2.530469965957e-05
9.999495079293e+00-j3.185673233595e-05
9.999495079179e+00-j4.010524347692e-05
9.999495079094e+00-j5.048951530608e-05
9.999495078959e+00-j6.356253222373e-05
9.999495078714e+00-j8.002048461503e-05
9.999495078344e+00-j1.007398290056e-04
9.999495077747e+00-j1.268239319966e-04
9.999495076815e+00-j1.596618716825e-04
9.999495075325e+00-j2.010023830049e-04
9.999495072957e+00-j2.530470007930e-04
9.999495069213e+00-j3.185672901191e-04
9.999495063276e+00-j4.010524724587e-04
9.999495053859e+00-j5.048951372544e-04
9.999495038948e+00-j6.356253282477e-04
9.999495015332e+00-j8.002048947277e-04
9.999494977870e+00-j1.007398263572e-03
9.999494918506e+00-j1.268239244663e-03
9.999494824423e+00-j1.596618600072e-03
9.999494675316e+00-j2.010023706040e-03
9.999494438997e+00-j2.530469860365e-03
9.999494064456e+00-j3.185672691203e-03
9.999493470846e+00-j4.010524071676e-03
9.999492530038e+00-j5.048950193891e-03
9.999491038960e+00-j6.356250755473e-03
9.999488675760e+00-j8.002043707260e-03
9.999484930343e+00-j1.007397239698e-02
9.999478994263e+00-j1.268237232031e-02
9.999469586225e+00-j1.596614577282e-02
9.999454675525e+00-j2.010015667138e-02
9.999431043749e+00-j2.530453821137e-02
9.999393590138e+00-j3.185640686707e-02
9.999334230738e+00-j4.010460205880e-02
9.999240153874e+00-j5.048822764835e-02
9.999091055719e+00-j6.355996502938e-02
9.998854760175e+00-j8.001536420455e-02
9.998480279852e+00-j1.007296026323e-01
9.997886825992e+00-j1.268035296788e-01
9.996946409301e+00-j1.596211701912e-01
9.995456311624e+00-j2.009211945840e-01
9.993095575669e+00-j2.528850568976e-01
9.989356344672e+00-j3.182442987035e-01
9.983435791537e+00-j4.004083775598e-01
9.974066709407e+00-j5.036112173083e-01
9.959253682499e+00-j6.330673580754e-01
9.935866532977e+00-j7.951130388351e-01
9.899024558356e+00-j9.972763683090e-01
9.841190351746e+00-j1.248161431071e+00
9.750900877916e+00-j1.556925629914e+00
9.611146732903e+00-j1.931960905728e+00
9.397674998987e+00-j2.378173568769e+00
9.078109001640e+00-j2.892134721294e+00
8.613873214372e+00-j3.454789583759e+00
7.968075279377e+00-j4.023245691014e+00
7.121841284750e+00-j4.527051313787e+00
6.095794109429e+00-j4.878130520749e+00
4.962642481341e+00-j4.999609852296e+00
3.833290194885e+00-j4.861774647524e+00
2.817196791840e+00-j4.498216056798e+00
1.983789196300e+00-j3.987664821864e+00
1.350566728811e+00-j3.417741194140e+00
8.968529032113e-01-j2.857224363359e+00
5.852472405452e-01-j2.347267042642e+00
3.774179749200e-01-j1.905661264570e+00
2.414984844130e-01-j1.535103054712e+00
1.537455417225e-01-j1.230341455177e+00
9.756045164061e-02-j9.828719216642e-01
6.177892336379e-02-j7.835441307369e-01
3.906894343868e-02-j6.238135341024e-01
2.468643176154e-02-j4.962282065877e-01
1.559028943976e-02-j3.945275217445e-01
9.842470758186e-03-j3.135647679261e-01
6.212435864479e-03-j2.491638567255e-01
3.920680957614e-03-j1.979632748876e-01
2.474140446660e-03-j1.572705752869e-01
1.561219642539e-03-j1.249358664539e-01
9.851197610020e-04-j9.924580465578e-02
</dep>
<dep ac.out2_db frequency>
1.999956142045e+01+j0.000000000000e+00
1.999956142045e+01+j0.000000000000e+00
1.999956142045e+01+j0.000000000000e+00
1.999956142041e+01+j0.000000000000e+00
1.999956142037e+01+j0.000000000000e+00
1.999956142042e+01+j0.000000000000e+00
1.999956142034e+01+j0.000000000000e+00
1.999956142031e+01+j0.000000000000e+00
1.999956142026e+01+j0.000000000000e+00
1.999956142015e+01+j0.000000000000e+00
1.999956141999e+01+j0.000000000000e+00
1.999956141973e+01+j0.000000000000e+00
1.999956141933e+01+j0.000000000000e+00
1.999956141868e+01+j0.000000000000e+00
1.999956141765e+01+j0.000000000000e+00
1.999956141603e+01+j0.000000000000e+00
1.999956141345e+01+j0.000000000000e+00
1.999956140935e+01+j0.000000000000e+00
1.999956140288e+01+j0.000000000000e+00
1.999956139263e+01+j0.000000000000e+00
1.999956137635e+01+j0.000000000000e+00
1.999956135057e+01+j0.000000000000e+00
1.999956130971e+01+j0.000000000000e+00
1.999956124495e+01+j0.000000000000e+00
1.999956114231e+01+j0.000000000000e+00
1.999956097964e+01+j0.000000000000e+00
1.999956072183e+01+j0.000000000000e+00
1.999956031322e+01+j0.000000000000e+00
1.999955966562e+01+j0.000000000000e+00
1.999955863924e+01+j0.000000000000e+00
1.999955701254e+01+j0.000000000000e+00
1.999955443440e+01+j0.000000000000e+00
1.999955034833e+01+j0.000000000000e+00
1.999954387235e+01+j0.000000000000e+00
1.999953360863e+01+j0.000000000000e+00
1.999951734177e+01+j0.000000000000e+00
1.999949156067e+01+j0.000000000000e+00
1.999945070070e+01+j0.000000000000e+00
1.999938594279e+01+j0.000000000000e+00
1.999928331040e+01+j0.000000000000e+00
1.999912065398e+01+j0.000000000000e+00
1.999886287342e+01+j0.000000000000e+00
1.999845435011e+01+j0.000000000000e+00
1.999780696299e+01+j0.000000000000e+00
1.999678112119e+01+j0.000000000000e+00
1.999515576769e+01+j0.000000000000e+00
1.999258100136e+01+j0.000000000000e+00
1.998850339599e+01+j0.000000000000e+00
1.998204865899e+01+j0.000000000000e+00
1.997183820080e+01+j0.000000000000e+00
1.995570472711e+01+j0.000000000000e+00
1.993025703185e+01+j0.000000000000e+00
1.989022812693e+01+j0.000000000000e+00
1.982753278676e+01+j0.000000000000e+00
1.972998492706e+01+j0.000000000000e+00
1.957973464071e+01+j0.000000000000e+00
1.935176546214e+01+j0.000000000000e+00
1.901331499507e+01+j0.000000000000e+00
1.852570361909e+01+j0.000000000000e+00
1.785008360939e+01+j0.000000000000e+00
1.695691059905e+01+j0.000000000000e+00
1.583549769291e+01+j0.000000000000e+00
1.449795256177e+01+j0.000000000000e+00
1.297473591789e+01+j0.000000000000e+00
1.130494117700e+01+j0.000000000000e+00
9.526992893585e+00+j0.000000000000e+00
7.673174456861e+00+j0.000000000000e+00
5.768006510653e+00+j0.000000000000e+00
3.828924805888e+00+j0.000000000000e+00
1.867806020810e+00+j0.000000000000e+00
-1.074812683485e-01+j0.000000000000e+00
-2.091815935019e+00+j0.000000000000e+00
-4.081902624416e+00+j0.000000000000e+00
-6.075636085186e+00+j0.000000000000e+00
-8.071677508695e+00+j0.000000000000e+00
-1.006917795796e+01+j0.000000000000e+00
-1.206760010754e+01+j0.000000000000e+00
-1.406660425619e+01+j0.000000000000e+00
-1.606597579895e+01+j0.000000000000e+00
-1.806557922244e+01+j0.000000000000e+00
-2.006532898094e+01+j0.000000000000e+00
</dep>
<dep ac.out_db frequency>
1.059982713866e+02+j0.000000000000e+00
1.059972606512e+02+j0.000000000000e+00
1.059956592252e+02+j0.000000000000e+00
1.059931223450e+02+j0.000000000000e+00
1.059891046940e+02+j0.000000000000e+00
1.059827447497e+02+j0.000000000000e+00
1.059726839566e+02+j0.000000000000e+00
1.059567862621e+02+j0.000000000000e+00
1.059317087167e+02+j0.000000000000e+00
1.058922577446e+02+j0.000000000000e+00
1.058304571068e+02+j0.000000000000e+00
1.057342762434e+02+j0.000000000000e+00
1.055860731475e+02+j0.000000000000e+00
1.053610796572e+02+j0.000000000000e+00
1.050267720609e+02+j0.000000000000e+00
1.045445953661e+02+j0.000000000000e+00
1.038755739682e+02+j0.000000000000e+00
1.029897000384e+02+j0.000000000000e+00
1.018755739660e+02+j0.000000000000e+00
1.005445953618e+02+j0.000000000000e+00
9.902677205498e+01+j0.000000000000e+00
9.736107965000e+01+j0.000000000000e+00
9.558607313939e+01+j0.000000000000e+00
9.373427623470e+01+j0.000000000000e+00
9.183045709766e+01+j0.000000000000e+00
8.989225773520e+01+j0.000000000000e+00
8.793170870711e+01+j0.000000000000e+00
8.595678625235e+01+j0.000000000000e+00
8.397268394679e+01+j0.000000000000e+00
8.198274473983e+01+j0.000000000000e+00
7.998910468410e+01+j0.000000000000e+00
7.799312233515e+01+j0.000000000000e+00
7.599565921529e+01+j0.000000000000e+00
7.399726064127e+01+j0.000000000000e+00
7.199827137667e+01+j0.000000000000e+00
6.999890922865e+01+j0.000000000000e+00
6.799931173425e+01+j0.000000000000e+00
6.599956571731e+01+j0.000000000000e+00
6.399972597743e+01+j0.000000000000e+00
6.199982709777e+01+j0.000000000000e+00
5.999989090160e+01+j0.000000000000e+00
5.799993115958e+01+j0.000000000000e+00
5.599995656084e+01+j0.000000000000e+00
5.399997258803e+01+j0.000000000000e+00
5.199998270053e+01+j0.000000000000e+00
4.999998908110e+01+j0.000000000000e+00
4.799999310698e+01+j0.000000000000e+00
4.599999564713e+01+j0.000000000000e+00
4.399999724986e+01+j0.000000000000e+00
4.199999826112e+01+j0.000000000000e+00
3.999999889918e+01+j0.000000000000e+00
3.799999930176e+01+j0.000000000000e+00
3.599999955578e+01+j0.000000000000e+00
3.399999971605e+01+j0.000000000000e+00
3.199999981718e+01+j0.000000000000e+00
2.999999988099e+01+j0.000000000000e+00
2.799999992124e+01+j0.000000000000e+00
2.599999994665e+01+j0.000000000000e+00
2.399999996267e+01+j0.000000000000e+00
2.199999997279e+01+j0.000000000000e+00
1.999999997917e+01+j0.000000000000e+00
1.799999998319e+01+j0.000000000000e+00
1.599999998573e+01+j0.000000000000e+00
1.399999998733e+01+j0.000000000000e+00
1.199999998835e+01+j0.000000000000e+00
9.999999988984e+00+j0.000000000000e+00
7.999999989387e+00+j0.000000000000e+00
5.999999989641e+00+j0.000000000000e+00
3.999999989801e+00+j0.000000000000e+00
1.999999989902e+00+j0.000000000000e+00
-1.003419663270e-08+j0.000000000000e+00
-2.000000009994e+00+j0.000000000000e+00
-4.000000009969e+00+j0.000000000000e+00
-6.000000009953e+00+j0.000000000000e+00
-8.000000009942e+00+j0.000000000000e+00
-1.000000000994e+01+j0.000000000000e+00
-1.200000000993e+01+j0.000000000000e+00
-1.400000000993e+01+j0.000000000000e+00
-1.600000000993e+01+j0.000000000000e+00
-1.800000000993e+01+j0.000000000000e+00
-2.000000000993e+01+j0.000000000000e+00
</dep>
