<Qucs Dataset 0.0.22>
<indep frequency 89>
1.000000000000e-01
1.232846739442e-01
1.519911082953e-01
1.873817422860e-01
2.310129700083e-01
2.848035868436e-01
3.511191734215e-01
4.328761281083e-01
5.336699231206e-01
6.579332246576e-01
8.111308307897e-01
1.000000000000e+00
1.232846739442e+00
1.519911082953e+00
1.873817422860e+00
2.310129700083e+00
2.848035868436e+00
3.511191734215e+00
4.328761281083e+00
5.336699231206e+00
6.579332246576e+00
8.111308307897e+00
1.000000000000e+01
1.232846739442e+01
1.519911082953e+01
1.873817422860e+01
2.310129700083e+01
2.848035868436e+01
3.511191734215e+01
4.328761281083e+01
5.336699231206e+01
6.579332246576e+01
8.111308307897e+01
1.000000000000e+02
1.232846739442e+02
1.519911082953e+02
1.873817422860e+02
2.310129700083e+02
2.848035868436e+02
3.511191734215e+02
4.328761281083e+02
5.336699231206e+02
6.579332246576e+02
8.111308307897e+02
1.000000000000e+03
1.232846739442e+03
1.519911082953e+03
1.873817422860e+03
2.310129700083e+03
2.848035868436e+03
3.511191734215e+03
4.328761281083e+03
5.336699231206e+03
6.579332246576e+03
8.111308307897e+03
1.000000000000e+04
1.232846739442e+04
1.519911082953e+04
1.873817422860e+04
2.310129700083e+04
2.848035868436e+04
3.511191734215e+04
4.328761281083e+04
5.336699231206e+04
6.579332246576e+04
8.111308307897e+04
1.000000000000e+05
1.232846739442e+05
1.519911082953e+05
1.873817422860e+05
2.310129700083e+05
2.848035868436e+05
3.511191734215e+05
4.328761281083e+05
5.336699231206e+05
6.579332246576e+05
8.111308307897e+05
1.000000000000e+06
1.232846739442e+06
1.519911082953e+06
1.873817422860e+06
2.310129700083e+06
2.848035868436e+06
3.511191734215e+06
4.328761281083e+06
5.336699231206e+06
6.579332246576e+06
8.111308307897e+06
1.000000000000e+07
</indep>
<dep ac.v(out) frequency>
1.994468301495e+05-j3.979490801706e+03
1.994055734730e+05-j4.905087405218e+03
1.993428996690e+05-j6.045320353463e+03
1.992477164700e+05-j7.449394814854e+03
1.991032204145e+05-j9.177301824707e+03
1.988840001651e+05-j1.130174925788e+04
1.985517277906e+05-j1.391004653585e+04
1.980488240815e+05-j1.710551961548e+04
1.972893150980e+05-j2.100761062715e+04
1.961460200325e+05-j2.574907815080e+04
1.944334672465e+05-j3.146750404883e+04
1.918870572491e+05-j3.828653374519e+04
1.881419764349e+05-j4.628019282162e+04
1.827216711052e+05-j5.541261008972e+04
1.750562866270e+05-j6.544935204330e+04
1.645633923352e+05-j7.585251095458e+04
1.508228779446e+05-j8.570635885574e+04
1.338378282258e+05-j9.376349627346e+04
1.142774087182e+05-j9.870164417793e+04
9.350635246109e+04-j9.956672223692e+04
7.326597113489e+04-j9.617993861074e+04
5.512865091443e+04-j8.922131927302e+04
4.005683392978e+04-j7.992395870593e+04
2.829803989302e+04-j6.960906691528e+04
1.956751964530e+04-j5.934092710346e+04
1.332099344605e+04-j4.980400341032e+04
8.969156795679e+03-j4.134170148314e+04
5.993262721933e+03-j3.405721549428e+04
3.984102604772e+03-j2.791164461406e+04
2.639300757706e+03-j2.279569752129e+04
1.744376620748e+03-j1.857433830999e+04
1.151125835130e+03-j1.511140990027e+04
7.588615340824e+02-j1.228156794939e+04
4.999306201381e+02-j9.974935690074e+03
3.292031179467e+02-j8.097918425625e+03
2.167159800292e+02-j6.572180534980e+03
1.426376387065e+02-j5.332879618437e+03
9.386899605839e+01-j4.326721119914e+03
6.176947174286e+01-j3.510101772138e+03
4.064449187007e+01-j2.847453304134e+03
2.674322508766e+01-j2.309818113992e+03
1.759606307192e+01-j1.873650589754e+03
1.157738376852e+01-j1.519821607331e+03
7.617296625615e+00-j1.232798631852e+03
5.011737980628e+00-j9.999740371664e+02
3.297417262467e+00-j8.111167407299e+02
2.169492636843e+00-j6.579255150784e+02
1.427386595404e+00-j5.336656545419e+02
9.391273636898e-01-j4.328737250197e+02
6.178840895718e-01-j3.511177895143e+02
4.065269021495e-01-j2.848027660046e+02
2.674677420523e-01-j2.310124652041e+02
1.759759947133e-01-j1.873814187467e+02
1.157804885941e-01-j1.519908917170e+02
7.617584533358e-02-j1.232845227421e+02
5.011862610661e-02-j9.999989041482e+01
3.297471212302e-02-j8.111300116053e+01
2.169515990571e-02-j6.579325973859e+01
1.427396704714e-02-j5.336694341706e+01
9.391317397795e-03-j4.328757420988e+01
6.178859838796e-03-j3.511188659705e+01
4.065277221510e-03-j2.848033404775e+01
2.674680970116e-03-j2.310127717832e+01
1.759761483668e-03-j1.873815823588e+01
1.157805551071e-03-j1.519909790319e+01
7.617587412545e-04-j1.232845693394e+01
5.011863856992e-04-j9.999991528243e+00
3.297471751809e-04-j8.111301443163e+00
2.169516224111e-04-j6.579326682098e+00
1.427396805807e-04-j5.336694719671e+00
9.391317835406e-05-j4.328757622697e+00
6.178860028227e-05-j3.511188767351e+00
4.065277303510e-05-j2.848033462223e+00
2.674681005612e-05-j2.310127748490e+00
1.759761499033e-05-j1.873815839949e+00
1.157805557722e-05-j1.519909799051e+00
7.617587441337e-06-j1.232845698054e+00
5.011863869455e-06-j9.999991553110e-01
3.297471757204e-06-j8.111301456434e-01
2.169516226447e-06-j6.579326689180e-01
1.427396806818e-06-j5.336694723451e-01
9.391317839782e-07-j4.328757624714e-01
6.178860030122e-07-j3.511188768427e-01
4.065277304330e-07-j2.848033462797e-01
2.674681005967e-07-j2.310127748797e-01
1.759761499187e-07-j1.873815840113e-01
1.157805557789e-07-j1.519909799138e-01
7.617587441625e-08-j1.232845698101e-01
5.011863869580e-08-j9.999991553359e-02
</dep>
<dep ac.v(out2) frequency>
9.950127392601e+02-j9.901254511933e-02
9.950127341376e+02-j1.220672927853e-01
9.950127263519e+02-j1.504902627264e-01
9.950127145183e+02-j1.855314275121e-01
9.950126965323e+02-j2.287318113407e-01
9.950126691951e+02-j2.819912600670e-01
9.950126276450e+02-j3.476519910065e-01
9.950125644926e+02-j4.286015963759e-01
9.950124685066e+02-j5.284000296342e-01
9.950123226164e+02-j6.514361581415e-01
9.950121008764e+02-j8.031207645397e-01
9.950117638515e+02-j9.901244805750e-01
9.950112516040e+02-j1.220671109092e+00
9.950104730345e+02-j1.504899219234e+00
9.950092896804e+02-j1.855307889139e+00
9.950074910926e+02-j2.287306147205e+00
9.950047574116e+02-j2.819890178322e+00
9.950006024884e+02-j3.476477894869e+00
9.949942874409e+02-j4.285937235339e+00
9.949846892838e+02-j5.283852775158e+00
9.949701012931e+02-j6.514085157728e+00
9.949479296634e+02-j8.030689689577e+00
9.949142326500e+02-j9.900274284258e+00
9.948630205567e+02-j1.220489260545e+01
9.947851928240e+02-j1.504558495176e+01
9.946669249067e+02-j1.854669511106e+01
9.944872220315e+02-j2.286110161623e+01
9.942142139528e+02-j2.817649741055e+01
9.937995528770e+02-j3.472281492942e+01
9.931699668768e+02-j4.278078975719e+01
9.922145782857e+02-j5.269142138061e+01
9.907659874164e+02-j6.486560756989e+01
9.885723402446e+02-j7.979229328009e+01
9.852567314718e+02-j9.804173628124e+01
9.802596762948e+02-j1.202574005409e+02
9.727609235763e+02-j1.471247985896e+02
9.615806662626e+02-j1.792976422085e+02
9.450713733579e+02-j2.172513856618e+02
9.210367192426e+02-j2.610261286809e+02
8.867601293728e+02-j3.098291579008e+02
8.392868468221e+02-j3.615227537818e+02
7.761333192624e+02-j4.121645525855e+02
6.964783293723e+02-j4.559854755592e+02
6.024954751448e+02-j4.863022532149e+02
4.999560198674e+02-j4.975003436803e+02
3.972080142806e+02-j4.872913211316e+02
3.026662377536e+02-j4.577662217933e+02
2.222606109294e+02-j4.144301658055e+02
1.583305240502e+02-j3.639674918968e+02
1.101674444872e+02-j3.122197078615e+02
7.533606292269e+01-j2.632200993453e+02
5.088394879449e+01-j2.191825757919e+02
3.407430054985e+01-j1.809511135811e+02
2.268434124618e+01-j1.485147447474e+02
1.504208678157e+01-j1.214117117340e+02
9.948132325601e+00-j9.899269244275e+01
6.567668085972e+00-j8.057157819849e+01
4.330865449879e+00-j6.550198425831e+01
2.853669014752e+00-j5.320990156522e+01
1.879367387881e+00-j4.320257503239e+01
1.237297653150e+00-j3.506559615705e+01
8.144056502184e-01-j2.845488970904e+01
5.359745964188e-01-j2.308710219731e+01
3.527004824570e-01-j1.873011155953e+01
2.320815060685e-01-j1.519441330049e+01
1.527063173876e-01-j1.232564048848e+01
1.004758345622e-01-j9.998231892379e+00
6.610867334047e-02-j8.110154279914e+00
4.349608116093e-02-j6.578545689017e+00
2.861794486629e-02-j5.336141022180e+00
1.882888199341e-02-j4.328351084210e+00
1.238822723583e-02-j3.510881736884e+00
8.150661005430e-03-j2.847796548355e+00
5.362605704655e-03-j2.309942052749e+00
3.528242968371e-03-j1.873668670549e+00
2.321351089224e-03-j1.519792268790e+00
1.527295226534e-03-j1.232751349393e+00
1.004858801004e-03-j9.999231512052e-01
6.611302196589e-04-j8.110687765480e-01
4.349796362027e-04-j6.578830400754e-01
2.861875975031e-04-j5.336292966566e-01
1.882923474075e-04-j4.328432173165e-01
1.238837993274e-04-j3.510925011903e-01
8.150727104559e-05-j2.847819643031e-01
5.362634317471e-05-j2.309954377717e-01
3.528255354199e-05-j1.873675248027e-01
2.321356450760e-05-j1.519795778996e-01
1.527297547417e-05-j1.232753222686e-01
1.004859805660e-05-j9.999241509259e-02
</dep>
<dep ac.out2_db frequency>
5.995657286505e+01+j0.000000000000e+00
5.995657284269e+01+j0.000000000000e+00
5.995657280871e+01+j0.000000000000e+00
5.995657275706e+01+j0.000000000000e+00
5.995657267856e+01+j0.000000000000e+00
5.995657255924e+01+j0.000000000000e+00
5.995657237788e+01+j0.000000000000e+00
5.995657210224e+01+j0.000000000000e+00
5.995657168329e+01+j0.000000000000e+00
5.995657104652e+01+j0.000000000000e+00
5.995657007869e+01+j0.000000000000e+00
5.995656860767e+01+j0.000000000000e+00
5.995656637186e+01+j0.000000000000e+00
5.995656297362e+01+j0.000000000000e+00
5.995655780860e+01+j0.000000000000e+00
5.995654995825e+01+j0.000000000000e+00
5.995653802644e+01+j0.000000000000e+00
5.995651989121e+01+j0.000000000000e+00
5.995649232742e+01+j0.000000000000e+00
5.995645043324e+01+j0.000000000000e+00
5.995638675859e+01+j0.000000000000e+00
5.995628998057e+01+j0.000000000000e+00
5.995614289071e+01+j0.000000000000e+00
5.995591933675e+01+j0.000000000000e+00
5.995557957664e+01+j0.000000000000e+00
5.995506322237e+01+j0.000000000000e+00
5.995427852736e+01+j0.000000000000e+00
5.995308613215e+01+j0.000000000000e+00
5.995127442418e+01+j0.000000000000e+00
5.994852223566e+01+j0.000000000000e+00
5.994434249097e+01+j0.000000000000e+00
5.993799734424e+01+j0.000000000000e+00
5.992837100357e+01+j0.000000000000e+00
5.991378056138e+01+j0.000000000000e+00
5.989169783384e+01+j0.000000000000e+00
5.985834761797e+01+j0.000000000000e+00
5.980814368136e+01+j0.000000000000e+00
5.973293253790e+01+j0.000000000000e+00
5.962105590091e+01+j0.000000000000e+00
5.945634803478e+01+j0.000000000000e+00
5.921739062371e+01+j0.000000000000e+00
5.887764973422e+01+j0.000000000000e+00
5.840736253485e+01+j0.000000000000e+00
5.777782435028e+01+j0.000000000000e+00
5.696760447401e+01+j0.000000000000e+00
5.596846647871e+01+j0.000000000000e+00
5.478792623759e+01+j0.000000000000e+00
5.344691149165e+01+j0.000000000000e+00
5.197393294622e+01+j0.000000000000e+00
5.039881920786e+01+j0.000000000000e+00
4.874831565549e+01+j0.000000000000e+00
4.704409452310e+01+j0.000000000000e+00
4.530255595149e+01+j0.000000000000e+00
4.353554817266e+01+j0.000000000000e+00
4.175136735306e+01+j0.000000000000e+00
3.995570198830e+01+j0.000000000000e+00
3.815239841878e+01+j0.000000000000e+00
3.634403336802e+01+j0.000000000000e+00
3.453232245085e+01+j0.000000000000e+00
3.271840331801e+01+j0.000000000000e+00
3.090302834580e+01+j0.000000000000e+00
2.908669423473e+01+j0.000000000000e+00
2.726972851333e+01+j0.000000000000e+00
2.545234699140e+01+j0.000000000000e+00
2.363469179515e+01+j0.000000000000e+00
2.181685649387e+01+j0.000000000000e+00
1.999890267575e+01+j0.000000000000e+00
1.818087087291e+01+j0.000000000000e+00
1.636278775763e+01+j0.000000000000e+00
1.454467088059e+01+j0.000000000000e+00
1.272653178988e+01+j0.000000000000e+00
1.090837808375e+01+j0.000000000000e+00
9.090214761514e+00+j0.000000000000e+00
7.272045112476e+00+j0.000000000000e+00
5.453871300796e+00+j0.000000000000e+00
3.635694750366e+00+j0.000000000000e+00
1.817516398017e+00+j0.000000000000e+00
-6.631398774428e-04+j0.000000000000e+00
-1.818843457781e+00+j0.000000000000e+00
-3.637024288880e+00+j0.000000000000e+00
-5.455205457628e+00+j0.000000000000e+00
-7.273386848525e+00+j0.000000000000e+00
-9.091568385582e+00+j0.000000000000e+00
-1.090975001880e+01+j0.000000000000e+00
-1.272793171529e+01+j0.000000000000e+00
-1.454611345341e+01+j0.000000000000e+00
-1.636429521891e+01+j0.000000000000e+00
-1.818247700244e+01+j0.000000000000e+00
-2.000065879781e+01+j0.000000000000e+00
</dep>
<dep ac.out_db frequency>
1.059982713837e+02+j0.000000000000e+00
1.059973729287e+02+j0.000000000000e+00
1.059960077128e+02+j0.000000000000e+00
1.059939335275e+02+j0.000000000000e+00
1.059907828462e+02+j0.000000000000e+00
1.059859984637e+02+j0.000000000000e+00
1.059787367063e+02+j0.000000000000e+00
1.059677226812e+02+j0.000000000000e+00
1.059510356513e+02+j0.000000000000e+00
1.059257950036e+02+j0.000000000000e+00
1.058877102082e+02+j0.000000000000e+00
1.058304568263e+02+j0.000000000000e+00
1.057448570198e+02+j0.000000000000e+00
1.056179005848e+02+j0.000000000000e+00
1.054317771178e+02+j0.000000000000e+00
1.051633323139e+02+j0.000000000000e+00
1.047846722357e+02+j0.000000000000e+00
1.042657888075e+02+j0.000000000000e+00
1.035796038404e+02+j0.000000000000e+00
1.027084111617e+02+j0.000000000000e+00
1.016490231052e+02+j0.000000000000e+00
1.004137736473e+02+j0.000000000000e+00
9.902676619916e+01+j0.000000000000e+00
9.751756354495e+01+j0.000000000000e+00
9.591535778513e+01+j0.000000000000e+00
9.424536614628e+01+j0.000000000000e+00
9.252751616266e+01+j0.000000000000e+00
9.077663315939e+01+j0.000000000000e+00
8.900330514519e+01+j0.000000000000e+00
8.721488882440e+01+j0.000000000000e+00
8.541640257348e+01+j0.000000000000e+00
8.361122801054e+01+j0.000000000000e+00
8.180162539440e+01+j0.000000000000e+00
7.998909737572e+01+j0.000000000000e+00
7.817463939847e+01+j0.000000000000e+00
7.635890936159e+01+j0.000000000000e+00
7.454234140703e+01+j0.000000000000e+00
7.272522173052e+01+j0.000000000000e+00
7.090773887235e+01+j0.000000000000e+00
6.909001698454e+01+j0.000000000000e+00
6.727213779639e+01+j0.000000000000e+00
6.545415510007e+01+j0.000000000000e+00
6.363610429576e+01+j0.000000000000e+00
6.181800867811e+01+j0.000000000000e+00
5.999988357505e+01+j0.000000000000e+00
5.818173907204e+01+j0.000000000000e+00
5.636358180492e+01+j0.000000000000e+00
5.454541613978e+01+j0.000000000000e+00
5.272724494925e+01+j0.000000000000e+00
5.090907012337e+01+j0.000000000000e+00
4.909089290566e+01+j0.000000000000e+00
4.727271411428e+01+j0.000000000000e+00
4.545453428754e+01+j0.000000000000e+00
4.363635377959e+01+j0.000000000000e+00
4.181817282346e+01+j0.000000000000e+00
3.999999157244e+01+j0.000000000000e+00
3.818181012742e+01+j0.000000000000e+00
3.636362855475e+01+j0.000000000000e+00
3.454544689810e+01+j0.000000000000e+00
3.272726518620e+01+j0.000000000000e+00
3.090908343794e+01+j0.000000000000e+00
2.909090166576e+01+j0.000000000000e+00
2.727271987785e+01+j0.000000000000e+00
2.545453807958e+01+j0.000000000000e+00
2.363635627450e+01+j0.000000000000e+00
2.181817446494e+01+j0.000000000000e+00
1.999999265243e+01+j0.000000000000e+00
1.818181083798e+01+j0.000000000000e+00
1.636362902225e+01+j0.000000000000e+00
1.454544720569e+01+j0.000000000000e+00
1.272726538857e+01+j0.000000000000e+00
1.090908357109e+01+j0.000000000000e+00
9.090901753364e+00+j0.000000000000e+00
7.272719935485e+00+j0.000000000000e+00
5.454538117502e+00+j0.000000000000e+00
3.636356299451e+00+j0.000000000000e+00
1.818174481356e+00+j0.000000000000e+00
-7.336769297579e-06+j0.000000000000e+00
-1.818189154914e+00+j0.000000000000e+00
-3.636370973071e+00+j0.000000000000e+00
-5.454552791237e+00+j0.000000000000e+00
-7.272734609408e+00+j0.000000000000e+00
-9.090916427583e+00+j0.000000000000e+00
-1.090909824576e+01+j0.000000000000e+00
-1.272728006394e+01+j0.000000000000e+00
-1.454546188212e+01+j0.000000000000e+00
-1.636364370030e+01+j0.000000000000e+00
-1.818182551848e+01+j0.000000000000e+00
-2.000000733666e+01+j0.000000000000e+00
</dep>
