<Qucs Dataset 0.0.21>
<indep frequency 89>
1.000000000000e-01
1.232846739442e-01
1.519911082953e-01
1.873817422860e-01
2.310129700083e-01
2.848035868436e-01
3.511191734215e-01
4.328761281083e-01
5.336699231206e-01
6.579332246576e-01
8.111308307897e-01
1.000000000000e+00
1.232846739442e+00
1.519911082953e+00
1.873817422860e+00
2.310129700083e+00
2.848035868436e+00
3.511191734215e+00
4.328761281083e+00
5.336699231206e+00
6.579332246576e+00
8.111308307897e+00
1.000000000000e+01
1.232846739442e+01
1.519911082953e+01
1.873817422860e+01
2.310129700083e+01
2.848035868436e+01
3.511191734215e+01
4.328761281083e+01
5.336699231206e+01
6.579332246576e+01
8.111308307897e+01
1.000000000000e+02
1.232846739442e+02
1.519911082953e+02
1.873817422860e+02
2.310129700083e+02
2.848035868436e+02
3.511191734215e+02
4.328761281083e+02
5.336699231206e+02
6.579332246576e+02
8.111308307897e+02
1.000000000000e+03
1.232846739442e+03
1.519911082953e+03
1.873817422860e+03
2.310129700083e+03
2.848035868436e+03
3.511191734215e+03
4.328761281083e+03
5.336699231206e+03
6.579332246576e+03
8.111308307897e+03
1.000000000000e+04
1.232846739442e+04
1.519911082953e+04
1.873817422860e+04
2.310129700083e+04
2.848035868436e+04
3.511191734215e+04
4.328761281083e+04
5.336699231206e+04
6.579332246576e+04
8.111308307897e+04
1.000000000000e+05
1.232846739442e+05
1.519911082953e+05
1.873817422860e+05
2.310129700083e+05
2.848035868436e+05
3.511191734215e+05
4.328761281083e+05
5.336699231206e+05
6.579332246576e+05
8.111308307897e+05
1.000000000000e+06
1.232846739442e+06
1.519911082953e+06
1.873817422860e+06
2.310129700083e+06
2.848035868436e+06
3.511191734215e+06
4.328761281083e+06
5.336699231206e+06
6.579332246576e+06
8.111308307897e+06
1.000000000000e+07
</indep>
<dep ac.v(out) frequency>
1.994468301495e+05-j3.979490801706e+03
1.994055734730e+05-j4.905087405218e+03
1.993428996690e+05-j6.045320353463e+03
1.992477164700e+05-j7.449394814854e+03
1.991032204145e+05-j9.177301824707e+03
1.988840001651e+05-j1.130174925788e+04
1.985517277906e+05-j1.391004653585e+04
1.980488240815e+05-j1.710551961548e+04
1.972893150980e+05-j2.100761062715e+04
1.961460200325e+05-j2.574907815080e+04
1.944334672465e+05-j3.146750404883e+04
1.918870572491e+05-j3.828653374519e+04
1.881419764349e+05-j4.628019282162e+04
1.827216711052e+05-j5.541261008972e+04
1.750562866270e+05-j6.544935204330e+04
1.645633923352e+05-j7.585251095458e+04
1.508228779446e+05-j8.570635885574e+04
1.338378282258e+05-j9.376349627346e+04
1.142774087182e+05-j9.870164417793e+04
9.350635246109e+04-j9.956672223692e+04
7.326597113489e+04-j9.617993861074e+04
5.512865091443e+04-j8.922131927302e+04
4.005683392978e+04-j7.992395870593e+04
2.829803989302e+04-j6.960906691528e+04
1.956751964530e+04-j5.934092710346e+04
1.332099344605e+04-j4.980400341032e+04
8.969156795679e+03-j4.134170148314e+04
5.993262721933e+03-j3.405721549428e+04
3.984102604772e+03-j2.791164461406e+04
2.639300757706e+03-j2.279569752129e+04
1.744376620748e+03-j1.857433830999e+04
1.151125835130e+03-j1.511140990027e+04
7.588615340824e+02-j1.228156794939e+04
4.999306201381e+02-j9.974935690074e+03
3.292031179467e+02-j8.097918425625e+03
2.167159800292e+02-j6.572180534980e+03
1.426376387065e+02-j5.332879618437e+03
9.386899605839e+01-j4.326721119914e+03
6.176947174286e+01-j3.510101772138e+03
4.064449187007e+01-j2.847453304134e+03
2.674322508766e+01-j2.309818113992e+03
1.759606307192e+01-j1.873650589754e+03
1.157738376852e+01-j1.519821607331e+03
7.617296625615e+00-j1.232798631852e+03
5.011737980628e+00-j9.999740371664e+02
3.297417262467e+00-j8.111167407299e+02
2.169492636843e+00-j6.579255150784e+02
1.427386595404e+00-j5.336656545419e+02
9.391273636898e-01-j4.328737250197e+02
6.178840895718e-01-j3.511177895143e+02
4.065269021495e-01-j2.848027660046e+02
2.674677420523e-01-j2.310124652041e+02
1.759759947133e-01-j1.873814187467e+02
1.157804885941e-01-j1.519908917170e+02
7.617584533358e-02-j1.232845227421e+02
5.011862610661e-02-j9.999989041482e+01
3.297471212302e-02-j8.111300116053e+01
2.169515990571e-02-j6.579325973859e+01
1.427396704714e-02-j5.336694341706e+01
9.391317397795e-03-j4.328757420988e+01
6.178859838796e-03-j3.511188659705e+01
4.065277221510e-03-j2.848033404775e+01
2.674680970116e-03-j2.310127717832e+01
1.759761483668e-03-j1.873815823588e+01
1.157805551071e-03-j1.519909790319e+01
7.617587412545e-04-j1.232845693394e+01
5.011863856992e-04-j9.999991528243e+00
3.297471751809e-04-j8.111301443163e+00
2.169516224111e-04-j6.579326682098e+00
1.427396805807e-04-j5.336694719671e+00
9.391317835406e-05-j4.328757622697e+00
6.178860028227e-05-j3.511188767351e+00
4.065277303510e-05-j2.848033462223e+00
2.674681005612e-05-j2.310127748490e+00
1.759761499033e-05-j1.873815839949e+00
1.157805557722e-05-j1.519909799051e+00
7.617587441337e-06-j1.232845698054e+00
5.011863869455e-06-j9.999991553110e-01
3.297471757204e-06-j8.111301456434e-01
2.169516226447e-06-j6.579326689180e-01
1.427396806818e-06-j5.336694723451e-01
9.391317839782e-07-j4.328757624714e-01
6.178860030122e-07-j3.511188768427e-01
4.065277304330e-07-j2.848033462797e-01
2.674681005967e-07-j2.310127748797e-01
1.759761499187e-07-j1.873815840113e-01
1.157805557789e-07-j1.519909799138e-01
7.617587441625e-08-j1.232845698101e-01
5.011863869580e-08-j9.999991553359e-02
</dep>
<dep ac.v(out2) frequency>
9.994986882152e+01-j9.997477209955e-04
9.994986881630e+01-j1.232535716791e-03
9.994986880843e+01-j1.519527640368e-03
9.994986879643e+01-j1.873344697961e-03
9.994986877816e+01-j2.309546900064e-03
9.994986875041e+01-j2.847317364094e-03
9.994986870828e+01-j3.510305929986e-03
9.994986864415e+01-j4.327669219006e-03
9.994986854673e+01-j5.335352875192e-03
9.994986839866e+01-j6.577672385216e-03
9.994986817364e+01-j8.109261940898e-03
9.994986783155e+01-j9.997477104889e-03
9.994986731166e+01-j1.232535699027e-02
9.994986652142e+01-j1.519527605269e-02
9.994986532039e+01-j1.873344632711e-02
9.994986349487e+01-j2.309546777761e-02
9.994986072024e+01-j2.847317135153e-02
9.994985650311e+01-j3.510305500872e-02
9.994985009343e+01-j4.327668412245e-02
9.994984035130e+01-j5.335351372725e-02
9.994982554409e+01-j6.577669567342e-02
9.994980303847e+01-j8.109256653269e-02
9.994976883196e+01-j9.997467203725e-02
9.994971684114e+01-j1.232533843308e-01
9.994963781984e+01-j1.519524128731e-01
9.994951771472e+01-j1.873338116542e-01
9.994933516617e+01-j2.309534570564e-01
9.994905770988e+01-j2.847294260925e-01
9.994863600393e+01-j3.510262635171e-01
9.994799505521e+01-j4.327588092368e-01
9.994702088589e+01-j5.335200867827e-01
9.994554027151e+01-j6.577387555379e-01
9.994328995331e+01-j8.108728226002e-01
9.993986986379e+01-j9.996477060242e-01
9.993467208004e+01-j1.232348318289e+00
9.992677294623e+01-j1.519176516337e+00
9.991476935627e+01-j1.872686833402e+00
9.989653048846e+01-j2.308314410073e+00
9.986882177934e+01-j2.845008543467e+00
9.982673642930e+01-j3.505981440988e+00
9.976283832176e+01-j4.319571102360e+00
9.966587537845e+01-j5.320193239388e+00
9.951886074312e+01-j6.549307897078e+00
9.929624028503e+01-j8.056230955664e+00
9.895977786066e+01-j9.898443440242e+00
9.845272912257e+01-j1.214073680735e+01
9.769193371497e+01-j1.485200483910e+01
9.655784799273e+01-j1.809768583389e+01
9.488368816696e+01-j2.192482397594e+01
9.244743516825e+01-j2.633592128046e+01
8.897513188197e+01-j3.124865865054e+01
8.417007345716e+01-j3.644429359722e+01
7.778529656644e+01-j4.152201617105e+01
6.974421625339e+01-j4.589847018676e+01
6.027390224533e+01-j4.890220170408e+01
4.996248435195e+01-j4.997493286495e+01
3.965212641805e+01-j4.889717481514e+01
3.018465312861e+01-j4.588941965677e+01
2.214738789779e+01-j4.151050137797e+01
1.576655780904e+01-j3.643186846420e+01
1.096500519819e+01-j3.123650896467e+01
7.495521559550e+00-j2.632477071603e+01
5.061390230122e+00-j2.191500897888e+01
3.388756903701e+00-j1.808928231508e+01
2.255736949578e+00-j1.484494065475e+01
1.495670859416e+00-j1.213487020508e+01
9.891145909467e-01-j9.893610359745e+00
6.529817801931e-01-j8.052270367692e+00
4.305806501270e-01-j6.546073617470e+00
2.837113961550e-01-j5.317558149696e+00
1.868445740677e-01-j4.317427448735e+00
1.230099122789e-01-j3.504239312424e+00
8.096639405679e-02-j2.843593660981e+00
5.328524596821e-02-j2.307165799794e+00
3.506452816306e-02-j1.871754649895e+00
2.307288693015e-02-j1.518420121087e+00
1.518161770541e-02-j1.231734637327e+00
9.989009694582e-03-j9.991498528328e-01
6.572326042485e-03-j8.104689570828e-01
4.324248932050e-03-j6.574111456497e-01
2.845109149533e-03-j5.332543404991e-01
1.871910064145e-03-j4.325432479284e-01
1.231599714885e-03-j3.508514117370e-01
8.103137873794e-04-j2.845875966245e-01
5.331338416042e-04-j2.308384138446e-01
3.507671075863e-04-j1.872404960368e-01
2.307816112421e-04-j1.518767214297e-01
1.518390096021e-04-j1.231919885307e-01
9.989998112949e-05-j9.992487192966e-02
</dep>
<dep ac.out2_db frequency>
3.999564456979e+01+j0.000000000000e+00
3.999564456956e+01+j0.000000000000e+00
3.999564456922e+01+j0.000000000000e+00
3.999564456870e+01+j0.000000000000e+00
3.999564456791e+01+j0.000000000000e+00
3.999564456670e+01+j0.000000000000e+00
3.999564456487e+01+j0.000000000000e+00
3.999564456209e+01+j0.000000000000e+00
3.999564455785e+01+j0.000000000000e+00
3.999564455142e+01+j0.000000000000e+00
3.999564454164e+01+j0.000000000000e+00
3.999564452678e+01+j0.000000000000e+00
3.999564450419e+01+j0.000000000000e+00
3.999564446985e+01+j0.000000000000e+00
3.999564441767e+01+j0.000000000000e+00
3.999564433834e+01+j0.000000000000e+00
3.999564421778e+01+j0.000000000000e+00
3.999564403454e+01+j0.000000000000e+00
3.999564375603e+01+j0.000000000000e+00
3.999564333273e+01+j0.000000000000e+00
3.999564268933e+01+j0.000000000000e+00
3.999564171144e+01+j0.000000000000e+00
3.999564022512e+01+j0.000000000000e+00
3.999563796605e+01+j0.000000000000e+00
3.999563453247e+01+j0.000000000000e+00
3.999562931374e+01+j0.000000000000e+00
3.999562138175e+01+j0.000000000000e+00
3.999560932585e+01+j0.000000000000e+00
3.999559100202e+01+j0.000000000000e+00
3.999556315158e+01+j0.000000000000e+00
3.999552082172e+01+j0.000000000000e+00
3.999545648489e+01+j0.000000000000e+00
3.999535870046e+01+j0.000000000000e+00
3.999521008104e+01+j0.000000000000e+00
3.999498420247e+01+j0.000000000000e+00
3.999464090962e+01+j0.000000000000e+00
3.999411918698e+01+j0.000000000000e+00
3.999332633495e+01+j0.000000000000e+00
3.999212154749e+01+j0.000000000000e+00
3.999029101749e+01+j0.000000000000e+00
3.998751025136e+01+j0.000000000000e+00
3.998328714088e+01+j0.000000000000e+00
3.997687624236e+01+j0.000000000000e+00
3.996715033357e+01+j0.000000000000e+00
3.995240940254e+01+j0.000000000000e+00
3.993009987852e+01+j0.000000000000e+00
3.989640934628e+01+j0.000000000000e+00
3.984569806486e+01+j0.000000000000e+00
3.976973786060e+01+j0.000000000000e+00
3.965677095248e+01+j0.000000000000e+00
3.949050868914e+01+j0.000000000000e+00
3.924939934706e+01+j0.000000000000e+00
3.890679740366e+01+j0.000000000000e+00
3.843290426788e+01+j0.000000000000e+00
3.779911537928e+01+j0.000000000000e+00
3.698426253760e+01+j0.000000000000e+00
3.598048710628e+01+j0.000000000000e+00
3.479568417971e+01+j0.000000000000e+00
3.345104740629e+01+j0.000000000000e+00
3.197519116025e+01+j0.000000000000e+00
3.039791070411e+01+j0.000000000000e+00
2.874584086183e+01+j0.000000000000e+00
2.704052050953e+01+j0.000000000000e+00
2.529822643862e+01+j0.000000000000e+00
2.353070681975e+01+j0.000000000000e+00
2.174618260765e+01+j0.000000000000e+00
1.995028836927e+01+j0.000000000000e+00
1.814683292065e+01+j0.000000000000e+00
1.633836737668e+01+j0.000000000000e+00
1.452659009453e+01+j0.000000000000e+00
1.271262719048e+01+j0.000000000000e+00
1.089722337305e+01+j0.000000000000e+00
9.080870263511e+00+j0.000000000000e+00
7.263892033615e+00+j0.000000000000e+00
5.446502278119e+00+j0.000000000000e+00
3.628841663091e+00+j0.000000000000e+00
1.811002795900e+00+j0.000000000000e+00
-6.953368658973e-03+j0.000000000000e+00
-1.824986715430e+00+j0.000000000000e+00
-3.643070846570e+00+j0.000000000000e+00
-5.461188392002e+00+j0.000000000000e+00
-7.279327922488e+00+j0.000000000000e+00
-9.097481917965e+00+j0.000000000000e+00
-1.091564543057e+01+j0.000000000000e+00
-1.273381520486e+01+j0.000000000000e+00
-1.455198909895e+01+j0.000000000000e+00
-1.637016570360e+01+j0.000000000000e+00
-1.818834409162e+01+j0.000000000000e+00
-2.000652365298e+01+j0.000000000000e+00
</dep>
<dep ac.out_db frequency>
1.059982713837e+02+j0.000000000000e+00
1.059973729287e+02+j0.000000000000e+00
1.059960077128e+02+j0.000000000000e+00
1.059939335275e+02+j0.000000000000e+00
1.059907828462e+02+j0.000000000000e+00
1.059859984637e+02+j0.000000000000e+00
1.059787367063e+02+j0.000000000000e+00
1.059677226812e+02+j0.000000000000e+00
1.059510356513e+02+j0.000000000000e+00
1.059257950036e+02+j0.000000000000e+00
1.058877102082e+02+j0.000000000000e+00
1.058304568263e+02+j0.000000000000e+00
1.057448570198e+02+j0.000000000000e+00
1.056179005848e+02+j0.000000000000e+00
1.054317771178e+02+j0.000000000000e+00
1.051633323139e+02+j0.000000000000e+00
1.047846722357e+02+j0.000000000000e+00
1.042657888075e+02+j0.000000000000e+00
1.035796038404e+02+j0.000000000000e+00
1.027084111617e+02+j0.000000000000e+00
1.016490231052e+02+j0.000000000000e+00
1.004137736473e+02+j0.000000000000e+00
9.902676619916e+01+j0.000000000000e+00
9.751756354495e+01+j0.000000000000e+00
9.591535778513e+01+j0.000000000000e+00
9.424536614628e+01+j0.000000000000e+00
9.252751616266e+01+j0.000000000000e+00
9.077663315939e+01+j0.000000000000e+00
8.900330514519e+01+j0.000000000000e+00
8.721488882440e+01+j0.000000000000e+00
8.541640257348e+01+j0.000000000000e+00
8.361122801054e+01+j0.000000000000e+00
8.180162539440e+01+j0.000000000000e+00
7.998909737572e+01+j0.000000000000e+00
7.817463939847e+01+j0.000000000000e+00
7.635890936159e+01+j0.000000000000e+00
7.454234140703e+01+j0.000000000000e+00
7.272522173052e+01+j0.000000000000e+00
7.090773887235e+01+j0.000000000000e+00
6.909001698454e+01+j0.000000000000e+00
6.727213779639e+01+j0.000000000000e+00
6.545415510007e+01+j0.000000000000e+00
6.363610429576e+01+j0.000000000000e+00
6.181800867811e+01+j0.000000000000e+00
5.999988357505e+01+j0.000000000000e+00
5.818173907204e+01+j0.000000000000e+00
5.636358180492e+01+j0.000000000000e+00
5.454541613978e+01+j0.000000000000e+00
5.272724494925e+01+j0.000000000000e+00
5.090907012337e+01+j0.000000000000e+00
4.909089290566e+01+j0.000000000000e+00
4.727271411428e+01+j0.000000000000e+00
4.545453428754e+01+j0.000000000000e+00
4.363635377959e+01+j0.000000000000e+00
4.181817282346e+01+j0.000000000000e+00
3.999999157244e+01+j0.000000000000e+00
3.818181012742e+01+j0.000000000000e+00
3.636362855475e+01+j0.000000000000e+00
3.454544689810e+01+j0.000000000000e+00
3.272726518620e+01+j0.000000000000e+00
3.090908343794e+01+j0.000000000000e+00
2.909090166576e+01+j0.000000000000e+00
2.727271987785e+01+j0.000000000000e+00
2.545453807958e+01+j0.000000000000e+00
2.363635627450e+01+j0.000000000000e+00
2.181817446494e+01+j0.000000000000e+00
1.999999265243e+01+j0.000000000000e+00
1.818181083798e+01+j0.000000000000e+00
1.636362902225e+01+j0.000000000000e+00
1.454544720569e+01+j0.000000000000e+00
1.272726538857e+01+j0.000000000000e+00
1.090908357109e+01+j0.000000000000e+00
9.090901753364e+00+j0.000000000000e+00
7.272719935485e+00+j0.000000000000e+00
5.454538117502e+00+j0.000000000000e+00
3.636356299451e+00+j0.000000000000e+00
1.818174481356e+00+j0.000000000000e+00
-7.336769297579e-06+j0.000000000000e+00
-1.818189154914e+00+j0.000000000000e+00
-3.636370973071e+00+j0.000000000000e+00
-5.454552791237e+00+j0.000000000000e+00
-7.272734609408e+00+j0.000000000000e+00
-9.090916427583e+00+j0.000000000000e+00
-1.090909824576e+01+j0.000000000000e+00
-1.272728006394e+01+j0.000000000000e+00
-1.454546188212e+01+j0.000000000000e+00
-1.636364370030e+01+j0.000000000000e+00
-1.818182551848e+01+j0.000000000000e+00
-2.000000733666e+01+j0.000000000000e+00
</dep>
