<Qucs Dataset 0.0.19>
<indep acfrequency 81>
  +1.00000000000000005551e-01
  +1.25892541179416728170e-01
  +1.58489319246111370898e-01
  +1.99526231496887973549e-01
  +2.51188643150958013095e-01
  +3.16227766016837996688e-01
  +3.98107170553497313747e-01
  +5.01187233627272354930e-01
  +6.30957344480193360603e-01
  +7.94328234724281823098e-01
  +1.00000000000000022204e+00
  +1.25892541179416750374e+00
  +1.58489319246111382000e+00
  +1.99526231496887973549e+00
  +2.51188643150958101913e+00
  +3.16227766016838041097e+00
  +3.98107170553497358156e+00
  +5.01187233627272377134e+00
  +6.30957344480193693670e+00
  +7.94328234724282022938e+00
  +1.00000000000000053291e+01
  +1.25892541179416781461e+01
  +1.58489319246111399764e+01
  +1.99526231496888044603e+01
  +2.51188643150958057504e+01
  +3.16227766016837961160e+01
  +3.98107170553497269339e+01
  +5.01187233627272732406e+01
  +6.30957344480193853542e+01
  +7.94328234724282111756e+01
  +1.00000000000000071054e+02
  +1.25892541179416809882e+02
  +1.58489319246111449502e+02
  +1.99526231496888044603e+02
  +2.51188643150958114347e+02
  +3.16227766016838074847e+02
  +3.98107170553497724086e+02
  +5.01187233627272462400e+02
  +6.30957344480193910385e+02
  +7.94328234724281628587e+02
  +1.00000000000000090949e+03
  +1.25892541179416730301e+03
  +1.58489319246111472239e+03
  +1.99526231496888294714e+03
  +2.51188643150958159822e+03
  +3.16227766016838404539e+03
  +3.98107170553497417131e+03
  +5.01187233627272962622e+03
  +6.30957344480193478375e+03
  +7.94328234724282447132e+03
  +1.00000000000000018190e+04
  +1.25892541179416857631e+04
  +1.58489319246111354005e+04
  +1.99526231496888140100e+04
  +2.51188643150958450860e+04
  +3.16227766016838213545e+04
  +3.98107170553497853689e+04
  +5.01187233627272653393e+04
  +6.30957344480194151402e+04
  +7.94328234724281937815e+04
  +1.00000000000000130967e+05
  +1.25892541179416773957e+05
  +1.58489319246111554094e+05
  +1.99526231496888009133e+05
  +2.51188643150958290789e+05
  +3.16227766016838548239e+05
  +3.98107170553497620858e+05
  +5.01187233627273177262e+05
  +6.30957344480193802156e+05
  +7.94328234724282752723e+05
  +1.00000000000000058208e+06
  +1.25892541179416701198e+06
  +1.58489319246111717075e+06
  +1.99526231496888212860e+06
  +2.51188643150958139449e+06
  +3.16227766016838885844e+06
  +3.98107170553498063236e+06
  +5.01187233627272862941e+06
  +6.30957344480193406343e+06
  +7.94328234724283684045e+06
  +1.00000000000000186265e+07
</indep>
<dep Out_dB acfrequency>
  +1.05998271386590090515e+02
  +1.05997260651185030156e+02
  +1.05995659225206807719e+02
  +1.05993122345056818290e+02
  +1.05989104694000388918e+02
  +1.05982744749712068710e+02
  +1.05972683956650612913e+02
  +1.05956786262173565660e+02
  +1.05931708716875462528e+02
  +1.05892257744880424752e+02
  +1.05830457107204665590e+02
  +1.05734276244038966297e+02
  +1.05586073148417739276e+02
  +1.05361079658566211492e+02
  +1.05026772062913039463e+02
  +1.04544595368907067723e+02
  +1.03875573972056599814e+02
  +1.02989700043360187465e+02
  +1.01875573972056599814e+02
  +1.00544595368907053512e+02
  +9.90267720629130394627e+01
  +9.73610796585661972813e+01
  +9.55860731484177392758e+01
  +9.37342762440389662970e+01
  +9.18304571072046655900e+01
  +8.98922577448804247524e+01
  +8.79317087168754767390e+01
  +8.59567862621735656603e+01
  +8.39726839566505987023e+01
  +8.19827447497120687103e+01
  +7.99891046940003889176e+01
  +7.79931223450568040789e+01
  +7.59956592252068077187e+01
  +7.39972606511850301558e+01
  +7.19982713865900905148e+01
  +6.99989092385713291833e+01
  +6.79993117441712655591e+01
  +6.59995657272313707153e+01
  +6.39997259873513897332e+01
  +6.19998271076940810076e+01
  +5.99998909115284391191e+01
  +5.79999311695086561258e+01
  +5.59999565707689512806e+01
  +5.39999725979571252310e+01
  +5.19999827104596690219e+01
  +4.99999890910295263780e+01
  +4.79999931169017770571e+01
  +4.59999956570573402814e+01
  +4.39999972597879391856e+01
  +4.19999982710428625410e+01
  +3.99999989091017198461e+01
  +3.79999993116896845891e+01
  +3.59999995657055364973e+01
  +3.39999997259787107851e+01
  +3.19999998271042400688e+01
  +2.99999998909101535105e+01
  +2.79999999311689506953e+01
  +2.59999999565705444127e+01
  +2.39999999725978625520e+01
  +2.19999999827104240069e+01
  +1.99999999890910054035e+01
  +1.79999999931168943590e+01
  +1.59999999956570455595e+01
  +1.39999999972597883868e+01
  +1.19999999982710363611e+01
  +9.99999999890908597422e+00
  +7.99999999931168304101e+00
  +5.99999999956569052273e+00
  +3.99999999972597208853e+00
  +1.99999999982708986934e+00
  -1.09092437637610435312e-10
  -2.00000000006882849846e+00
  -4.00000000004344613558e+00
  -6.00000000002740918603e+00
  -8.00000000001729283383e+00
  -1.00000000000109317000e+01
  -1.20000000000068993700e+01
  -1.40000000000043538506e+01
  -1.60000000000027426950e+01
  -1.80000000000017514878e+01
  -2.00000000000011048940e+01
</dep>
<dep Out2_dB acfrequency>
  +1.99995614204257705637e+01
  +1.99995614204231912936e+01
  +1.99995614204191056729e+01
  +1.99995614204126290758e+01
  +1.99995614204023688387e+01
  +1.99995614203860974101e+01
  +1.99995614203603189196e+01
  +1.99995614203194556069e+01
  +1.99995614202546967419e+01
  +1.99995614201520588438e+01
  +1.99995614199893942953e+01
  +1.99995614197315774163e+01
  +1.99995614193229691580e+01
  +1.99995614186753698505e+01
  +1.99995614176489873159e+01
  +1.99995614160222920930e+01
  +1.99995614134441481724e+01
  +1.99995614093580655890e+01
  +1.99995614028820583030e+01
  +1.99995613926182862485e+01
  +1.99995613763512949390e+01
  +1.99995613505698628387e+01
  +1.99995613097090370047e+01
  +1.99995612449489961193e+01
  +1.99995611423112471527e+01
  +1.99995609796413873482e+01
  +1.99995607218270485816e+01
  +1.99995603132188861650e+01
  +1.99995596656186656048e+01
  +1.99995586392416839772e+01
  +1.99995570125442938547e+01
  +1.99995544344039224427e+01
  +1.99995503483299295056e+01
  +1.99995438723469511899e+01
  +1.99995336086253914232e+01
  +1.99995173417726519460e+01
  +1.99994915606732881486e+01
  +1.99994507006979063135e+01
  +1.99993859427885176672e+01
  +1.99992833103966702879e+01
  +1.99991206539855284063e+01
  +1.99988628734248798935e+01
  +1.99984543501087195239e+01
  +1.99978069629914969596e+01
  +1.99967811211927006809e+01
  +1.99951557676975397726e+01
  +1.99925810013768945339e+01
  +1.99885033960164406608e+01
  +1.99820486590334809307e+01
  +1.99718382008609331990e+01
  +1.99557047272047611841e+01
  +1.99302570320113687785e+01
  +1.98902281271741614432e+01
  +1.98275327871410311786e+01
  +1.97299849276548577848e+01
  +1.95797346416250590551e+01
  +1.93517654635160631926e+01
  +1.90133149970900170445e+01
  +1.85257036219471586946e+01
  +1.78500836132696036884e+01
  +1.69569106040533270630e+01
  +1.58354976990349314292e+01
  +1.44979525689030168678e+01
  +1.29747359258508172530e+01
  +1.13049411855852852682e+01
  +9.52699290262038900323e+00
  +7.67317446620532450652e+00
  +5.76800652020308479706e+00
  +3.82892481557342811982e+00
  +1.86780603058215843859e+00
  -1.07481258520205333329e-01
  -2.09181592515494640949e+00
  -4.08190261452952185550e+00
  -6.07563607528571658634e+00
  -8.07167749878543894226e+00
  -1.00691779480432579419e+01
  -1.20676000976178681157e+01
  -1.40666042462648057665e+01
  -1.60659757890248116041e+01
  -1.80655792125155940653e+01
  -2.00653289710201718776e+01
</dep>
<dep V3.i acfrequency>
  +0.00000000000000000000e+00
  +0.00000000000000000000e+00
  +0.00000000000000000000e+00
  +0.00000000000000000000e+00
  +0.00000000000000000000e+00
  +0.00000000000000000000e+00
  +0.00000000000000000000e+00
  +0.00000000000000000000e+00
  +0.00000000000000000000e+00
  +0.00000000000000000000e+00
  +0.00000000000000000000e+00
  +0.00000000000000000000e+00
  +0.00000000000000000000e+00
  +0.00000000000000000000e+00
  +0.00000000000000000000e+00
  +0.00000000000000000000e+00
  +0.00000000000000000000e+00
  +0.00000000000000000000e+00
  +0.00000000000000000000e+00
  +0.00000000000000000000e+00
  +0.00000000000000000000e+00
  +0.00000000000000000000e+00
  +0.00000000000000000000e+00
  +0.00000000000000000000e+00
  +0.00000000000000000000e+00
  +0.00000000000000000000e+00
  +0.00000000000000000000e+00
  +0.00000000000000000000e+00
  +0.00000000000000000000e+00
  +0.00000000000000000000e+00
  +0.00000000000000000000e+00
  +0.00000000000000000000e+00
  +0.00000000000000000000e+00
  +0.00000000000000000000e+00
  +0.00000000000000000000e+00
  +0.00000000000000000000e+00
  +0.00000000000000000000e+00
  +0.00000000000000000000e+00
  +0.00000000000000000000e+00
  +0.00000000000000000000e+00
  +0.00000000000000000000e+00
  +0.00000000000000000000e+00
  +0.00000000000000000000e+00
  +0.00000000000000000000e+00
  +0.00000000000000000000e+00
  +0.00000000000000000000e+00
  +0.00000000000000000000e+00
  +0.00000000000000000000e+00
  +0.00000000000000000000e+00
  +0.00000000000000000000e+00
  +0.00000000000000000000e+00
  +0.00000000000000000000e+00
  +0.00000000000000000000e+00
  +0.00000000000000000000e+00
  +0.00000000000000000000e+00
  +0.00000000000000000000e+00
  +0.00000000000000000000e+00
  +0.00000000000000000000e+00
  +0.00000000000000000000e+00
  +0.00000000000000000000e+00
  +0.00000000000000000000e+00
  +0.00000000000000000000e+00
  +0.00000000000000000000e+00
  +0.00000000000000000000e+00
  +0.00000000000000000000e+00
  +0.00000000000000000000e+00
  +0.00000000000000000000e+00
  +0.00000000000000000000e+00
  +0.00000000000000000000e+00
  +0.00000000000000000000e+00
  +0.00000000000000000000e+00
  +0.00000000000000000000e+00
  +0.00000000000000000000e+00
  +0.00000000000000000000e+00
  +0.00000000000000000000e+00
  +0.00000000000000000000e+00
  +0.00000000000000000000e+00
  +0.00000000000000000000e+00
  +0.00000000000000000000e+00
  +0.00000000000000000000e+00
  +0.00000000000000000000e+00
</dep>
<dep V4.i acfrequency>
  +0.00000000000000000000e+00
  +0.00000000000000000000e+00
  +0.00000000000000000000e+00
  +0.00000000000000000000e+00
  +0.00000000000000000000e+00
  +0.00000000000000000000e+00
  +0.00000000000000000000e+00
  +0.00000000000000000000e+00
  +0.00000000000000000000e+00
  +0.00000000000000000000e+00
  +0.00000000000000000000e+00
  +0.00000000000000000000e+00
  +0.00000000000000000000e+00
  +0.00000000000000000000e+00
  +0.00000000000000000000e+00
  +0.00000000000000000000e+00
  +0.00000000000000000000e+00
  +0.00000000000000000000e+00
  +0.00000000000000000000e+00
  +0.00000000000000000000e+00
  +0.00000000000000000000e+00
  +0.00000000000000000000e+00
  +0.00000000000000000000e+00
  +0.00000000000000000000e+00
  +0.00000000000000000000e+00
  +0.00000000000000000000e+00
  +0.00000000000000000000e+00
  +0.00000000000000000000e+00
  +0.00000000000000000000e+00
  +0.00000000000000000000e+00
  +0.00000000000000000000e+00
  +0.00000000000000000000e+00
  +0.00000000000000000000e+00
  +0.00000000000000000000e+00
  +0.00000000000000000000e+00
  +0.00000000000000000000e+00
  +0.00000000000000000000e+00
  +0.00000000000000000000e+00
  +0.00000000000000000000e+00
  +0.00000000000000000000e+00
  +0.00000000000000000000e+00
  +0.00000000000000000000e+00
  +0.00000000000000000000e+00
  +0.00000000000000000000e+00
  +0.00000000000000000000e+00
  +0.00000000000000000000e+00
  +0.00000000000000000000e+00
  +0.00000000000000000000e+00
  +0.00000000000000000000e+00
  +0.00000000000000000000e+00
  +0.00000000000000000000e+00
  +0.00000000000000000000e+00
  +0.00000000000000000000e+00
  +0.00000000000000000000e+00
  +0.00000000000000000000e+00
  +0.00000000000000000000e+00
  +0.00000000000000000000e+00
  +0.00000000000000000000e+00
  +0.00000000000000000000e+00
  +0.00000000000000000000e+00
  +0.00000000000000000000e+00
  +0.00000000000000000000e+00
  +0.00000000000000000000e+00
  +0.00000000000000000000e+00
  +0.00000000000000000000e+00
  +0.00000000000000000000e+00
  +0.00000000000000000000e+00
  +0.00000000000000000000e+00
  +0.00000000000000000000e+00
  +0.00000000000000000000e+00
  +0.00000000000000000000e+00
  +0.00000000000000000000e+00
  +0.00000000000000000000e+00
  +0.00000000000000000000e+00
  +0.00000000000000000000e+00
  +0.00000000000000000000e+00
  +0.00000000000000000000e+00
  +0.00000000000000000000e+00
  +0.00000000000000000000e+00
  +0.00000000000000000000e+00
  +0.00000000000000000000e+00
</dep>
<dep Out2.v acfrequency>
  +9.99949507934774217688e+00-j1.00739826105816175492e-05
  +9.99949507934180559232e+00-j1.26823927064262137639e-05
  +9.99949507933239800650e+00-j1.59661864604579434171e-05
  +9.99949507931748726719e+00-j2.01002378644844981658e-05
  +9.99949507929385461580e+00-j2.53047002306470564519e-05
  +9.99949507925640013184e+00-j3.18567301580759837127e-05
  +9.99949507919703961534e+00-j4.01052471324333899478e-05
  +9.99949507910295842805e+00-j5.04895147608305227562e-05
  +9.99949507895384925860e+00-j6.35625331606184230211e-05
  +9.99949507871752985011e+00-j8.00204882320208212530e-05
  +9.99949507834299033959e+00-j1.00739826095693830229e-04
  +9.99949507774937984550e+00-j1.26823927044065402729e-04
  +9.99949507680857152536e+00-j1.59661864564281618089e-04
  +9.99949507531749404166e+00-j2.01002378564440060656e-04
  +9.99949507295428752229e+00-j2.53047002146041758591e-04
  +9.99949506920886754813e+00-j3.18567301260662210337e-04
  +9.99949506327277148898e+00-j4.01052470685655051714e-04
  +9.99949505386469361667e+00-j5.04895146333973255694e-04
  +9.99949503895389391062e+00-j6.35625329063557774692e-04
  +9.99949501532187312591e+00-j8.00204877247001167100e-04
  +9.99949497786764140983e+00-j1.00739825083455869677e-03
  +9.99949491850668614745e+00-j1.26823925024385037938e-03
  +9.99949482442591630615e+00-j1.59661860534489568990e-03
  +9.99949467531794589092e+00-j2.01002370523948106773e-03
  +9.99949443899774514932e+00-j2.53046986103151391734e-03
  +9.99949406445549371369e+00-j3.18567269250888884455e-03
  +9.99949347084608675118e+00-j4.01052406817764377223e-03
  +9.99949253003872051693e+00-j5.04895018900790391175e-03
  +9.99949103895989388491e+00-j6.35625074800968276056e-03
  +9.99948867576012290215e+00-j8.00204369926559196113e-03
  +9.99948493034318275363e+00-j1.00739723859758194963e-02
  +9.99947899426311970217e+00-j1.26823723056676829213e-02
  +9.99946958622467185762e+00-j1.59661457556315410089e-02
  +9.99945467552484501539e+00-j2.01001566477994400572e-02
  +9.99943104374928282141e+00-j2.53045381824389681302e-02
  +9.99939359013786877028e+00-j3.18564068306042211254e-02
  +9.99933423073882110543e+00-j4.01046020131432465194e-02
  +9.99924015387495224161e+00-j5.04882275907323901931e-02
  +9.99909105571986245309e+00-j6.35599649569236757607e-02
  +9.99885476017657204295e+00-j8.00153641130660203684e-02
  +9.99848027985444076648e+00-j1.00729602517157415531e-01
  +9.99788682599574585197e+00-j1.26803529533842551658e-01
  +9.99694640930687228320e+00-j1.59621170008971635657e-01
  +9.99545631163361214533e+00-j2.00921194354557325346e-01
  +9.99309557568339990041e+00-j2.52885056609009617468e-01
  +9.98935634469556532622e+00-j3.18244298340607745246e-01
  +9.98343579157339888752e+00-j4.00408377103760204641e-01
  +9.97406670946525508725e+00-j5.03611216735786459964e-01
  +9.95925368259011101202e+00-j6.33067357357881221880e-01
  +9.93586653312172352059e+00-j7.95113037938079747491e-01
  +9.89902455858341134842e+00-j9.97276367192277080065e-01
  +9.84119035210181003492e+00-j1.24816142968954268966e+00
  +9.75090087847004838295e+00-j1.55692562822372049247e+00
  +9.61114673375590911064e+00-j1.93196090369137984943e+00
  +9.39767500027931923512e+00-j2.37817356637879262493e+00
  +9.07810900355161543018e+00-j2.89213471859871118497e+00
  +8.61387321709991304886e+00-j3.45478958090534060688e+00
  +7.96807528307616408370e+00-j4.02324568828502560081e+00
  +7.12184128943336069995e+00-j4.52705131159112461603e+00
  +6.09579411486718303337e+00-j4.87813051952731235872e+00
  +4.96264248705369315218e+00-j4.99960985233801480376e+00
  +3.83329020028746159099e+00-j4.86177464881964827015e+00
  +2.81719679646480569701e+00-j4.49821605904174770529e+00
  +1.98378919993457736304e+00-j3.98766482461252813607e+00
  +1.35056673148058870026e+00-j3.41774119698997314032e+00
  +8.96852905077121231869e-01-j2.85722436603799678778e+00
  +5.85247241804448203872e-01-j2.34726704501035454697e+00
  +3.77417975749991974066e-01-j1.90566126658282031237e+00
  +2.41498484951574721169e-01-j1.53510305638147648288e+00
  +1.53745542068423862725e-01-j1.23034145653981052959e+00
  +9.75604518613925053572e-02-j9.82871922765386374365e-01
  +6.17789235041043965913e-02-j7.83544131621182748937e-01
  +3.90689435276173752110e-02-j6.23813534809687597615e-01
  +2.46864318178146788241e-02-j4.96228207151957811938e-01
  +1.55902894753364891500e-02-j3.94527522193911739379e-01
  +9.84247078065727913632e-03-j3.13564768283744244037e-01
  +6.21243587866747090653e-03-j2.49163857009830513878e-01
  +3.92068096657088426688e-03-j1.97963275113633291324e-01
  +2.47414045231254342908e-03-j1.57270575466492812389e-01
  +1.56121964610609850234e-03-j1.24935866596631944825e-01
  +9.85119763253080758456e-04-j9.92458047691661404688e-02
</dep>
<dep _net2.v acfrequency>
  +9.99949507934774217688e-01-j1.00739826105816175492e-06
  +9.99949507934180581437e-01-j1.26823927064262137639e-06
  +9.99949507933239889468e-01-j1.59661864604579438406e-06
  +9.99949507931748748923e-01-j2.01002378644845007069e-06
  +9.99949507929385528193e-01-j2.53047002306470564519e-06
  +9.99949507925640079797e-01-j3.18567301580759837127e-06
  +9.99949507919704050352e-01-j4.01052471324333916419e-06
  +9.99949507910295909419e-01-j5.04895147608305244503e-06
  +9.99949507895384948064e-01-j6.35625331606184281033e-06
  +9.99949507871753073829e-01-j8.00204882320208212530e-06
  +9.99949507834299033959e-01-j1.00739826095693843781e-05
  +9.99949507774938073368e-01-j1.26823927044065416282e-05
  +9.99949507680857219150e-01-j1.59661864564281638418e-05
  +9.99949507531749492983e-01-j2.01002378564440074209e-05
  +9.99949507295428752229e-01-j2.53047002146041778920e-05
  +9.99949506920886799222e-01-j3.18567301260662223889e-05
  +9.99949506327277193307e-01-j4.01052470685655065266e-05
  +9.99949505386469428281e-01-j5.04895146333973296351e-05
  +9.99949503895389391062e-01-j6.35625329063557747587e-05
  +9.99949501532187312591e-01-j8.00204877247001275520e-05
  +9.99949497786764229801e-01-j1.00739825083455875098e-04
  +9.99949491850668614745e-01-j1.26823925024385054201e-04
  +9.99949482442591630615e-01-j1.59661860534489574411e-04
  +9.99949467531794589092e-01-j2.01002370523948123036e-04
  +9.99949443899774581546e-01-j2.53046986103151380892e-04
  +9.99949406445549415778e-01-j3.18567269250888906139e-04
  +9.99949347084608697322e-01-j4.01052406817764420591e-04
  +9.99949253003872051693e-01-j5.04895018900790434543e-04
  +9.99949103895989455104e-01-j6.35625074800968276056e-04
  +9.99948867576012312419e-01-j8.00204369926559217797e-04
  +9.99948493034318319772e-01-j1.00739723859758194963e-03
  +9.99947899426312014626e-01-j1.26823723056676833550e-03
  +9.99946958622467185762e-01-j1.59661457556315410089e-03
  +9.99945467552484590357e-01-j2.01001566477994417920e-03
  +9.99943104374928282141e-01-j2.53045381824389689976e-03
  +9.99939359013786943642e-01-j3.18564068306042245948e-03
  +9.99933423073882110543e-01-j4.01046020131432499889e-03
  +9.99924015387495312979e-01-j5.04882275907323971320e-03
  +9.99909105571986311922e-01-j6.35599649569236826996e-03
  +9.99885476017657204295e-01-j8.00153641130660168990e-03
  +9.99848027985444143262e-01-j1.00729602517157425939e-02
  +9.99788682599574651810e-01-j1.26803529533842558596e-02
  +9.99694640930687272729e-01-j1.59621170008971656473e-02
  +9.99545631163361258942e-01-j2.00921194354557325346e-02
  +9.99309557568340056655e-01-j2.52885056609009617468e-02
  +9.98935634469556577031e-01-j3.18244298340607731368e-02
  +9.98343579157339955366e-01-j4.00408377103760246274e-02
  +9.97406670946525575339e-01-j5.03611216735786459964e-02
  +9.95925368259011123406e-01-j6.33067357357881277391e-02
  +9.93586653312172440877e-01-j7.95113037938079830758e-02
