<Qucs Dataset 0.0.19>
<indep V_IN 281>
  -1.40000000000000000000e+01
  -1.39000000000000003553e+01
  -1.38000000000000007105e+01
  -1.36999999999999992895e+01
  -1.35999999999999996447e+01
  -1.35000000000000000000e+01
  -1.34000000000000003553e+01
  -1.33000000000000007105e+01
  -1.31999999999999992895e+01
  -1.30999999999999996447e+01
  -1.30000000000000000000e+01
  -1.29000000000000003553e+01
  -1.28000000000000007105e+01
  -1.26999999999999992895e+01
  -1.25999999999999996447e+01
  -1.25000000000000000000e+01
  -1.24000000000000003553e+01
  -1.23000000000000007105e+01
  -1.21999999999999992895e+01
  -1.20999999999999996447e+01
  -1.20000000000000000000e+01
  -1.19000000000000003553e+01
  -1.18000000000000007105e+01
  -1.16999999999999992895e+01
  -1.15999999999999996447e+01
  -1.15000000000000000000e+01
  -1.14000000000000003553e+01
  -1.13000000000000007105e+01
  -1.11999999999999992895e+01
  -1.10999999999999996447e+01
  -1.10000000000000000000e+01
  -1.09000000000000003553e+01
  -1.08000000000000007105e+01
  -1.06999999999999992895e+01
  -1.05999999999999996447e+01
  -1.05000000000000000000e+01
  -1.04000000000000003553e+01
  -1.03000000000000007105e+01
  -1.01999999999999992895e+01
  -1.00999999999999996447e+01
  -1.00000000000000000000e+01
  -9.89999999999999857891e+00
  -9.80000000000000071054e+00
  -9.69999999999999928946e+00
  -9.59999999999999964473e+00
  -9.50000000000000000000e+00
  -9.39999999999999857891e+00
  -9.30000000000000071054e+00
  -9.19999999999999928946e+00
  -9.09999999999999964473e+00
  -9.00000000000000000000e+00
  -8.89999999999999857891e+00
  -8.80000000000000071054e+00
  -8.69999999999999928946e+00
  -8.59999999999999964473e+00
  -8.50000000000000000000e+00
  -8.39999999999999857891e+00
  -8.30000000000000071054e+00
  -8.19999999999999928946e+00
  -8.09999999999999964473e+00
  -8.00000000000000000000e+00
  -7.89999999999999946709e+00
  -7.79999999999999982236e+00
  -7.69999999999999928946e+00
  -7.59999999999999964473e+00
  -7.50000000000000000000e+00
  -7.39999999999999946709e+00
  -7.29999999999999982236e+00
  -7.19999999999999928946e+00
  -7.09999999999999964473e+00
  -7.00000000000000000000e+00
  -6.89999999999999946709e+00
  -6.79999999999999982236e+00
  -6.69999999999999928946e+00
  -6.59999999999999964473e+00
  -6.50000000000000000000e+00
  -6.39999999999999946709e+00
  -6.29999999999999982236e+00
  -6.19999999999999928946e+00
  -6.09999999999999964473e+00
  -6.00000000000000000000e+00
  -5.90000000000000035527e+00
  -5.79999999999999893419e+00
  -5.69999999999999928946e+00
  -5.59999999999999964473e+00
  -5.50000000000000000000e+00
  -5.40000000000000035527e+00
  -5.29999999999999893419e+00
  -5.19999999999999928946e+00
  -5.09999999999999964473e+00
  -5.00000000000000000000e+00
  -4.90000000000000035527e+00
  -4.79999999999999893419e+00
  -4.69999999999999928946e+00
  -4.59999999999999964473e+00
  -4.50000000000000000000e+00
  -4.39999999999999857891e+00
  -4.29999999999999893419e+00
  -4.19999999999999928946e+00
  -4.09999999999999964473e+00
  -4.00000000000000000000e+00
  -3.89999999999999857891e+00
  -3.79999999999999893419e+00
  -3.69999999999999928946e+00
  -3.59999999999999964473e+00
  -3.50000000000000000000e+00
  -3.39999999999999857891e+00
  -3.29999999999999893419e+00
  -3.19999999999999928946e+00
  -3.09999999999999964473e+00
  -3.00000000000000000000e+00
  -2.89999999999999857891e+00
  -2.79999999999999893419e+00
  -2.69999999999999928946e+00
  -2.59999999999999964473e+00
  -2.50000000000000000000e+00
  -2.39999999999999857891e+00
  -2.29999999999999893419e+00
  -2.19999999999999928946e+00
  -2.09999999999999964473e+00
  -2.00000000000000000000e+00
  -1.89999999999999857891e+00
  -1.79999999999999893419e+00
  -1.69999999999999928946e+00
  -1.59999999999999964473e+00
  -1.50000000000000000000e+00
  -1.39999999999999857891e+00
  -1.29999999999999893419e+00
  -1.19999999999999928946e+00
  -1.09999999999999964473e+00
  -1.00000000000000000000e+00
  -8.99999999999998578915e-01
  -7.99999999999998934186e-01
  -6.99999999999999289457e-01
  -5.99999999999999644729e-01
  -5.00000000000000000000e-01
  -3.99999999999998578915e-01
  -2.99999999999998934186e-01
  -1.99999999999999289457e-01
  -9.99999999999996447286e-02
  +0.00000000000000000000e+00
  +1.00000000000001421085e-01
  +2.00000000000001065814e-01
  +3.00000000000000710543e-01
  +4.00000000000000355271e-01
  +5.00000000000000000000e-01
  +6.00000000000001421085e-01
  +7.00000000000001065814e-01
  +8.00000000000000710543e-01
  +9.00000000000000355271e-01
  +1.00000000000000000000e+00
  +1.10000000000000142109e+00
  +1.20000000000000106581e+00
  +1.30000000000000071054e+00
  +1.40000000000000035527e+00
  +1.50000000000000000000e+00
  +1.60000000000000142109e+00
  +1.70000000000000106581e+00
  +1.80000000000000071054e+00
  +1.90000000000000035527e+00
  +2.00000000000000000000e+00
  +2.10000000000000142109e+00
  +2.19999999999999928946e+00
  +2.30000000000000071054e+00
  +2.40000000000000213163e+00
  +2.50000000000000000000e+00
  +2.60000000000000142109e+00
  +2.69999999999999928946e+00
  +2.80000000000000071054e+00
  +2.90000000000000213163e+00
  +3.00000000000000000000e+00
  +3.10000000000000142109e+00
  +3.19999999999999928946e+00
  +3.30000000000000071054e+00
  +3.40000000000000213163e+00
  +3.50000000000000000000e+00
  +3.60000000000000142109e+00
  +3.69999999999999928946e+00
  +3.80000000000000071054e+00
  +3.90000000000000213163e+00
  +4.00000000000000000000e+00
  +4.10000000000000142109e+00
  +4.19999999999999928946e+00
  +4.30000000000000071054e+00
  +4.40000000000000213163e+00
  +4.50000000000000000000e+00
  +4.60000000000000142109e+00
  +4.69999999999999928946e+00
  +4.80000000000000071054e+00
  +4.90000000000000213163e+00
  +5.00000000000000000000e+00
  +5.10000000000000142109e+00
  +5.20000000000000284217e+00
  +5.30000000000000071054e+00
  +5.40000000000000213163e+00
  +5.50000000000000000000e+00
  +5.60000000000000142109e+00
  +5.70000000000000284217e+00
  +5.80000000000000071054e+00
  +5.90000000000000213163e+00
  +6.00000000000000000000e+00
  +6.10000000000000142109e+00
  +6.20000000000000284217e+00
  +6.30000000000000071054e+00
  +6.40000000000000213163e+00
  +6.50000000000000000000e+00
  +6.60000000000000142109e+00
  +6.70000000000000284217e+00
  +6.80000000000000071054e+00
  +6.90000000000000213163e+00
  +7.00000000000000000000e+00
  +7.10000000000000142109e+00
  +7.20000000000000284217e+00
  +7.30000000000000071054e+00
  +7.40000000000000213163e+00
  +7.50000000000000000000e+00
  +7.60000000000000142109e+00
  +7.70000000000000284217e+00
  +7.80000000000000071054e+00
  +7.90000000000000213163e+00
  +8.00000000000000000000e+00
  +8.10000000000000142109e+00
  +8.20000000000000284217e+00
  +8.30000000000000071054e+00
  +8.40000000000000213163e+00
  +8.50000000000000000000e+00
  +8.60000000000000142109e+00
  +8.70000000000000284217e+00
  +8.80000000000000071054e+00
  +8.90000000000000213163e+00
  +9.00000000000000000000e+00
  +9.10000000000000142109e+00
  +9.20000000000000284217e+00
  +9.30000000000000071054e+00
  +9.40000000000000213163e+00
  +9.50000000000000000000e+00
  +9.60000000000000142109e+00
  +9.70000000000000284217e+00
  +9.80000000000000071054e+00
  +9.90000000000000213163e+00
  +1.00000000000000000000e+01
  +1.01000000000000014211e+01
  +1.02000000000000028422e+01
  +1.03000000000000007105e+01
  +1.04000000000000021316e+01
  +1.05000000000000000000e+01
  +1.06000000000000014211e+01
  +1.07000000000000028422e+01
  +1.08000000000000007105e+01
  +1.09000000000000021316e+01
  +1.10000000000000000000e+01
  +1.11000000000000014211e+01
  +1.12000000000000028422e+01
  +1.13000000000000007105e+01
  +1.14000000000000021316e+01
  +1.15000000000000000000e+01
  +1.16000000000000014211e+01
  +1.17000000000000028422e+01
  +1.18000000000000007105e+01
  +1.19000000000000021316e+01
  +1.20000000000000000000e+01
  +1.21000000000000014211e+01
  +1.22000000000000028422e+01
  +1.23000000000000007105e+01
  +1.24000000000000021316e+01
  +1.25000000000000000000e+01
  +1.26000000000000014211e+01
  +1.27000000000000028422e+01
  +1.28000000000000007105e+01
  +1.29000000000000021316e+01
  +1.30000000000000000000e+01
  +1.31000000000000014211e+01
  +1.32000000000000028422e+01
  +1.33000000000000007105e+01
  +1.34000000000000021316e+01
  +1.35000000000000000000e+01
  +1.36000000000000014211e+01
  +1.37000000000000028422e+01
  +1.38000000000000007105e+01
  +1.39000000000000021316e+01
  +1.40000000000000000000e+01
</indep>
<dep V1.I V_IN>
  +0.00000000000000000000e+00
  +0.00000000000000000000e+00
  +0.00000000000000000000e+00
  +0.00000000000000000000e+00
  +0.00000000000000000000e+00
  +0.00000000000000000000e+00
  +0.00000000000000000000e+00
  +0.00000000000000000000e+00
  +0.00000000000000000000e+00
  +0.00000000000000000000e+00
  +0.00000000000000000000e+00
  +0.00000000000000000000e+00
  +0.00000000000000000000e+00
  +0.00000000000000000000e+00
  +0.00000000000000000000e+00
  +0.00000000000000000000e+00
  +0.00000000000000000000e+00
  +0.00000000000000000000e+00
  +0.00000000000000000000e+00
  +0.00000000000000000000e+00
  +0.00000000000000000000e+00
  +0.00000000000000000000e+00
  +0.00000000000000000000e+00
  +0.00000000000000000000e+00
  +0.00000000000000000000e+00
  +0.00000000000000000000e+00
  +0.00000000000000000000e+00
  +0.00000000000000000000e+00
  +0.00000000000000000000e+00
  +0.00000000000000000000e+00
  +0.00000000000000000000e+00
  +0.00000000000000000000e+00
  +0.00000000000000000000e+00
  +0.00000000000000000000e+00
  +0.00000000000000000000e+00
  +0.00000000000000000000e+00
  +0.00000000000000000000e+00
  +0.00000000000000000000e+00
  +0.00000000000000000000e+00
  +0.00000000000000000000e+00
  +0.00000000000000000000e+00
  +0.00000000000000000000e+00
  +0.00000000000000000000e+00
  +0.00000000000000000000e+00
  +0.00000000000000000000e+00
  +0.00000000000000000000e+00
  +0.00000000000000000000e+00
  +0.00000000000000000000e+00
  +0.00000000000000000000e+00
  +0.00000000000000000000e+00
  +0.00000000000000000000e+00
  +0.00000000000000000000e+00
  +0.00000000000000000000e+00
  +0.00000000000000000000e+00
  +0.00000000000000000000e+00
  +0.00000000000000000000e+00
  +0.00000000000000000000e+00
  +0.00000000000000000000e+00
  +0.00000000000000000000e+00
  +0.00000000000000000000e+00
  +0.00000000000000000000e+00
  +0.00000000000000000000e+00
  +0.00000000000000000000e+00
  +0.00000000000000000000e+00
  +0.00000000000000000000e+00
  +0.00000000000000000000e+00
  +0.00000000000000000000e+00
  +0.00000000000000000000e+00
  +0.00000000000000000000e+00
  +0.00000000000000000000e+00
  +0.00000000000000000000e+00
  +0.00000000000000000000e+00
  +0.00000000000000000000e+00
  +0.00000000000000000000e+00
  +0.00000000000000000000e+00
  +0.00000000000000000000e+00
  +0.00000000000000000000e+00
  +0.00000000000000000000e+00
  +0.00000000000000000000e+00
  +0.00000000000000000000e+00
  +0.00000000000000000000e+00
  +0.00000000000000000000e+00
  +0.00000000000000000000e+00
  +0.00000000000000000000e+00
  +0.00000000000000000000e+00
  +0.00000000000000000000e+00
  +0.00000000000000000000e+00
  +0.00000000000000000000e+00
  +0.00000000000000000000e+00
  +0.00000000000000000000e+00
  +0.00000000000000000000e+00
  +0.00000000000000000000e+00
  +0.00000000000000000000e+00
  +0.00000000000000000000e+00
  +0.00000000000000000000e+00
  +0.00000000000000000000e+00
  +0.00000000000000000000e+00
  +0.00000000000000000000e+00
  +0.00000000000000000000e+00
  +0.00000000000000000000e+00
  +0.00000000000000000000e+00
  +0.00000000000000000000e+00
  +0.00000000000000000000e+00
  +0.00000000000000000000e+00
  +0.00000000000000000000e+00
  +0.00000000000000000000e+00
  +0.00000000000000000000e+00
  +0.00000000000000000000e+00
  +0.00000000000000000000e+00
  +0.00000000000000000000e+00
  +0.00000000000000000000e+00
  +0.00000000000000000000e+00
  +0.00000000000000000000e+00
  +0.00000000000000000000e+00
  +0.00000000000000000000e+00
  +0.00000000000000000000e+00
  +0.00000000000000000000e+00
  +0.00000000000000000000e+00
  +0.00000000000000000000e+00
  +0.00000000000000000000e+00
  +0.00000000000000000000e+00
  +0.00000000000000000000e+00
  +0.00000000000000000000e+00
  +0.00000000000000000000e+00
  +0.00000000000000000000e+00
  +0.00000000000000000000e+00
  +0.00000000000000000000e+00
  +0.00000000000000000000e+00
  +0.00000000000000000000e+00
  +0.00000000000000000000e+00
  +0.00000000000000000000e+00
  +0.00000000000000000000e+00
  +0.00000000000000000000e+00
  +0.00000000000000000000e+00
  +0.00000000000000000000e+00
  +0.00000000000000000000e+00
  +0.00000000000000000000e+00
  +0.00000000000000000000e+00
  +0.00000000000000000000e+00
  +0.00000000000000000000e+00
  +0.00000000000000000000e+00
  +0.00000000000000000000e+00
  +0.00000000000000000000e+00
  +0.00000000000000000000e+00
  +0.00000000000000000000e+00
  +0.00000000000000000000e+00
  +0.00000000000000000000e+00
  +0.00000000000000000000e+00
  +0.00000000000000000000e+00
  +0.00000000000000000000e+00
  +0.00000000000000000000e+00
  +0.00000000000000000000e+00
  +0.00000000000000000000e+00
  +0.00000000000000000000e+00
  +0.00000000000000000000e+00
  +0.00000000000000000000e+00
  +0.00000000000000000000e+00
  +0.00000000000000000000e+00
  +0.00000000000000000000e+00
  +0.00000000000000000000e+00
  +0.00000000000000000000e+00
  +0.00000000000000000000e+00
  +0.00000000000000000000e+00
  +0.00000000000000000000e+00
  +0.00000000000000000000e+00
  +0.00000000000000000000e+00
  +0.00000000000000000000e+00
  +0.00000000000000000000e+00
  +0.00000000000000000000e+00
  +0.00000000000000000000e+00
  +0.00000000000000000000e+00
  +0.00000000000000000000e+00
  +0.00000000000000000000e+00
  +0.00000000000000000000e+00
  +0.00000000000000000000e+00
  +0.00000000000000000000e+00
  +0.00000000000000000000e+00
  +0.00000000000000000000e+00
  +0.00000000000000000000e+00
  +0.00000000000000000000e+00
  +0.00000000000000000000e+00
  +0.00000000000000000000e+00
  +0.00000000000000000000e+00
  +0.00000000000000000000e+00
  +0.00000000000000000000e+00
  +0.00000000000000000000e+00
  +0.00000000000000000000e+00
  +0.00000000000000000000e+00
  +0.00000000000000000000e+00
  +0.00000000000000000000e+00
  +0.00000000000000000000e+00
  +0.00000000000000000000e+00
  +0.00000000000000000000e+00
  +0.00000000000000000000e+00
  +0.00000000000000000000e+00
  +0.00000000000000000000e+00
  +0.00000000000000000000e+00
  +0.00000000000000000000e+00
  +0.00000000000000000000e+00
  +0.00000000000000000000e+00
  +0.00000000000000000000e+00
  +0.00000000000000000000e+00
  +0.00000000000000000000e+00
  +0.00000000000000000000e+00
  +0.00000000000000000000e+00
  +0.00000000000000000000e+00
  +0.00000000000000000000e+00
  +0.00000000000000000000e+00
  +0.00000000000000000000e+00
  +0.00000000000000000000e+00
  +0.00000000000000000000e+00
  +0.00000000000000000000e+00
  +0.00000000000000000000e+00
  +0.00000000000000000000e+00
  +0.00000000000000000000e+00
  +0.00000000000000000000e+00
  +0.00000000000000000000e+00
  +0.00000000000000000000e+00
  +0.00000000000000000000e+00
  +0.00000000000000000000e+00
  +0.00000000000000000000e+00
  +0.00000000000000000000e+00
  +0.00000000000000000000e+00
  +0.00000000000000000000e+00
  +0.00000000000000000000e+00
  +0.00000000000000000000e+00
  +0.00000000000000000000e+00
  +0.00000000000000000000e+00
  +0.00000000000000000000e+00
  +0.00000000000000000000e+00
  +0.00000000000000000000e+00
  +0.00000000000000000000e+00
  +0.00000000000000000000e+00
  +0.00000000000000000000e+00
  +0.00000000000000000000e+00
  +0.00000000000000000000e+00
  +0.00000000000000000000e+00
  +0.00000000000000000000e+00
  +0.00000000000000000000e+00
  +0.00000000000000000000e+00
  +0.00000000000000000000e+00
  +0.00000000000000000000e+00
  +0.00000000000000000000e+00
  +0.00000000000000000000e+00
  +0.00000000000000000000e+00
  +0.00000000000000000000e+00
  +0.00000000000000000000e+00
  +0.00000000000000000000e+00
  +0.00000000000000000000e+00
  +0.00000000000000000000e+00
  +0.00000000000000000000e+00
  +0.00000000000000000000e+00
  +0.00000000000000000000e+00
  +0.00000000000000000000e+00
  +0.00000000000000000000e+00
  +0.00000000000000000000e+00
  +0.00000000000000000000e+00
  +0.00000000000000000000e+00
  +0.00000000000000000000e+00
  +0.00000000000000000000e+00
  +0.00000000000000000000e+00
  +0.00000000000000000000e+00
  +0.00000000000000000000e+00
  +0.00000000000000000000e+00
  +0.00000000000000000000e+00
  +0.00000000000000000000e+00
  +0.00000000000000000000e+00
  +0.00000000000000000000e+00
  +0.00000000000000000000e+00
  +0.00000000000000000000e+00
  +0.00000000000000000000e+00
  +0.00000000000000000000e+00
  +0.00000000000000000000e+00
  +0.00000000000000000000e+00
  +0.00000000000000000000e+00
  +0.00000000000000000000e+00
  +0.00000000000000000000e+00
  +0.00000000000000000000e+00
  +0.00000000000000000000e+00
  +0.00000000000000000000e+00
  +0.00000000000000000000e+00
</dep>
<dep V2.I V_IN>
  +0.00000000000000000000e+00
  +0.00000000000000000000e+00
  +0.00000000000000000000e+00
  +0.00000000000000000000e+00
  +0.00000000000000000000e+00
  +0.00000000000000000000e+00
  +0.00000000000000000000e+00
  +0.00000000000000000000e+00
  +0.00000000000000000000e+00
  +0.00000000000000000000e+00
  +0.00000000000000000000e+00
  +0.00000000000000000000e+00
  +0.00000000000000000000e+00
  +0.00000000000000000000e+00
  +0.00000000000000000000e+00
  +0.00000000000000000000e+00
  +0.00000000000000000000e+00
  +0.00000000000000000000e+00
  +0.00000000000000000000e+00
  +0.00000000000000000000e+00
  +0.00000000000000000000e+00
  +0.00000000000000000000e+00
  +0.00000000000000000000e+00
  +0.00000000000000000000e+00
  +0.00000000000000000000e+00
  +0.00000000000000000000e+00
  +0.00000000000000000000e+00
  +0.00000000000000000000e+00
  +0.00000000000000000000e+00
  +0.00000000000000000000e+00
  +0.00000000000000000000e+00
  +0.00000000000000000000e+00
  +0.00000000000000000000e+00
  +0.00000000000000000000e+00
  +0.00000000000000000000e+00
  +0.00000000000000000000e+00
  +0.00000000000000000000e+00
  +0.00000000000000000000e+00
  +0.00000000000000000000e+00
  +0.00000000000000000000e+00
  +0.00000000000000000000e+00
  +0.00000000000000000000e+00
  +0.00000000000000000000e+00
  +0.00000000000000000000e+00
  +0.00000000000000000000e+00
  +0.00000000000000000000e+00
  +0.00000000000000000000e+00
  +0.00000000000000000000e+00
  +0.00000000000000000000e+00
  +0.00000000000000000000e+00
  +0.00000000000000000000e+00
  +0.00000000000000000000e+00
  +0.00000000000000000000e+00
  +0.00000000000000000000e+00
  +0.00000000000000000000e+00
  +0.00000000000000000000e+00
  +0.00000000000000000000e+00
  +0.00000000000000000000e+00
  +0.00000000000000000000e+00
  +0.00000000000000000000e+00
  +0.00000000000000000000e+00
  +0.00000000000000000000e+00
  +0.00000000000000000000e+00
  +0.00000000000000000000e+00
  +0.00000000000000000000e+00
  +0.00000000000000000000e+00
  +0.00000000000000000000e+00
  +0.00000000000000000000e+00
  +0.00000000000000000000e+00
  +0.00000000000000000000e+00
  +0.00000000000000000000e+00
  +0.00000000000000000000e+00
  +0.00000000000000000000e+00
  +0.00000000000000000000e+00
  +0.00000000000000000000e+00
  +0.00000000000000000000e+00
  +0.00000000000000000000e+00
  +0.00000000000000000000e+00
  +0.00000000000000000000e+00
  +0.00000000000000000000e+00
  +0.00000000000000000000e+00
  +0.00000000000000000000e+00
  +0.00000000000000000000e+00
  +0.00000000000000000000e+00
  +0.00000000000000000000e+00
  +0.00000000000000000000e+00
  +0.00000000000000000000e+00
  +0.00000000000000000000e+00
  +0.00000000000000000000e+00
  +0.00000000000000000000e+00
  +0.00000000000000000000e+00
  +0.00000000000000000000e+00
  +0.00000000000000000000e+00
  +0.00000000000000000000e+00
  +0.00000000000000000000e+00
  +0.00000000000000000000e+00
  +0.00000000000000000000e+00
  +0.00000000000000000000e+00
  +0.00000000000000000000e+00
  +0.00000000000000000000e+00
  +0.00000000000000000000e+00
