<Qucs Dataset 0.0.22>
<indep time 59>
0.000000000000e+00
2.000000000000e-07
4.000000000000e-07
8.000000000000e-07
1.600000000000e-06
3.200000000000e-06
6.400000000000e-06
1.280000000000e-05
2.560000000000e-05
5.120000000000e-05
9.120000000000e-05
1.312000000000e-04
1.712000000000e-04
2.112000000000e-04
2.512000000000e-04
2.912000000000e-04
3.312000000000e-04
3.712000000000e-04
4.112000000000e-04
4.512000000000e-04
4.912000000000e-04
5.312000000000e-04
5.712000000000e-04
6.112000000000e-04
6.512000000000e-04
6.912000000000e-04
7.312000000000e-04
7.712000000000e-04
8.112000000000e-04
8.512000000000e-04
8.912000000000e-04
9.312000000000e-04
9.712000000000e-04
1.011200000000e-03
1.051200000000e-03
1.091200000000e-03
1.131200000000e-03
1.171200000000e-03
1.211200000000e-03
1.251200000000e-03
1.291200000000e-03
1.331200000000e-03
1.371200000000e-03
1.411200000000e-03
1.451200000000e-03
1.491200000000e-03
1.531200000000e-03
1.571200000000e-03
1.611200000000e-03
1.651200000000e-03
1.691200000000e-03
1.731200000000e-03
1.771200000000e-03
1.811200000000e-03
1.851200000000e-03
1.891200000000e-03
1.931200000000e-03
1.971200000000e-03
2.000000000000e-03
</indep>
<dep tran.v(in) time>
0.000000000000e+00
1.256636730702e-03
2.513271477004e-03
5.026527078819e-03
1.005292715673e-02
2.010483832546e-02
4.020154936295e-02
8.033810013339e-02
1.601568419022e-01
3.161789400287e-01
5.421775867253e-01
7.341092216583e-01
8.799140743296e-01
9.704306896132e-01
9.999715756740e-01
9.666805699970e-01
8.726494689046e-01
7.237865923007e-01
5.294455422017e-01
3.018374815216e-01
5.526386179693e-02
-1.947821896107e-01
-4.325893596863e-01
-6.432153493405e-01
-8.134257530150e-01
-9.325256250569e-01
-9.930314824871e-01
-9.911415197584e-01
-9.269744901797e-01
-8.045622442093e-01
-6.315963934623e-01
-4.189450184650e-01
-1.799697871856e-01
7.031360770530e-02
3.161789400287e-01
5.421775867253e-01
7.341092216583e-01
8.799140743296e-01
9.704306896132e-01
9.999715756740e-01
9.666805699970e-01
8.726494689046e-01
7.237865923007e-01
5.294455422017e-01
3.018374815216e-01
5.526386179692e-02
-1.947821896107e-01
-4.325893596863e-01
-6.432153493405e-01
-8.134257530150e-01
-9.325256250569e-01
-9.930314824871e-01
-9.911415197584e-01
-9.269744901797e-01
-8.045622442093e-01
-6.315963934623e-01
-4.189450184650e-01
-1.799697871856e-01
-4.898587196589e-16
</dep>
<dep tran.v(out) time>
0.000000000000e+00
6.283183653512e-04
1.256635738502e-03
2.513263539409e-03
5.026463578365e-03
1.005241916273e-02
2.010077468148e-02
4.016905006670e-02
8.007842095109e-02
1.580894700144e-01
2.710887933627e-01
3.670546108291e-01
4.399570371648e-01
4.852153448066e-01
4.999857878370e-01
4.833402849985e-01
4.363247344523e-01
3.618932961503e-01
2.647227711008e-01
1.509187407608e-01
2.763193089846e-02
-9.739109480535e-02
-2.162946798432e-01
-3.216076746702e-01
-4.067128765075e-01
-4.662628125284e-01
-4.965157412436e-01
-4.955707598792e-01
-4.634872450899e-01
-4.022811221047e-01
-3.157981967312e-01
-2.094725092325e-01
-8.998489359279e-02
3.515680385265e-02
1.580894700144e-01
2.710887933627e-01
3.670546108291e-01
4.399570371648e-01
4.852153448066e-01
4.999857878370e-01
4.833402849985e-01
4.363247344523e-01
3.618932961503e-01
2.647227711008e-01
1.509187407608e-01
2.763193089846e-02
-9.739109480536e-02
-2.162946798432e-01
-3.216076746702e-01
-4.067128765075e-01
-4.662628125284e-01
-4.965157412436e-01
-4.955707598792e-01
-4.634872450898e-01
-4.022811221047e-01
-3.157981967312e-01
-2.094725092325e-01
-8.998489359279e-02
-2.449293598295e-16
</dep>
<indep frequency 169>
1.000000000000e+00
1.115883992508e+00
1.245197084735e+00
1.389495494373e+00
1.550515779833e+00
1.730195738846e+00
1.930697728883e+00
2.154434690032e+00
2.404099183510e+00
2.682695795280e+00
2.993577294720e+00
3.340484983513e+00
3.727593720315e+00
4.159562163072e+00
4.641588833613e+00
5.179474679231e+00
5.779692884153e+00
6.449466771038e+00
7.196856730012e+00
8.030857221392e+00
8.961505019466e+00
1.000000000000e+01
1.115883992508e+01
1.245197084735e+01
1.389495494373e+01
1.550515779833e+01
1.730195738846e+01
1.930697728883e+01
2.154434690032e+01
2.404099183510e+01
2.682695795280e+01
2.993577294720e+01
3.340484983513e+01
3.727593720315e+01
4.159562163072e+01
4.641588833613e+01
5.179474679231e+01
5.779692884153e+01
6.449466771038e+01
7.196856730011e+01
8.030857221391e+01
8.961505019466e+01
1.000000000000e+02
1.115883992508e+02
1.245197084735e+02
1.389495494373e+02
1.550515779833e+02
1.730195738846e+02
1.930697728883e+02
2.154434690032e+02
2.404099183510e+02
2.682695795280e+02
2.993577294720e+02
3.340484983513e+02
3.727593720315e+02
4.159562163072e+02
4.641588833613e+02
5.179474679231e+02
5.779692884153e+02
6.449466771038e+02
7.196856730011e+02
8.030857221391e+02
8.961505019466e+02
1.000000000000e+03
1.115883992508e+03
1.245197084735e+03
1.389495494373e+03
1.550515779833e+03
1.730195738846e+03
1.930697728883e+03
2.154434690032e+03
2.404099183510e+03
2.682695795280e+03
2.993577294720e+03
3.340484983513e+03
3.727593720315e+03
4.159562163072e+03
4.641588833613e+03
5.179474679231e+03
5.779692884153e+03
6.449466771038e+03
7.196856730011e+03
8.030857221391e+03
8.961505019466e+03
1.000000000000e+04
1.115883992508e+04
1.245197084735e+04
1.389495494373e+04
1.550515779833e+04
1.730195738846e+04
1.930697728883e+04
2.154434690032e+04
2.404099183510e+04
2.682695795280e+04
2.993577294720e+04
3.340484983513e+04
3.727593720315e+04
4.159562163072e+04
4.641588833613e+04
5.179474679231e+04
5.779692884153e+04
6.449466771038e+04
7.196856730011e+04
8.030857221391e+04
8.961505019466e+04
1.000000000000e+05
1.115883992508e+05
1.245197084735e+05
1.389495494373e+05
1.550515779833e+05
1.730195738846e+05
1.930697728883e+05
2.154434690032e+05
2.404099183510e+05
2.682695795280e+05
2.993577294720e+05
3.340484983513e+05
3.727593720315e+05
4.159562163072e+05
4.641588833613e+05
5.179474679231e+05
5.779692884153e+05
6.449466771038e+05
7.196856730011e+05
8.030857221391e+05
8.961505019466e+05
1.000000000000e+06
1.115883992508e+06
1.245197084735e+06
1.389495494373e+06
1.550515779833e+06
1.730195738846e+06
1.930697728883e+06
2.154434690032e+06
2.404099183510e+06
2.682695795280e+06
2.993577294720e+06
3.340484983513e+06
3.727593720315e+06
4.159562163072e+06
4.641588833613e+06
5.179474679231e+06
5.779692884153e+06
6.449466771038e+06
7.196856730011e+06
8.030857221391e+06
8.961505019466e+06
1.000000000000e+07
1.115883992508e+07
1.245197084735e+07
1.389495494373e+07
1.550515779833e+07
1.730195738846e+07
1.930697728883e+07
2.154434690032e+07
2.404099183510e+07
2.682695795280e+07
2.993577294720e+07
3.340484983513e+07
3.727593720315e+07
4.159562163072e+07
4.641588833613e+07
5.179474679231e+07
5.779692884153e+07
6.449466771038e+07
7.196856730011e+07
8.030857221391e+07
8.961505019466e+07
1.000000000000e+08
</indep>
<dep ac.v(in) frequency>
1.000000000000e+00+j0.000000000000e+00
1.000000000000e+00+j0.000000000000e+00
1.000000000000e+00+j0.000000000000e+00
1.000000000000e+00+j0.000000000000e+00
1.000000000000e+00+j0.000000000000e+00
1.000000000000e+00+j0.000000000000e+00
1.000000000000e+00+j0.000000000000e+00
1.000000000000e+00+j0.000000000000e+00
1.000000000000e+00+j0.000000000000e+00
1.000000000000e+00+j0.000000000000e+00
1.000000000000e+00+j0.000000000000e+00
1.000000000000e+00+j0.000000000000e+00
1.000000000000e+00+j0.000000000000e+00
1.000000000000e+00+j0.000000000000e+00
1.000000000000e+00+j0.000000000000e+00
1.000000000000e+00+j0.000000000000e+00
1.000000000000e+00+j0.000000000000e+00
1.000000000000e+00+j0.000000000000e+00
1.000000000000e+00+j0.000000000000e+00
1.000000000000e+00+j0.000000000000e+00
1.000000000000e+00+j0.000000000000e+00
1.000000000000e+00+j0.000000000000e+00
1.000000000000e+00+j0.000000000000e+00
1.000000000000e+00+j0.000000000000e+00
1.000000000000e+00+j0.000000000000e+00
1.000000000000e+00+j0.000000000000e+00
1.000000000000e+00+j0.000000000000e+00
1.000000000000e+00+j0.000000000000e+00
1.000000000000e+00+j0.000000000000e+00
1.000000000000e+00+j0.000000000000e+00
1.000000000000e+00+j0.000000000000e+00
1.000000000000e+00+j0.000000000000e+00
1.000000000000e+00+j0.000000000000e+00
1.000000000000e+00+j0.000000000000e+00
1.000000000000e+00+j0.000000000000e+00
1.000000000000e+00+j0.000000000000e+00
1.000000000000e+00+j0.000000000000e+00
1.000000000000e+00+j0.000000000000e+00
1.000000000000e+00+j0.000000000000e+00
1.000000000000e+00+j0.000000000000e+00
1.000000000000e+00+j0.000000000000e+00
1.000000000000e+00+j0.000000000000e+00
1.000000000000e+00+j0.000000000000e+00
1.000000000000e+00+j0.000000000000e+00
1.000000000000e+00+j0.000000000000e+00
1.000000000000e+00+j0.000000000000e+00
1.000000000000e+00+j0.000000000000e+00
1.000000000000e+00+j0.000000000000e+00
1.000000000000e+00+j0.000000000000e+00
1.000000000000e+00+j0.000000000000e+00
1.000000000000e+00+j0.000000000000e+00
1.000000000000e+00+j0.000000000000e+00
1.000000000000e+00+j0.000000000000e+00
1.000000000000e+00+j0.000000000000e+00
1.000000000000e+00+j0.000000000000e+00
1.000000000000e+00+j0.000000000000e+00
1.000000000000e+00+j0.000000000000e+00
1.000000000000e+00+j0.000000000000e+00
1.000000000000e+00+j0.000000000000e+00
1.000000000000e+00+j0.000000000000e+00
1.000000000000e+00+j0.000000000000e+00
1.000000000000e+00+j0.000000000000e+00
1.000000000000e+00+j0.000000000000e+00
1.000000000000e+00+j0.000000000000e+00
1.000000000000e+00+j0.000000000000e+00
1.000000000000e+00+j0.000000000000e+00
1.000000000000e+00+j0.000000000000e+00
1.000000000000e+00+j0.000000000000e+00
1.000000000000e+00+j0.000000000000e+00
1.000000000000e+00+j0.000000000000e+00
1.000000000000e+00+j0.000000000000e+00
1.000000000000e+00+j0.000000000000e+00
1.000000000000e+00+j0.000000000000e+00
1.000000000000e+00+j0.000000000000e+00
1.000000000000e+00+j0.000000000000e+00
1.000000000000e+00+j0.000000000000e+00
1.000000000000e+00+j0.000000000000e+00
1.000000000000e+00+j0.000000000000e+00
1.000000000000e+00+j0.000000000000e+00
1.000000000000e+00+j0.000000000000e+00
1.000000000000e+00+j0.000000000000e+00
1.000000000000e+00+j0.000000000000e+00
1.000000000000e+00+j0.000000000000e+00
1.000000000000e+00+j0.000000000000e+00
1.000000000000e+00+j0.000000000000e+00
1.000000000000e+00+j0.000000000000e+00
1.000000000000e+00+j0.000000000000e+00
1.000000000000e+00+j0.000000000000e+00
1.000000000000e+00+j0.000000000000e+00
1.000000000000e+00+j0.000000000000e+00
1.000000000000e+00+j0.000000000000e+00
1.000000000000e+00+j0.000000000000e+00
1.000000000000e+00+j0.000000000000e+00
1.000000000000e+00+j0.000000000000e+00
1.000000000000e+00+j0.000000000000e+00
1.000000000000e+00+j0.000000000000e+00
1.000000000000e+00+j0.000000000000e+00
1.000000000000e+00+j0.000000000000e+00
1.000000000000e+00+j0.000000000000e+00
1.000000000000e+00+j0.000000000000e+00
1.000000000000e+00+j0.000000000000e+00
1.000000000000e+00+j0.000000000000e+00
1.000000000000e+00+j0.000000000000e+00
1.000000000000e+00+j0.000000000000e+00
1.000000000000e+00+j0.000000000000e+00
1.000000000000e+00+j0.000000000000e+00
1.000000000000e+00+j0.000000000000e+00
1.000000000000e+00+j0.000000000000e+00
1.000000000000e+00+j0.000000000000e+00
1.000000000000e+00+j0.000000000000e+00
1.000000000000e+00+j0.000000000000e+00
1.000000000000e+00+j0.000000000000e+00
1.000000000000e+00+j0.000000000000e+00
1.000000000000e+00+j0.000000000000e+00
1.000000000000e+00+j0.000000000000e+00
1.000000000000e+00+j0.000000000000e+00
1.000000000000e+00+j0.000000000000e+00
1.000000000000e+00+j0.000000000000e+00
1.000000000000e+00+j0.000000000000e+00
1.000000000000e+00+j0.000000000000e+00
1.000000000000e+00+j0.000000000000e+00
1.000000000000e+00+j0.000000000000e+00
1.000000000000e+00+j0.000000000000e+00
1.000000000000e+00+j0.000000000000e+00
1.000000000000e+00+j0.000000000000e+00
1.000000000000e+00+j0.000000000000e+00
1.000000000000e+00+j0.000000000000e+00
1.000000000000e+00+j0.000000000000e+00
1.000000000000e+00+j0.000000000000e+00
1.000000000000e+00+j0.000000000000e+00
1.000000000000e+00+j0.000000000000e+00
1.000000000000e+00+j0.000000000000e+00
1.000000000000e+00+j0.000000000000e+00
1.000000000000e+00+j0.000000000000e+00
1.000000000000e+00+j0.000000000000e+00
1.000000000000e+00+j0.000000000000e+00
1.000000000000e+00+j0.000000000000e+00
1.000000000000e+00+j0.000000000000e+00
1.000000000000e+00+j0.000000000000e+00
1.000000000000e+00+j0.000000000000e+00
1.000000000000e+00+j0.000000000000e+00
1.000000000000e+00+j0.000000000000e+00
1.000000000000e+00+j0.000000000000e+00
1.000000000000e+00+j0.000000000000e+00
1.000000000000e+00+j0.000000000000e+00
1.000000000000e+00+j0.000000000000e+00
1.000000000000e+00+j0.000000000000e+00
1.000000000000e+00+j0.000000000000e+00
1.000000000000e+00+j0.000000000000e+00
1.000000000000e+00+j0.000000000000e+00
1.000000000000e+00+j0.000000000000e+00
1.000000000000e+00+j0.000000000000e+00
1.000000000000e+00+j0.000000000000e+00
1.000000000000e+00+j0.000000000000e+00
1.000000000000e+00+j0.000000000000e+00
1.000000000000e+00+j0.000000000000e+00
1.000000000000e+00+j0.000000000000e+00
1.000000000000e+00+j0.000000000000e+00
1.000000000000e+00+j0.000000000000e+00
1.000000000000e+00+j0.000000000000e+00
1.000000000000e+00+j0.000000000000e+00
1.000000000000e+00+j0.000000000000e+00
1.000000000000e+00+j0.000000000000e+00
1.000000000000e+00+j0.000000000000e+00
1.000000000000e+00+j0.000000000000e+00
1.000000000000e+00+j0.000000000000e+00
1.000000000000e+00+j0.000000000000e+00
1.000000000000e+00+j0.000000000000e+00
1.000000000000e+00+j0.000000000000e+00
</dep>
<dep ac.v(out) frequency>
5.000000000000e-01+j0.000000000000e+00
5.000000000000e-01+j0.000000000000e+00
5.000000000000e-01+j0.000000000000e+00
5.000000000000e-01+j0.000000000000e+00
5.000000000000e-01+j0.000000000000e+00
5.000000000000e-01+j0.000000000000e+00
5.000000000000e-01+j0.000000000000e+00
5.000000000000e-01+j0.000000000000e+00
5.000000000000e-01+j0.000000000000e+00
5.000000000000e-01+j0.000000000000e+00
5.000000000000e-01+j0.000000000000e+00
5.000000000000e-01+j0.000000000000e+00
5.000000000000e-01+j0.000000000000e+00
5.000000000000e-01+j0.000000000000e+00
5.000000000000e-01+j0.000000000000e+00
5.000000000000e-01+j0.000000000000e+00
5.000000000000e-01+j0.000000000000e+00
5.000000000000e-01+j0.000000000000e+00
5.000000000000e-01+j0.000000000000e+00
5.000000000000e-01+j0.000000000000e+00
5.000000000000e-01+j0.000000000000e+00
5.000000000000e-01+j0.000000000000e+00
5.000000000000e-01+j0.000000000000e+00
5.000000000000e-01+j0.000000000000e+00
5.000000000000e-01+j0.000000000000e+00
5.000000000000e-01+j0.000000000000e+00
5.000000000000e-01+j0.000000000000e+00
5.000000000000e-01+j0.000000000000e+00
5.000000000000e-01+j0.000000000000e+00
5.000000000000e-01+j0.000000000000e+00
5.000000000000e-01+j0.000000000000e+00
5.000000000000e-01+j0.000000000000e+00
5.000000000000e-01+j0.000000000000e+00
5.000000000000e-01+j0.000000000000e+00
5.000000000000e-01+j0.000000000000e+00
5.000000000000e-01+j0.000000000000e+00
5.000000000000e-01+j0.000000000000e+00
5.000000000000e-01+j0.000000000000e+00
5.000000000000e-01+j0.000000000000e+00
5.000000000000e-01+j0.000000000000e+00
5.000000000000e-01+j0.000000000000e+00
5.000000000000e-01+j0.000000000000e+00
5.000000000000e-01+j0.000000000000e+00
5.000000000000e-01+j0.000000000000e+00
5.000000000000e-01+j0.000000000000e+00
5.000000000000e-01+j0.000000000000e+00
5.000000000000e-01+j0.000000000000e+00
5.000000000000e-01+j0.000000000000e+00
5.000000000000e-01+j0.000000000000e+00
5.000000000000e-01+j0.000000000000e+00
5.000000000000e-01+j0.000000000000e+00
5.000000000000e-01+j0.000000000000e+00
5.000000000000e-01+j0.000000000000e+00
5.000000000000e-01+j0.000000000000e+00
5.000000000000e-01+j0.000000000000e+00
5.000000000000e-01+j0.000000000000e+00
5.000000000000e-01+j0.000000000000e+00
5.000000000000e-01+j0.000000000000e+00
5.000000000000e-01+j0.000000000000e+00
5.000000000000e-01+j0.000000000000e+00
5.000000000000e-01+j0.000000000000e+00
5.000000000000e-01+j0.000000000000e+00
5.000000000000e-01+j0.000000000000e+00
5.000000000000e-01+j0.000000000000e+00
5.000000000000e-01+j0.000000000000e+00
5.000000000000e-01+j0.000000000000e+00
5.000000000000e-01+j0.000000000000e+00
5.000000000000e-01+j0.000000000000e+00
5.000000000000e-01+j0.000000000000e+00
5.000000000000e-01+j0.000000000000e+00
5.000000000000e-01+j0.000000000000e+00
5.000000000000e-01+j0.000000000000e+00
5.000000000000e-01+j0.000000000000e+00
5.000000000000e-01+j0.000000000000e+00
5.000000000000e-01+j0.000000000000e+00
5.000000000000e-01+j0.000000000000e+00
5.000000000000e-01+j0.000000000000e+00
5.000000000000e-01+j0.000000000000e+00
5.000000000000e-01+j0.000000000000e+00
5.000000000000e-01+j0.000000000000e+00
5.000000000000e-01+j0.000000000000e+00
5.000000000000e-01+j0.000000000000e+00
5.000000000000e-01+j0.000000000000e+00
5.000000000000e-01+j0.000000000000e+00
5.000000000000e-01+j0.000000000000e+00
5.000000000000e-01+j0.000000000000e+00
5.000000000000e-01+j0.000000000000e+00
5.000000000000e-01+j0.000000000000e+00
5.000000000000e-01+j0.000000000000e+00
5.000000000000e-01+j0.000000000000e+00
5.000000000000e-01+j0.000000000000e+00
5.000000000000e-01+j0.000000000000e+00
5.000000000000e-01+j0.000000000000e+00
5.000000000000e-01+j0.000000000000e+00
5.000000000000e-01+j0.000000000000e+00
5.000000000000e-01+j0.000000000000e+00
5.000000000000e-01+j0.000000000000e+00
5.000000000000e-01+j0.000000000000e+00
5.000000000000e-01+j0.000000000000e+00
5.000000000000e-01+j0.000000000000e+00
5.000000000000e-01+j0.000000000000e+00
5.000000000000e-01+j0.000000000000e+00
5.000000000000e-01+j0.000000000000e+00
5.000000000000e-01+j0.000000000000e+00
5.000000000000e-01+j0.000000000000e+00
5.000000000000e-01+j0.000000000000e+00
5.000000000000e-01+j0.000000000000e+00
5.000000000000e-01+j0.000000000000e+00
5.000000000000e-01+j0.000000000000e+00
5.000000000000e-01+j0.000000000000e+00
5.000000000000e-01+j0.000000000000e+00
5.000000000000e-01+j0.000000000000e+00
5.000000000000e-01+j0.000000000000e+00
5.000000000000e-01+j0.000000000000e+00
5.000000000000e-01+j0.000000000000e+00
5.000000000000e-01+j0.000000000000e+00
5.000000000000e-01+j0.000000000000e+00
5.000000000000e-01+j0.000000000000e+00
5.000000000000e-01+j0.000000000000e+00
5.000000000000e-01+j0.000000000000e+00
5.000000000000e-01+j0.000000000000e+00
5.000000000000e-01+j0.000000000000e+00
5.000000000000e-01+j0.000000000000e+00
5.000000000000e-01+j0.000000000000e+00
5.000000000000e-01+j0.000000000000e+00
5.000000000000e-01+j0.000000000000e+00
5.000000000000e-01+j0.000000000000e+00
5.000000000000e-01+j0.000000000000e+00
5.000000000000e-01+j0.000000000000e+00
5.000000000000e-01+j0.000000000000e+00
5.000000000000e-01+j0.000000000000e+00
5.000000000000e-01+j0.000000000000e+00
5.000000000000e-01+j0.000000000000e+00
5.000000000000e-01+j0.000000000000e+00
5.000000000000e-01+j0.000000000000e+00
5.000000000000e-01+j0.000000000000e+00
5.000000000000e-01+j0.000000000000e+00
5.000000000000e-01+j0.000000000000e+00
5.000000000000e-01+j0.000000000000e+00
5.000000000000e-01+j0.000000000000e+00
5.000000000000e-01+j0.000000000000e+00
5.000000000000e-01+j0.000000000000e+00
5.000000000000e-01+j0.000000000000e+00
5.000000000000e-01+j0.000000000000e+00
5.000000000000e-01+j0.000000000000e+00
5.000000000000e-01+j0.000000000000e+00
5.000000000000e-01+j0.000000000000e+00
5.000000000000e-01+j0.000000000000e+00
5.000000000000e-01+j0.000000000000e+00
5.000000000000e-01+j0.000000000000e+00
5.000000000000e-01+j0.000000000000e+00
5.000000000000e-01+j0.000000000000e+00
5.000000000000e-01+j0.000000000000e+00
5.000000000000e-01+j0.000000000000e+00
5.000000000000e-01+j0.000000000000e+00
5.000000000000e-01+j0.000000000000e+00
5.000000000000e-01+j0.000000000000e+00
5.000000000000e-01+j0.000000000000e+00
5.000000000000e-01+j0.000000000000e+00
5.000000000000e-01+j0.000000000000e+00
5.000000000000e-01+j0.000000000000e+00
5.000000000000e-01+j0.000000000000e+00
5.000000000000e-01+j0.000000000000e+00
5.000000000000e-01+j0.000000000000e+00
5.000000000000e-01+j0.000000000000e+00
5.000000000000e-01+j0.000000000000e+00
5.000000000000e-01+j0.000000000000e+00
5.000000000000e-01+j0.000000000000e+00
