<Qucs Dataset 0.0.22>
<indep time 59>
0.000000000000e+00
1.000000000000e-07
2.000000000000e-07
4.000000000000e-07
8.000000000000e-07
1.600000000000e-06
3.200000000000e-06
6.400000000000e-06
1.280000000000e-05
2.560000000000e-05
4.560000000000e-05
6.560000000000e-05
8.560000000000e-05
1.056000000000e-04
1.256000000000e-04
1.456000000000e-04
1.656000000000e-04
1.856000000000e-04
2.056000000000e-04
2.256000000000e-04
2.456000000000e-04
2.656000000000e-04
2.856000000000e-04
3.056000000000e-04
3.256000000000e-04
3.456000000000e-04
3.656000000000e-04
3.856000000000e-04
4.056000000000e-04
4.256000000000e-04
4.456000000000e-04
4.656000000000e-04
4.856000000000e-04
5.056000000000e-04
5.256000000000e-04
5.456000000000e-04
5.656000000000e-04
5.856000000000e-04
6.056000000000e-04
6.256000000000e-04
6.456000000000e-04
6.656000000000e-04
6.856000000000e-04
7.056000000000e-04
7.256000000000e-04
7.456000000000e-04
7.656000000000e-04
7.856000000000e-04
8.056000000000e-04
8.256000000000e-04
8.456000000000e-04
8.656000000000e-04
8.856000000000e-04
9.056000000000e-04
9.256000000000e-04
9.456000000000e-04
9.656000000000e-04
9.856000000000e-04
1.000000000000e-03
</indep>
<dep tran.v(in) time>
5.000000000000e-01
5.006283184894e-01
5.012566367307e-01
5.025132714770e-01
5.050265270788e-01
5.100529271567e-01
5.201048383255e-01
5.402015493630e-01
5.803381001334e-01
6.601568419022e-01
7.826093368293e-01
9.006049136919e-01
1.012282711756e+00
1.115881505433e+00
1.209767479859e+00
1.292459997133e+00
1.362654946860e+00
1.419245312750e+00
1.461338630927e+00
1.488271064619e+00
1.499617873257e+00
1.495200110891e+00
1.475087448273e+00
1.439597074106e+00
1.389288692792e+00
1.324955697558e+00
1.247612658169e+00
1.158479320558e+00
1.058961370706e+00
9.506282661303e-01
8.351884846054e-01
7.144625804463e-01
5.903544732799e-01
4.648214220948e-01
3.398431580978e-01
2.173906631707e-01
9.939508630808e-02
-1.228271175588e-02
-1.158815054326e-01
-2.097674798588e-01
-2.924599971332e-01
-3.626549468601e-01
-4.192453127499e-01
-4.613386309271e-01
-4.882710646188e-01
-4.996178732569e-01
-4.952001108909e-01
-4.750874482725e-01
-4.395970741058e-01
-3.892886927924e-01
-3.249556975583e-01
-2.476126581691e-01
-1.584793205584e-01
-5.896137070602e-02
4.937173386973e-02
1.648115153946e-01
2.855374195537e-01
4.096455267201e-01
5.000000000000e-01
</dep>
<dep tran.v(out) time>
2.500000000000e-01
2.500000628193e-01
2.500001884453e-01
2.500005652853e-01
2.500020721901e-01
2.500080958373e-01
2.500321576442e-01
2.501281349282e-01
2.505097791565e-01
2.520166090169e-01
2.562783711999e-01
2.627303394912e-01
2.711809891725e-01
2.814107956479e-01
2.931755584195e-01
3.062101196285e-01
3.202324183096e-01
3.349478162152e-01
3.500536267919e-01
3.652437756975e-01
3.802135191788e-01
3.946641457222e-01
4.083075866661e-01
4.208708628986e-01
4.321002973623e-01
4.417654267829e-01
4.496625507888e-01
4.556178623140e-01
4.594901097847e-01
4.611727489778e-01
4.605955504957e-01
4.577256373885e-01
4.525679364490e-01
4.451650359547e-01
4.355964519976e-01
4.239773148729e-01
4.104564961472e-01
3.952142058528e-01
3.784590976116e-01
3.604249272612e-01
3.413668175942e-01
3.215571880415e-01
3.012814134163e-01
2.808332801090e-01
2.605103113249e-01
2.406090350192e-01
2.214202690955e-01
2.032244981587e-01
1.862874146782e-01
1.708556948193e-01
1.571530755092e-01
1.453767945507e-01
1.356944498749e-01
1.282413274165e-01
1.231182397057e-01
1.203899092198e-01
1.200839219460e-01
1.221902676174e-01
1.251776178590e-01
</dep>
<indep frequency 169>
1.000000000000e+00
1.115883992508e+00
1.245197084735e+00
1.389495494373e+00
1.550515779833e+00
1.730195738846e+00
1.930697728883e+00
2.154434690032e+00
2.404099183510e+00
2.682695795280e+00
2.993577294720e+00
3.340484983513e+00
3.727593720315e+00
4.159562163072e+00
4.641588833613e+00
5.179474679231e+00
5.779692884153e+00
6.449466771038e+00
7.196856730012e+00
8.030857221392e+00
8.961505019466e+00
1.000000000000e+01
1.115883992508e+01
1.245197084735e+01
1.389495494373e+01
1.550515779833e+01
1.730195738846e+01
1.930697728883e+01
2.154434690032e+01
2.404099183510e+01
2.682695795280e+01
2.993577294720e+01
3.340484983513e+01
3.727593720315e+01
4.159562163072e+01
4.641588833613e+01
5.179474679231e+01
5.779692884153e+01
6.449466771038e+01
7.196856730011e+01
8.030857221391e+01
8.961505019466e+01
1.000000000000e+02
1.115883992508e+02
1.245197084735e+02
1.389495494373e+02
1.550515779833e+02
1.730195738846e+02
1.930697728883e+02
2.154434690032e+02
2.404099183510e+02
2.682695795280e+02
2.993577294720e+02
3.340484983513e+02
3.727593720315e+02
4.159562163072e+02
4.641588833613e+02
5.179474679231e+02
5.779692884153e+02
6.449466771038e+02
7.196856730011e+02
8.030857221391e+02
8.961505019466e+02
1.000000000000e+03
1.115883992508e+03
1.245197084735e+03
1.389495494373e+03
1.550515779833e+03
1.730195738846e+03
1.930697728883e+03
2.154434690032e+03
2.404099183510e+03
2.682695795280e+03
2.993577294720e+03
3.340484983513e+03
3.727593720315e+03
4.159562163072e+03
4.641588833613e+03
5.179474679231e+03
5.779692884153e+03
6.449466771038e+03
7.196856730011e+03
8.030857221391e+03
8.961505019466e+03
1.000000000000e+04
1.115883992508e+04
1.245197084735e+04
1.389495494373e+04
1.550515779833e+04
1.730195738846e+04
1.930697728883e+04
2.154434690032e+04
2.404099183510e+04
2.682695795280e+04
2.993577294720e+04
3.340484983513e+04
3.727593720315e+04
4.159562163072e+04
4.641588833613e+04
5.179474679231e+04
5.779692884153e+04
6.449466771038e+04
7.196856730011e+04
8.030857221391e+04
8.961505019466e+04
1.000000000000e+05
1.115883992508e+05
1.245197084735e+05
1.389495494373e+05
1.550515779833e+05
1.730195738846e+05
1.930697728883e+05
2.154434690032e+05
2.404099183510e+05
2.682695795280e+05
2.993577294720e+05
3.340484983513e+05
3.727593720315e+05
4.159562163072e+05
4.641588833613e+05
5.179474679231e+05
5.779692884153e+05
6.449466771038e+05
7.196856730011e+05
8.030857221391e+05
8.961505019466e+05
1.000000000000e+06
1.115883992508e+06
1.245197084735e+06
1.389495494373e+06
1.550515779833e+06
1.730195738846e+06
1.930697728883e+06
2.154434690032e+06
2.404099183510e+06
2.682695795280e+06
2.993577294720e+06
3.340484983513e+06
3.727593720315e+06
4.159562163072e+06
4.641588833613e+06
5.179474679231e+06
5.779692884153e+06
6.449466771038e+06
7.196856730011e+06
8.030857221391e+06
8.961505019466e+06
1.000000000000e+07
1.115883992508e+07
1.245197084735e+07
1.389495494373e+07
1.550515779833e+07
1.730195738846e+07
1.930697728883e+07
2.154434690032e+07
2.404099183510e+07
2.682695795280e+07
2.993577294720e+07
3.340484983513e+07
3.727593720315e+07
4.159562163072e+07
4.641588833613e+07
5.179474679231e+07
5.779692884153e+07
6.449466771038e+07
7.196856730011e+07
8.030857221391e+07
8.961505019466e+07
1.000000000000e+08
</indep>
<dep ac.v(in) frequency>
1.000000000000e+00+j0.000000000000e+00
1.000000000000e+00+j0.000000000000e+00
1.000000000000e+00+j0.000000000000e+00
1.000000000000e+00+j0.000000000000e+00
1.000000000000e+00+j0.000000000000e+00
1.000000000000e+00+j0.000000000000e+00
1.000000000000e+00+j0.000000000000e+00
1.000000000000e+00+j0.000000000000e+00
1.000000000000e+00+j0.000000000000e+00
1.000000000000e+00+j0.000000000000e+00
1.000000000000e+00+j0.000000000000e+00
1.000000000000e+00+j0.000000000000e+00
1.000000000000e+00+j0.000000000000e+00
1.000000000000e+00+j0.000000000000e+00
1.000000000000e+00+j0.000000000000e+00
1.000000000000e+00+j0.000000000000e+00
1.000000000000e+00+j0.000000000000e+00
1.000000000000e+00+j0.000000000000e+00
1.000000000000e+00+j0.000000000000e+00
1.000000000000e+00+j0.000000000000e+00
1.000000000000e+00+j0.000000000000e+00
1.000000000000e+00+j0.000000000000e+00
1.000000000000e+00+j0.000000000000e+00
1.000000000000e+00+j0.000000000000e+00
1.000000000000e+00+j0.000000000000e+00
1.000000000000e+00+j0.000000000000e+00
1.000000000000e+00+j0.000000000000e+00
1.000000000000e+00+j0.000000000000e+00
1.000000000000e+00+j0.000000000000e+00
1.000000000000e+00+j0.000000000000e+00
1.000000000000e+00+j0.000000000000e+00
1.000000000000e+00+j0.000000000000e+00
1.000000000000e+00+j0.000000000000e+00
1.000000000000e+00+j0.000000000000e+00
1.000000000000e+00+j0.000000000000e+00
1.000000000000e+00+j0.000000000000e+00
1.000000000000e+00+j0.000000000000e+00
1.000000000000e+00+j0.000000000000e+00
1.000000000000e+00+j0.000000000000e+00
1.000000000000e+00+j0.000000000000e+00
1.000000000000e+00+j0.000000000000e+00
1.000000000000e+00+j0.000000000000e+00
1.000000000000e+00+j0.000000000000e+00
1.000000000000e+00+j0.000000000000e+00
1.000000000000e+00+j0.000000000000e+00
1.000000000000e+00+j0.000000000000e+00
1.000000000000e+00+j0.000000000000e+00
1.000000000000e+00+j0.000000000000e+00
1.000000000000e+00+j0.000000000000e+00
1.000000000000e+00+j0.000000000000e+00
1.000000000000e+00+j0.000000000000e+00
1.000000000000e+00+j0.000000000000e+00
1.000000000000e+00+j0.000000000000e+00
1.000000000000e+00+j0.000000000000e+00
1.000000000000e+00+j0.000000000000e+00
1.000000000000e+00+j0.000000000000e+00
1.000000000000e+00+j0.000000000000e+00
1.000000000000e+00+j0.000000000000e+00
1.000000000000e+00+j0.000000000000e+00
1.000000000000e+00+j0.000000000000e+00
1.000000000000e+00+j0.000000000000e+00
1.000000000000e+00+j0.000000000000e+00
1.000000000000e+00+j0.000000000000e+00
1.000000000000e+00+j0.000000000000e+00
1.000000000000e+00+j0.000000000000e+00
1.000000000000e+00+j0.000000000000e+00
1.000000000000e+00+j0.000000000000e+00
1.000000000000e+00+j0.000000000000e+00
1.000000000000e+00+j0.000000000000e+00
1.000000000000e+00+j0.000000000000e+00
1.000000000000e+00+j0.000000000000e+00
1.000000000000e+00+j0.000000000000e+00
1.000000000000e+00+j0.000000000000e+00
1.000000000000e+00+j0.000000000000e+00
1.000000000000e+00+j0.000000000000e+00
1.000000000000e+00+j0.000000000000e+00
1.000000000000e+00+j0.000000000000e+00
1.000000000000e+00+j0.000000000000e+00
1.000000000000e+00+j0.000000000000e+00
1.000000000000e+00+j0.000000000000e+00
1.000000000000e+00+j0.000000000000e+00
1.000000000000e+00+j0.000000000000e+00
1.000000000000e+00+j0.000000000000e+00
1.000000000000e+00+j0.000000000000e+00
1.000000000000e+00+j0.000000000000e+00
1.000000000000e+00+j0.000000000000e+00
1.000000000000e+00+j0.000000000000e+00
1.000000000000e+00+j0.000000000000e+00
1.000000000000e+00+j0.000000000000e+00
1.000000000000e+00+j0.000000000000e+00
1.000000000000e+00+j0.000000000000e+00
1.000000000000e+00+j0.000000000000e+00
1.000000000000e+00+j0.000000000000e+00
1.000000000000e+00+j0.000000000000e+00
1.000000000000e+00+j0.000000000000e+00
1.000000000000e+00+j0.000000000000e+00
1.000000000000e+00+j0.000000000000e+00
1.000000000000e+00+j0.000000000000e+00
1.000000000000e+00+j0.000000000000e+00
1.000000000000e+00+j0.000000000000e+00
1.000000000000e+00+j0.000000000000e+00
1.000000000000e+00+j0.000000000000e+00
1.000000000000e+00+j0.000000000000e+00
1.000000000000e+00+j0.000000000000e+00
1.000000000000e+00+j0.000000000000e+00
1.000000000000e+00+j0.000000000000e+00
1.000000000000e+00+j0.000000000000e+00
1.000000000000e+00+j0.000000000000e+00
1.000000000000e+00+j0.000000000000e+00
1.000000000000e+00+j0.000000000000e+00
1.000000000000e+00+j0.000000000000e+00
1.000000000000e+00+j0.000000000000e+00
1.000000000000e+00+j0.000000000000e+00
1.000000000000e+00+j0.000000000000e+00
1.000000000000e+00+j0.000000000000e+00
1.000000000000e+00+j0.000000000000e+00
1.000000000000e+00+j0.000000000000e+00
1.000000000000e+00+j0.000000000000e+00
1.000000000000e+00+j0.000000000000e+00
1.000000000000e+00+j0.000000000000e+00
1.000000000000e+00+j0.000000000000e+00
1.000000000000e+00+j0.000000000000e+00
1.000000000000e+00+j0.000000000000e+00
1.000000000000e+00+j0.000000000000e+00
1.000000000000e+00+j0.000000000000e+00
1.000000000000e+00+j0.000000000000e+00
1.000000000000e+00+j0.000000000000e+00
1.000000000000e+00+j0.000000000000e+00
1.000000000000e+00+j0.000000000000e+00
1.000000000000e+00+j0.000000000000e+00
1.000000000000e+00+j0.000000000000e+00
1.000000000000e+00+j0.000000000000e+00
1.000000000000e+00+j0.000000000000e+00
1.000000000000e+00+j0.000000000000e+00
1.000000000000e+00+j0.000000000000e+00
1.000000000000e+00+j0.000000000000e+00
1.000000000000e+00+j0.000000000000e+00
1.000000000000e+00+j0.000000000000e+00
1.000000000000e+00+j0.000000000000e+00
1.000000000000e+00+j0.000000000000e+00
1.000000000000e+00+j0.000000000000e+00
1.000000000000e+00+j0.000000000000e+00
1.000000000000e+00+j0.000000000000e+00
1.000000000000e+00+j0.000000000000e+00
1.000000000000e+00+j0.000000000000e+00
1.000000000000e+00+j0.000000000000e+00
1.000000000000e+00+j0.000000000000e+00
1.000000000000e+00+j0.000000000000e+00
1.000000000000e+00+j0.000000000000e+00
1.000000000000e+00+j0.000000000000e+00
1.000000000000e+00+j0.000000000000e+00
1.000000000000e+00+j0.000000000000e+00
1.000000000000e+00+j0.000000000000e+00
1.000000000000e+00+j0.000000000000e+00
1.000000000000e+00+j0.000000000000e+00
1.000000000000e+00+j0.000000000000e+00
1.000000000000e+00+j0.000000000000e+00
1.000000000000e+00+j0.000000000000e+00
1.000000000000e+00+j0.000000000000e+00
1.000000000000e+00+j0.000000000000e+00
1.000000000000e+00+j0.000000000000e+00
1.000000000000e+00+j0.000000000000e+00
1.000000000000e+00+j0.000000000000e+00
1.000000000000e+00+j0.000000000000e+00
1.000000000000e+00+j0.000000000000e+00
1.000000000000e+00+j0.000000000000e+00
1.000000000000e+00+j0.000000000000e+00
1.000000000000e+00+j0.000000000000e+00
1.000000000000e+00+j0.000000000000e+00
</dep>
<dep ac.v(out) frequency>
4.999950652465e-01-j1.570780823810e-03
4.999938552742e-01-j1.752804935284e-03
4.999923486284e-01-j1.955921075422e-03
4.999904725701e-01-j2.182572829248e-03
4.999881365275e-01-j2.435486703569e-03
4.999852277246e-01-j2.717704815475e-03
4.999816057390e-01-j3.032621330920e-03
4.999770957265e-01-j3.384023073140e-03
4.999714799857e-01-j3.776134763587e-03
4.999644874580e-01-j4.213669403653e-03
4.999557806564e-01-j4.701884353265e-03
4.999449393962e-01-j5.246643711443e-03
4.999314405479e-01-j5.854487652634e-03
4.999146328402e-01-j6.532709418668e-03
4.998937055113e-01-j7.289440706077e-03
4.998676493115e-01-j8.133746216984e-03
4.998352080042e-01-j9.075728151539e-03
4.997948180687e-01-j1.012664140004e-02
4.997445337623e-01-j1.129902012851e-02
4.996819340326e-01-j1.260681632115e-02
4.996040069507e-01-j1.406555061708e-02
4.995070063452e-01-j1.569247541551e-02
4.993862741133e-01-j1.750674966593e-02
4.992360202483e-01-j1.952962392908e-02
4.990490509146e-01-j2.178463308289e-02
4.988164329156e-01-j2.429779231013e-02
4.985270806206e-01-j2.709778954496e-02
4.981672488991e-01-j3.021616411556e-02
4.977199129470e-01-j3.368745656091e-02
4.971640132828e-01-j3.754930808883e-02
4.964735420335e-01-j4.184247934141e-02
4.956164455400e-01-j4.661074640334e-02
4.945533193293e-01-j5.190061661522e-02
4.932358762202e-01-j5.776078703917e-02
4.916051791386e-01-j6.424124386556e-02
4.895896505633e-01-j7.139187168679e-02
4.871029051523e-01-j7.926040858057e-02
4.840415071374e-01-j8.788954964538e-02
4.802828367807e-01-j9.731297490171e-02
4.756833677798e-01-j1.075500697702e-01
4.700778145706e-01-j1.185991379979e-01
4.632798018310e-01-j1.304290080117e-01
4.550849188231e-01-j1.429691437734e-01
4.452772013609e-01-j1.560987335908e-01
4.336401465324e-01-j1.696357762430e-01
4.199731756673e-01-j1.833279017323e-01
4.041138535466e-01-j1.968474539968e-01
3.859650043509e-01-j2.097939884550e-01
3.655241285831e-01-j2.217074101493e-01
3.429104905271e-01-j2.320940342836e-01
3.183835644500e-01-j2.404655653376e-01
2.923461517236e-01-j2.463875066520e-01
2.653272812766e-01-j2.495297065455e-01
2.379441598296e-01-j2.497091442414e-01
2.108479512749e-01-j2.469152022064e-01
1.846630164539e-01-j2.413111654713e-01
1.599313288212e-01-j2.332115659055e-01
1.370721264423e-01-j2.230410172451e-01
1.163622409103e-01-j2.112840489613e-01
9.793699053180e-02-j1.984359875413e-01
8.180713119113e-02-j1.849625877896e-01
6.788526544681e-02-j1.712723663018e-01
5.601526425475e-02-j1.577020047363e-01
4.599983417519e-02-j1.445127411111e-01
3.762339732844e-02-j1.318945739509e-01
3.066924456915e-02-j1.199750795879e-01
2.493116156985e-02-j1.088302254326e-01
2.022039594048e-02-j9.849534790157e-02
1.636906417944e-02-j8.897519782281e-02
1.323105712504e-02-j8.025252450779e-02
1.068133100499e-02-j7.229505287677e-02
8.614261288472e-03-j6.506093410557e-02
6.941539713137e-03-j5.850286217767e-02
5.589933061256e-03-j5.257108691095e-02
4.499100086760e-03-j4.721554978806e-02
3.619576475923e-03-j4.238734367823e-02
2.910979768053e-03-j3.803966457287e-02
2.340449443494e-03-j3.412839020742e-02
1.881315607451e-03-j3.061239055204e-02
1.511977951548e-03-j2.745365000228e-02
1.214971372043e-03-j2.461726082623e-02
9.761932608197e-04-j2.207133156670e-02
7.842683839749e-04-j1.978684196857e-02
6.300293369461e-04-j1.773746688531e-02
5.060931386533e-04-j1.589938486425e-02
4.065171982654e-04-j1.425108216593e-02
3.265204330257e-04-j1.277315939459e-02
2.622576222626e-04-j1.144814535507e-02
2.106371075181e-04-j1.026032093884e-02
1.691736873881e-04-j9.195554575857e-03
1.358700253018e-04-j8.241149918980e-03
1.091211164024e-04-j7.385705841907e-03
8.763737678398e-05-j6.618988448561e-03
7.038275521850e-05-j5.931814551806e-03
5.652495260119e-05-j5.315945939372e-03
4.539539293183e-05-j4.763993673822e-03
3.645704369355e-05-j4.269331649186e-03
2.927855163801e-05-j3.826018633700e-03
2.351345791273e-05-j3.428728054784e-03
1.888349719414e-05-j3.072684821227e-03
1.516517976199e-05-j2.753608523069e-03
1.217901207944e-05-j2.467662398179e-03
9.780837623989e-06-j2.211407503652e-03
7.854881303179e-06-j1.981761578099e-03
6.308162537834e-06-j1.775962126849e-03
5.066007852726e-06-j1.591533305315e-03
4.068446691884e-06-j1.426256216002e-03
3.267316684661e-06-j1.278142271804e-03
2.623938755545e-06-j1.145409312306e-03
2.107249927940e-06-j1.026460190883e-03
1.692303734542e-06-j9.198635786784e-04
1.359065872520e-06-j8.243367571570e-04
1.091446981853e-06-j7.387301940964e-04
8.765258643661e-07-j6.620137188046e-04
7.039256497539e-07-j5.932641311976e-04
5.653127954843e-07-j5.316540963480e-04
4.539947356717e-07-j4.764421913775e-04
3.645967553328e-07-j4.269639852910e-04
2.928024905891e-07-j3.826240446721e-04
2.351455267145e-07-j3.428887692296e-04
1.888420326174e-07-j3.072799711133e-04
1.516563514136e-07-j2.753691208309e-04
1.217930577663e-07-j2.467721905921e-04
9.781027043931e-08-j2.211450330729e-04
7.855003469417e-08-j1.981792400252e-04
6.308241328789e-08-j1.775984309181e-04
5.066058668818e-08-j1.591549269661e-04
4.068479465620e-08-j1.426267705336e-04
3.267337822007e-08-j1.278150540527e-04
2.623952388024e-08-j1.145415263195e-04
2.107258720171e-08-j1.026464473657e-04
1.692309405067e-08-j9.198666609321e-05
1.359069529709e-08-j8.243389754123e-05
1.091449340546e-08-j7.387317905439e-05
8.765273855980e-09-j6.620148677454e-05
7.039266308677e-09-j5.932649580741e-05
5.653134282505e-09-j5.316546914394e-05
4.539951437723e-09-j4.764426196564e-05
3.645970185359e-09-j4.269642935172e-05
2.928026603411e-09-j3.826242664981e-05
2.351456361955e-09-j3.428889288747e-05
1.888421032268e-09-j3.072800860075e-05
1.516563969530e-09-j2.753692035186e-05
1.217930871367e-09-j2.467722501012e-05
9.781028938168e-10-j2.211450759008e-05
7.855004691098e-10-j1.981792708479e-05
6.308242116708e-10-j1.775984531007e-05
5.066059176984e-10-j1.591549429306e-05
4.068479793360e-10-j1.426267820230e-05
3.267338033382e-10-j1.278150623214e-05
2.623952524349e-10-j1.145415322704e-05
2.107258808094e-10-j1.026464516485e-05
1.692309461772e-10-j9.198666917547e-06
1.359069566281e-10-j8.243389975949e-06
1.091449364132e-10-j7.387318065084e-06
8.765274008103e-11-j6.620148792349e-06
7.039266406788e-11-j5.932649663429e-06
5.653134345782e-11-j5.316546973903e-06
4.539951478533e-11-j4.764426239392e-06
3.645970211680e-11-j4.269642965995e-06
2.928026620387e-11-j3.826242687164e-06
2.351456372903e-11-j3.428889304711e-06
1.888421039329e-11-j3.072800871565e-06
1.516563974084e-11-j2.753692043455e-06
1.217930874304e-11-j2.467722506963e-06
9.781028957110e-12-j2.211450763291e-06
7.855004703315e-12-j1.981792711561e-06
6.308242124588e-12-j1.775984533225e-06
5.066059182066e-12-j1.591549430903e-06
</dep>
