<Qucs Dataset 0.0.22>
<indep time 59>
0.000000000000e+00
1.000000000000e-07
2.000000000000e-07
4.000000000000e-07
8.000000000000e-07
1.600000000000e-06
3.200000000000e-06
6.400000000000e-06
1.280000000000e-05
2.560000000000e-05
4.560000000000e-05
6.560000000000e-05
8.560000000000e-05
1.056000000000e-04
1.256000000000e-04
1.456000000000e-04
1.656000000000e-04
1.856000000000e-04
2.056000000000e-04
2.256000000000e-04
2.456000000000e-04
2.656000000000e-04
2.856000000000e-04
3.056000000000e-04
3.256000000000e-04
3.456000000000e-04
3.656000000000e-04
3.856000000000e-04
4.056000000000e-04
4.256000000000e-04
4.456000000000e-04
4.656000000000e-04
4.856000000000e-04
5.056000000000e-04
5.256000000000e-04
5.456000000000e-04
5.656000000000e-04
5.856000000000e-04
6.056000000000e-04
6.256000000000e-04
6.456000000000e-04
6.656000000000e-04
6.856000000000e-04
7.056000000000e-04
7.256000000000e-04
7.456000000000e-04
7.656000000000e-04
7.856000000000e-04
8.056000000000e-04
8.256000000000e-04
8.456000000000e-04
8.656000000000e-04
8.856000000000e-04
9.056000000000e-04
9.256000000000e-04
9.456000000000e-04
9.656000000000e-04
9.856000000000e-04
1.000000000000e-03
</indep>
<dep tran.v(in) time>
1.000000000000e+01
1.000062831849e+01
1.000125663673e+01
1.000251327148e+01
1.000502652708e+01
1.001005292716e+01
1.002010483833e+01
1.004020154936e+01
1.008033810013e+01
1.016015684190e+01
1.028260933683e+01
1.040060491369e+01
1.051228271176e+01
1.061588150543e+01
1.070976747986e+01
1.079245999713e+01
1.086265494686e+01
1.091924531275e+01
1.096133863093e+01
1.098827106462e+01
1.099961787326e+01
1.099520011089e+01
1.097508744827e+01
1.093959707411e+01
1.088928869279e+01
1.082495569756e+01
1.074761265817e+01
1.065847932056e+01
1.055896137071e+01
1.045062826613e+01
1.033518848461e+01
1.021446258045e+01
1.009035447328e+01
9.964821422095e+00
9.839843158098e+00
9.717390663171e+00
9.599395086308e+00
9.487717288244e+00
9.384118494567e+00
9.290232520141e+00
9.207540002867e+00
9.137345053140e+00
9.080754687250e+00
9.038661369073e+00
9.011728935381e+00
9.000382126743e+00
9.004799889109e+00
9.024912551727e+00
9.060402925894e+00
9.110711307208e+00
9.175044302442e+00
9.252387341831e+00
9.341520679442e+00
9.441038629294e+00
9.549371733870e+00
9.664811515395e+00
9.785537419554e+00
9.909645526720e+00
1.000000000000e+01
</dep>
<dep tran.v(out) time>
5.000000000000e+00
5.000000062819e+00
5.000000188445e+00
5.000000565285e+00
5.000002072190e+00
5.000008095837e+00
5.000032157644e+00
5.000128134928e+00
5.000509779156e+00
5.002016609017e+00
5.006278371200e+00
5.012730339491e+00
5.021180989172e+00
5.031410795648e+00
5.043175558419e+00
5.056210119628e+00
5.070232418310e+00
5.084947816215e+00
5.100053626792e+00
5.115243775698e+00
5.130213519179e+00
5.144664145722e+00
5.158307586666e+00
5.170870862899e+00
5.182100297362e+00
5.191765426783e+00
5.199662550789e+00
5.205617862314e+00
5.209490109785e+00
5.211172748978e+00
5.210595550496e+00
5.207725637389e+00
5.202567936449e+00
5.195165035955e+00
5.185596451998e+00
5.173977314873e+00
5.160456496147e+00
5.145214205853e+00
5.128459097612e+00
5.110424927261e+00
5.091366817594e+00
5.071557188042e+00
5.051281413416e+00
5.030833280109e+00
5.010510311325e+00
4.990609035019e+00
4.971420269095e+00
4.953224498159e+00
4.936287414678e+00
4.920855694819e+00
4.907153075509e+00
4.895376794551e+00
4.885694449875e+00
4.878241327416e+00
4.873118239706e+00
4.870389909220e+00
4.870083921946e+00
4.872190267617e+00
4.875177617859e+00
</dep>
<dep tran.i(pr1) time>
5.000000000000e-03
5.000000062819e-03
5.000000188445e-03
5.000000565285e-03
5.000002072190e-03
5.000008095837e-03
5.000032157644e-03
5.000128134928e-03
5.000509779156e-03
5.002016609017e-03
5.006278371200e-03
5.012730339491e-03
5.021180989172e-03
5.031410795648e-03
5.043175558419e-03
5.056210119628e-03
5.070232418310e-03
5.084947816215e-03
5.100053626792e-03
5.115243775698e-03
5.130213519179e-03
5.144664145722e-03
5.158307586666e-03
5.170870862899e-03
5.182100297362e-03
5.191765426783e-03
5.199662550789e-03
5.205617862314e-03
5.209490109785e-03
5.211172748978e-03
5.210595550496e-03
5.207725637389e-03
5.202567936449e-03
5.195165035955e-03
5.185596451998e-03
5.173977314873e-03
5.160456496147e-03
5.145214205853e-03
5.128459097612e-03
5.110424927261e-03
5.091366817594e-03
5.071557188042e-03
5.051281413416e-03
5.030833280109e-03
5.010510311325e-03
4.990609035019e-03
4.971420269095e-03
4.953224498159e-03
4.936287414678e-03
4.920855694819e-03
4.907153075509e-03
4.895376794551e-03
4.885694449875e-03
4.878241327416e-03
4.873118239706e-03
4.870389909220e-03
4.870083921946e-03
4.872190267617e-03
4.875177617859e-03
</dep>
<indep frequency 169>
1.000000000000e+00
1.115883992508e+00
1.245197084735e+00
1.389495494373e+00
1.550515779833e+00
1.730195738846e+00
1.930697728883e+00
2.154434690032e+00
2.404099183510e+00
2.682695795280e+00
2.993577294720e+00
3.340484983513e+00
3.727593720315e+00
4.159562163072e+00
4.641588833613e+00
5.179474679231e+00
5.779692884153e+00
6.449466771038e+00
7.196856730012e+00
8.030857221392e+00
8.961505019466e+00
1.000000000000e+01
1.115883992508e+01
1.245197084735e+01
1.389495494373e+01
1.550515779833e+01
1.730195738846e+01
1.930697728883e+01
2.154434690032e+01
2.404099183510e+01
2.682695795280e+01
2.993577294720e+01
3.340484983513e+01
3.727593720315e+01
4.159562163072e+01
4.641588833613e+01
5.179474679231e+01
5.779692884153e+01
6.449466771038e+01
7.196856730011e+01
8.030857221391e+01
8.961505019466e+01
1.000000000000e+02
1.115883992508e+02
1.245197084735e+02
1.389495494373e+02
1.550515779833e+02
1.730195738846e+02
1.930697728883e+02
2.154434690032e+02
2.404099183510e+02
2.682695795280e+02
2.993577294720e+02
3.340484983513e+02
3.727593720315e+02
4.159562163072e+02
4.641588833613e+02
5.179474679231e+02
5.779692884153e+02
6.449466771038e+02
7.196856730011e+02
8.030857221391e+02
8.961505019466e+02
1.000000000000e+03
1.115883992508e+03
1.245197084735e+03
1.389495494373e+03
1.550515779833e+03
1.730195738846e+03
1.930697728883e+03
2.154434690032e+03
2.404099183510e+03
2.682695795280e+03
2.993577294720e+03
3.340484983513e+03
3.727593720315e+03
4.159562163072e+03
4.641588833613e+03
5.179474679231e+03
5.779692884153e+03
6.449466771038e+03
7.196856730011e+03
8.030857221391e+03
8.961505019466e+03
1.000000000000e+04
1.115883992508e+04
1.245197084735e+04
1.389495494373e+04
1.550515779833e+04
1.730195738846e+04
1.930697728883e+04
2.154434690032e+04
2.404099183510e+04
2.682695795280e+04
2.993577294720e+04
3.340484983513e+04
3.727593720315e+04
4.159562163072e+04
4.641588833613e+04
5.179474679231e+04
5.779692884153e+04
6.449466771038e+04
7.196856730011e+04
8.030857221391e+04
8.961505019466e+04
1.000000000000e+05
1.115883992508e+05
1.245197084735e+05
1.389495494373e+05
1.550515779833e+05
1.730195738846e+05
1.930697728883e+05
2.154434690032e+05
2.404099183510e+05
2.682695795280e+05
2.993577294720e+05
3.340484983513e+05
3.727593720315e+05
4.159562163072e+05
4.641588833613e+05
5.179474679231e+05
5.779692884153e+05
6.449466771038e+05
7.196856730011e+05
8.030857221391e+05
8.961505019466e+05
1.000000000000e+06
1.115883992508e+06
1.245197084735e+06
1.389495494373e+06
1.550515779833e+06
1.730195738846e+06
1.930697728883e+06
2.154434690032e+06
2.404099183510e+06
2.682695795280e+06
2.993577294720e+06
3.340484983513e+06
3.727593720315e+06
4.159562163072e+06
4.641588833613e+06
5.179474679231e+06
5.779692884153e+06
6.449466771038e+06
7.196856730011e+06
8.030857221391e+06
8.961505019466e+06
1.000000000000e+07
1.115883992508e+07
1.245197084735e+07
1.389495494373e+07
1.550515779833e+07
1.730195738846e+07
1.930697728883e+07
2.154434690032e+07
2.404099183510e+07
2.682695795280e+07
2.993577294720e+07
3.340484983513e+07
3.727593720315e+07
4.159562163072e+07
4.641588833613e+07
5.179474679231e+07
5.779692884153e+07
6.449466771038e+07
7.196856730011e+07
8.030857221391e+07
8.961505019466e+07
1.000000000000e+08
</indep>
<dep ac.v(in) frequency>
1.000000000000e+00+j0.000000000000e+00
1.000000000000e+00+j0.000000000000e+00
1.000000000000e+00+j0.000000000000e+00
1.000000000000e+00+j0.000000000000e+00
1.000000000000e+00+j0.000000000000e+00
1.000000000000e+00+j0.000000000000e+00
1.000000000000e+00+j0.000000000000e+00
1.000000000000e+00+j0.000000000000e+00
1.000000000000e+00+j0.000000000000e+00
1.000000000000e+00+j0.000000000000e+00
1.000000000000e+00+j0.000000000000e+00
1.000000000000e+00+j0.000000000000e+00
1.000000000000e+00+j0.000000000000e+00
1.000000000000e+00+j0.000000000000e+00
1.000000000000e+00+j0.000000000000e+00
1.000000000000e+00+j0.000000000000e+00
1.000000000000e+00+j0.000000000000e+00
1.000000000000e+00+j0.000000000000e+00
1.000000000000e+00+j0.000000000000e+00
1.000000000000e+00+j0.000000000000e+00
1.000000000000e+00+j0.000000000000e+00
1.000000000000e+00+j0.000000000000e+00
1.000000000000e+00+j0.000000000000e+00
1.000000000000e+00+j0.000000000000e+00
1.000000000000e+00+j0.000000000000e+00
1.000000000000e+00+j0.000000000000e+00
1.000000000000e+00+j0.000000000000e+00
1.000000000000e+00+j0.000000000000e+00
1.000000000000e+00+j0.000000000000e+00
1.000000000000e+00+j0.000000000000e+00
1.000000000000e+00+j0.000000000000e+00
1.000000000000e+00+j0.000000000000e+00
1.000000000000e+00+j0.000000000000e+00
1.000000000000e+00+j0.000000000000e+00
1.000000000000e+00+j0.000000000000e+00
1.000000000000e+00+j0.000000000000e+00
1.000000000000e+00+j0.000000000000e+00
1.000000000000e+00+j0.000000000000e+00
1.000000000000e+00+j0.000000000000e+00
1.000000000000e+00+j0.000000000000e+00
1.000000000000e+00+j0.000000000000e+00
1.000000000000e+00+j0.000000000000e+00
1.000000000000e+00+j0.000000000000e+00
1.000000000000e+00+j0.000000000000e+00
1.000000000000e+00+j0.000000000000e+00
1.000000000000e+00+j0.000000000000e+00
1.000000000000e+00+j0.000000000000e+00
1.000000000000e+00+j0.000000000000e+00
1.000000000000e+00+j0.000000000000e+00
1.000000000000e+00+j0.000000000000e+00
1.000000000000e+00+j0.000000000000e+00
1.000000000000e+00+j0.000000000000e+00
1.000000000000e+00+j0.000000000000e+00
1.000000000000e+00+j0.000000000000e+00
1.000000000000e+00+j0.000000000000e+00
1.000000000000e+00+j0.000000000000e+00
1.000000000000e+00+j0.000000000000e+00
1.000000000000e+00+j0.000000000000e+00
1.000000000000e+00+j0.000000000000e+00
1.000000000000e+00+j0.000000000000e+00
1.000000000000e+00+j0.000000000000e+00
1.000000000000e+00+j0.000000000000e+00
1.000000000000e+00+j0.000000000000e+00
1.000000000000e+00+j0.000000000000e+00
1.000000000000e+00+j0.000000000000e+00
1.000000000000e+00+j0.000000000000e+00
1.000000000000e+00+j0.000000000000e+00
1.000000000000e+00+j0.000000000000e+00
1.000000000000e+00+j0.000000000000e+00
1.000000000000e+00+j0.000000000000e+00
1.000000000000e+00+j0.000000000000e+00
1.000000000000e+00+j0.000000000000e+00
1.000000000000e+00+j0.000000000000e+00
1.000000000000e+00+j0.000000000000e+00
1.000000000000e+00+j0.000000000000e+00
1.000000000000e+00+j0.000000000000e+00
1.000000000000e+00+j0.000000000000e+00
1.000000000000e+00+j0.000000000000e+00
1.000000000000e+00+j0.000000000000e+00
1.000000000000e+00+j0.000000000000e+00
1.000000000000e+00+j0.000000000000e+00
1.000000000000e+00+j0.000000000000e+00
1.000000000000e+00+j0.000000000000e+00
1.000000000000e+00+j0.000000000000e+00
1.000000000000e+00+j0.000000000000e+00
1.000000000000e+00+j0.000000000000e+00
1.000000000000e+00+j0.000000000000e+00
1.000000000000e+00+j0.000000000000e+00
1.000000000000e+00+j0.000000000000e+00
1.000000000000e+00+j0.000000000000e+00
1.000000000000e+00+j0.000000000000e+00
1.000000000000e+00+j0.000000000000e+00
1.000000000000e+00+j0.000000000000e+00
1.000000000000e+00+j0.000000000000e+00
1.000000000000e+00+j0.000000000000e+00
1.000000000000e+00+j0.000000000000e+00
1.000000000000e+00+j0.000000000000e+00
1.000000000000e+00+j0.000000000000e+00
1.000000000000e+00+j0.000000000000e+00
1.000000000000e+00+j0.000000000000e+00
1.000000000000e+00+j0.000000000000e+00
1.000000000000e+00+j0.000000000000e+00
1.000000000000e+00+j0.000000000000e+00
1.000000000000e+00+j0.000000000000e+00
1.000000000000e+00+j0.000000000000e+00
1.000000000000e+00+j0.000000000000e+00
1.000000000000e+00+j0.000000000000e+00
1.000000000000e+00+j0.000000000000e+00
1.000000000000e+00+j0.000000000000e+00
1.000000000000e+00+j0.000000000000e+00
1.000000000000e+00+j0.000000000000e+00
1.000000000000e+00+j0.000000000000e+00
1.000000000000e+00+j0.000000000000e+00
1.000000000000e+00+j0.000000000000e+00
1.000000000000e+00+j0.000000000000e+00
1.000000000000e+00+j0.000000000000e+00
1.000000000000e+00+j0.000000000000e+00
1.000000000000e+00+j0.000000000000e+00
1.000000000000e+00+j0.000000000000e+00
1.000000000000e+00+j0.000000000000e+00
1.000000000000e+00+j0.000000000000e+00
1.000000000000e+00+j0.000000000000e+00
1.000000000000e+00+j0.000000000000e+00
1.000000000000e+00+j0.000000000000e+00
1.000000000000e+00+j0.000000000000e+00
1.000000000000e+00+j0.000000000000e+00
1.000000000000e+00+j0.000000000000e+00
1.000000000000e+00+j0.000000000000e+00
1.000000000000e+00+j0.000000000000e+00
1.000000000000e+00+j0.000000000000e+00
1.000000000000e+00+j0.000000000000e+00
1.000000000000e+00+j0.000000000000e+00
1.000000000000e+00+j0.000000000000e+00
1.000000000000e+00+j0.000000000000e+00
1.000000000000e+00+j0.000000000000e+00
1.000000000000e+00+j0.000000000000e+00
1.000000000000e+00+j0.000000000000e+00
1.000000000000e+00+j0.000000000000e+00
1.000000000000e+00+j0.000000000000e+00
1.000000000000e+00+j0.000000000000e+00
1.000000000000e+00+j0.000000000000e+00
1.000000000000e+00+j0.000000000000e+00
1.000000000000e+00+j0.000000000000e+00
1.000000000000e+00+j0.000000000000e+00
1.000000000000e+00+j0.000000000000e+00
1.000000000000e+00+j0.000000000000e+00
1.000000000000e+00+j0.000000000000e+00
1.000000000000e+00+j0.000000000000e+00
1.000000000000e+00+j0.000000000000e+00
1.000000000000e+00+j0.000000000000e+00
1.000000000000e+00+j0.000000000000e+00
1.000000000000e+00+j0.000000000000e+00
1.000000000000e+00+j0.000000000000e+00
1.000000000000e+00+j0.000000000000e+00
1.000000000000e+00+j0.000000000000e+00
1.000000000000e+00+j0.000000000000e+00
1.000000000000e+00+j0.000000000000e+00
1.000000000000e+00+j0.000000000000e+00
1.000000000000e+00+j0.000000000000e+00
1.000000000000e+00+j0.000000000000e+00
1.000000000000e+00+j0.000000000000e+00
1.000000000000e+00+j0.000000000000e+00
1.000000000000e+00+j0.000000000000e+00
1.000000000000e+00+j0.000000000000e+00
1.000000000000e+00+j0.000000000000e+00
1.000000000000e+00+j0.000000000000e+00
1.000000000000e+00+j0.000000000000e+00
1.000000000000e+00+j0.000000000000e+00
1.000000000000e+00+j0.000000000000e+00
</dep>
<dep ac.v(out) frequency>
4.999950652465e-01-j1.570780823810e-03
4.999938552742e-01-j1.752804935284e-03
4.999923486284e-01-j1.955921075422e-03
4.999904725701e-01-j2.182572829248e-03
4.999881365275e-01-j2.435486703569e-03
4.999852277246e-01-j2.717704815475e-03
4.999816057390e-01-j3.032621330920e-03
4.999770957265e-01-j3.384023073140e-03
4.999714799857e-01-j3.776134763587e-03
4.999644874580e-01-j4.213669403653e-03
4.999557806564e-01-j4.701884353265e-03
4.999449393962e-01-j5.246643711443e-03
4.999314405479e-01-j5.854487652634e-03
4.999146328402e-01-j6.532709418668e-03
4.998937055113e-01-j7.289440706077e-03
4.998676493115e-01-j8.133746216984e-03
4.998352080042e-01-j9.075728151539e-03
4.997948180687e-01-j1.012664140004e-02
4.997445337623e-01-j1.129902012851e-02
4.996819340326e-01-j1.260681632115e-02
4.996040069507e-01-j1.406555061708e-02
4.995070063452e-01-j1.569247541551e-02
4.993862741133e-01-j1.750674966593e-02
4.992360202483e-01-j1.952962392908e-02
4.990490509146e-01-j2.178463308289e-02
4.988164329156e-01-j2.429779231013e-02
4.985270806206e-01-j2.709778954496e-02
4.981672488991e-01-j3.021616411556e-02
4.977199129470e-01-j3.368745656091e-02
4.971640132828e-01-j3.754930808883e-02
4.964735420335e-01-j4.184247934141e-02
4.956164455400e-01-j4.661074640334e-02
4.945533193293e-01-j5.190061661522e-02
4.932358762202e-01-j5.776078703917e-02
4.916051791386e-01-j6.424124386556e-02
4.895896505633e-01-j7.139187168679e-02
4.871029051523e-01-j7.926040858057e-02
4.840415071374e-01-j8.788954964538e-02
4.802828367807e-01-j9.731297490171e-02
4.756833677798e-01-j1.075500697702e-01
4.700778145706e-01-j1.185991379979e-01
4.632798018310e-01-j1.304290080117e-01
4.550849188231e-01-j1.429691437734e-01
4.452772013609e-01-j1.560987335908e-01
4.336401465324e-01-j1.696357762430e-01
4.199731756673e-01-j1.833279017323e-01
4.041138535466e-01-j1.968474539968e-01
3.859650043509e-01-j2.097939884550e-01
3.655241285831e-01-j2.217074101493e-01
3.429104905271e-01-j2.320940342836e-01
3.183835644500e-01-j2.404655653376e-01
2.923461517236e-01-j2.463875066520e-01
2.653272812766e-01-j2.495297065455e-01
2.379441598296e-01-j2.497091442414e-01
2.108479512749e-01-j2.469152022064e-01
1.846630164539e-01-j2.413111654713e-01
1.599313288212e-01-j2.332115659055e-01
1.370721264423e-01-j2.230410172451e-01
1.163622409103e-01-j2.112840489613e-01
9.793699053180e-02-j1.984359875413e-01
8.180713119113e-02-j1.849625877896e-01
6.788526544681e-02-j1.712723663018e-01
5.601526425475e-02-j1.577020047363e-01
4.599983417519e-02-j1.445127411111e-01
3.762339732844e-02-j1.318945739509e-01
3.066924456915e-02-j1.199750795879e-01
2.493116156985e-02-j1.088302254326e-01
2.022039594048e-02-j9.849534790157e-02
1.636906417944e-02-j8.897519782281e-02
1.323105712504e-02-j8.025252450779e-02
1.068133100499e-02-j7.229505287677e-02
8.614261288472e-03-j6.506093410557e-02
6.941539713137e-03-j5.850286217767e-02
5.589933061256e-03-j5.257108691095e-02
4.499100086760e-03-j4.721554978806e-02
3.619576475923e-03-j4.238734367823e-02
2.910979768053e-03-j3.803966457287e-02
2.340449443494e-03-j3.412839020742e-02
1.881315607451e-03-j3.061239055204e-02
1.511977951548e-03-j2.745365000228e-02
1.214971372043e-03-j2.461726082623e-02
9.761932608197e-04-j2.207133156670e-02
7.842683839749e-04-j1.978684196857e-02
6.300293369461e-04-j1.773746688531e-02
5.060931386533e-04-j1.589938486425e-02
4.065171982654e-04-j1.425108216593e-02
3.265204330257e-04-j1.277315939459e-02
2.622576222626e-04-j1.144814535507e-02
2.106371075181e-04-j1.026032093884e-02
1.691736873881e-04-j9.195554575857e-03
1.358700253018e-04-j8.241149918980e-03
1.091211164024e-04-j7.385705841907e-03
8.763737678398e-05-j6.618988448561e-03
7.038275521850e-05-j5.931814551806e-03
5.652495260119e-05-j5.315945939372e-03
4.539539293183e-05-j4.763993673822e-03
3.645704369355e-05-j4.269331649186e-03
2.927855163801e-05-j3.826018633700e-03
2.351345791273e-05-j3.428728054784e-03
1.888349719414e-05-j3.072684821227e-03
1.516517976199e-05-j2.753608523069e-03
1.217901207944e-05-j2.467662398179e-03
9.780837623989e-06-j2.211407503652e-03
7.854881303179e-06-j1.981761578099e-03
6.308162537834e-06-j1.775962126849e-03
5.066007852726e-06-j1.591533305315e-03
4.068446691884e-06-j1.426256216002e-03
3.267316684661e-06-j1.278142271804e-03
2.623938755545e-06-j1.145409312306e-03
2.107249927940e-06-j1.026460190883e-03
1.692303734542e-06-j9.198635786784e-04
1.359065872520e-06-j8.243367571570e-04
1.091446981853e-06-j7.387301940964e-04
8.765258643661e-07-j6.620137188046e-04
7.039256497539e-07-j5.932641311976e-04
5.653127954843e-07-j5.316540963480e-04
4.539947356717e-07-j4.764421913775e-04
3.645967553328e-07-j4.269639852910e-04
2.928024905891e-07-j3.826240446721e-04
2.351455267145e-07-j3.428887692296e-04
1.888420326174e-07-j3.072799711133e-04
1.516563514136e-07-j2.753691208309e-04
1.217930577663e-07-j2.467721905921e-04
9.781027043931e-08-j2.211450330729e-04
7.855003469417e-08-j1.981792400252e-04
6.308241328789e-08-j1.775984309181e-04
5.066058668818e-08-j1.591549269661e-04
4.068479465620e-08-j1.426267705336e-04
3.267337822007e-08-j1.278150540527e-04
2.623952388024e-08-j1.145415263195e-04
2.107258720171e-08-j1.026464473657e-04
1.692309405067e-08-j9.198666609321e-05
1.359069529709e-08-j8.243389754123e-05
1.091449340546e-08-j7.387317905439e-05
8.765273855980e-09-j6.620148677454e-05
7.039266308677e-09-j5.932649580741e-05
5.653134282505e-09-j5.316546914394e-05
4.539951437723e-09-j4.764426196564e-05
3.645970185359e-09-j4.269642935172e-05
2.928026603411e-09-j3.826242664981e-05
